//==============================================================================
// File        : axi4_sva.sv
// Project     : AXI4 VIP
// Author      : Huy Le
// Description : AXI4 protocol assertions (SVA) module.
//               Checks compliance with ARM AMBA AXI4 specification.
//               Designed to be bound to axi4_if via SystemVerilog `bind`.
//
// Assertion Categories:
//   1. Reset behavior       (VALID signals must be low during reset)
//   2. Handshake stability  (VALID must stay high until READY)
//   3. Payload stability    (signals must be stable while VALID && !READY)
//   4. X/Z checks           (control signals must not be unknown)
//   5. Burst protocol       (WLAST/RLAST correctness using FIFO tracking)
//   6. Burst type           (AWBURST/ARBURST invalid values)
//   7. Burst size           (AWSIZE/ARSIZE width check)
//   8. Wrap burst           (WRAP ARLEN/AWLEN constraints)
//   9. Fixed burst          (FIXED ARLEN/AWLEN constraints)
//   10. Response value      (BRESP/RRESP validity checks)
//==============================================================================

`timescale 1ns/1ps

module axi4_sva #(
    parameter ADDR_WIDTH = 32,
    parameter DATA_WIDTH = 32,
    parameter ID_WIDTH   = 4
)(
    input logic                     clk,
    input logic                     rst_n,

    // AW Channel
    input logic [ID_WIDTH-1:0]      AWID,
    input logic [ADDR_WIDTH-1:0]    AWADDR,
    input logic [7:0]               AWLEN,
    input logic [2:0]               AWSIZE,
    input logic [1:0]               AWBURST,
    input logic                     AWLOCK,
    input logic [3:0]               AWCACHE,
    input logic [2:0]               AWPROT,
    input logic [3:0]               AWQOS,
    input logic [3:0]               AWREGION,
    input logic                     AWVALID,
    input logic                     AWREADY,

    // W Channel
    input logic [DATA_WIDTH-1:0]    WDATA,
    input logic [DATA_WIDTH/8-1:0]  WSTRB,
    input logic                     WLAST,
    input logic                     WVALID,
    input logic                     WREADY,

    // B Channel
    input logic [ID_WIDTH-1:0]      BID,
    input logic [1:0]               BRESP,
    input logic                     BVALID,
    input logic                     BREADY,

    // AR Channel
    input logic [ID_WIDTH-1:0]      ARID,
    input logic [ADDR_WIDTH-1:0]    ARADDR,
    input logic [7:0]               ARLEN,
    input logic [2:0]               ARSIZE,
    input logic [1:0]               ARBURST,
    input logic                     ARLOCK,
    input logic [3:0]               ARCACHE,
    input logic [2:0]               ARPROT,
    input logic [3:0]               ARQOS,
    input logic [3:0]               ARREGION,
    input logic                     ARVALID,
    input logic                     ARREADY,

    // R Channel
    input logic [ID_WIDTH-1:0]      RID,
    input logic [DATA_WIDTH-1:0]    RDATA,
    input logic [1:0]               RRESP,
    input logic                     RLAST,
    input logic                     RVALID,
    input logic                     RREADY
);

    // =========================================================================
    //  Local parameters
    // =========================================================================
    localparam STRB_WIDTH = DATA_WIDTH / 8;

    // =========================================================================
    //  Internal state tracking
    // =========================================================================
    bit          rst_seen;       // True after first posedge clk during reset

    // Track reset assertion — set at posedge clk when rst_n is low.
    // (Cannot use negedge rst_n because rst_n starts at 0 as a `bit`,
    //  so there is no falling edge to trigger on.)
    always @(posedge clk) begin
        if (!rst_n)
            rst_seen <= 1'b1;
    end

    // =========================================================================
    //  1. RESET CHECKS
    //     All VALID signals must be de-asserted during reset (AXI4 spec)
    //     Only checked after reset has been asserted at least once (rst_seen)
    //     to avoid false positives from initial bit=0 state.
    // =========================================================================

    property p_reset_awvalid;
        @(posedge clk) (rst_seen && !rst_n) |-> !AWVALID;
    endproperty

    property p_reset_wvalid;
        @(posedge clk) (rst_seen && !rst_n) |-> !WVALID;
    endproperty

    property p_reset_bvalid;
        @(posedge clk) (rst_seen && !rst_n) |-> !BVALID;
    endproperty

    property p_reset_arvalid;
        @(posedge clk) (rst_seen && !rst_n) |-> !ARVALID;
    endproperty

    property p_reset_rvalid;
        @(posedge clk) (rst_seen && !rst_n) |-> !RVALID;
    endproperty

    RESET_AWVALID : assert property (p_reset_awvalid)
        else $error("[SVA] AWVALID asserted during reset");

    RESET_WVALID  : assert property (p_reset_wvalid)
        else $error("[SVA] WVALID asserted during reset");

    RESET_BVALID  : assert property (p_reset_bvalid)
        else $error("[SVA] BVALID asserted during reset");

    RESET_ARVALID : assert property (p_reset_arvalid)
        else $error("[SVA] ARVALID asserted during reset");

    RESET_RVALID  : assert property (p_reset_rvalid)
        else $error("[SVA] RVALID asserted during reset");

    // =========================================================================
    //  2. HANDSHAKE STABILITY
    //     VALID must remain asserted until READY (AXI4 spec)
    // =========================================================================

    // --- AW Channel ---
    property p_awvalid_stable;
        @(posedge clk) disable iff (!rst_n)
        AWVALID && !AWREADY |=> AWVALID;
    endproperty

    // --- W Channel ---
    property p_wvalid_stable;
        @(posedge clk) disable iff (!rst_n)
        WVALID && !WREADY |=> WVALID;
    endproperty

    // --- B Channel ---
    property p_bvalid_stable;
        @(posedge clk) disable iff (!rst_n)
        BVALID && !BREADY |=> BVALID;
    endproperty

    // --- AR Channel ---
    property p_arvalid_stable;
        @(posedge clk) disable iff (!rst_n)
        ARVALID && !ARREADY |=> ARVALID;
    endproperty

    // --- R Channel ---
    property p_rvalid_stable;
        @(posedge clk) disable iff (!rst_n)
        RVALID && !RREADY |=> RVALID;
    endproperty

    AWVALID_STABLE : assert property (p_awvalid_stable)
        else $error("[SVA] AWVALID de-asserted before AWREADY handshake");

    WVALID_STABLE  : assert property (p_wvalid_stable)
        else $error("[SVA] WVALID de-asserted before WREADY handshake");

    BVALID_STABLE  : assert property (p_bvalid_stable)
        else $error("[SVA] BVALID de-asserted before BREADY handshake");

    ARVALID_STABLE : assert property (p_arvalid_stable)
        else $error("[SVA] ARVALID de-asserted before ARREADY handshake");

    RVALID_STABLE  : assert property (p_rvalid_stable)
        else $error("[SVA] RVALID de-asserted before RREADY handshake");

    // =========================================================================
    //  3. PAYLOAD STABILITY — signals must be stable while VALID && !READY
    //     The source must not change the information it is signaling
    //     while VALID is asserted (AXI4 spec)
    // =========================================================================

    // --- AW Channel payload ---
    property p_aw_payload_stable;
        @(posedge clk) disable iff (!rst_n)
        AWVALID && !AWREADY |=>
            $stable(AWID)     && $stable(AWADDR) && $stable(AWLEN) &&
            $stable(AWSIZE)   && $stable(AWBURST) &&
            $stable(AWLOCK)   && $stable(AWCACHE) && $stable(AWPROT) &&
            $stable(AWQOS)    && $stable(AWREGION);
    endproperty

    // --- W Channel payload ---
    //   Only check stability when WVALID was high AND no handshake occurred
    //   on the previous cycle. After a handshake (WVALID && WREADY), the
    //   master may legitimately change data for the next beat while keeping
    //   WVALID asserted.
    property p_w_payload_stable;
        @(posedge clk) disable iff (!rst_n)
        (WVALID && !WREADY && $past(WVALID) && !$past(WREADY)) |=>
            $stable(WDATA) && $stable(WSTRB) && $stable(WLAST);
    endproperty

    // --- B Channel payload ---
    property p_b_payload_stable;
        @(posedge clk) disable iff (!rst_n)
        BVALID && !BREADY |=>
            $stable(BID) && $stable(BRESP);
    endproperty

    // --- AR Channel payload ---
    property p_ar_payload_stable;
        @(posedge clk) disable iff (!rst_n)
        ARVALID && !ARREADY |=>
            $stable(ARID)     && $stable(ARADDR) && $stable(ARLEN) &&
            $stable(ARSIZE)   && $stable(ARBURST) &&
            $stable(ARLOCK)   && $stable(ARCACHE) && $stable(ARPROT) &&
            $stable(ARQOS)    && $stable(ARREGION);
    endproperty

    // --- R Channel payload ---
    property p_r_payload_stable;
        @(posedge clk) disable iff (!rst_n)
        RVALID && !RREADY |=>
            $stable(RID) && $stable(RDATA) && $stable(RRESP) && $stable(RLAST);
    endproperty

    AW_PAYLOAD_STABLE : assert property (p_aw_payload_stable)
        else $error("[SVA] AW channel payload changed while AWVALID && !AWREADY");

    W_PAYLOAD_STABLE  : assert property (p_w_payload_stable)
        else $error("[SVA] W channel payload changed while WVALID && !WREADY");

    B_PAYLOAD_STABLE  : assert property (p_b_payload_stable)
        else $error("[SVA] B channel payload changed while BVALID && !BREADY");

    AR_PAYLOAD_STABLE : assert property (p_ar_payload_stable)
        else $error("[SVA] AR channel payload changed while ARVALID && !ARREADY");

    R_PAYLOAD_STABLE  : assert property (p_r_payload_stable)
        else $error("[SVA] R channel payload changed while RVALID && !RREADY");

    // =========================================================================
    //  4. X/Z CHECKS — Control signals must not be unknown when active
    // =========================================================================

    property p_awvalid_known;
        @(posedge clk) disable iff (!rst_n)
        !$isunknown(AWVALID);
    endproperty

    property p_wvalid_known;
        @(posedge clk) disable iff (!rst_n)
        !$isunknown(WVALID);
    endproperty

    property p_bvalid_known;
        @(posedge clk) disable iff (!rst_n)
        !$isunknown(BVALID);
    endproperty

    property p_arvalid_known;
        @(posedge clk) disable iff (!rst_n)
        !$isunknown(ARVALID);
    endproperty

    property p_rvalid_known;
        @(posedge clk) disable iff (!rst_n)
        !$isunknown(RVALID);
    endproperty

    property p_awready_known;
        @(posedge clk) disable iff (!rst_n)
        !$isunknown(AWREADY);
    endproperty

    property p_wready_known;
        @(posedge clk) disable iff (!rst_n)
        !$isunknown(WREADY);
    endproperty

    property p_bready_known;
        @(posedge clk) disable iff (!rst_n)
        !$isunknown(BREADY);
    endproperty

    property p_arready_known;
        @(posedge clk) disable iff (!rst_n)
        !$isunknown(ARREADY);
    endproperty

    property p_rready_known;
        @(posedge clk) disable iff (!rst_n)
        !$isunknown(RREADY);
    endproperty

    AWVALID_KNOWN : assert property (p_awvalid_known)
        else $error("[SVA] AWVALID is X or Z");

    WVALID_KNOWN  : assert property (p_wvalid_known)
        else $error("[SVA] WVALID is X or Z");

    BVALID_KNOWN  : assert property (p_bvalid_known)
        else $error("[SVA] BVALID is X or Z");

    ARVALID_KNOWN : assert property (p_arvalid_known)
        else $error("[SVA] ARVALID is X or Z");

    RVALID_KNOWN  : assert property (p_rvalid_known)
        else $error("[SVA] RVALID is X or Z");

    AWREADY_KNOWN : assert property (p_awready_known)
        else $error("[SVA] AWREADY is X or Z");

    WREADY_KNOWN  : assert property (p_wready_known)
        else $error("[SVA] WREADY is X or Z");

    BREADY_KNOWN  : assert property (p_bready_known)
        else $error("[SVA] BREADY is X or Z");

    ARREADY_KNOWN : assert property (p_arready_known)
        else $error("[SVA] ARREADY is X or Z");

    RREADY_KNOWN  : assert property (p_rready_known)
        else $error("[SVA] RREADY is X or Z");

    // =========================================================================
    //  5. BURST PROTOCOL — WLAST / RLAST correctness (Queue-based)
    //     Checks correct beat count and WLAST/RLAST positioning using FIFOs
    //     to support out-of-order handshakes and pipelined transactions.
    // =========================================================================

    // Queues and beat counters
    int unsigned w_beat_cnt;     // Counts W beats within a burst
    int unsigned aw_len_fifo[$]; // FIFO storing AWLEN values from AW handshakes
    int unsigned w_len_fifo[$];  // FIFO storing actual W burst lengths (completed before AW)

    // Queues and beat counters per ID to support out-of-order read responses
    int unsigned ar_len_fifo[logic [ID_WIDTH-1:0]][$];
    int unsigned r_beat_cnt[logic [ID_WIDTH-1:0]];

    // Track AW handshakes and W burst completions
    always @(posedge clk or negedge rst_n) begin
        if (!rst_n) begin
            aw_len_fifo.delete();
            w_len_fifo.delete();
        end else begin
            // 1. Capture AWLEN when AW handshakes
            if (AWVALID && AWREADY) begin
                if (w_len_fifo.size() > 0) begin
                    int unsigned actual_w_len;
                    actual_w_len = w_len_fifo.pop_front();
                    WLAST_CORRECT_W_BEFORE_AW : assert (AWLEN == actual_w_len)
                        else $error("[SVA] WLAST asserted on beat %0d but AWLEN is %0d (W before AW)", 
                                    actual_w_len, AWLEN);
                end else begin
                    aw_len_fifo.push_back(AWLEN);
                end
            end
        end
    end

    // W beat counter - reset on WLAST handshake
    always @(posedge clk or negedge rst_n) begin
        if (!rst_n) begin
            w_beat_cnt <= 0;
        end else if (WVALID && WREADY) begin
            if (WLAST)
                w_beat_cnt <= 0;
            else
                w_beat_cnt <= w_beat_cnt + 1;
        end
    end

    // Track W handshake checks
    always @(posedge clk or negedge rst_n) begin
        if (!rst_n) begin
            // reset logic
        end else begin
            if (WVALID && WREADY) begin
                if (aw_len_fifo.size() > 0) begin
                    if (w_beat_cnt == aw_len_fifo[0]) begin
                        WLAST_CORRECT_CHECK : assert (WLAST)
                            else $error("[SVA] WLAST not asserted on final W beat (beat=%0d, expected AWLEN=%0d)",
                                        w_beat_cnt, aw_len_fifo[0]);
                    end else begin
                        WLAST_NOT_EARLY_CHECK : assert (!WLAST)
                            else $error("[SVA] WLAST asserted too early (beat=%0d, expected AWLEN=%0d)",
                                        w_beat_cnt, aw_len_fifo[0]);
                    end
                end

                if (WLAST) begin
                    if (aw_len_fifo.size() > 0) begin
                        void'(aw_len_fifo.pop_front());
                    end else begin
                        w_len_fifo.push_back(w_beat_cnt);
                    end
                end
            end
        end
    end

    // Track AR handshakes and check RLAST on R burst completion
    always @(posedge clk or negedge rst_n) begin
        if (!rst_n) begin
            ar_len_fifo.delete();
            r_beat_cnt.delete();
        end else begin
            // 1. Capture ARLEN when AR handshakes
            if (ARVALID && ARREADY) begin
                ar_len_fifo[ARID].push_back(ARLEN);
            end

            // 2. R handshake checks
            if (RVALID && RREADY) begin
                logic [ID_WIDTH-1:0] cur_rid = RID;
                if (!r_beat_cnt.exists(cur_rid)) begin
                    r_beat_cnt[cur_rid] = 0;
                end

                if (ar_len_fifo.exists(cur_rid) && ar_len_fifo[cur_rid].size() > 0) begin
                    if (r_beat_cnt[cur_rid] == ar_len_fifo[cur_rid][0]) begin
                        RLAST_CORRECT_CHECK : assert (RLAST)
                            else $error("[SVA] RLAST not asserted on final R beat (beat=%0d, expected ARLEN=%0d)",
                                        r_beat_cnt[cur_rid], ar_len_fifo[cur_rid][0]);
                    end else begin
                        RLAST_NOT_EARLY_CHECK : assert (!RLAST)
                            else $error("[SVA] RLAST asserted too early (beat=%0d, expected ARLEN=%0d)",
                                        r_beat_cnt[cur_rid], ar_len_fifo[cur_rid][0]);
                    end
                end else begin
                    RLAST_WITHOUT_AR : assert (1'b0)
                        else $error("[SVA] R handshake occurred without outstanding AR handshake for RID=0x%0h", cur_rid);
                end

                if (RLAST) begin
                    if (ar_len_fifo.exists(cur_rid) && ar_len_fifo[cur_rid].size() > 0) begin
                        void'(ar_len_fifo[cur_rid].pop_front());
                        if (ar_len_fifo[cur_rid].size() == 0) begin
                            ar_len_fifo.delete(cur_rid);
                        end
                    end
                    r_beat_cnt[cur_rid] = 0;
                end else begin
                    r_beat_cnt[cur_rid] = r_beat_cnt[cur_rid] + 1;
                end
            end
        end
    end

    // =========================================================================
    //  6. BURST TYPE — AWBURST / ARBURST must not be reserved value (2'b11)
    // =========================================================================

    property p_awburst_valid;
        @(posedge clk) disable iff (!rst_n)
        (AWVALID && AWREADY) |-> (AWBURST != 2'b11);
    endproperty

    property p_arburst_valid;
        @(posedge clk) disable iff (!rst_n)
        (ARVALID && ARREADY) |-> (ARBURST != 2'b11);
    endproperty

    AWBURST_VALID : assert property (p_awburst_valid)
        else $error("[SVA] AWBURST=2'b11 is reserved and illegal");

    ARBURST_VALID : assert property (p_arburst_valid)
        else $error("[SVA] ARBURST=2'b11 is reserved and illegal");

    // =========================================================================
    //  7. BURST SIZE — must not exceed data bus width
    //     2^AWSIZE <= DATA_WIDTH/8
    // =========================================================================

    property p_awsize_valid;
        @(posedge clk) disable iff (!rst_n)
        (AWVALID && AWREADY) |-> ((1 << AWSIZE) <= (DATA_WIDTH / 8));
    endproperty

    property p_arsize_valid;
        @(posedge clk) disable iff (!rst_n)
        (ARVALID && ARREADY) |-> ((1 << ARSIZE) <= (DATA_WIDTH / 8));
    endproperty

    AWSIZE_VALID : assert property (p_awsize_valid)
        else $error("[SVA] AWSIZE exceeds data bus width (2^%0d > %0d bytes)",
                    AWSIZE, DATA_WIDTH / 8);

    ARSIZE_VALID : assert property (p_arsize_valid)
        else $error("[SVA] ARSIZE exceeds data bus width (2^%0d > %0d bytes)",
                    ARSIZE, DATA_WIDTH / 8);

    // =========================================================================
    //  8. WRAP BURST — length must be 2, 4, 8, or 16 (LEN = 1, 3, 7, 15)
    // =========================================================================

    property p_wrap_aw_len;
        @(posedge clk) disable iff (!rst_n)
        (AWVALID && AWREADY && AWBURST == 2'b10) |->
            (AWLEN inside {8'd1, 8'd3, 8'd7, 8'd15});
    endproperty

    property p_wrap_ar_len;
        @(posedge clk) disable iff (!rst_n)
        (ARVALID && ARREADY && ARBURST == 2'b10) |->
            (ARLEN inside {8'd1, 8'd3, 8'd7, 8'd15});
    endproperty

    WRAP_AW_LEN : assert property (p_wrap_aw_len)
        else $error("[SVA] WRAP burst AWLEN=%0d is invalid (must be 1,3,7,15)", AWLEN);

    WRAP_AR_LEN : assert property (p_wrap_ar_len)
        else $error("[SVA] WRAP burst ARLEN=%0d is invalid (must be 1,3,7,15)", ARLEN);

    // =========================================================================
    //  9. FIXED BURST — length must not exceed 16 (LEN <= 15)
    // =========================================================================

    property p_fixed_aw_len;
        @(posedge clk) disable iff (!rst_n)
        (AWVALID && AWREADY && AWBURST == 2'b00) |-> (AWLEN <= 8'd15);
    endproperty

    property p_fixed_ar_len;
        @(posedge clk) disable iff (!rst_n)
        (ARVALID && ARREADY && ARBURST == 2'b00) |-> (ARLEN <= 8'd15);
    endproperty

    FIXED_AW_LEN : assert property (p_fixed_aw_len)
        else $error("[SVA] FIXED burst AWLEN=%0d exceeds maximum of 15", AWLEN);

    FIXED_AR_LEN : assert property (p_fixed_ar_len)
        else $error("[SVA] FIXED burst ARLEN=%0d exceeds maximum of 15", ARLEN);

    // =========================================================================
    //  10. RESPONSE VALUE — BRESP/RRESP must be valid (0-3 is always valid,
    //      but EXOKAY is only valid for exclusive accesses)
    //      Basic check: BRESP/RRESP must not be X/Z at handshake
    // =========================================================================

    property p_bresp_known;
        @(posedge clk) disable iff (!rst_n)
        (BVALID && BREADY) |-> !$isunknown(BRESP);
    endproperty

    property p_rresp_known;
        @(posedge clk) disable iff (!rst_n)
        (RVALID && RREADY) |-> !$isunknown(RRESP);
    endproperty

    BRESP_KNOWN : assert property (p_bresp_known)
        else $error("[SVA] BRESP is X or Z at handshake");

    RRESP_KNOWN : assert property (p_rresp_known)
        else $error("[SVA] RRESP is X or Z at handshake");

    // =========================================================================
    //  COVER PROPERTIES — Track protocol scenarios for functional coverage
    // =========================================================================

    // Handshake coverage
    AW_HANDSHAKE_COV : cover property (@(posedge clk) disable iff (!rst_n) AWVALID && AWREADY);
    W_HANDSHAKE_COV  : cover property (@(posedge clk) disable iff (!rst_n) WVALID  && WREADY);
    B_HANDSHAKE_COV  : cover property (@(posedge clk) disable iff (!rst_n) BVALID  && BREADY);
    AR_HANDSHAKE_COV : cover property (@(posedge clk) disable iff (!rst_n) ARVALID && ARREADY);
    R_HANDSHAKE_COV  : cover property (@(posedge clk) disable iff (!rst_n) RVALID  && RREADY);

    // Back-pressure coverage (VALID && !READY — stall cycle)
    AW_BACKPRESSURE_COV : cover property (@(posedge clk) disable iff (!rst_n) AWVALID && !AWREADY);
    W_BACKPRESSURE_COV  : cover property (@(posedge clk) disable iff (!rst_n) WVALID  && !WREADY);
    B_BACKPRESSURE_COV  : cover property (@(posedge clk) disable iff (!rst_n) BVALID  && !BREADY);
    AR_BACKPRESSURE_COV : cover property (@(posedge clk) disable iff (!rst_n) ARVALID && !ARREADY);
    R_BACKPRESSURE_COV  : cover property (@(posedge clk) disable iff (!rst_n) RVALID  && !RREADY);

    // Burst type coverage
    WRITE_INCR_COV  : cover property (@(posedge clk) disable iff (!rst_n) AWVALID && AWREADY && AWBURST == 2'b01);
    WRITE_FIXED_COV : cover property (@(posedge clk) disable iff (!rst_n) AWVALID && AWREADY && AWBURST == 2'b00);
    WRITE_WRAP_COV  : cover property (@(posedge clk) disable iff (!rst_n) AWVALID && AWREADY && AWBURST == 2'b10);
    READ_INCR_COV   : cover property (@(posedge clk) disable iff (!rst_n) ARVALID && ARREADY && ARBURST == 2'b01);
    READ_FIXED_COV  : cover property (@(posedge clk) disable iff (!rst_n) ARVALID && ARREADY && ARBURST == 2'b00);
    READ_WRAP_COV   : cover property (@(posedge clk) disable iff (!rst_n) ARVALID && ARREADY && ARBURST == 2'b10);

    // Single-beat burst
    SINGLE_WRITE_COV : cover property (@(posedge clk) disable iff (!rst_n) AWVALID && AWREADY && AWLEN == 0);
    SINGLE_READ_COV  : cover property (@(posedge clk) disable iff (!rst_n) ARVALID && ARREADY && ARLEN == 0);

    // Max-length burst (256 beats)
    MAX_WRITE_COV : cover property (@(posedge clk) disable iff (!rst_n) AWVALID && AWREADY && AWLEN == 255);
    MAX_READ_COV  : cover property (@(posedge clk) disable iff (!rst_n) ARVALID && ARREADY && ARLEN == 255);

endmodule : axi4_sva