# vsim -c -coverage -sv_seed 68445984 "+UVM_TESTNAME=axi4_wr_rd_test" "+UVM_VERBOSITY=UVM_HIGH" "+DUMP_VCD" -l ./report/logs/axi4_wr_rd_test_run_2_seed_68445984.log -do "coverage save -onexit ./report/coverage/axi4_wr_rd_test_run_2_seed_68445984.ucdb; run -all; quit -f" opt_tb_top 
# Start time: 14:01:24 on Jun 04,2026
# //  Questa Sim-64
# //  Version 10.6b linux_x86_64 May 25 2017
# //
# //  Copyright 1991-2017 Mentor Graphics Corporation
# //  All Rights Reserved.
# //
# //  QuestaSim and its associated documentation contain trade
# //  secrets and commercial or financial information that are the property of
# //  Mentor Graphics Corporation and are privileged, confidential,
# //  and exempt from disclosure under the Freedom of Information Act,
# //  5 U.S.C. Section 552. Furthermore, this information
# //  is prohibited from disclosure under the Trade Secrets Act,
# //  18 U.S.C. Section 1905.
# //
# Loading sv_std.std
# Loading work.axi4_if(fast)
# Loading mtiUvm.uvm_pkg
# Loading work.axi4_pkg(fast)
# Loading work.axi4_test_pkg(fast)
# Loading work.tb_top(fast)
# Loading work.axi4_if(fast)
# Loading work.axi4_sva(fast)
# Loading mtiUvm.questa_uvm_pkg(fast)
# Loading /cadtools/mentor/Questa_10.6b/questasim/uvm-1.1d/linux_x86_64/uvm_dpi.so
# coverage save -onexit ./report/coverage/axi4_wr_rd_test_run_2_seed_68445984.ucdb
#  run -all
# ----------------------------------------------------------------
# UVM-1.1d
# (C) 2007-2013 Mentor Graphics Corporation
# (C) 2007-2013 Cadence Design Systems, Inc.
# (C) 2006-2013 Synopsys, Inc.
# (C) 2011-2013 Cypress Semiconductor Corp.
# ----------------------------------------------------------------
# 
#   ***********       IMPORTANT RELEASE NOTES         ************
# 
#   You are using a version of the UVM library that has been compiled
#   with `UVM_NO_DEPRECATED undefined.
#   See http://www.eda.org/svdb/view.php?id=3313 for more details.
# 
#   You are using a version of the UVM library that has been compiled
#   with `UVM_OBJECT_MUST_HAVE_CONSTRUCTOR undefined.
#   See http://www.eda.org/svdb/view.php?id=3770 for more details.
# 
#       (Specify +UVM_NO_RELNOTES to turn off this notice)
# 
# UVM_INFO verilog_src/questa_uvm_pkg-1.2/src/questa_uvm_pkg.sv(215) @ 0: reporter [Questa UVM] QUESTA_UVM-1.2.3
# UVM_INFO verilog_src/questa_uvm_pkg-1.2/src/questa_uvm_pkg.sv(217) @ 0: reporter [Questa UVM]  questa_uvm::init(+struct)
# UVM_INFO ../src/tb_top.sv(128) @ 0: reporter [TB_TOP] Virtual interface set in config_db
# UVM_INFO @ 0: reporter [RNTST] Running test axi4_wr_rd_test...
# UVM_INFO ../src/tb_top.sv(142) @ 0: reporter [TB_TOP] Waveform VCD dumping enabled (axi4_vip.vcd)
# UVM_INFO ../src/env/axi4_vip_env.sv(83) @ 0: uvm_test_top.env [axi4_vip_env] slave_vif not set - reusing master_vif (passthrough mode)
# UVM_INFO ../src/env/axi4_vip_env.sv(93) @ 0: uvm_test_top.env [axi4_vip_env] Scoreboard created
# UVM_INFO ../src/env/axi4_vip_env.sv(100) @ 0: uvm_test_top.env [axi4_vip_env] Coverage collectors created
# UVM_INFO ../src/mst/axi4_master_agent.sv(69) @ 0: uvm_test_top.env.master_agent [axi4_master_agent] ACTIVE mode - driver + sequencer created
# UVM_INFO ../src/slv/axi4_slave_agent.sv(82) @ 0: uvm_test_top.env.slave_agent [axi4_slave_agent] ACTIVE mode — ready_delay=[0:0] resp_delay=[0:0]
# UVM_INFO ../src/env/axi4_vip_env.sv(116) @ 0: uvm_test_top.env [axi4_vip_env] Scoreboard connected: master_mon.ap -> scb, slave_mon.ap -> scb
# UVM_INFO ../src/env/axi4_vip_env.sv(124) @ 0: uvm_test_top.env [axi4_vip_env] Coverage connected: master_mon.ap -> master_cov, slave_mon.ap -> slave_cov
# UVM_INFO @ 0: reporter [UVMTOP] UVM testbench topology:
# ---------------------------------------------------------------
# Name                       Type                     Size  Value
# ---------------------------------------------------------------
# uvm_test_top               axi4_wr_rd_test          -     @473 
#   env                      axi4_vip_env             -     @488 
#     master_agent           axi4_master_agent        -     @503 
#       drv                  axi4_master_driver       -     @567 
#         rsp_port           uvm_analysis_port        -     @582 
#         seq_item_port      uvm_seq_item_pull_port   -     @574 
#       mon                  axi4_master_monitor      -     @559 
#         ap                 uvm_analysis_port        -     @700 
#       sqr                  axi4_master_sequencer    -     @590 
#         rsp_export         uvm_analysis_export      -     @597 
#         seq_item_export    uvm_seq_item_pull_imp    -     @691 
#         arbitration_queue  array                    0     -    
#         lock_queue         array                    0     -    
#         num_last_reqs      integral                 32    'd1  
#         num_last_rsps      integral                 32    'd1  
#     master_cov             axi4_coverage            -     @524 
#       analysis_imp         uvm_analysis_imp         -     @531 
#     scb                    axi4_scoreboard          -     @517 
#       master_export        uvm_analysis_imp_master  -     @714 
#       slave_export         uvm_analysis_imp_slave   -     @722 
#     slave_agent            axi4_slave_agent         -     @510 
#       drv                  axi4_slave_driver        -     @753 
#         rsp_port           uvm_analysis_port        -     @768 
#         seq_item_port      uvm_seq_item_pull_port   -     @760 
#       mon                  axi4_slave_monitor       -     @735 
#         ap                 uvm_analysis_port        -     @890 
#       sqr                  axi4_slave_sequencer     -     @776 
#         rsp_export         uvm_analysis_export      -     @783 
#         seq_item_export    uvm_seq_item_pull_imp    -     @877 
#         arbitration_queue  array                    0     -    
#         lock_queue         array                    0     -    
#         num_last_reqs      integral                 32    'd1  
#         num_last_rsps      integral                 32    'd1  
#     slave_cov              axi4_coverage            -     @539 
#       analysis_imp         uvm_analysis_imp         -     @546 
# ---------------------------------------------------------------
# 
# UVM_INFO verilog_src/questa_uvm_pkg-1.2/src/questa_uvm_pkg.sv(277) @ 0: reporter [Questa UVM] End Of Elaboration
# UVM_INFO ../src/test/axi4_wr_rd_test.sv(37) @ 0: uvm_test_top [axi4_wr_rd_test] Starting 10 write-read-back iterations
# UVM_INFO ../src/test/axi4_wr_rd_test.sv(52) @ 0: uvm_test_top [axi4_wr_rd_test] [1/10] ADDR=0x7b58f8dc LEN=6 BURST=AXI4_BURST_INCR
# UVM_INFO ../src/tb_top.sv(49) @ 95000: reporter [TOP_TB] Reset de-asserted
# UVM_INFO ../src/slv/axi4_slave_driver.sv(66) @ 95000: uvm_test_top.env.slave_agent.drv [axi4_slave_driver] Reset deasserted - slave driver active
# UVM_INFO ../src/mst/axi4_master_driver.sv(46) @ 95000: uvm_test_top.env.master_agent.drv [axi4_master_driver] Reset deasserted - master driver active
# UVM_INFO ../src/mst/axi4_master_monitor.sv(77) @ 95000: uvm_test_top.env.master_agent.mon [axi4_master_monitor] Reset deasserted — monitor active
# UVM_INFO ../src/slv/axi4_slave_monitor.sv(71) @ 95000: uvm_test_top.env.slave_agent.mon [axi4_slave_monitor] Reset deasserted — monitor active
# UVM_INFO ../src/mst/axi4_master_driver.sv(55) @ 95000: uvm_test_top.env.master_agent.drv [axi4_master_driver] Driving AXI4_WRITE  ID=0xd  ADDR=0x7b58f8dc  LEN=6
# UVM_INFO ../src/mst/axi4_master_driver.sv(94) @ 95000: uvm_test_top.env.master_agent.drv [axi4_master_driver] Write order: AW || W (parallel)
# UVM_INFO ../src/slv/axi4_slave_driver.sv(159) @ 115000: uvm_test_top.env.slave_agent.drv [axi4_slave_driver] AW received: ID=0xd ADDR=0x7b58f8dc LEN=6
# UVM_INFO ../src/slv/axi4_slave_monitor.sv(116) @ 115000: uvm_test_top.env.slave_agent.mon [axi4_slave_monitor] AW received: ID=0xd ADDR=0x7b58f8dc LEN=6
# UVM_INFO ../src/mst/axi4_master_monitor.sv(124) @ 115000: uvm_test_top.env.master_agent.mon [axi4_master_monitor] AW observed: ID=0xd ADDR=0x7b58f8dc LEN=6
# UVM_INFO ../src/mst/axi4_master_monitor.sv(184) @ 225000: uvm_test_top.env.master_agent.mon [axi4_master_monitor] W data assembled: ID=0xd ADDR=0x7b58f8dc 7 beats
# UVM_INFO ../src/slv/axi4_slave_monitor.sv(167) @ 225000: uvm_test_top.env.slave_agent.mon [axi4_slave_monitor] W data assembled: ID=0xd ADDR=0x7b58f8dc 7 beats
# UVM_INFO ../src/mst/axi4_master_driver.sv(197) @ 255000: uvm_test_top.env.master_agent.drv [axi4_master_driver] Write response: AXI4_RESP_OKAY
# UVM_INFO ../src/slv/axi4_slave_driver.sv(223) @ 255000: uvm_test_top.env.slave_agent.drv [axi4_slave_driver] Write complete: ID=0xd  7 beats stored
# UVM_INFO ../src/slv/axi4_slave_monitor.sv(189) @ 255000: uvm_test_top.env.slave_agent.mon [axi4_slave_monitor] Write response sent: ID=0xd ADDR=0x7b58f8dc RESP=AXI4_RESP_OKAY
# UVM_INFO ../src/env/axi4_scoreboard.sv(103) @ 255000: uvm_test_top.env.scb [axi4_scoreboard] Slave AXI4_WRITE received: ID=0xd ADDR=0x7b58f8dc LEN=6
# UVM_INFO ../src/mst/axi4_master_monitor.sv(210) @ 255000: uvm_test_top.env.master_agent.mon [axi4_master_monitor] Write complete: ID=0xd ADDR=0x7b58f8dc RESP=AXI4_RESP_OKAY
# UVM_INFO ../src/env/axi4_scoreboard.sv(82) @ 255000: uvm_test_top.env.scb [axi4_scoreboard] Master AXI4_WRITE received: ID=0xd ADDR=0x7b58f8dc LEN=6
# UVM_INFO ../src/env/axi4_scoreboard.sv(154) @ 255000: uvm_test_top.env.scb [axi4_scoreboard] [WRITE] MATCH #1: ID=0xd ADDR=0x7b58f8dc LEN=6
# UVM_INFO ../src/seq/axi4_write_read_back_seq.sv(60) @ 255000: uvm_test_top.env.master_agent.sqr@@wr_rd_seq_0 [axi4_write_read_back_seq] Write phase: ADDR=0x7b58f8dc LEN=6 SIZE=AXI4_SIZE_4B BURST=AXI4_BURST_INCR
# UVM_INFO ../src/mst/axi4_master_driver.sv(55) @ 255000: uvm_test_top.env.master_agent.drv [axi4_master_driver] Driving AXI4_READ  ID=0x2  ADDR=0x7b58f8dc  LEN=6
# UVM_INFO ../src/slv/axi4_slave_driver.sv(259) @ 285000: uvm_test_top.env.slave_agent.drv [axi4_slave_driver] AR received: ID=0x2 ADDR=0x7b58f8dc LEN=6
# UVM_INFO ../src/mst/axi4_master_monitor.sv(246) @ 285000: uvm_test_top.env.master_agent.mon [axi4_master_monitor] AR observed: ID=0x2 ADDR=0x7b58f8dc LEN=6
# UVM_INFO ../src/slv/axi4_slave_monitor.sv(224) @ 285000: uvm_test_top.env.slave_agent.mon [axi4_slave_monitor] AR received: ID=0x2 ADDR=0x7b58f8dc LEN=6
# UVM_INFO ../src/mst/axi4_master_driver.sv(254) @ 425000: uvm_test_top.env.master_agent.drv [axi4_master_driver] Read complete: 7 beats received
# UVM_INFO ../src/slv/axi4_slave_driver.sv(293) @ 425000: uvm_test_top.env.slave_agent.drv [axi4_slave_driver] Read complete: ID=0x2  7 beats sent
# UVM_INFO ../src/mst/axi4_master_monitor.sv(314) @ 425000: uvm_test_top.env.master_agent.mon [axi4_master_monitor] Read complete: ID=0x2 ADDR=0x7b58f8dc 7 beats
# UVM_INFO ../src/env/axi4_scoreboard.sv(82) @ 425000: uvm_test_top.env.scb [axi4_scoreboard] Master AXI4_READ received: ID=0x2 ADDR=0x7b58f8dc LEN=6
# UVM_INFO ../src/slv/axi4_slave_monitor.sv(287) @ 425000: uvm_test_top.env.slave_agent.mon [axi4_slave_monitor] Read data sent: ID=0x2 ADDR=0x7b58f8dc 7 beats
# UVM_INFO ../src/env/axi4_scoreboard.sv(103) @ 425000: uvm_test_top.env.scb [axi4_scoreboard] Slave AXI4_READ received: ID=0x2 ADDR=0x7b58f8dc LEN=6
# UVM_INFO ../src/env/axi4_scoreboard.sv(154) @ 425000: uvm_test_top.env.scb [axi4_scoreboard] [READ] MATCH #2: ID=0x2 ADDR=0x7b58f8dc LEN=6
# UVM_INFO ../src/seq/axi4_write_read_back_seq.sv(80) @ 425000: uvm_test_top.env.master_agent.sqr@@wr_rd_seq_0 [axi4_write_read_back_seq] Read-back phase: ADDR=0x7b58f8dc LEN=6 - data integrity check via scoreboard
# UVM_INFO ../src/test/axi4_wr_rd_test.sv(52) @ 425000: uvm_test_top [axi4_wr_rd_test] [2/10] ADDR=0x4f3a6552 LEN=13 BURST=AXI4_BURST_INCR
# UVM_INFO ../src/mst/axi4_master_driver.sv(55) @ 425000: uvm_test_top.env.master_agent.drv [axi4_master_driver] Driving AXI4_WRITE  ID=0x1  ADDR=0x4f3a6552  LEN=13
# UVM_INFO ../src/mst/axi4_master_driver.sv(94) @ 425000: uvm_test_top.env.master_agent.drv [axi4_master_driver] Write order: AW || W (parallel)
# UVM_INFO ../src/slv/axi4_slave_driver.sv(159) @ 455000: uvm_test_top.env.slave_agent.drv [axi4_slave_driver] AW received: ID=0x1 ADDR=0x4f3a6552 LEN=13
# UVM_INFO ../src/slv/axi4_slave_monitor.sv(116) @ 455000: uvm_test_top.env.slave_agent.mon [axi4_slave_monitor] AW received: ID=0x1 ADDR=0x4f3a6552 LEN=13
# UVM_INFO ../src/mst/axi4_master_monitor.sv(124) @ 455000: uvm_test_top.env.master_agent.mon [axi4_master_monitor] AW observed: ID=0x1 ADDR=0x4f3a6552 LEN=13
# UVM_INFO ../src/mst/axi4_master_monitor.sv(184) @ 705000: uvm_test_top.env.master_agent.mon [axi4_master_monitor] W data assembled: ID=0x1 ADDR=0x4f3a6552 14 beats
# UVM_INFO ../src/slv/axi4_slave_monitor.sv(167) @ 705000: uvm_test_top.env.slave_agent.mon [axi4_slave_monitor] W data assembled: ID=0x1 ADDR=0x4f3a6552 14 beats
# UVM_INFO ../src/mst/axi4_master_driver.sv(197) @ 735000: uvm_test_top.env.master_agent.drv [axi4_master_driver] Write response: AXI4_RESP_OKAY
# UVM_INFO ../src/slv/axi4_slave_driver.sv(223) @ 735000: uvm_test_top.env.slave_agent.drv [axi4_slave_driver] Write complete: ID=0x1  14 beats stored
# UVM_INFO ../src/slv/axi4_slave_monitor.sv(189) @ 735000: uvm_test_top.env.slave_agent.mon [axi4_slave_monitor] Write response sent: ID=0x1 ADDR=0x4f3a6552 RESP=AXI4_RESP_OKAY
# UVM_INFO ../src/env/axi4_scoreboard.sv(103) @ 735000: uvm_test_top.env.scb [axi4_scoreboard] Slave AXI4_WRITE received: ID=0x1 ADDR=0x4f3a6552 LEN=13
# UVM_INFO ../src/mst/axi4_master_monitor.sv(210) @ 735000: uvm_test_top.env.master_agent.mon [axi4_master_monitor] Write complete: ID=0x1 ADDR=0x4f3a6552 RESP=AXI4_RESP_OKAY
# UVM_INFO ../src/env/axi4_scoreboard.sv(82) @ 735000: uvm_test_top.env.scb [axi4_scoreboard] Master AXI4_WRITE received: ID=0x1 ADDR=0x4f3a6552 LEN=13
# UVM_INFO ../src/env/axi4_scoreboard.sv(154) @ 735000: uvm_test_top.env.scb [axi4_scoreboard] [WRITE] MATCH #3: ID=0x1 ADDR=0x4f3a6552 LEN=13
# UVM_INFO ../src/seq/axi4_write_read_back_seq.sv(60) @ 735000: uvm_test_top.env.master_agent.sqr@@wr_rd_seq_1 [axi4_write_read_back_seq] Write phase: ADDR=0x4f3a6552 LEN=13 SIZE=AXI4_SIZE_4B BURST=AXI4_BURST_INCR
# UVM_INFO ../src/mst/axi4_master_driver.sv(55) @ 735000: uvm_test_top.env.master_agent.drv [axi4_master_driver] Driving AXI4_READ  ID=0x7  ADDR=0x4f3a6552  LEN=13
# UVM_INFO ../src/slv/axi4_slave_driver.sv(259) @ 765000: uvm_test_top.env.slave_agent.drv [axi4_slave_driver] AR received: ID=0x7 ADDR=0x4f3a6552 LEN=13
# UVM_INFO ../src/mst/axi4_master_monitor.sv(246) @ 765000: uvm_test_top.env.master_agent.mon [axi4_master_monitor] AR observed: ID=0x7 ADDR=0x4f3a6552 LEN=13
# UVM_INFO ../src/slv/axi4_slave_monitor.sv(224) @ 765000: uvm_test_top.env.slave_agent.mon [axi4_slave_monitor] AR received: ID=0x7 ADDR=0x4f3a6552 LEN=13
# UVM_INFO ../src/mst/axi4_master_driver.sv(254) @ 1045000: uvm_test_top.env.master_agent.drv [axi4_master_driver] Read complete: 14 beats received
# UVM_INFO ../src/slv/axi4_slave_driver.sv(293) @ 1045000: uvm_test_top.env.slave_agent.drv [axi4_slave_driver] Read complete: ID=0x7  14 beats sent
# UVM_INFO ../src/mst/axi4_master_monitor.sv(314) @ 1045000: uvm_test_top.env.master_agent.mon [axi4_master_monitor] Read complete: ID=0x7 ADDR=0x4f3a6552 14 beats
# UVM_INFO ../src/env/axi4_scoreboard.sv(82) @ 1045000: uvm_test_top.env.scb [axi4_scoreboard] Master AXI4_READ received: ID=0x7 ADDR=0x4f3a6552 LEN=13
# UVM_INFO ../src/slv/axi4_slave_monitor.sv(287) @ 1045000: uvm_test_top.env.slave_agent.mon [axi4_slave_monitor] Read data sent: ID=0x7 ADDR=0x4f3a6552 14 beats
# UVM_INFO ../src/env/axi4_scoreboard.sv(103) @ 1045000: uvm_test_top.env.scb [axi4_scoreboard] Slave AXI4_READ received: ID=0x7 ADDR=0x4f3a6552 LEN=13
# UVM_INFO ../src/env/axi4_scoreboard.sv(154) @ 1045000: uvm_test_top.env.scb [axi4_scoreboard] [READ] MATCH #4: ID=0x7 ADDR=0x4f3a6552 LEN=13
# UVM_INFO ../src/seq/axi4_write_read_back_seq.sv(80) @ 1045000: uvm_test_top.env.master_agent.sqr@@wr_rd_seq_1 [axi4_write_read_back_seq] Read-back phase: ADDR=0x4f3a6552 LEN=13 - data integrity check via scoreboard
# UVM_INFO ../src/test/axi4_wr_rd_test.sv(52) @ 1045000: uvm_test_top [axi4_wr_rd_test] [3/10] ADDR=0xb04bba89 LEN=5 BURST=AXI4_BURST_INCR
# UVM_INFO ../src/mst/axi4_master_driver.sv(55) @ 1045000: uvm_test_top.env.master_agent.drv [axi4_master_driver] Driving AXI4_WRITE  ID=0x1  ADDR=0xb04bba89  LEN=5
# UVM_INFO ../src/mst/axi4_master_driver.sv(101) @ 1045000: uvm_test_top.env.master_agent.drv [axi4_master_driver] Write order: AW -> W (sequential)
# UVM_INFO ../src/slv/axi4_slave_driver.sv(159) @ 1075000: uvm_test_top.env.slave_agent.drv [axi4_slave_driver] AW received: ID=0x1 ADDR=0xb04bba89 LEN=5
# UVM_INFO ../src/slv/axi4_slave_monitor.sv(116) @ 1075000: uvm_test_top.env.slave_agent.mon [axi4_slave_monitor] AW received: ID=0x1 ADDR=0xb04bba89 LEN=5
# UVM_INFO ../src/mst/axi4_master_monitor.sv(124) @ 1075000: uvm_test_top.env.master_agent.mon [axi4_master_monitor] AW observed: ID=0x1 ADDR=0xb04bba89 LEN=5
# UVM_INFO ../src/slv/axi4_slave_monitor.sv(167) @ 1195000: uvm_test_top.env.slave_agent.mon [axi4_slave_monitor] W data assembled: ID=0x1 ADDR=0xb04bba89 6 beats
# UVM_INFO ../src/mst/axi4_master_monitor.sv(184) @ 1195000: uvm_test_top.env.master_agent.mon [axi4_master_monitor] W data assembled: ID=0x1 ADDR=0xb04bba89 6 beats
# UVM_INFO ../src/mst/axi4_master_driver.sv(197) @ 1225000: uvm_test_top.env.master_agent.drv [axi4_master_driver] Write response: AXI4_RESP_OKAY
# UVM_INFO ../src/slv/axi4_slave_driver.sv(223) @ 1225000: uvm_test_top.env.slave_agent.drv [axi4_slave_driver] Write complete: ID=0x1  6 beats stored
# UVM_INFO ../src/mst/axi4_master_monitor.sv(210) @ 1225000: uvm_test_top.env.master_agent.mon [axi4_master_monitor] Write complete: ID=0x1 ADDR=0xb04bba89 RESP=AXI4_RESP_OKAY
# UVM_INFO ../src/env/axi4_scoreboard.sv(82) @ 1225000: uvm_test_top.env.scb [axi4_scoreboard] Master AXI4_WRITE received: ID=0x1 ADDR=0xb04bba89 LEN=5
# UVM_INFO ../src/slv/axi4_slave_monitor.sv(189) @ 1225000: uvm_test_top.env.slave_agent.mon [axi4_slave_monitor] Write response sent: ID=0x1 ADDR=0xb04bba89 RESP=AXI4_RESP_OKAY
# UVM_INFO ../src/env/axi4_scoreboard.sv(103) @ 1225000: uvm_test_top.env.scb [axi4_scoreboard] Slave AXI4_WRITE received: ID=0x1 ADDR=0xb04bba89 LEN=5
# UVM_INFO ../src/env/axi4_scoreboard.sv(154) @ 1225000: uvm_test_top.env.scb [axi4_scoreboard] [WRITE] MATCH #5: ID=0x1 ADDR=0xb04bba89 LEN=5
# UVM_INFO ../src/seq/axi4_write_read_back_seq.sv(60) @ 1225000: uvm_test_top.env.master_agent.sqr@@wr_rd_seq_2 [axi4_write_read_back_seq] Write phase: ADDR=0xb04bba89 LEN=5 SIZE=AXI4_SIZE_4B BURST=AXI4_BURST_INCR
# UVM_INFO ../src/mst/axi4_master_driver.sv(55) @ 1225000: uvm_test_top.env.master_agent.drv [axi4_master_driver] Driving AXI4_READ  ID=0x6  ADDR=0xb04bba89  LEN=5
# UVM_INFO ../src/slv/axi4_slave_driver.sv(259) @ 1255000: uvm_test_top.env.slave_agent.drv [axi4_slave_driver] AR received: ID=0x6 ADDR=0xb04bba89 LEN=5
# UVM_INFO ../src/slv/axi4_slave_monitor.sv(224) @ 1255000: uvm_test_top.env.slave_agent.mon [axi4_slave_monitor] AR received: ID=0x6 ADDR=0xb04bba89 LEN=5
# UVM_INFO ../src/mst/axi4_master_monitor.sv(246) @ 1255000: uvm_test_top.env.master_agent.mon [axi4_master_monitor] AR observed: ID=0x6 ADDR=0xb04bba89 LEN=5
# UVM_INFO ../src/mst/axi4_master_driver.sv(254) @ 1375000: uvm_test_top.env.master_agent.drv [axi4_master_driver] Read complete: 6 beats received
# UVM_INFO ../src/slv/axi4_slave_driver.sv(293) @ 1375000: uvm_test_top.env.slave_agent.drv [axi4_slave_driver] Read complete: ID=0x6  6 beats sent
# UVM_INFO ../src/slv/axi4_slave_monitor.sv(287) @ 1375000: uvm_test_top.env.slave_agent.mon [axi4_slave_monitor] Read data sent: ID=0x6 ADDR=0xb04bba89 6 beats
# UVM_INFO ../src/env/axi4_scoreboard.sv(103) @ 1375000: uvm_test_top.env.scb [axi4_scoreboard] Slave AXI4_READ received: ID=0x6 ADDR=0xb04bba89 LEN=5
# UVM_INFO ../src/mst/axi4_master_monitor.sv(314) @ 1375000: uvm_test_top.env.master_agent.mon [axi4_master_monitor] Read complete: ID=0x6 ADDR=0xb04bba89 6 beats
# UVM_INFO ../src/env/axi4_scoreboard.sv(82) @ 1375000: uvm_test_top.env.scb [axi4_scoreboard] Master AXI4_READ received: ID=0x6 ADDR=0xb04bba89 LEN=5
# UVM_INFO ../src/env/axi4_scoreboard.sv(154) @ 1375000: uvm_test_top.env.scb [axi4_scoreboard] [READ] MATCH #6: ID=0x6 ADDR=0xb04bba89 LEN=5
# UVM_INFO ../src/seq/axi4_write_read_back_seq.sv(80) @ 1375000: uvm_test_top.env.master_agent.sqr@@wr_rd_seq_2 [axi4_write_read_back_seq] Read-back phase: ADDR=0xb04bba89 LEN=5 - data integrity check via scoreboard
# UVM_INFO ../src/test/axi4_wr_rd_test.sv(52) @ 1375000: uvm_test_top [axi4_wr_rd_test] [4/10] ADDR=0x435c682a LEN=5 BURST=AXI4_BURST_INCR
# UVM_INFO ../src/mst/axi4_master_driver.sv(55) @ 1375000: uvm_test_top.env.master_agent.drv [axi4_master_driver] Driving AXI4_WRITE  ID=0x5  ADDR=0x435c682a  LEN=5
# UVM_INFO ../src/mst/axi4_master_driver.sv(94) @ 1375000: uvm_test_top.env.master_agent.drv [axi4_master_driver] Write order: AW || W (parallel)
# UVM_INFO ../src/slv/axi4_slave_driver.sv(159) @ 1405000: uvm_test_top.env.slave_agent.drv [axi4_slave_driver] AW received: ID=0x5 ADDR=0x435c682a LEN=5
# UVM_INFO ../src/mst/axi4_master_monitor.sv(124) @ 1405000: uvm_test_top.env.master_agent.mon [axi4_master_monitor] AW observed: ID=0x5 ADDR=0x435c682a LEN=5
# UVM_INFO ../src/slv/axi4_slave_monitor.sv(116) @ 1405000: uvm_test_top.env.slave_agent.mon [axi4_slave_monitor] AW received: ID=0x5 ADDR=0x435c682a LEN=5
# UVM_INFO ../src/slv/axi4_slave_monitor.sv(167) @ 1495000: uvm_test_top.env.slave_agent.mon [axi4_slave_monitor] W data assembled: ID=0x5 ADDR=0x435c682a 6 beats
# UVM_INFO ../src/mst/axi4_master_monitor.sv(184) @ 1495000: uvm_test_top.env.master_agent.mon [axi4_master_monitor] W data assembled: ID=0x5 ADDR=0x435c682a 6 beats
# UVM_INFO ../src/mst/axi4_master_driver.sv(197) @ 1525000: uvm_test_top.env.master_agent.drv [axi4_master_driver] Write response: AXI4_RESP_OKAY
# UVM_INFO ../src/slv/axi4_slave_driver.sv(223) @ 1525000: uvm_test_top.env.slave_agent.drv [axi4_slave_driver] Write complete: ID=0x5  6 beats stored
# UVM_INFO ../src/mst/axi4_master_monitor.sv(210) @ 1525000: uvm_test_top.env.master_agent.mon [axi4_master_monitor] Write complete: ID=0x5 ADDR=0x435c682a RESP=AXI4_RESP_OKAY
# UVM_INFO ../src/env/axi4_scoreboard.sv(82) @ 1525000: uvm_test_top.env.scb [axi4_scoreboard] Master AXI4_WRITE received: ID=0x5 ADDR=0x435c682a LEN=5
# UVM_INFO ../src/slv/axi4_slave_monitor.sv(189) @ 1525000: uvm_test_top.env.slave_agent.mon [axi4_slave_monitor] Write response sent: ID=0x5 ADDR=0x435c682a RESP=AXI4_RESP_OKAY
# UVM_INFO ../src/env/axi4_scoreboard.sv(103) @ 1525000: uvm_test_top.env.scb [axi4_scoreboard] Slave AXI4_WRITE received: ID=0x5 ADDR=0x435c682a LEN=5
# UVM_INFO ../src/env/axi4_scoreboard.sv(154) @ 1525000: uvm_test_top.env.scb [axi4_scoreboard] [WRITE] MATCH #7: ID=0x5 ADDR=0x435c682a LEN=5
# UVM_INFO ../src/seq/axi4_write_read_back_seq.sv(60) @ 1525000: uvm_test_top.env.master_agent.sqr@@wr_rd_seq_3 [axi4_write_read_back_seq] Write phase: ADDR=0x435c682a LEN=5 SIZE=AXI4_SIZE_4B BURST=AXI4_BURST_INCR
# UVM_INFO ../src/mst/axi4_master_driver.sv(55) @ 1525000: uvm_test_top.env.master_agent.drv [axi4_master_driver] Driving AXI4_READ  ID=0xf  ADDR=0x435c682a  LEN=5
# UVM_INFO ../src/slv/axi4_slave_driver.sv(259) @ 1555000: uvm_test_top.env.slave_agent.drv [axi4_slave_driver] AR received: ID=0xf ADDR=0x435c682a LEN=5
# UVM_INFO ../src/slv/axi4_slave_monitor.sv(224) @ 1555000: uvm_test_top.env.slave_agent.mon [axi4_slave_monitor] AR received: ID=0xf ADDR=0x435c682a LEN=5
# UVM_INFO ../src/mst/axi4_master_monitor.sv(246) @ 1555000: uvm_test_top.env.master_agent.mon [axi4_master_monitor] AR observed: ID=0xf ADDR=0x435c682a LEN=5
# UVM_INFO ../src/mst/axi4_master_driver.sv(254) @ 1675000: uvm_test_top.env.master_agent.drv [axi4_master_driver] Read complete: 6 beats received
# UVM_INFO ../src/slv/axi4_slave_driver.sv(293) @ 1675000: uvm_test_top.env.slave_agent.drv [axi4_slave_driver] Read complete: ID=0xf  6 beats sent
# UVM_INFO ../src/slv/axi4_slave_monitor.sv(287) @ 1675000: uvm_test_top.env.slave_agent.mon [axi4_slave_monitor] Read data sent: ID=0xf ADDR=0x435c682a 6 beats
# UVM_INFO ../src/env/axi4_scoreboard.sv(103) @ 1675000: uvm_test_top.env.scb [axi4_scoreboard] Slave AXI4_READ received: ID=0xf ADDR=0x435c682a LEN=5
# UVM_INFO ../src/mst/axi4_master_monitor.sv(314) @ 1675000: uvm_test_top.env.master_agent.mon [axi4_master_monitor] Read complete: ID=0xf ADDR=0x435c682a 6 beats
# UVM_INFO ../src/env/axi4_scoreboard.sv(82) @ 1675000: uvm_test_top.env.scb [axi4_scoreboard] Master AXI4_READ received: ID=0xf ADDR=0x435c682a LEN=5
# UVM_INFO ../src/env/axi4_scoreboard.sv(154) @ 1675000: uvm_test_top.env.scb [axi4_scoreboard] [READ] MATCH #8: ID=0xf ADDR=0x435c682a LEN=5
# UVM_INFO ../src/seq/axi4_write_read_back_seq.sv(80) @ 1675000: uvm_test_top.env.master_agent.sqr@@wr_rd_seq_3 [axi4_write_read_back_seq] Read-back phase: ADDR=0x435c682a LEN=5 - data integrity check via scoreboard
# UVM_INFO ../src/test/axi4_wr_rd_test.sv(52) @ 1675000: uvm_test_top [axi4_wr_rd_test] [5/10] ADDR=0xc45e4dd3 LEN=0 BURST=AXI4_BURST_INCR
# UVM_INFO ../src/mst/axi4_master_driver.sv(55) @ 1675000: uvm_test_top.env.master_agent.drv [axi4_master_driver] Driving AXI4_WRITE  ID=0x2  ADDR=0xc45e4dd3  LEN=0
# UVM_INFO ../src/mst/axi4_master_driver.sv(94) @ 1675000: uvm_test_top.env.master_agent.drv [axi4_master_driver] Write order: AW || W (parallel)
# UVM_INFO ../src/slv/axi4_slave_driver.sv(159) @ 1705000: uvm_test_top.env.slave_agent.drv [axi4_slave_driver] AW received: ID=0x2 ADDR=0xc45e4dd3 LEN=0
# UVM_INFO ../src/mst/axi4_master_monitor.sv(124) @ 1705000: uvm_test_top.env.master_agent.mon [axi4_master_monitor] AW observed: ID=0x2 ADDR=0xc45e4dd3 LEN=0
# UVM_INFO ../src/slv/axi4_slave_monitor.sv(116) @ 1705000: uvm_test_top.env.slave_agent.mon [axi4_slave_monitor] AW received: ID=0x2 ADDR=0xc45e4dd3 LEN=0
# UVM_INFO ../src/mst/axi4_master_monitor.sv(184) @ 1705000: uvm_test_top.env.master_agent.mon [axi4_master_monitor] W data assembled: ID=0x2 ADDR=0xc45e4dd3 1 beats
# UVM_INFO ../src/slv/axi4_slave_monitor.sv(167) @ 1705000: uvm_test_top.env.slave_agent.mon [axi4_slave_monitor] W data assembled: ID=0x2 ADDR=0xc45e4dd3 1 beats
# UVM_INFO ../src/mst/axi4_master_driver.sv(197) @ 1725000: uvm_test_top.env.master_agent.drv [axi4_master_driver] Write response: AXI4_RESP_OKAY
# UVM_INFO ../src/slv/axi4_slave_driver.sv(223) @ 1725000: uvm_test_top.env.slave_agent.drv [axi4_slave_driver] Write complete: ID=0x2  1 beats stored
# UVM_INFO ../src/mst/axi4_master_monitor.sv(210) @ 1725000: uvm_test_top.env.master_agent.mon [axi4_master_monitor] Write complete: ID=0x2 ADDR=0xc45e4dd3 RESP=AXI4_RESP_OKAY
# UVM_INFO ../src/env/axi4_scoreboard.sv(82) @ 1725000: uvm_test_top.env.scb [axi4_scoreboard] Master AXI4_WRITE received: ID=0x2 ADDR=0xc45e4dd3 LEN=0
# UVM_INFO ../src/slv/axi4_slave_monitor.sv(189) @ 1725000: uvm_test_top.env.slave_agent.mon [axi4_slave_monitor] Write response sent: ID=0x2 ADDR=0xc45e4dd3 RESP=AXI4_RESP_OKAY
# UVM_INFO ../src/env/axi4_scoreboard.sv(103) @ 1725000: uvm_test_top.env.scb [axi4_scoreboard] Slave AXI4_WRITE received: ID=0x2 ADDR=0xc45e4dd3 LEN=0
# UVM_INFO ../src/env/axi4_scoreboard.sv(154) @ 1725000: uvm_test_top.env.scb [axi4_scoreboard] [WRITE] MATCH #9: ID=0x2 ADDR=0xc45e4dd3 LEN=0
# UVM_INFO ../src/seq/axi4_write_read_back_seq.sv(60) @ 1725000: uvm_test_top.env.master_agent.sqr@@wr_rd_seq_4 [axi4_write_read_back_seq] Write phase: ADDR=0xc45e4dd3 LEN=0 SIZE=AXI4_SIZE_4B BURST=AXI4_BURST_INCR
# UVM_INFO ../src/mst/axi4_master_driver.sv(55) @ 1725000: uvm_test_top.env.master_agent.drv [axi4_master_driver] Driving AXI4_READ  ID=0x7  ADDR=0xc45e4dd3  LEN=0
# UVM_INFO ../src/slv/axi4_slave_driver.sv(259) @ 1755000: uvm_test_top.env.slave_agent.drv [axi4_slave_driver] AR received: ID=0x7 ADDR=0xc45e4dd3 LEN=0
# UVM_INFO ../src/slv/axi4_slave_monitor.sv(224) @ 1755000: uvm_test_top.env.slave_agent.mon [axi4_slave_monitor] AR received: ID=0x7 ADDR=0xc45e4dd3 LEN=0
# UVM_INFO ../src/mst/axi4_master_monitor.sv(246) @ 1755000: uvm_test_top.env.master_agent.mon [axi4_master_monitor] AR observed: ID=0x7 ADDR=0xc45e4dd3 LEN=0
# UVM_INFO ../src/mst/axi4_master_driver.sv(254) @ 1775000: uvm_test_top.env.master_agent.drv [axi4_master_driver] Read complete: 1 beats received
# UVM_INFO ../src/slv/axi4_slave_driver.sv(293) @ 1775000: uvm_test_top.env.slave_agent.drv [axi4_slave_driver] Read complete: ID=0x7  1 beats sent
# UVM_INFO ../src/slv/axi4_slave_monitor.sv(287) @ 1775000: uvm_test_top.env.slave_agent.mon [axi4_slave_monitor] Read data sent: ID=0x7 ADDR=0xc45e4dd3 1 beats
# UVM_INFO ../src/env/axi4_scoreboard.sv(103) @ 1775000: uvm_test_top.env.scb [axi4_scoreboard] Slave AXI4_READ received: ID=0x7 ADDR=0xc45e4dd3 LEN=0
# UVM_INFO ../src/mst/axi4_master_monitor.sv(314) @ 1775000: uvm_test_top.env.master_agent.mon [axi4_master_monitor] Read complete: ID=0x7 ADDR=0xc45e4dd3 1 beats
# UVM_INFO ../src/env/axi4_scoreboard.sv(82) @ 1775000: uvm_test_top.env.scb [axi4_scoreboard] Master AXI4_READ received: ID=0x7 ADDR=0xc45e4dd3 LEN=0
# UVM_INFO ../src/env/axi4_scoreboard.sv(154) @ 1775000: uvm_test_top.env.scb [axi4_scoreboard] [READ] MATCH #10: ID=0x7 ADDR=0xc45e4dd3 LEN=0
# UVM_INFO ../src/seq/axi4_write_read_back_seq.sv(80) @ 1775000: uvm_test_top.env.master_agent.sqr@@wr_rd_seq_4 [axi4_write_read_back_seq] Read-back phase: ADDR=0xc45e4dd3 LEN=0 - data integrity check via scoreboard
# UVM_INFO ../src/test/axi4_wr_rd_test.sv(52) @ 1775000: uvm_test_top [axi4_wr_rd_test] [6/10] ADDR=0x930ea065 LEN=4 BURST=AXI4_BURST_INCR
# UVM_INFO ../src/mst/axi4_master_driver.sv(55) @ 1775000: uvm_test_top.env.master_agent.drv [axi4_master_driver] Driving AXI4_WRITE  ID=0xb  ADDR=0x930ea065  LEN=4
# UVM_INFO ../src/mst/axi4_master_driver.sv(94) @ 1775000: uvm_test_top.env.master_agent.drv [axi4_master_driver] Write order: AW || W (parallel)
# ** Error: [SVA] WLAST not asserted on final W beat (beat=1, AWLEN=0)
#    Time: 1795 ns Started: 1795 ns  Scope: tb_top.u_axi4_sva.WLAST_CORRECT File: ../src/sva/axi4_sva.sv Line: 440
# UVM_INFO ../src/slv/axi4_slave_driver.sv(159) @ 1805000: uvm_test_top.env.slave_agent.drv [axi4_slave_driver] AW received: ID=0xb ADDR=0x930ea065 LEN=4
# UVM_INFO ../src/mst/axi4_master_monitor.sv(124) @ 1805000: uvm_test_top.env.master_agent.mon [axi4_master_monitor] AW observed: ID=0xb ADDR=0x930ea065 LEN=4
# UVM_INFO ../src/slv/axi4_slave_monitor.sv(116) @ 1805000: uvm_test_top.env.slave_agent.mon [axi4_slave_monitor] AW received: ID=0xb ADDR=0x930ea065 LEN=4
# UVM_INFO ../src/slv/axi4_slave_monitor.sv(167) @ 1875000: uvm_test_top.env.slave_agent.mon [axi4_slave_monitor] W data assembled: ID=0xb ADDR=0x930ea065 5 beats
# UVM_INFO ../src/mst/axi4_master_monitor.sv(184) @ 1875000: uvm_test_top.env.master_agent.mon [axi4_master_monitor] W data assembled: ID=0xb ADDR=0x930ea065 5 beats
# UVM_INFO ../src/mst/axi4_master_driver.sv(197) @ 1905000: uvm_test_top.env.master_agent.drv [axi4_master_driver] Write response: AXI4_RESP_OKAY
# UVM_INFO ../src/slv/axi4_slave_driver.sv(223) @ 1905000: uvm_test_top.env.slave_agent.drv [axi4_slave_driver] Write complete: ID=0xb  5 beats stored
# UVM_INFO ../src/mst/axi4_master_monitor.sv(210) @ 1905000: uvm_test_top.env.master_agent.mon [axi4_master_monitor] Write complete: ID=0xb ADDR=0x930ea065 RESP=AXI4_RESP_OKAY
# UVM_INFO ../src/env/axi4_scoreboard.sv(82) @ 1905000: uvm_test_top.env.scb [axi4_scoreboard] Master AXI4_WRITE received: ID=0xb ADDR=0x930ea065 LEN=4
# UVM_INFO ../src/slv/axi4_slave_monitor.sv(189) @ 1905000: uvm_test_top.env.slave_agent.mon [axi4_slave_monitor] Write response sent: ID=0xb ADDR=0x930ea065 RESP=AXI4_RESP_OKAY
# UVM_INFO ../src/env/axi4_scoreboard.sv(103) @ 1905000: uvm_test_top.env.scb [axi4_scoreboard] Slave AXI4_WRITE received: ID=0xb ADDR=0x930ea065 LEN=4
# UVM_INFO ../src/env/axi4_scoreboard.sv(154) @ 1905000: uvm_test_top.env.scb [axi4_scoreboard] [WRITE] MATCH #11: ID=0xb ADDR=0x930ea065 LEN=4
# UVM_INFO ../src/seq/axi4_write_read_back_seq.sv(60) @ 1905000: uvm_test_top.env.master_agent.sqr@@wr_rd_seq_5 [axi4_write_read_back_seq] Write phase: ADDR=0x930ea065 LEN=4 SIZE=AXI4_SIZE_4B BURST=AXI4_BURST_INCR
# UVM_INFO ../src/mst/axi4_master_driver.sv(55) @ 1905000: uvm_test_top.env.master_agent.drv [axi4_master_driver] Driving AXI4_READ  ID=0x1  ADDR=0x930ea065  LEN=4
# UVM_INFO ../src/slv/axi4_slave_driver.sv(259) @ 1935000: uvm_test_top.env.slave_agent.drv [axi4_slave_driver] AR received: ID=0x1 ADDR=0x930ea065 LEN=4
# UVM_INFO ../src/slv/axi4_slave_monitor.sv(224) @ 1935000: uvm_test_top.env.slave_agent.mon [axi4_slave_monitor] AR received: ID=0x1 ADDR=0x930ea065 LEN=4
# UVM_INFO ../src/mst/axi4_master_monitor.sv(246) @ 1935000: uvm_test_top.env.master_agent.mon [axi4_master_monitor] AR observed: ID=0x1 ADDR=0x930ea065 LEN=4
# UVM_INFO ../src/mst/axi4_master_driver.sv(254) @ 2035000: uvm_test_top.env.master_agent.drv [axi4_master_driver] Read complete: 5 beats received
# UVM_INFO ../src/slv/axi4_slave_driver.sv(293) @ 2035000: uvm_test_top.env.slave_agent.drv [axi4_slave_driver] Read complete: ID=0x1  5 beats sent
# UVM_INFO ../src/slv/axi4_slave_monitor.sv(287) @ 2035000: uvm_test_top.env.slave_agent.mon [axi4_slave_monitor] Read data sent: ID=0x1 ADDR=0x930ea065 5 beats
# UVM_INFO ../src/env/axi4_scoreboard.sv(103) @ 2035000: uvm_test_top.env.scb [axi4_scoreboard] Slave AXI4_READ received: ID=0x1 ADDR=0x930ea065 LEN=4
# UVM_INFO ../src/mst/axi4_master_monitor.sv(314) @ 2035000: uvm_test_top.env.master_agent.mon [axi4_master_monitor] Read complete: ID=0x1 ADDR=0x930ea065 5 beats
# UVM_INFO ../src/env/axi4_scoreboard.sv(82) @ 2035000: uvm_test_top.env.scb [axi4_scoreboard] Master AXI4_READ received: ID=0x1 ADDR=0x930ea065 LEN=4
# UVM_INFO ../src/env/axi4_scoreboard.sv(154) @ 2035000: uvm_test_top.env.scb [axi4_scoreboard] [READ] MATCH #12: ID=0x1 ADDR=0x930ea065 LEN=4
# UVM_INFO ../src/seq/axi4_write_read_back_seq.sv(80) @ 2035000: uvm_test_top.env.master_agent.sqr@@wr_rd_seq_5 [axi4_write_read_back_seq] Read-back phase: ADDR=0x930ea065 LEN=4 - data integrity check via scoreboard
# UVM_INFO ../src/test/axi4_wr_rd_test.sv(52) @ 2035000: uvm_test_top [axi4_wr_rd_test] [7/10] ADDR=0xadf53ec6 LEN=14 BURST=AXI4_BURST_INCR
# UVM_INFO ../src/mst/axi4_master_driver.sv(55) @ 2035000: uvm_test_top.env.master_agent.drv [axi4_master_driver] Driving AXI4_WRITE  ID=0x3  ADDR=0xadf53ec6  LEN=14
# UVM_INFO ../src/mst/axi4_master_driver.sv(101) @ 2035000: uvm_test_top.env.master_agent.drv [axi4_master_driver] Write order: AW -> W (sequential)
# UVM_INFO ../src/slv/axi4_slave_driver.sv(159) @ 2065000: uvm_test_top.env.slave_agent.drv [axi4_slave_driver] AW received: ID=0x3 ADDR=0xadf53ec6 LEN=14
# UVM_INFO ../src/mst/axi4_master_monitor.sv(124) @ 2065000: uvm_test_top.env.master_agent.mon [axi4_master_monitor] AW observed: ID=0x3 ADDR=0xadf53ec6 LEN=14
# UVM_INFO ../src/slv/axi4_slave_monitor.sv(116) @ 2065000: uvm_test_top.env.slave_agent.mon [axi4_slave_monitor] AW received: ID=0x3 ADDR=0xadf53ec6 LEN=14
# UVM_INFO ../src/mst/axi4_master_monitor.sv(184) @ 2365000: uvm_test_top.env.master_agent.mon [axi4_master_monitor] W data assembled: ID=0x3 ADDR=0xadf53ec6 15 beats
# UVM_INFO ../src/slv/axi4_slave_monitor.sv(167) @ 2365000: uvm_test_top.env.slave_agent.mon [axi4_slave_monitor] W data assembled: ID=0x3 ADDR=0xadf53ec6 15 beats
# UVM_INFO ../src/mst/axi4_master_driver.sv(197) @ 2395000: uvm_test_top.env.master_agent.drv [axi4_master_driver] Write response: AXI4_RESP_OKAY
# UVM_INFO ../src/slv/axi4_slave_driver.sv(223) @ 2395000: uvm_test_top.env.slave_agent.drv [axi4_slave_driver] Write complete: ID=0x3  15 beats stored
# UVM_INFO ../src/slv/axi4_slave_monitor.sv(189) @ 2395000: uvm_test_top.env.slave_agent.mon [axi4_slave_monitor] Write response sent: ID=0x3 ADDR=0xadf53ec6 RESP=AXI4_RESP_OKAY
# UVM_INFO ../src/env/axi4_scoreboard.sv(103) @ 2395000: uvm_test_top.env.scb [axi4_scoreboard] Slave AXI4_WRITE received: ID=0x3 ADDR=0xadf53ec6 LEN=14
# UVM_INFO ../src/mst/axi4_master_monitor.sv(210) @ 2395000: uvm_test_top.env.master_agent.mon [axi4_master_monitor] Write complete: ID=0x3 ADDR=0xadf53ec6 RESP=AXI4_RESP_OKAY
# UVM_INFO ../src/env/axi4_scoreboard.sv(82) @ 2395000: uvm_test_top.env.scb [axi4_scoreboard] Master AXI4_WRITE received: ID=0x3 ADDR=0xadf53ec6 LEN=14
# UVM_INFO ../src/env/axi4_scoreboard.sv(154) @ 2395000: uvm_test_top.env.scb [axi4_scoreboard] [WRITE] MATCH #13: ID=0x3 ADDR=0xadf53ec6 LEN=14
# UVM_INFO ../src/seq/axi4_write_read_back_seq.sv(60) @ 2395000: uvm_test_top.env.master_agent.sqr@@wr_rd_seq_6 [axi4_write_read_back_seq] Write phase: ADDR=0xadf53ec6 LEN=14 SIZE=AXI4_SIZE_4B BURST=AXI4_BURST_INCR
# UVM_INFO ../src/mst/axi4_master_driver.sv(55) @ 2395000: uvm_test_top.env.master_agent.drv [axi4_master_driver] Driving AXI4_READ  ID=0xb  ADDR=0xadf53ec6  LEN=14
# UVM_INFO ../src/slv/axi4_slave_driver.sv(259) @ 2425000: uvm_test_top.env.slave_agent.drv [axi4_slave_driver] AR received: ID=0xb ADDR=0xadf53ec6 LEN=14
# UVM_INFO ../src/mst/axi4_master_monitor.sv(246) @ 2425000: uvm_test_top.env.master_agent.mon [axi4_master_monitor] AR observed: ID=0xb ADDR=0xadf53ec6 LEN=14
# UVM_INFO ../src/slv/axi4_slave_monitor.sv(224) @ 2425000: uvm_test_top.env.slave_agent.mon [axi4_slave_monitor] AR received: ID=0xb ADDR=0xadf53ec6 LEN=14
# UVM_INFO ../src/mst/axi4_master_driver.sv(254) @ 2725000: uvm_test_top.env.master_agent.drv [axi4_master_driver] Read complete: 15 beats received
# UVM_INFO ../src/slv/axi4_slave_driver.sv(293) @ 2725000: uvm_test_top.env.slave_agent.drv [axi4_slave_driver] Read complete: ID=0xb  15 beats sent
# UVM_INFO ../src/mst/axi4_master_monitor.sv(314) @ 2725000: uvm_test_top.env.master_agent.mon [axi4_master_monitor] Read complete: ID=0xb ADDR=0xadf53ec6 15 beats
# UVM_INFO ../src/env/axi4_scoreboard.sv(82) @ 2725000: uvm_test_top.env.scb [axi4_scoreboard] Master AXI4_READ received: ID=0xb ADDR=0xadf53ec6 LEN=14
# UVM_INFO ../src/slv/axi4_slave_monitor.sv(287) @ 2725000: uvm_test_top.env.slave_agent.mon [axi4_slave_monitor] Read data sent: ID=0xb ADDR=0xadf53ec6 15 beats
# UVM_INFO ../src/env/axi4_scoreboard.sv(103) @ 2725000: uvm_test_top.env.scb [axi4_scoreboard] Slave AXI4_READ received: ID=0xb ADDR=0xadf53ec6 LEN=14
# UVM_INFO ../src/env/axi4_scoreboard.sv(154) @ 2725000: uvm_test_top.env.scb [axi4_scoreboard] [READ] MATCH #14: ID=0xb ADDR=0xadf53ec6 LEN=14
# UVM_INFO ../src/seq/axi4_write_read_back_seq.sv(80) @ 2725000: uvm_test_top.env.master_agent.sqr@@wr_rd_seq_6 [axi4_write_read_back_seq] Read-back phase: ADDR=0xadf53ec6 LEN=14 - data integrity check via scoreboard
# UVM_INFO ../src/test/axi4_wr_rd_test.sv(52) @ 2725000: uvm_test_top [axi4_wr_rd_test] [8/10] ADDR=0x8c3eb9e8 LEN=13 BURST=AXI4_BURST_INCR
# UVM_INFO ../src/mst/axi4_master_driver.sv(55) @ 2725000: uvm_test_top.env.master_agent.drv [axi4_master_driver] Driving AXI4_WRITE  ID=0x8  ADDR=0x8c3eb9e8  LEN=13
# UVM_INFO ../src/mst/axi4_master_driver.sv(106) @ 2725000: uvm_test_top.env.master_agent.drv [axi4_master_driver] Write order: W -> AW (W first)
# UVM_INFO ../src/slv/axi4_slave_driver.sv(159) @ 2805000: uvm_test_top.env.slave_agent.drv [axi4_slave_driver] AW received: ID=0x8 ADDR=0x8c3eb9e8 LEN=13
# UVM_INFO ../src/mst/axi4_master_monitor.sv(124) @ 2805000: uvm_test_top.env.master_agent.mon [axi4_master_monitor] AW observed: ID=0x8 ADDR=0x8c3eb9e8 LEN=13
# UVM_INFO ../src/slv/axi4_slave_monitor.sv(116) @ 2805000: uvm_test_top.env.slave_agent.mon [axi4_slave_monitor] AW received: ID=0x8 ADDR=0x8c3eb9e8 LEN=13
# UVM_INFO ../src/mst/axi4_master_monitor.sv(184) @ 3005000: uvm_test_top.env.master_agent.mon [axi4_master_monitor] W data assembled: ID=0x8 ADDR=0x8c3eb9e8 14 beats
# UVM_INFO ../src/slv/axi4_slave_monitor.sv(167) @ 3005000: uvm_test_top.env.slave_agent.mon [axi4_slave_monitor] W data assembled: ID=0x8 ADDR=0x8c3eb9e8 14 beats
# UVM_INFO ../src/mst/axi4_master_driver.sv(197) @ 3035000: uvm_test_top.env.master_agent.drv [axi4_master_driver] Write response: AXI4_RESP_OKAY
# UVM_INFO ../src/slv/axi4_slave_driver.sv(223) @ 3035000: uvm_test_top.env.slave_agent.drv [axi4_slave_driver] Write complete: ID=0x8  14 beats stored
# UVM_INFO ../src/slv/axi4_slave_monitor.sv(189) @ 3035000: uvm_test_top.env.slave_agent.mon [axi4_slave_monitor] Write response sent: ID=0x8 ADDR=0x8c3eb9e8 RESP=AXI4_RESP_OKAY
# UVM_INFO ../src/env/axi4_scoreboard.sv(103) @ 3035000: uvm_test_top.env.scb [axi4_scoreboard] Slave AXI4_WRITE received: ID=0x8 ADDR=0x8c3eb9e8 LEN=13
# UVM_INFO ../src/mst/axi4_master_monitor.sv(210) @ 3035000: uvm_test_top.env.master_agent.mon [axi4_master_monitor] Write complete: ID=0x8 ADDR=0x8c3eb9e8 RESP=AXI4_RESP_OKAY
# UVM_INFO ../src/env/axi4_scoreboard.sv(82) @ 3035000: uvm_test_top.env.scb [axi4_scoreboard] Master AXI4_WRITE received: ID=0x8 ADDR=0x8c3eb9e8 LEN=13
# UVM_INFO ../src/env/axi4_scoreboard.sv(154) @ 3035000: uvm_test_top.env.scb [axi4_scoreboard] [WRITE] MATCH #15: ID=0x8 ADDR=0x8c3eb9e8 LEN=13
# UVM_INFO ../src/seq/axi4_write_read_back_seq.sv(60) @ 3035000: uvm_test_top.env.master_agent.sqr@@wr_rd_seq_7 [axi4_write_read_back_seq] Write phase: ADDR=0x8c3eb9e8 LEN=13 SIZE=AXI4_SIZE_4B BURST=AXI4_BURST_INCR
# UVM_INFO ../src/mst/axi4_master_driver.sv(55) @ 3035000: uvm_test_top.env.master_agent.drv [axi4_master_driver] Driving AXI4_READ  ID=0x0  ADDR=0x8c3eb9e8  LEN=13
# UVM_INFO ../src/slv/axi4_slave_driver.sv(259) @ 3065000: uvm_test_top.env.slave_agent.drv [axi4_slave_driver] AR received: ID=0x0 ADDR=0x8c3eb9e8 LEN=13
# UVM_INFO ../src/mst/axi4_master_monitor.sv(246) @ 3065000: uvm_test_top.env.master_agent.mon [axi4_master_monitor] AR observed: ID=0x0 ADDR=0x8c3eb9e8 LEN=13
# UVM_INFO ../src/slv/axi4_slave_monitor.sv(224) @ 3065000: uvm_test_top.env.slave_agent.mon [axi4_slave_monitor] AR received: ID=0x0 ADDR=0x8c3eb9e8 LEN=13
# UVM_INFO ../src/mst/axi4_master_driver.sv(254) @ 3345000: uvm_test_top.env.master_agent.drv [axi4_master_driver] Read complete: 14 beats received
# UVM_INFO ../src/slv/axi4_slave_driver.sv(293) @ 3345000: uvm_test_top.env.slave_agent.drv [axi4_slave_driver] Read complete: ID=0x0  14 beats sent
# UVM_INFO ../src/mst/axi4_master_monitor.sv(314) @ 3345000: uvm_test_top.env.master_agent.mon [axi4_master_monitor] Read complete: ID=0x0 ADDR=0x8c3eb9e8 14 beats
# UVM_INFO ../src/env/axi4_scoreboard.sv(82) @ 3345000: uvm_test_top.env.scb [axi4_scoreboard] Master AXI4_READ received: ID=0x0 ADDR=0x8c3eb9e8 LEN=13
# UVM_INFO ../src/slv/axi4_slave_monitor.sv(287) @ 3345000: uvm_test_top.env.slave_agent.mon [axi4_slave_monitor] Read data sent: ID=0x0 ADDR=0x8c3eb9e8 14 beats
# UVM_INFO ../src/env/axi4_scoreboard.sv(103) @ 3345000: uvm_test_top.env.scb [axi4_scoreboard] Slave AXI4_READ received: ID=0x0 ADDR=0x8c3eb9e8 LEN=13
# UVM_INFO ../src/env/axi4_scoreboard.sv(154) @ 3345000: uvm_test_top.env.scb [axi4_scoreboard] [READ] MATCH #16: ID=0x0 ADDR=0x8c3eb9e8 LEN=13
# UVM_INFO ../src/seq/axi4_write_read_back_seq.sv(80) @ 3345000: uvm_test_top.env.master_agent.sqr@@wr_rd_seq_7 [axi4_write_read_back_seq] Read-back phase: ADDR=0x8c3eb9e8 LEN=13 - data integrity check via scoreboard
# UVM_INFO ../src/test/axi4_wr_rd_test.sv(52) @ 3345000: uvm_test_top [axi4_wr_rd_test] [9/10] ADDR=0xfbbbde04 LEN=8 BURST=AXI4_BURST_INCR
# UVM_INFO ../src/mst/axi4_master_driver.sv(55) @ 3345000: uvm_test_top.env.master_agent.drv [axi4_master_driver] Driving AXI4_WRITE  ID=0x0  ADDR=0xfbbbde04  LEN=8
# UVM_INFO ../src/mst/axi4_master_driver.sv(101) @ 3345000: uvm_test_top.env.master_agent.drv [axi4_master_driver] Write order: AW -> W (sequential)
# UVM_INFO ../src/slv/axi4_slave_driver.sv(159) @ 3375000: uvm_test_top.env.slave_agent.drv [axi4_slave_driver] AW received: ID=0x0 ADDR=0xfbbbde04 LEN=8
# UVM_INFO ../src/slv/axi4_slave_monitor.sv(116) @ 3375000: uvm_test_top.env.slave_agent.mon [axi4_slave_monitor] AW received: ID=0x0 ADDR=0xfbbbde04 LEN=8
# UVM_INFO ../src/mst/axi4_master_monitor.sv(124) @ 3375000: uvm_test_top.env.master_agent.mon [axi4_master_monitor] AW observed: ID=0x0 ADDR=0xfbbbde04 LEN=8
# UVM_INFO ../src/slv/axi4_slave_monitor.sv(167) @ 3555000: uvm_test_top.env.slave_agent.mon [axi4_slave_monitor] W data assembled: ID=0x0 ADDR=0xfbbbde04 9 beats
# UVM_INFO ../src/mst/axi4_master_monitor.sv(184) @ 3555000: uvm_test_top.env.master_agent.mon [axi4_master_monitor] W data assembled: ID=0x0 ADDR=0xfbbbde04 9 beats
# UVM_INFO ../src/mst/axi4_master_driver.sv(197) @ 3585000: uvm_test_top.env.master_agent.drv [axi4_master_driver] Write response: AXI4_RESP_OKAY
# UVM_INFO ../src/slv/axi4_slave_driver.sv(223) @ 3585000: uvm_test_top.env.slave_agent.drv [axi4_slave_driver] Write complete: ID=0x0  9 beats stored
# UVM_INFO ../src/mst/axi4_master_monitor.sv(210) @ 3585000: uvm_test_top.env.master_agent.mon [axi4_master_monitor] Write complete: ID=0x0 ADDR=0xfbbbde04 RESP=AXI4_RESP_OKAY
# UVM_INFO ../src/env/axi4_scoreboard.sv(82) @ 3585000: uvm_test_top.env.scb [axi4_scoreboard] Master AXI4_WRITE received: ID=0x0 ADDR=0xfbbbde04 LEN=8
# UVM_INFO ../src/slv/axi4_slave_monitor.sv(189) @ 3585000: uvm_test_top.env.slave_agent.mon [axi4_slave_monitor] Write response sent: ID=0x0 ADDR=0xfbbbde04 RESP=AXI4_RESP_OKAY
# UVM_INFO ../src/env/axi4_scoreboard.sv(103) @ 3585000: uvm_test_top.env.scb [axi4_scoreboard] Slave AXI4_WRITE received: ID=0x0 ADDR=0xfbbbde04 LEN=8
# UVM_INFO ../src/env/axi4_scoreboard.sv(154) @ 3585000: uvm_test_top.env.scb [axi4_scoreboard] [WRITE] MATCH #17: ID=0x0 ADDR=0xfbbbde04 LEN=8
# UVM_INFO ../src/seq/axi4_write_read_back_seq.sv(60) @ 3585000: uvm_test_top.env.master_agent.sqr@@wr_rd_seq_8 [axi4_write_read_back_seq] Write phase: ADDR=0xfbbbde04 LEN=8 SIZE=AXI4_SIZE_4B BURST=AXI4_BURST_INCR
# UVM_INFO ../src/mst/axi4_master_driver.sv(55) @ 3585000: uvm_test_top.env.master_agent.drv [axi4_master_driver] Driving AXI4_READ  ID=0xa  ADDR=0xfbbbde04  LEN=8
# UVM_INFO ../src/slv/axi4_slave_driver.sv(259) @ 3615000: uvm_test_top.env.slave_agent.drv [axi4_slave_driver] AR received: ID=0xa ADDR=0xfbbbde04 LEN=8
# UVM_INFO ../src/slv/axi4_slave_monitor.sv(224) @ 3615000: uvm_test_top.env.slave_agent.mon [axi4_slave_monitor] AR received: ID=0xa ADDR=0xfbbbde04 LEN=8
# UVM_INFO ../src/mst/axi4_master_monitor.sv(246) @ 3615000: uvm_test_top.env.master_agent.mon [axi4_master_monitor] AR observed: ID=0xa ADDR=0xfbbbde04 LEN=8
# UVM_INFO ../src/mst/axi4_master_driver.sv(254) @ 3795000: uvm_test_top.env.master_agent.drv [axi4_master_driver] Read complete: 9 beats received
# UVM_INFO ../src/slv/axi4_slave_driver.sv(293) @ 3795000: uvm_test_top.env.slave_agent.drv [axi4_slave_driver] Read complete: ID=0xa  9 beats sent
# UVM_INFO ../src/slv/axi4_slave_monitor.sv(287) @ 3795000: uvm_test_top.env.slave_agent.mon [axi4_slave_monitor] Read data sent: ID=0xa ADDR=0xfbbbde04 9 beats
# UVM_INFO ../src/env/axi4_scoreboard.sv(103) @ 3795000: uvm_test_top.env.scb [axi4_scoreboard] Slave AXI4_READ received: ID=0xa ADDR=0xfbbbde04 LEN=8
# UVM_INFO ../src/mst/axi4_master_monitor.sv(314) @ 3795000: uvm_test_top.env.master_agent.mon [axi4_master_monitor] Read complete: ID=0xa ADDR=0xfbbbde04 9 beats
# UVM_INFO ../src/env/axi4_scoreboard.sv(82) @ 3795000: uvm_test_top.env.scb [axi4_scoreboard] Master AXI4_READ received: ID=0xa ADDR=0xfbbbde04 LEN=8
# UVM_INFO ../src/env/axi4_scoreboard.sv(154) @ 3795000: uvm_test_top.env.scb [axi4_scoreboard] [READ] MATCH #18: ID=0xa ADDR=0xfbbbde04 LEN=8
# UVM_INFO ../src/seq/axi4_write_read_back_seq.sv(80) @ 3795000: uvm_test_top.env.master_agent.sqr@@wr_rd_seq_8 [axi4_write_read_back_seq] Read-back phase: ADDR=0xfbbbde04 LEN=8 - data integrity check via scoreboard
# UVM_INFO ../src/test/axi4_wr_rd_test.sv(52) @ 3795000: uvm_test_top [axi4_wr_rd_test] [10/10] ADDR=0x14dbaa9b LEN=2 BURST=AXI4_BURST_INCR
# UVM_INFO ../src/mst/axi4_master_driver.sv(55) @ 3795000: uvm_test_top.env.master_agent.drv [axi4_master_driver] Driving AXI4_WRITE  ID=0x4  ADDR=0x14dbaa9b  LEN=2
# UVM_INFO ../src/mst/axi4_master_driver.sv(101) @ 3795000: uvm_test_top.env.master_agent.drv [axi4_master_driver] Write order: AW -> W (sequential)
# UVM_INFO ../src/slv/axi4_slave_driver.sv(159) @ 3825000: uvm_test_top.env.slave_agent.drv [axi4_slave_driver] AW received: ID=0x4 ADDR=0x14dbaa9b LEN=2
# UVM_INFO ../src/mst/axi4_master_monitor.sv(124) @ 3825000: uvm_test_top.env.master_agent.mon [axi4_master_monitor] AW observed: ID=0x4 ADDR=0x14dbaa9b LEN=2
# UVM_INFO ../src/slv/axi4_slave_monitor.sv(116) @ 3825000: uvm_test_top.env.slave_agent.mon [axi4_slave_monitor] AW received: ID=0x4 ADDR=0x14dbaa9b LEN=2
# UVM_INFO ../src/mst/axi4_master_monitor.sv(184) @ 3885000: uvm_test_top.env.master_agent.mon [axi4_master_monitor] W data assembled: ID=0x4 ADDR=0x14dbaa9b 3 beats
# UVM_INFO ../src/slv/axi4_slave_monitor.sv(167) @ 3885000: uvm_test_top.env.slave_agent.mon [axi4_slave_monitor] W data assembled: ID=0x4 ADDR=0x14dbaa9b 3 beats
# UVM_INFO ../src/mst/axi4_master_driver.sv(197) @ 3915000: uvm_test_top.env.master_agent.drv [axi4_master_driver] Write response: AXI4_RESP_OKAY
# UVM_INFO ../src/slv/axi4_slave_driver.sv(223) @ 3915000: uvm_test_top.env.slave_agent.drv [axi4_slave_driver] Write complete: ID=0x4  3 beats stored
# UVM_INFO ../src/slv/axi4_slave_monitor.sv(189) @ 3915000: uvm_test_top.env.slave_agent.mon [axi4_slave_monitor] Write response sent: ID=0x4 ADDR=0x14dbaa9b RESP=AXI4_RESP_OKAY
# UVM_INFO ../src/env/axi4_scoreboard.sv(103) @ 3915000: uvm_test_top.env.scb [axi4_scoreboard] Slave AXI4_WRITE received: ID=0x4 ADDR=0x14dbaa9b LEN=2
# UVM_INFO ../src/mst/axi4_master_monitor.sv(210) @ 3915000: uvm_test_top.env.master_agent.mon [axi4_master_monitor] Write complete: ID=0x4 ADDR=0x14dbaa9b RESP=AXI4_RESP_OKAY
# UVM_INFO ../src/env/axi4_scoreboard.sv(82) @ 3915000: uvm_test_top.env.scb [axi4_scoreboard] Master AXI4_WRITE received: ID=0x4 ADDR=0x14dbaa9b LEN=2
# UVM_INFO ../src/env/axi4_scoreboard.sv(154) @ 3915000: uvm_test_top.env.scb [axi4_scoreboard] [WRITE] MATCH #19: ID=0x4 ADDR=0x14dbaa9b LEN=2
# UVM_INFO ../src/seq/axi4_write_read_back_seq.sv(60) @ 3915000: uvm_test_top.env.master_agent.sqr@@wr_rd_seq_9 [axi4_write_read_back_seq] Write phase: ADDR=0x14dbaa9b LEN=2 SIZE=AXI4_SIZE_4B BURST=AXI4_BURST_INCR
# UVM_INFO ../src/mst/axi4_master_driver.sv(55) @ 3915000: uvm_test_top.env.master_agent.drv [axi4_master_driver] Driving AXI4_READ  ID=0x7  ADDR=0x14dbaa9b  LEN=2
# UVM_INFO ../src/slv/axi4_slave_driver.sv(259) @ 3945000: uvm_test_top.env.slave_agent.drv [axi4_slave_driver] AR received: ID=0x7 ADDR=0x14dbaa9b LEN=2
# UVM_INFO ../src/mst/axi4_master_monitor.sv(246) @ 3945000: uvm_test_top.env.master_agent.mon [axi4_master_monitor] AR observed: ID=0x7 ADDR=0x14dbaa9b LEN=2
# UVM_INFO ../src/slv/axi4_slave_monitor.sv(224) @ 3945000: uvm_test_top.env.slave_agent.mon [axi4_slave_monitor] AR received: ID=0x7 ADDR=0x14dbaa9b LEN=2
# UVM_INFO ../src/mst/axi4_master_driver.sv(254) @ 4005000: uvm_test_top.env.master_agent.drv [axi4_master_driver] Read complete: 3 beats received
# UVM_INFO ../src/slv/axi4_slave_driver.sv(293) @ 4005000: uvm_test_top.env.slave_agent.drv [axi4_slave_driver] Read complete: ID=0x7  3 beats sent
# UVM_INFO ../src/mst/axi4_master_monitor.sv(314) @ 4005000: uvm_test_top.env.master_agent.mon [axi4_master_monitor] Read complete: ID=0x7 ADDR=0x14dbaa9b 3 beats
# UVM_INFO ../src/env/axi4_scoreboard.sv(82) @ 4005000: uvm_test_top.env.scb [axi4_scoreboard] Master AXI4_READ received: ID=0x7 ADDR=0x14dbaa9b LEN=2
# UVM_INFO ../src/slv/axi4_slave_monitor.sv(287) @ 4005000: uvm_test_top.env.slave_agent.mon [axi4_slave_monitor] Read data sent: ID=0x7 ADDR=0x14dbaa9b 3 beats
# UVM_INFO ../src/env/axi4_scoreboard.sv(103) @ 4005000: uvm_test_top.env.scb [axi4_scoreboard] Slave AXI4_READ received: ID=0x7 ADDR=0x14dbaa9b LEN=2
# UVM_INFO ../src/env/axi4_scoreboard.sv(154) @ 4005000: uvm_test_top.env.scb [axi4_scoreboard] [READ] MATCH #20: ID=0x7 ADDR=0x14dbaa9b LEN=2
# UVM_INFO ../src/seq/axi4_write_read_back_seq.sv(80) @ 4005000: uvm_test_top.env.master_agent.sqr@@wr_rd_seq_9 [axi4_write_read_back_seq] Read-back phase: ADDR=0x14dbaa9b LEN=2 - data integrity check via scoreboard
# UVM_INFO ../src/test/axi4_wr_rd_test.sv(62) @ 4505000: uvm_test_top [axi4_wr_rd_test] 10 write-read-back iterations complete
# UVM_INFO verilog_src/uvm-1.1d/src/base/uvm_objection.svh(1268) @ 4505000: reporter [TEST_DONE] 'run' phase is ready to proceed to the 'extract' phase
# UVM_INFO ../src/env/axi4_scoreboard.sv(218) @ 4505000: uvm_test_top.env.scb [axi4_scoreboard] 
# ========================================
#          SCOREBOARD SUMMARY
# ========================================
#   Master transactions : 20
#   Slave transactions  : 20
#   Matches             : 20
#   Mismatches          : 0
#   Unmatched master WR : 0
#   Unmatched master RD : 0
#   Unmatched slave  WR : 0
#   Unmatched slave  RD : 0
# ========================================
#   RESULT : PASS
# ========================================
# UVM_INFO ../src/test/axi4_base_test.sv(91) @ 4505000: uvm_test_top [axi4_wr_rd_test] 
# === TEST PASSED ===
# 
# 
# --- UVM Report Summary ---
# 
# ** Report counts by severity
# UVM_INFO :  304
# UVM_WARNING :    0
# UVM_ERROR :    0
# UVM_FATAL :    0
# ** Report counts by id
# [Questa UVM]     3
# [RNTST]     1
# [TB_TOP]     2
# [TEST_DONE]     1
# [TOP_TB]     1
# [UVMTOP]     1
# [axi4_master_agent]     1
# [axi4_master_driver]    51
# [axi4_master_monitor]    51
# [axi4_scoreboard]    61
# [axi4_slave_agent]     1
# [axi4_slave_driver]    41
# [axi4_slave_monitor]    51
# [axi4_vip_env]     5
# [axi4_wr_rd_test]    13
# [axi4_write_read_back_seq]    20
# ** Note: $finish    : /cadtools/mentor/Questa_10.6b/questasim/linux_x86_64/../verilog_src/uvm-1.1d/src/base/uvm_root.svh(430)
#    Time: 4505 ns  Iteration: 55  Instance: /tb_top
# Saving coverage database on exit...
# End time: 14:02:06 on Jun 04,2026, Elapsed time: 0:00:42
# Errors: 1, Warnings: 0
