# vsim -c -coverage -sv_seed 63036610 "+UVM_TESTNAME=axi4_outstanding_test" "+UVM_VERBOSITY=UVM_HIGH" "+DUMP_VCD" -l ./report/logs/axi4_outstanding_test_run_3_seed_63036610.log -do "coverage save -onexit ./report/coverage/axi4_outstanding_test_run_3_seed_63036610.ucdb; run -all; quit -f" opt_tb_top 
# Start time: 11:23:44 on Jun 05,2026
# //  Questa Sim-64
# //  Version 10.6b linux_x86_64 May 25 2017
# //
# //  Copyright 1991-2017 Mentor Graphics Corporation
# //  All Rights Reserved.
# //
# //  QuestaSim and its associated documentation contain trade
# //  secrets and commercial or financial information that are the property of
# //  Mentor Graphics Corporation and are privileged, confidential,
# //  and exempt from disclosure under the Freedom of Information Act,
# //  5 U.S.C. Section 552. Furthermore, this information
# //  is prohibited from disclosure under the Trade Secrets Act,
# //  18 U.S.C. Section 1905.
# //
# Loading sv_std.std
# Loading work.axi4_if(fast)
# Loading mtiUvm.uvm_pkg
# Loading work.axi4_pkg(fast)
# Loading work.axi4_test_pkg(fast)
# Loading work.tb_top(fast)
# Loading work.axi4_if(fast)
# Loading work.axi4_sva(fast)
# Loading mtiUvm.questa_uvm_pkg(fast)
# Loading /cadtools/mentor/Questa_10.6b/questasim/uvm-1.1d/linux_x86_64/uvm_dpi.so
# coverage save -onexit ./report/coverage/axi4_outstanding_test_run_3_seed_63036610.ucdb
#  run -all
# ----------------------------------------------------------------
# UVM-1.1d
# (C) 2007-2013 Mentor Graphics Corporation
# (C) 2007-2013 Cadence Design Systems, Inc.
# (C) 2006-2013 Synopsys, Inc.
# (C) 2011-2013 Cypress Semiconductor Corp.
# ----------------------------------------------------------------
# 
#   ***********       IMPORTANT RELEASE NOTES         ************
# 
#   You are using a version of the UVM library that has been compiled
#   with `UVM_NO_DEPRECATED undefined.
#   See http://www.eda.org/svdb/view.php?id=3313 for more details.
# 
#   You are using a version of the UVM library that has been compiled
#   with `UVM_OBJECT_MUST_HAVE_CONSTRUCTOR undefined.
#   See http://www.eda.org/svdb/view.php?id=3770 for more details.
# 
#       (Specify +UVM_NO_RELNOTES to turn off this notice)
# 
# UVM_INFO verilog_src/questa_uvm_pkg-1.2/src/questa_uvm_pkg.sv(215) @ 0: reporter [Questa UVM] QUESTA_UVM-1.2.3
# UVM_INFO verilog_src/questa_uvm_pkg-1.2/src/questa_uvm_pkg.sv(217) @ 0: reporter [Questa UVM]  questa_uvm::init(+struct)
# UVM_INFO ../src/tb_top.sv(128) @ 0: reporter [TB_TOP] Virtual interface set in config_db
# UVM_INFO @ 0: reporter [RNTST] Running test axi4_outstanding_test...
# UVM_INFO ../src/tb_top.sv(142) @ 0: reporter [TB_TOP] Waveform VCD dumping enabled (axi4_vip.vcd)
# UVM_INFO ../src/env/axi4_vip_env.sv(83) @ 0: uvm_test_top.env [axi4_vip_env] slave_vif not set - reusing master_vif (passthrough mode)
# UVM_INFO ../src/env/axi4_vip_env.sv(93) @ 0: uvm_test_top.env [axi4_vip_env] Scoreboard created
# UVM_INFO ../src/env/axi4_vip_env.sv(100) @ 0: uvm_test_top.env [axi4_vip_env] Coverage collectors created
# UVM_INFO ../src/mst/axi4_master_agent.sv(69) @ 0: uvm_test_top.env.master_agent [axi4_master_agent] ACTIVE mode - driver + sequencer created
# UVM_INFO ../src/slv/axi4_slave_agent.sv(82) @ 0: uvm_test_top.env.slave_agent [axi4_slave_agent] ACTIVE mode — ready_delay=[0:0] resp_delay=[0:0]
# UVM_INFO ../src/env/axi4_vip_env.sv(116) @ 0: uvm_test_top.env [axi4_vip_env] Scoreboard connected: master_mon.ap -> scb, slave_mon.ap -> scb
# UVM_INFO ../src/env/axi4_vip_env.sv(124) @ 0: uvm_test_top.env [axi4_vip_env] Coverage connected: master_mon.ap -> master_cov, slave_mon.ap -> slave_cov
# UVM_INFO @ 0: reporter [UVMTOP] UVM testbench topology:
# ---------------------------------------------------------------
# Name                       Type                     Size  Value
# ---------------------------------------------------------------
# uvm_test_top               axi4_outstanding_test    -     @473 
#   env                      axi4_vip_env             -     @488 
#     master_agent           axi4_master_agent        -     @503 
#       drv                  axi4_master_driver       -     @567 
#         rsp_port           uvm_analysis_port        -     @582 
#         seq_item_port      uvm_seq_item_pull_port   -     @574 
#       mon                  axi4_master_monitor      -     @559 
#         ap                 uvm_analysis_port        -     @700 
#       sqr                  axi4_master_sequencer    -     @590 
#         rsp_export         uvm_analysis_export      -     @597 
#         seq_item_export    uvm_seq_item_pull_imp    -     @691 
#         arbitration_queue  array                    0     -    
#         lock_queue         array                    0     -    
#         num_last_reqs      integral                 32    'd1  
#         num_last_rsps      integral                 32    'd1  
#     master_cov             axi4_coverage            -     @524 
#       analysis_imp         uvm_analysis_imp         -     @531 
#     scb                    axi4_scoreboard          -     @517 
#       master_export        uvm_analysis_imp_master  -     @714 
#       slave_export         uvm_analysis_imp_slave   -     @722 
#     slave_agent            axi4_slave_agent         -     @510 
#       drv                  axi4_slave_driver        -     @753 
#         rsp_port           uvm_analysis_port        -     @768 
#         seq_item_port      uvm_seq_item_pull_port   -     @760 
#       mon                  axi4_slave_monitor       -     @735 
#         ap                 uvm_analysis_port        -     @890 
#       sqr                  axi4_slave_sequencer     -     @776 
#         rsp_export         uvm_analysis_export      -     @783 
#         seq_item_export    uvm_seq_item_pull_imp    -     @877 
#         arbitration_queue  array                    0     -    
#         lock_queue         array                    0     -    
#         num_last_reqs      integral                 32    'd1  
#         num_last_rsps      integral                 32    'd1  
#     slave_cov              axi4_coverage            -     @539 
#       analysis_imp         uvm_analysis_imp         -     @546 
# ---------------------------------------------------------------
# 
# UVM_INFO verilog_src/questa_uvm_pkg-1.2/src/questa_uvm_pkg.sv(277) @ 0: reporter [Questa UVM] End Of Elaboration
# UVM_INFO ../src/test/axi4_outstanding_test.sv(45) @ 0: uvm_test_top [axi4_outstanding_test] Starting outstanding test with 15 writes, 15 reads, depth=4
# UVM_INFO ../src/seq/axi4_outstanding_seq.sv(40) @ 0: uvm_test_top.env.master_agent.sqr@@outstanding_seq [axi4_outstanding_seq] Starting outstanding sequence: writes=15, reads=15, depth=4
# UVM_INFO ../src/tb_top.sv(49) @ 95000: reporter [TOP_TB] Reset de-asserted
# UVM_INFO ../src/slv/axi4_slave_driver.sv(70) @ 95000: uvm_test_top.env.slave_agent.drv [axi4_slave_driver] Reset deasserted - slave driver active
# UVM_INFO ../src/mst/axi4_master_driver.sv(46) @ 95000: uvm_test_top.env.master_agent.drv [axi4_master_driver] Reset deasserted - master driver active
# UVM_INFO ../src/mst/axi4_master_monitor.sv(77) @ 95000: uvm_test_top.env.master_agent.mon [axi4_master_monitor] Reset deasserted — monitor active
# UVM_INFO ../src/slv/axi4_slave_monitor.sv(71) @ 95000: uvm_test_top.env.slave_agent.mon [axi4_slave_monitor] Reset deasserted — monitor active
# UVM_INFO ../src/seq/axi4_outstanding_seq.sv(65) @ 95000: uvm_test_top.env.master_agent.sqr@@outstanding_seq [axi4_outstanding_seq] Outstanding Write [#3] started: ID=0x8 ADDR=0xb773e7a7 LEN=106
# UVM_INFO ../src/mst/axi4_master_driver.sv(55) @ 95000: uvm_test_top.env.master_agent.drv [axi4_master_driver] Driving AXI4_WRITE  ID=0x8  ADDR=0xb773e7a7  LEN=106
# UVM_INFO ../src/mst/axi4_master_driver.sv(94) @ 95000: uvm_test_top.env.master_agent.drv [axi4_master_driver] Write order: AW || W (parallel)
# UVM_INFO ../src/slv/axi4_slave_driver.sv(165) @ 115000: uvm_test_top.env.slave_agent.drv [axi4_slave_driver] AW received: ID=0x8 ADDR=0xb773e7a7 LEN=106 LOCK=AXI4_LOCK_EXCLUSIVE
# UVM_INFO ../src/slv/axi4_slave_monitor.sv(116) @ 115000: uvm_test_top.env.slave_agent.mon [axi4_slave_monitor] AW received: ID=0x8 ADDR=0xb773e7a7 LEN=106
# UVM_INFO ../src/mst/axi4_master_monitor.sv(124) @ 115000: uvm_test_top.env.master_agent.mon [axi4_master_monitor] AW observed: ID=0x8 ADDR=0xb773e7a7 LEN=106
# UVM_INFO ../src/mst/axi4_master_monitor.sv(184) @ 2225000: uvm_test_top.env.master_agent.mon [axi4_master_monitor] W data assembled: ID=0x8 ADDR=0xb773e7a7 107 beats
# UVM_INFO ../src/slv/axi4_slave_monitor.sv(167) @ 2225000: uvm_test_top.env.slave_agent.mon [axi4_slave_monitor] W data assembled: ID=0x8 ADDR=0xb773e7a7 107 beats
# UVM_INFO ../src/mst/axi4_master_driver.sv(197) @ 2255000: uvm_test_top.env.master_agent.drv [axi4_master_driver] Write response: AXI4_RESP_OKAY
# UVM_INFO ../src/slv/axi4_slave_driver.sv(261) @ 2255000: uvm_test_top.env.slave_agent.drv [axi4_slave_driver] Write complete: ID=0x8 ADDR=0xb773e7a7 RESP=AXI4_RESP_OKAY  107 beats processed
# UVM_INFO ../src/slv/axi4_slave_monitor.sv(189) @ 2255000: uvm_test_top.env.slave_agent.mon [axi4_slave_monitor] Write response sent: ID=0x8 ADDR=0xb773e7a7 RESP=AXI4_RESP_OKAY
# UVM_INFO ../src/env/axi4_scoreboard.sv(103) @ 2255000: uvm_test_top.env.scb [axi4_scoreboard] Slave AXI4_WRITE received: ID=0x8 ADDR=0xb773e7a7 LEN=106
# UVM_INFO ../src/mst/axi4_master_monitor.sv(210) @ 2255000: uvm_test_top.env.master_agent.mon [axi4_master_monitor] Write complete: ID=0x8 ADDR=0xb773e7a7 RESP=AXI4_RESP_OKAY
# UVM_INFO ../src/env/axi4_scoreboard.sv(82) @ 2255000: uvm_test_top.env.scb [axi4_scoreboard] Master AXI4_WRITE received: ID=0x8 ADDR=0xb773e7a7 LEN=106
# UVM_INFO ../src/env/axi4_scoreboard.sv(154) @ 2255000: uvm_test_top.env.scb [axi4_scoreboard] [WRITE] MATCH #1: ID=0x8 ADDR=0xb773e7a7 LEN=106
# UVM_INFO ../src/seq/axi4_outstanding_seq.sv(71) @ 2255000: uvm_test_top.env.master_agent.sqr@@outstanding_seq [axi4_outstanding_seq] Outstanding Write [#3] complete: ID=0x8
# UVM_INFO ../src/seq/axi4_outstanding_seq.sv(65) @ 2255000: uvm_test_top.env.master_agent.sqr@@outstanding_seq [axi4_outstanding_seq] Outstanding Write [#2] started: ID=0xe ADDR=0x8d2d74bd LEN=49
# UVM_INFO ../src/mst/axi4_master_driver.sv(55) @ 2255000: uvm_test_top.env.master_agent.drv [axi4_master_driver] Driving AXI4_WRITE  ID=0xe  ADDR=0x8d2d74bd  LEN=49
# UVM_INFO ../src/mst/axi4_master_driver.sv(94) @ 2255000: uvm_test_top.env.master_agent.drv [axi4_master_driver] Write order: AW || W (parallel)
# UVM_INFO ../src/slv/axi4_slave_driver.sv(165) @ 2285000: uvm_test_top.env.slave_agent.drv [axi4_slave_driver] AW received: ID=0xe ADDR=0x8d2d74bd LEN=49 LOCK=AXI4_LOCK_EXCLUSIVE
# UVM_INFO ../src/mst/axi4_master_monitor.sv(124) @ 2285000: uvm_test_top.env.master_agent.mon [axi4_master_monitor] AW observed: ID=0xe ADDR=0x8d2d74bd LEN=49
# UVM_INFO ../src/slv/axi4_slave_monitor.sv(116) @ 2285000: uvm_test_top.env.slave_agent.mon [axi4_slave_monitor] AW received: ID=0xe ADDR=0x8d2d74bd LEN=49
# UVM_INFO ../src/slv/axi4_slave_monitor.sv(167) @ 3255000: uvm_test_top.env.slave_agent.mon [axi4_slave_monitor] W data assembled: ID=0xe ADDR=0x8d2d74bd 50 beats
# UVM_INFO ../src/mst/axi4_master_monitor.sv(184) @ 3255000: uvm_test_top.env.master_agent.mon [axi4_master_monitor] W data assembled: ID=0xe ADDR=0x8d2d74bd 50 beats
# UVM_INFO ../src/mst/axi4_master_driver.sv(197) @ 3285000: uvm_test_top.env.master_agent.drv [axi4_master_driver] Write response: AXI4_RESP_OKAY
# UVM_INFO ../src/slv/axi4_slave_driver.sv(261) @ 3285000: uvm_test_top.env.slave_agent.drv [axi4_slave_driver] Write complete: ID=0xe ADDR=0x8d2d74bd RESP=AXI4_RESP_OKAY  50 beats processed
# UVM_INFO ../src/mst/axi4_master_monitor.sv(210) @ 3285000: uvm_test_top.env.master_agent.mon [axi4_master_monitor] Write complete: ID=0xe ADDR=0x8d2d74bd RESP=AXI4_RESP_OKAY
# UVM_INFO ../src/env/axi4_scoreboard.sv(82) @ 3285000: uvm_test_top.env.scb [axi4_scoreboard] Master AXI4_WRITE received: ID=0xe ADDR=0x8d2d74bd LEN=49
# UVM_INFO ../src/slv/axi4_slave_monitor.sv(189) @ 3285000: uvm_test_top.env.slave_agent.mon [axi4_slave_monitor] Write response sent: ID=0xe ADDR=0x8d2d74bd RESP=AXI4_RESP_OKAY
# UVM_INFO ../src/env/axi4_scoreboard.sv(103) @ 3285000: uvm_test_top.env.scb [axi4_scoreboard] Slave AXI4_WRITE received: ID=0xe ADDR=0x8d2d74bd LEN=49
# UVM_INFO ../src/env/axi4_scoreboard.sv(154) @ 3285000: uvm_test_top.env.scb [axi4_scoreboard] [WRITE] MATCH #2: ID=0xe ADDR=0x8d2d74bd LEN=49
# UVM_INFO ../src/seq/axi4_outstanding_seq.sv(71) @ 3285000: uvm_test_top.env.master_agent.sqr@@outstanding_seq [axi4_outstanding_seq] Outstanding Write [#2] complete: ID=0xe
# UVM_INFO ../src/seq/axi4_outstanding_seq.sv(65) @ 3285000: uvm_test_top.env.master_agent.sqr@@outstanding_seq [axi4_outstanding_seq] Outstanding Write [#1] started: ID=0x6 ADDR=0x3f311980 LEN=122
# UVM_INFO ../src/mst/axi4_master_driver.sv(55) @ 3285000: uvm_test_top.env.master_agent.drv [axi4_master_driver] Driving AXI4_WRITE  ID=0x6  ADDR=0x3f311980  LEN=122
# UVM_INFO ../src/mst/axi4_master_driver.sv(106) @ 3285000: uvm_test_top.env.master_agent.drv [axi4_master_driver] Write order: W -> AW (W first)
# UVM_INFO ../src/slv/axi4_slave_driver.sv(165) @ 3335000: uvm_test_top.env.slave_agent.drv [axi4_slave_driver] AW received: ID=0x6 ADDR=0x3f311980 LEN=122 LOCK=AXI4_LOCK_NORMAL
# UVM_INFO ../src/slv/axi4_slave_monitor.sv(116) @ 3335000: uvm_test_top.env.slave_agent.mon [axi4_slave_monitor] AW received: ID=0x6 ADDR=0x3f311980 LEN=122
# UVM_INFO ../src/mst/axi4_master_monitor.sv(124) @ 3335000: uvm_test_top.env.master_agent.mon [axi4_master_monitor] AW observed: ID=0x6 ADDR=0x3f311980 LEN=122
# UVM_INFO ../src/mst/axi4_master_monitor.sv(184) @ 5745000: uvm_test_top.env.master_agent.mon [axi4_master_monitor] W data assembled: ID=0x6 ADDR=0x3f311980 123 beats
# UVM_INFO ../src/slv/axi4_slave_monitor.sv(167) @ 5745000: uvm_test_top.env.slave_agent.mon [axi4_slave_monitor] W data assembled: ID=0x6 ADDR=0x3f311980 123 beats
# UVM_INFO ../src/mst/axi4_master_driver.sv(197) @ 5775000: uvm_test_top.env.master_agent.drv [axi4_master_driver] Write response: AXI4_RESP_OKAY
# UVM_INFO ../src/slv/axi4_slave_driver.sv(261) @ 5775000: uvm_test_top.env.slave_agent.drv [axi4_slave_driver] Write complete: ID=0x6 ADDR=0x3f311980 RESP=AXI4_RESP_OKAY  123 beats processed
# UVM_INFO ../src/slv/axi4_slave_monitor.sv(189) @ 5775000: uvm_test_top.env.slave_agent.mon [axi4_slave_monitor] Write response sent: ID=0x6 ADDR=0x3f311980 RESP=AXI4_RESP_OKAY
# UVM_INFO ../src/env/axi4_scoreboard.sv(103) @ 5775000: uvm_test_top.env.scb [axi4_scoreboard] Slave AXI4_WRITE received: ID=0x6 ADDR=0x3f311980 LEN=122
# UVM_INFO ../src/mst/axi4_master_monitor.sv(210) @ 5775000: uvm_test_top.env.master_agent.mon [axi4_master_monitor] Write complete: ID=0x6 ADDR=0x3f311980 RESP=AXI4_RESP_OKAY
# UVM_INFO ../src/env/axi4_scoreboard.sv(82) @ 5775000: uvm_test_top.env.scb [axi4_scoreboard] Master AXI4_WRITE received: ID=0x6 ADDR=0x3f311980 LEN=122
# UVM_INFO ../src/env/axi4_scoreboard.sv(154) @ 5775000: uvm_test_top.env.scb [axi4_scoreboard] [WRITE] MATCH #3: ID=0x6 ADDR=0x3f311980 LEN=122
# UVM_INFO ../src/seq/axi4_outstanding_seq.sv(71) @ 5775000: uvm_test_top.env.master_agent.sqr@@outstanding_seq [axi4_outstanding_seq] Outstanding Write [#1] complete: ID=0x6
# UVM_INFO ../src/seq/axi4_outstanding_seq.sv(65) @ 5775000: uvm_test_top.env.master_agent.sqr@@outstanding_seq [axi4_outstanding_seq] Outstanding Write [#0] started: ID=0xb ADDR=0x6391f6f5 LEN=219
# UVM_INFO ../src/mst/axi4_master_driver.sv(55) @ 5775000: uvm_test_top.env.master_agent.drv [axi4_master_driver] Driving AXI4_WRITE  ID=0xb  ADDR=0x6391f6f5  LEN=219
# UVM_INFO ../src/mst/axi4_master_driver.sv(94) @ 5775000: uvm_test_top.env.master_agent.drv [axi4_master_driver] Write order: AW || W (parallel)
# UVM_INFO ../src/slv/axi4_slave_driver.sv(165) @ 5805000: uvm_test_top.env.slave_agent.drv [axi4_slave_driver] AW received: ID=0xb ADDR=0x6391f6f5 LEN=219 LOCK=AXI4_LOCK_EXCLUSIVE
# UVM_INFO ../src/mst/axi4_master_monitor.sv(124) @ 5805000: uvm_test_top.env.master_agent.mon [axi4_master_monitor] AW observed: ID=0xb ADDR=0x6391f6f5 LEN=219
# UVM_INFO ../src/slv/axi4_slave_monitor.sv(116) @ 5805000: uvm_test_top.env.slave_agent.mon [axi4_slave_monitor] AW received: ID=0xb ADDR=0x6391f6f5 LEN=219
# UVM_INFO ../src/slv/axi4_slave_monitor.sv(167) @ 10175000: uvm_test_top.env.slave_agent.mon [axi4_slave_monitor] W data assembled: ID=0xb ADDR=0x6391f6f5 220 beats
# UVM_INFO ../src/mst/axi4_master_monitor.sv(184) @ 10175000: uvm_test_top.env.master_agent.mon [axi4_master_monitor] W data assembled: ID=0xb ADDR=0x6391f6f5 220 beats
# UVM_INFO ../src/mst/axi4_master_driver.sv(197) @ 10205000: uvm_test_top.env.master_agent.drv [axi4_master_driver] Write response: AXI4_RESP_OKAY
# UVM_INFO ../src/slv/axi4_slave_driver.sv(261) @ 10205000: uvm_test_top.env.slave_agent.drv [axi4_slave_driver] Write complete: ID=0xb ADDR=0x6391f6f5 RESP=AXI4_RESP_OKAY  220 beats processed
# UVM_INFO ../src/mst/axi4_master_monitor.sv(210) @ 10205000: uvm_test_top.env.master_agent.mon [axi4_master_monitor] Write complete: ID=0xb ADDR=0x6391f6f5 RESP=AXI4_RESP_OKAY
# UVM_INFO ../src/env/axi4_scoreboard.sv(82) @ 10205000: uvm_test_top.env.scb [axi4_scoreboard] Master AXI4_WRITE received: ID=0xb ADDR=0x6391f6f5 LEN=219
# UVM_INFO ../src/slv/axi4_slave_monitor.sv(189) @ 10205000: uvm_test_top.env.slave_agent.mon [axi4_slave_monitor] Write response sent: ID=0xb ADDR=0x6391f6f5 RESP=AXI4_RESP_OKAY
# UVM_INFO ../src/env/axi4_scoreboard.sv(103) @ 10205000: uvm_test_top.env.scb [axi4_scoreboard] Slave AXI4_WRITE received: ID=0xb ADDR=0x6391f6f5 LEN=219
# UVM_INFO ../src/env/axi4_scoreboard.sv(154) @ 10205000: uvm_test_top.env.scb [axi4_scoreboard] [WRITE] MATCH #4: ID=0xb ADDR=0x6391f6f5 LEN=219
# UVM_INFO ../src/seq/axi4_outstanding_seq.sv(71) @ 10205000: uvm_test_top.env.master_agent.sqr@@outstanding_seq [axi4_outstanding_seq] Outstanding Write [#0] complete: ID=0xb
# UVM_INFO ../src/seq/axi4_outstanding_seq.sv(100) @ 10205000: uvm_test_top.env.master_agent.sqr@@outstanding_seq [axi4_outstanding_seq] Outstanding Read [#3] started: ID=0xe ADDR=0xe9ac4652 LEN=8
# UVM_INFO ../src/mst/axi4_master_driver.sv(55) @ 10205000: uvm_test_top.env.master_agent.drv [axi4_master_driver] Driving AXI4_READ  ID=0xe  ADDR=0xe9ac4652  LEN=8
# UVM_INFO ../src/slv/axi4_slave_driver.sv(300) @ 10235000: uvm_test_top.env.slave_agent.drv [axi4_slave_driver] AR received: ID=0xe ADDR=0xe9ac4652 LEN=8 LOCK=AXI4_LOCK_EXCLUSIVE
# UVM_INFO ../src/slv/axi4_slave_monitor.sv(224) @ 10235000: uvm_test_top.env.slave_agent.mon [axi4_slave_monitor] AR received: ID=0xe ADDR=0xe9ac4652 LEN=8
# UVM_INFO ../src/mst/axi4_master_monitor.sv(246) @ 10235000: uvm_test_top.env.master_agent.mon [axi4_master_monitor] AR observed: ID=0xe ADDR=0xe9ac4652 LEN=8
# UVM_INFO ../src/mst/axi4_master_driver.sv(254) @ 10415000: uvm_test_top.env.master_agent.drv [axi4_master_driver] Read complete: 9 beats received
# UVM_INFO ../src/slv/axi4_slave_driver.sv(349) @ 10415000: uvm_test_top.env.slave_agent.drv [axi4_slave_driver] Read complete: ID=0xe ADDR=0xe9ac4652 RESP=AXI4_RESP_SLVERR  9 beats sent
# UVM_INFO ../src/slv/axi4_slave_monitor.sv(287) @ 10415000: uvm_test_top.env.slave_agent.mon [axi4_slave_monitor] Read data sent: ID=0xe ADDR=0xe9ac4652 9 beats
# UVM_INFO ../src/env/axi4_scoreboard.sv(103) @ 10415000: uvm_test_top.env.scb [axi4_scoreboard] Slave AXI4_READ received: ID=0xe ADDR=0xe9ac4652 LEN=8
# UVM_INFO ../src/mst/axi4_master_monitor.sv(314) @ 10415000: uvm_test_top.env.master_agent.mon [axi4_master_monitor] Read complete: ID=0xe ADDR=0xe9ac4652 9 beats
# UVM_INFO ../src/env/axi4_scoreboard.sv(82) @ 10415000: uvm_test_top.env.scb [axi4_scoreboard] Master AXI4_READ received: ID=0xe ADDR=0xe9ac4652 LEN=8
# UVM_INFO ../src/env/axi4_scoreboard.sv(154) @ 10415000: uvm_test_top.env.scb [axi4_scoreboard] [READ] MATCH #5: ID=0xe ADDR=0xe9ac4652 LEN=8
# UVM_INFO ../src/seq/axi4_outstanding_seq.sv(106) @ 10415000: uvm_test_top.env.master_agent.sqr@@outstanding_seq [axi4_outstanding_seq] Outstanding Read [#3] complete: ID=0xe
# UVM_INFO ../src/seq/axi4_outstanding_seq.sv(100) @ 10415000: uvm_test_top.env.master_agent.sqr@@outstanding_seq [axi4_outstanding_seq] Outstanding Read [#2] started: ID=0x3 ADDR=0xda5b1fc1 LEN=1
# UVM_INFO ../src/mst/axi4_master_driver.sv(55) @ 10415000: uvm_test_top.env.master_agent.drv [axi4_master_driver] Driving AXI4_READ  ID=0x3  ADDR=0xda5b1fc1  LEN=1
# UVM_INFO ../src/slv/axi4_slave_driver.sv(300) @ 10445000: uvm_test_top.env.slave_agent.drv [axi4_slave_driver] AR received: ID=0x3 ADDR=0xda5b1fc1 LEN=1 LOCK=AXI4_LOCK_NORMAL
# UVM_INFO ../src/mst/axi4_master_monitor.sv(246) @ 10445000: uvm_test_top.env.master_agent.mon [axi4_master_monitor] AR observed: ID=0x3 ADDR=0xda5b1fc1 LEN=1
# UVM_INFO ../src/slv/axi4_slave_monitor.sv(224) @ 10445000: uvm_test_top.env.slave_agent.mon [axi4_slave_monitor] AR received: ID=0x3 ADDR=0xda5b1fc1 LEN=1
# UVM_INFO ../src/mst/axi4_master_driver.sv(254) @ 10485000: uvm_test_top.env.master_agent.drv [axi4_master_driver] Read complete: 2 beats received
# UVM_INFO ../src/slv/axi4_slave_driver.sv(349) @ 10485000: uvm_test_top.env.slave_agent.drv [axi4_slave_driver] Read complete: ID=0x3 ADDR=0xda5b1fc1 RESP=AXI4_RESP_OKAY  2 beats sent
# UVM_INFO ../src/mst/axi4_master_monitor.sv(314) @ 10485000: uvm_test_top.env.master_agent.mon [axi4_master_monitor] Read complete: ID=0x3 ADDR=0xda5b1fc1 2 beats
# UVM_INFO ../src/env/axi4_scoreboard.sv(82) @ 10485000: uvm_test_top.env.scb [axi4_scoreboard] Master AXI4_READ received: ID=0x3 ADDR=0xda5b1fc1 LEN=1
# UVM_INFO ../src/slv/axi4_slave_monitor.sv(287) @ 10485000: uvm_test_top.env.slave_agent.mon [axi4_slave_monitor] Read data sent: ID=0x3 ADDR=0xda5b1fc1 2 beats
# UVM_INFO ../src/env/axi4_scoreboard.sv(103) @ 10485000: uvm_test_top.env.scb [axi4_scoreboard] Slave AXI4_READ received: ID=0x3 ADDR=0xda5b1fc1 LEN=1
# UVM_INFO ../src/env/axi4_scoreboard.sv(154) @ 10485000: uvm_test_top.env.scb [axi4_scoreboard] [READ] MATCH #6: ID=0x3 ADDR=0xda5b1fc1 LEN=1
# UVM_INFO ../src/seq/axi4_outstanding_seq.sv(106) @ 10485000: uvm_test_top.env.master_agent.sqr@@outstanding_seq [axi4_outstanding_seq] Outstanding Read [#2] complete: ID=0x3
# UVM_INFO ../src/seq/axi4_outstanding_seq.sv(100) @ 10485000: uvm_test_top.env.master_agent.sqr@@outstanding_seq [axi4_outstanding_seq] Outstanding Read [#1] started: ID=0x3 ADDR=0x00a3fb97 LEN=1
# UVM_INFO ../src/mst/axi4_master_driver.sv(55) @ 10485000: uvm_test_top.env.master_agent.drv [axi4_master_driver] Driving AXI4_READ  ID=0x3  ADDR=0x00a3fb97  LEN=1
# UVM_INFO ../src/slv/axi4_slave_driver.sv(300) @ 10515000: uvm_test_top.env.slave_agent.drv [axi4_slave_driver] AR received: ID=0x3 ADDR=0x00a3fb97 LEN=1 LOCK=AXI4_LOCK_NORMAL
# UVM_INFO ../src/slv/axi4_slave_monitor.sv(224) @ 10515000: uvm_test_top.env.slave_agent.mon [axi4_slave_monitor] AR received: ID=0x3 ADDR=0x00a3fb97 LEN=1
# UVM_INFO ../src/mst/axi4_master_monitor.sv(246) @ 10515000: uvm_test_top.env.master_agent.mon [axi4_master_monitor] AR observed: ID=0x3 ADDR=0x00a3fb97 LEN=1
# UVM_INFO ../src/mst/axi4_master_driver.sv(254) @ 10555000: uvm_test_top.env.master_agent.drv [axi4_master_driver] Read complete: 2 beats received
# UVM_INFO ../src/slv/axi4_slave_driver.sv(349) @ 10555000: uvm_test_top.env.slave_agent.drv [axi4_slave_driver] Read complete: ID=0x3 ADDR=0x00a3fb97 RESP=AXI4_RESP_OKAY  2 beats sent
# UVM_INFO ../src/slv/axi4_slave_monitor.sv(287) @ 10555000: uvm_test_top.env.slave_agent.mon [axi4_slave_monitor] Read data sent: ID=0x3 ADDR=0x00a3fb97 2 beats
# UVM_INFO ../src/env/axi4_scoreboard.sv(103) @ 10555000: uvm_test_top.env.scb [axi4_scoreboard] Slave AXI4_READ received: ID=0x3 ADDR=0x00a3fb97 LEN=1
# UVM_INFO ../src/mst/axi4_master_monitor.sv(314) @ 10555000: uvm_test_top.env.master_agent.mon [axi4_master_monitor] Read complete: ID=0x3 ADDR=0x00a3fb97 2 beats
# UVM_INFO ../src/env/axi4_scoreboard.sv(82) @ 10555000: uvm_test_top.env.scb [axi4_scoreboard] Master AXI4_READ received: ID=0x3 ADDR=0x00a3fb97 LEN=1
# UVM_INFO ../src/env/axi4_scoreboard.sv(154) @ 10555000: uvm_test_top.env.scb [axi4_scoreboard] [READ] MATCH #7: ID=0x3 ADDR=0x00a3fb97 LEN=1
# UVM_INFO ../src/seq/axi4_outstanding_seq.sv(106) @ 10555000: uvm_test_top.env.master_agent.sqr@@outstanding_seq [axi4_outstanding_seq] Outstanding Read [#1] complete: ID=0x3
# UVM_INFO ../src/seq/axi4_outstanding_seq.sv(100) @ 10555000: uvm_test_top.env.master_agent.sqr@@outstanding_seq [axi4_outstanding_seq] Outstanding Read [#0] started: ID=0x3 ADDR=0x3ef927c1 LEN=9
# UVM_INFO ../src/mst/axi4_master_driver.sv(55) @ 10555000: uvm_test_top.env.master_agent.drv [axi4_master_driver] Driving AXI4_READ  ID=0x3  ADDR=0x3ef927c1  LEN=9
# UVM_INFO ../src/slv/axi4_slave_driver.sv(300) @ 10585000: uvm_test_top.env.slave_agent.drv [axi4_slave_driver] AR received: ID=0x3 ADDR=0x3ef927c1 LEN=9 LOCK=AXI4_LOCK_NORMAL
# UVM_INFO ../src/mst/axi4_master_monitor.sv(246) @ 10585000: uvm_test_top.env.master_agent.mon [axi4_master_monitor] AR observed: ID=0x3 ADDR=0x3ef927c1 LEN=9
# UVM_INFO ../src/slv/axi4_slave_monitor.sv(224) @ 10585000: uvm_test_top.env.slave_agent.mon [axi4_slave_monitor] AR received: ID=0x3 ADDR=0x3ef927c1 LEN=9
# UVM_INFO ../src/mst/axi4_master_driver.sv(254) @ 10785000: uvm_test_top.env.master_agent.drv [axi4_master_driver] Read complete: 10 beats received
# UVM_INFO ../src/slv/axi4_slave_driver.sv(349) @ 10785000: uvm_test_top.env.slave_agent.drv [axi4_slave_driver] Read complete: ID=0x3 ADDR=0x3ef927c1 RESP=AXI4_RESP_OKAY  10 beats sent
# UVM_INFO ../src/mst/axi4_master_monitor.sv(314) @ 10785000: uvm_test_top.env.master_agent.mon [axi4_master_monitor] Read complete: ID=0x3 ADDR=0x3ef927c1 10 beats
# UVM_INFO ../src/env/axi4_scoreboard.sv(82) @ 10785000: uvm_test_top.env.scb [axi4_scoreboard] Master AXI4_READ received: ID=0x3 ADDR=0x3ef927c1 LEN=9
# UVM_INFO ../src/slv/axi4_slave_monitor.sv(287) @ 10785000: uvm_test_top.env.slave_agent.mon [axi4_slave_monitor] Read data sent: ID=0x3 ADDR=0x3ef927c1 10 beats
# UVM_INFO ../src/env/axi4_scoreboard.sv(103) @ 10785000: uvm_test_top.env.scb [axi4_scoreboard] Slave AXI4_READ received: ID=0x3 ADDR=0x3ef927c1 LEN=9
# UVM_INFO ../src/env/axi4_scoreboard.sv(154) @ 10785000: uvm_test_top.env.scb [axi4_scoreboard] [READ] MATCH #8: ID=0x3 ADDR=0x3ef927c1 LEN=9
# UVM_INFO ../src/seq/axi4_outstanding_seq.sv(106) @ 10785000: uvm_test_top.env.master_agent.sqr@@outstanding_seq [axi4_outstanding_seq] Outstanding Read [#0] complete: ID=0x3
# UVM_INFO ../src/seq/axi4_outstanding_seq.sv(65) @ 10785000: uvm_test_top.env.master_agent.sqr@@outstanding_seq [axi4_outstanding_seq] Outstanding Write [#4] started: ID=0x2 ADDR=0x092d66fd LEN=60
# UVM_INFO ../src/mst/axi4_master_driver.sv(55) @ 10785000: uvm_test_top.env.master_agent.drv [axi4_master_driver] Driving AXI4_WRITE  ID=0x2  ADDR=0x092d66fd  LEN=60
# UVM_INFO ../src/mst/axi4_master_driver.sv(94) @ 10785000: uvm_test_top.env.master_agent.drv [axi4_master_driver] Write order: AW || W (parallel)
# UVM_INFO ../src/slv/axi4_slave_driver.sv(165) @ 10815000: uvm_test_top.env.slave_agent.drv [axi4_slave_driver] AW received: ID=0x2 ADDR=0x092d66fd LEN=60 LOCK=AXI4_LOCK_NORMAL
# UVM_INFO ../src/slv/axi4_slave_monitor.sv(116) @ 10815000: uvm_test_top.env.slave_agent.mon [axi4_slave_monitor] AW received: ID=0x2 ADDR=0x092d66fd LEN=60
# UVM_INFO ../src/mst/axi4_master_monitor.sv(124) @ 10815000: uvm_test_top.env.master_agent.mon [axi4_master_monitor] AW observed: ID=0x2 ADDR=0x092d66fd LEN=60
# UVM_INFO ../src/mst/axi4_master_monitor.sv(184) @ 12005000: uvm_test_top.env.master_agent.mon [axi4_master_monitor] W data assembled: ID=0x2 ADDR=0x092d66fd 61 beats
# UVM_INFO ../src/slv/axi4_slave_monitor.sv(167) @ 12005000: uvm_test_top.env.slave_agent.mon [axi4_slave_monitor] W data assembled: ID=0x2 ADDR=0x092d66fd 61 beats
# UVM_INFO ../src/mst/axi4_master_driver.sv(197) @ 12035000: uvm_test_top.env.master_agent.drv [axi4_master_driver] Write response: AXI4_RESP_OKAY
# UVM_INFO ../src/slv/axi4_slave_driver.sv(261) @ 12035000: uvm_test_top.env.slave_agent.drv [axi4_slave_driver] Write complete: ID=0x2 ADDR=0x092d66fd RESP=AXI4_RESP_OKAY  61 beats processed
# UVM_INFO ../src/slv/axi4_slave_monitor.sv(189) @ 12035000: uvm_test_top.env.slave_agent.mon [axi4_slave_monitor] Write response sent: ID=0x2 ADDR=0x092d66fd RESP=AXI4_RESP_OKAY
# UVM_INFO ../src/env/axi4_scoreboard.sv(103) @ 12035000: uvm_test_top.env.scb [axi4_scoreboard] Slave AXI4_WRITE received: ID=0x2 ADDR=0x092d66fd LEN=60
# UVM_INFO ../src/mst/axi4_master_monitor.sv(210) @ 12035000: uvm_test_top.env.master_agent.mon [axi4_master_monitor] Write complete: ID=0x2 ADDR=0x092d66fd RESP=AXI4_RESP_OKAY
# UVM_INFO ../src/env/axi4_scoreboard.sv(82) @ 12035000: uvm_test_top.env.scb [axi4_scoreboard] Master AXI4_WRITE received: ID=0x2 ADDR=0x092d66fd LEN=60
# UVM_INFO ../src/env/axi4_scoreboard.sv(154) @ 12035000: uvm_test_top.env.scb [axi4_scoreboard] [WRITE] MATCH #9: ID=0x2 ADDR=0x092d66fd LEN=60
# UVM_INFO ../src/seq/axi4_outstanding_seq.sv(71) @ 12035000: uvm_test_top.env.master_agent.sqr@@outstanding_seq [axi4_outstanding_seq] Outstanding Write [#4] complete: ID=0x2
# UVM_INFO ../src/seq/axi4_outstanding_seq.sv(65) @ 12035000: uvm_test_top.env.master_agent.sqr@@outstanding_seq [axi4_outstanding_seq] Outstanding Write [#5] started: ID=0x8 ADDR=0xe1224827 LEN=203
# UVM_INFO ../src/mst/axi4_master_driver.sv(55) @ 12035000: uvm_test_top.env.master_agent.drv [axi4_master_driver] Driving AXI4_WRITE  ID=0x8  ADDR=0xe1224827  LEN=203
# UVM_INFO ../src/mst/axi4_master_driver.sv(101) @ 12035000: uvm_test_top.env.master_agent.drv [axi4_master_driver] Write order: AW -> W (sequential)
# UVM_INFO ../src/slv/axi4_slave_driver.sv(165) @ 12065000: uvm_test_top.env.slave_agent.drv [axi4_slave_driver] AW received: ID=0x8 ADDR=0xe1224827 LEN=203 LOCK=AXI4_LOCK_EXCLUSIVE
# UVM_INFO ../src/mst/axi4_master_monitor.sv(124) @ 12065000: uvm_test_top.env.master_agent.mon [axi4_master_monitor] AW observed: ID=0x8 ADDR=0xe1224827 LEN=203
# UVM_INFO ../src/slv/axi4_slave_monitor.sv(116) @ 12065000: uvm_test_top.env.slave_agent.mon [axi4_slave_monitor] AW received: ID=0x8 ADDR=0xe1224827 LEN=203
# UVM_INFO ../src/mst/axi4_master_monitor.sv(184) @ 16145000: uvm_test_top.env.master_agent.mon [axi4_master_monitor] W data assembled: ID=0x8 ADDR=0xe1224827 204 beats
# UVM_INFO ../src/slv/axi4_slave_monitor.sv(167) @ 16145000: uvm_test_top.env.slave_agent.mon [axi4_slave_monitor] W data assembled: ID=0x8 ADDR=0xe1224827 204 beats
# UVM_INFO ../src/mst/axi4_master_driver.sv(197) @ 16175000: uvm_test_top.env.master_agent.drv [axi4_master_driver] Write response: AXI4_RESP_SLVERR
# UVM_INFO ../src/slv/axi4_slave_driver.sv(261) @ 16175000: uvm_test_top.env.slave_agent.drv [axi4_slave_driver] Write complete: ID=0x8 ADDR=0xe1224827 RESP=AXI4_RESP_SLVERR  204 beats processed
# UVM_INFO ../src/slv/axi4_slave_monitor.sv(189) @ 16175000: uvm_test_top.env.slave_agent.mon [axi4_slave_monitor] Write response sent: ID=0x8 ADDR=0xe1224827 RESP=AXI4_RESP_SLVERR
# UVM_INFO ../src/env/axi4_scoreboard.sv(103) @ 16175000: uvm_test_top.env.scb [axi4_scoreboard] Slave AXI4_WRITE received: ID=0x8 ADDR=0xe1224827 LEN=203
# UVM_INFO ../src/mst/axi4_master_monitor.sv(210) @ 16175000: uvm_test_top.env.master_agent.mon [axi4_master_monitor] Write complete: ID=0x8 ADDR=0xe1224827 RESP=AXI4_RESP_SLVERR
# UVM_INFO ../src/env/axi4_scoreboard.sv(82) @ 16175000: uvm_test_top.env.scb [axi4_scoreboard] Master AXI4_WRITE received: ID=0x8 ADDR=0xe1224827 LEN=203
# UVM_INFO ../src/env/axi4_scoreboard.sv(154) @ 16175000: uvm_test_top.env.scb [axi4_scoreboard] [WRITE] MATCH #10: ID=0x8 ADDR=0xe1224827 LEN=203
# UVM_INFO ../src/seq/axi4_outstanding_seq.sv(71) @ 16175000: uvm_test_top.env.master_agent.sqr@@outstanding_seq [axi4_outstanding_seq] Outstanding Write [#5] complete: ID=0x8
# UVM_INFO ../src/seq/axi4_outstanding_seq.sv(65) @ 16175000: uvm_test_top.env.master_agent.sqr@@outstanding_seq [axi4_outstanding_seq] Outstanding Write [#6] started: ID=0xf ADDR=0x98a1f6fe LEN=10
# UVM_INFO ../src/mst/axi4_master_driver.sv(55) @ 16175000: uvm_test_top.env.master_agent.drv [axi4_master_driver] Driving AXI4_WRITE  ID=0xf  ADDR=0x98a1f6fe  LEN=10
# UVM_INFO ../src/mst/axi4_master_driver.sv(101) @ 16175000: uvm_test_top.env.master_agent.drv [axi4_master_driver] Write order: AW -> W (sequential)
# UVM_INFO ../src/slv/axi4_slave_driver.sv(165) @ 16205000: uvm_test_top.env.slave_agent.drv [axi4_slave_driver] AW received: ID=0xf ADDR=0x98a1f6fe LEN=10 LOCK=AXI4_LOCK_EXCLUSIVE
# UVM_INFO ../src/mst/axi4_master_monitor.sv(124) @ 16205000: uvm_test_top.env.master_agent.mon [axi4_master_monitor] AW observed: ID=0xf ADDR=0x98a1f6fe LEN=10
# UVM_INFO ../src/slv/axi4_slave_monitor.sv(116) @ 16205000: uvm_test_top.env.slave_agent.mon [axi4_slave_monitor] AW received: ID=0xf ADDR=0x98a1f6fe LEN=10
# UVM_INFO ../src/mst/axi4_master_monitor.sv(184) @ 16425000: uvm_test_top.env.master_agent.mon [axi4_master_monitor] W data assembled: ID=0xf ADDR=0x98a1f6fe 11 beats
# UVM_INFO ../src/slv/axi4_slave_monitor.sv(167) @ 16425000: uvm_test_top.env.slave_agent.mon [axi4_slave_monitor] W data assembled: ID=0xf ADDR=0x98a1f6fe 11 beats
# UVM_INFO ../src/mst/axi4_master_driver.sv(197) @ 16455000: uvm_test_top.env.master_agent.drv [axi4_master_driver] Write response: AXI4_RESP_OKAY
# UVM_INFO ../src/slv/axi4_slave_driver.sv(261) @ 16455000: uvm_test_top.env.slave_agent.drv [axi4_slave_driver] Write complete: ID=0xf ADDR=0x98a1f6fe RESP=AXI4_RESP_OKAY  11 beats processed
# UVM_INFO ../src/slv/axi4_slave_monitor.sv(189) @ 16455000: uvm_test_top.env.slave_agent.mon [axi4_slave_monitor] Write response sent: ID=0xf ADDR=0x98a1f6fe RESP=AXI4_RESP_OKAY
# UVM_INFO ../src/env/axi4_scoreboard.sv(103) @ 16455000: uvm_test_top.env.scb [axi4_scoreboard] Slave AXI4_WRITE received: ID=0xf ADDR=0x98a1f6fe LEN=10
# UVM_INFO ../src/mst/axi4_master_monitor.sv(210) @ 16455000: uvm_test_top.env.master_agent.mon [axi4_master_monitor] Write complete: ID=0xf ADDR=0x98a1f6fe RESP=AXI4_RESP_OKAY
# UVM_INFO ../src/env/axi4_scoreboard.sv(82) @ 16455000: uvm_test_top.env.scb [axi4_scoreboard] Master AXI4_WRITE received: ID=0xf ADDR=0x98a1f6fe LEN=10
# UVM_INFO ../src/env/axi4_scoreboard.sv(154) @ 16455000: uvm_test_top.env.scb [axi4_scoreboard] [WRITE] MATCH #11: ID=0xf ADDR=0x98a1f6fe LEN=10
# UVM_INFO ../src/seq/axi4_outstanding_seq.sv(71) @ 16455000: uvm_test_top.env.master_agent.sqr@@outstanding_seq [axi4_outstanding_seq] Outstanding Write [#6] complete: ID=0xf
# UVM_INFO ../src/seq/axi4_outstanding_seq.sv(65) @ 16455000: uvm_test_top.env.master_agent.sqr@@outstanding_seq [axi4_outstanding_seq] Outstanding Write [#7] started: ID=0x5 ADDR=0xee9f2c90 LEN=9
# UVM_INFO ../src/mst/axi4_master_driver.sv(55) @ 16455000: uvm_test_top.env.master_agent.drv [axi4_master_driver] Driving AXI4_WRITE  ID=0x5  ADDR=0xee9f2c90  LEN=9
# UVM_INFO ../src/mst/axi4_master_driver.sv(94) @ 16455000: uvm_test_top.env.master_agent.drv [axi4_master_driver] Write order: AW || W (parallel)
# UVM_INFO ../src/slv/axi4_slave_driver.sv(165) @ 16485000: uvm_test_top.env.slave_agent.drv [axi4_slave_driver] AW received: ID=0x5 ADDR=0xee9f2c90 LEN=9 LOCK=AXI4_LOCK_NORMAL
# UVM_INFO ../src/mst/axi4_master_monitor.sv(124) @ 16485000: uvm_test_top.env.master_agent.mon [axi4_master_monitor] AW observed: ID=0x5 ADDR=0xee9f2c90 LEN=9
# UVM_INFO ../src/slv/axi4_slave_monitor.sv(116) @ 16485000: uvm_test_top.env.slave_agent.mon [axi4_slave_monitor] AW received: ID=0x5 ADDR=0xee9f2c90 LEN=9
# UVM_INFO ../src/slv/axi4_slave_monitor.sv(167) @ 16655000: uvm_test_top.env.slave_agent.mon [axi4_slave_monitor] W data assembled: ID=0x5 ADDR=0xee9f2c90 10 beats
# UVM_INFO ../src/mst/axi4_master_monitor.sv(184) @ 16655000: uvm_test_top.env.master_agent.mon [axi4_master_monitor] W data assembled: ID=0x5 ADDR=0xee9f2c90 10 beats
# UVM_INFO ../src/mst/axi4_master_driver.sv(197) @ 16685000: uvm_test_top.env.master_agent.drv [axi4_master_driver] Write response: AXI4_RESP_SLVERR
# UVM_INFO ../src/slv/axi4_slave_driver.sv(261) @ 16685000: uvm_test_top.env.slave_agent.drv [axi4_slave_driver] Write complete: ID=0x5 ADDR=0xee9f2c90 RESP=AXI4_RESP_SLVERR  10 beats processed
# UVM_INFO ../src/mst/axi4_master_monitor.sv(210) @ 16685000: uvm_test_top.env.master_agent.mon [axi4_master_monitor] Write complete: ID=0x5 ADDR=0xee9f2c90 RESP=AXI4_RESP_SLVERR
# UVM_INFO ../src/env/axi4_scoreboard.sv(82) @ 16685000: uvm_test_top.env.scb [axi4_scoreboard] Master AXI4_WRITE received: ID=0x5 ADDR=0xee9f2c90 LEN=9
# UVM_INFO ../src/slv/axi4_slave_monitor.sv(189) @ 16685000: uvm_test_top.env.slave_agent.mon [axi4_slave_monitor] Write response sent: ID=0x5 ADDR=0xee9f2c90 RESP=AXI4_RESP_SLVERR
# UVM_INFO ../src/env/axi4_scoreboard.sv(103) @ 16685000: uvm_test_top.env.scb [axi4_scoreboard] Slave AXI4_WRITE received: ID=0x5 ADDR=0xee9f2c90 LEN=9
# UVM_INFO ../src/env/axi4_scoreboard.sv(154) @ 16685000: uvm_test_top.env.scb [axi4_scoreboard] [WRITE] MATCH #12: ID=0x5 ADDR=0xee9f2c90 LEN=9
# UVM_INFO ../src/seq/axi4_outstanding_seq.sv(71) @ 16685000: uvm_test_top.env.master_agent.sqr@@outstanding_seq [axi4_outstanding_seq] Outstanding Write [#7] complete: ID=0x5
# UVM_INFO ../src/seq/axi4_outstanding_seq.sv(100) @ 16685000: uvm_test_top.env.master_agent.sqr@@outstanding_seq [axi4_outstanding_seq] Outstanding Read [#4] started: ID=0x6 ADDR=0x30f20d3d LEN=144
# UVM_INFO ../src/mst/axi4_master_driver.sv(55) @ 16685000: uvm_test_top.env.master_agent.drv [axi4_master_driver] Driving AXI4_READ  ID=0x6  ADDR=0x30f20d3d  LEN=144
# UVM_INFO ../src/slv/axi4_slave_driver.sv(300) @ 16715000: uvm_test_top.env.slave_agent.drv [axi4_slave_driver] AR received: ID=0x6 ADDR=0x30f20d3d LEN=144 LOCK=AXI4_LOCK_EXCLUSIVE
# UVM_INFO ../src/slv/axi4_slave_monitor.sv(224) @ 16715000: uvm_test_top.env.slave_agent.mon [axi4_slave_monitor] AR received: ID=0x6 ADDR=0x30f20d3d LEN=144
# UVM_INFO ../src/mst/axi4_master_monitor.sv(246) @ 16715000: uvm_test_top.env.master_agent.mon [axi4_master_monitor] AR observed: ID=0x6 ADDR=0x30f20d3d LEN=144
# UVM_INFO ../src/mst/axi4_master_driver.sv(254) @ 19615000: uvm_test_top.env.master_agent.drv [axi4_master_driver] Read complete: 145 beats received
# UVM_INFO ../src/slv/axi4_slave_driver.sv(349) @ 19615000: uvm_test_top.env.slave_agent.drv [axi4_slave_driver] Read complete: ID=0x6 ADDR=0x30f20d3d RESP=AXI4_RESP_EXOKAY  145 beats sent
# UVM_INFO ../src/slv/axi4_slave_monitor.sv(287) @ 19615000: uvm_test_top.env.slave_agent.mon [axi4_slave_monitor] Read data sent: ID=0x6 ADDR=0x30f20d3d 145 beats
# UVM_INFO ../src/env/axi4_scoreboard.sv(103) @ 19615000: uvm_test_top.env.scb [axi4_scoreboard] Slave AXI4_READ received: ID=0x6 ADDR=0x30f20d3d LEN=144
# UVM_INFO ../src/mst/axi4_master_monitor.sv(314) @ 19615000: uvm_test_top.env.master_agent.mon [axi4_master_monitor] Read complete: ID=0x6 ADDR=0x30f20d3d 145 beats
# UVM_INFO ../src/env/axi4_scoreboard.sv(82) @ 19615000: uvm_test_top.env.scb [axi4_scoreboard] Master AXI4_READ received: ID=0x6 ADDR=0x30f20d3d LEN=144
# UVM_INFO ../src/env/axi4_scoreboard.sv(154) @ 19615000: uvm_test_top.env.scb [axi4_scoreboard] [READ] MATCH #13: ID=0x6 ADDR=0x30f20d3d LEN=144
# UVM_INFO ../src/seq/axi4_outstanding_seq.sv(106) @ 19615000: uvm_test_top.env.master_agent.sqr@@outstanding_seq [axi4_outstanding_seq] Outstanding Read [#4] complete: ID=0x6
# UVM_INFO ../src/seq/axi4_outstanding_seq.sv(100) @ 19615000: uvm_test_top.env.master_agent.sqr@@outstanding_seq [axi4_outstanding_seq] Outstanding Read [#5] started: ID=0x1 ADDR=0xacf57929 LEN=16
# UVM_INFO ../src/mst/axi4_master_driver.sv(55) @ 19615000: uvm_test_top.env.master_agent.drv [axi4_master_driver] Driving AXI4_READ  ID=0x1  ADDR=0xacf57929  LEN=16
# UVM_INFO ../src/slv/axi4_slave_driver.sv(300) @ 19645000: uvm_test_top.env.slave_agent.drv [axi4_slave_driver] AR received: ID=0x1 ADDR=0xacf57929 LEN=16 LOCK=AXI4_LOCK_EXCLUSIVE
# UVM_INFO ../src/mst/axi4_master_monitor.sv(246) @ 19645000: uvm_test_top.env.master_agent.mon [axi4_master_monitor] AR observed: ID=0x1 ADDR=0xacf57929 LEN=16
# UVM_INFO ../src/slv/axi4_slave_monitor.sv(224) @ 19645000: uvm_test_top.env.slave_agent.mon [axi4_slave_monitor] AR received: ID=0x1 ADDR=0xacf57929 LEN=16
# UVM_INFO ../src/mst/axi4_master_driver.sv(254) @ 19985000: uvm_test_top.env.master_agent.drv [axi4_master_driver] Read complete: 17 beats received
# UVM_INFO ../src/slv/axi4_slave_driver.sv(349) @ 19985000: uvm_test_top.env.slave_agent.drv [axi4_slave_driver] Read complete: ID=0x1 ADDR=0xacf57929 RESP=AXI4_RESP_EXOKAY  17 beats sent
# UVM_INFO ../src/mst/axi4_master_monitor.sv(314) @ 19985000: uvm_test_top.env.master_agent.mon [axi4_master_monitor] Read complete: ID=0x1 ADDR=0xacf57929 17 beats
# UVM_INFO ../src/env/axi4_scoreboard.sv(82) @ 19985000: uvm_test_top.env.scb [axi4_scoreboard] Master AXI4_READ received: ID=0x1 ADDR=0xacf57929 LEN=16
# UVM_INFO ../src/slv/axi4_slave_monitor.sv(287) @ 19985000: uvm_test_top.env.slave_agent.mon [axi4_slave_monitor] Read data sent: ID=0x1 ADDR=0xacf57929 17 beats
# UVM_INFO ../src/env/axi4_scoreboard.sv(103) @ 19985000: uvm_test_top.env.scb [axi4_scoreboard] Slave AXI4_READ received: ID=0x1 ADDR=0xacf57929 LEN=16
# UVM_INFO ../src/env/axi4_scoreboard.sv(154) @ 19985000: uvm_test_top.env.scb [axi4_scoreboard] [READ] MATCH #14: ID=0x1 ADDR=0xacf57929 LEN=16
# UVM_INFO ../src/seq/axi4_outstanding_seq.sv(106) @ 19985000: uvm_test_top.env.master_agent.sqr@@outstanding_seq [axi4_outstanding_seq] Outstanding Read [#5] complete: ID=0x1
# UVM_INFO ../src/seq/axi4_outstanding_seq.sv(100) @ 19985000: uvm_test_top.env.master_agent.sqr@@outstanding_seq [axi4_outstanding_seq] Outstanding Read [#6] started: ID=0x7 ADDR=0x69fad59f LEN=20
# UVM_INFO ../src/mst/axi4_master_driver.sv(55) @ 19985000: uvm_test_top.env.master_agent.drv [axi4_master_driver] Driving AXI4_READ  ID=0x7  ADDR=0x69fad59f  LEN=20
# UVM_INFO ../src/slv/axi4_slave_driver.sv(300) @ 20015000: uvm_test_top.env.slave_agent.drv [axi4_slave_driver] AR received: ID=0x7 ADDR=0x69fad59f LEN=20 LOCK=AXI4_LOCK_EXCLUSIVE
# UVM_INFO ../src/slv/axi4_slave_monitor.sv(224) @ 20015000: uvm_test_top.env.slave_agent.mon [axi4_slave_monitor] AR received: ID=0x7 ADDR=0x69fad59f LEN=20
# UVM_INFO ../src/mst/axi4_master_monitor.sv(246) @ 20015000: uvm_test_top.env.master_agent.mon [axi4_master_monitor] AR observed: ID=0x7 ADDR=0x69fad59f LEN=20
# UVM_INFO ../src/mst/axi4_master_driver.sv(254) @ 20435000: uvm_test_top.env.master_agent.drv [axi4_master_driver] Read complete: 21 beats received
# UVM_INFO ../src/slv/axi4_slave_driver.sv(349) @ 20435000: uvm_test_top.env.slave_agent.drv [axi4_slave_driver] Read complete: ID=0x7 ADDR=0x69fad59f RESP=AXI4_RESP_EXOKAY  21 beats sent
# UVM_INFO ../src/slv/axi4_slave_monitor.sv(287) @ 20435000: uvm_test_top.env.slave_agent.mon [axi4_slave_monitor] Read data sent: ID=0x7 ADDR=0x69fad59f 21 beats
# UVM_INFO ../src/env/axi4_scoreboard.sv(103) @ 20435000: uvm_test_top.env.scb [axi4_scoreboard] Slave AXI4_READ received: ID=0x7 ADDR=0x69fad59f LEN=20
# UVM_INFO ../src/mst/axi4_master_monitor.sv(314) @ 20435000: uvm_test_top.env.master_agent.mon [axi4_master_monitor] Read complete: ID=0x7 ADDR=0x69fad59f 21 beats
# UVM_INFO ../src/env/axi4_scoreboard.sv(82) @ 20435000: uvm_test_top.env.scb [axi4_scoreboard] Master AXI4_READ received: ID=0x7 ADDR=0x69fad59f LEN=20
# UVM_INFO ../src/env/axi4_scoreboard.sv(154) @ 20435000: uvm_test_top.env.scb [axi4_scoreboard] [READ] MATCH #15: ID=0x7 ADDR=0x69fad59f LEN=20
# UVM_INFO ../src/seq/axi4_outstanding_seq.sv(106) @ 20435000: uvm_test_top.env.master_agent.sqr@@outstanding_seq [axi4_outstanding_seq] Outstanding Read [#6] complete: ID=0x7
# UVM_INFO ../src/seq/axi4_outstanding_seq.sv(100) @ 20435000: uvm_test_top.env.master_agent.sqr@@outstanding_seq [axi4_outstanding_seq] Outstanding Read [#7] started: ID=0x2 ADDR=0x8084c30c LEN=245
# UVM_INFO ../src/mst/axi4_master_driver.sv(55) @ 20435000: uvm_test_top.env.master_agent.drv [axi4_master_driver] Driving AXI4_READ  ID=0x2  ADDR=0x8084c30c  LEN=245
# UVM_INFO ../src/slv/axi4_slave_driver.sv(300) @ 20465000: uvm_test_top.env.slave_agent.drv [axi4_slave_driver] AR received: ID=0x2 ADDR=0x8084c30c LEN=245 LOCK=AXI4_LOCK_NORMAL
# UVM_INFO ../src/mst/axi4_master_monitor.sv(246) @ 20465000: uvm_test_top.env.master_agent.mon [axi4_master_monitor] AR observed: ID=0x2 ADDR=0x8084c30c LEN=245
# UVM_INFO ../src/slv/axi4_slave_monitor.sv(224) @ 20465000: uvm_test_top.env.slave_agent.mon [axi4_slave_monitor] AR received: ID=0x2 ADDR=0x8084c30c LEN=245
# UVM_INFO ../src/mst/axi4_master_driver.sv(254) @ 25385000: uvm_test_top.env.master_agent.drv [axi4_master_driver] Read complete: 246 beats received
# UVM_INFO ../src/slv/axi4_slave_driver.sv(349) @ 25385000: uvm_test_top.env.slave_agent.drv [axi4_slave_driver] Read complete: ID=0x2 ADDR=0x8084c30c RESP=AXI4_RESP_OKAY  246 beats sent
# UVM_INFO ../src/mst/axi4_master_monitor.sv(314) @ 25385000: uvm_test_top.env.master_agent.mon [axi4_master_monitor] Read complete: ID=0x2 ADDR=0x8084c30c 246 beats
# UVM_INFO ../src/env/axi4_scoreboard.sv(82) @ 25385000: uvm_test_top.env.scb [axi4_scoreboard] Master AXI4_READ received: ID=0x2 ADDR=0x8084c30c LEN=245
# UVM_INFO ../src/slv/axi4_slave_monitor.sv(287) @ 25385000: uvm_test_top.env.slave_agent.mon [axi4_slave_monitor] Read data sent: ID=0x2 ADDR=0x8084c30c 246 beats
# UVM_INFO ../src/env/axi4_scoreboard.sv(103) @ 25385000: uvm_test_top.env.scb [axi4_scoreboard] Slave AXI4_READ received: ID=0x2 ADDR=0x8084c30c LEN=245
# UVM_INFO ../src/env/axi4_scoreboard.sv(154) @ 25385000: uvm_test_top.env.scb [axi4_scoreboard] [READ] MATCH #16: ID=0x2 ADDR=0x8084c30c LEN=245
# UVM_INFO ../src/seq/axi4_outstanding_seq.sv(106) @ 25385000: uvm_test_top.env.master_agent.sqr@@outstanding_seq [axi4_outstanding_seq] Outstanding Read [#7] complete: ID=0x2
# UVM_INFO ../src/seq/axi4_outstanding_seq.sv(65) @ 25385000: uvm_test_top.env.master_agent.sqr@@outstanding_seq [axi4_outstanding_seq] Outstanding Write [#8] started: ID=0x7 ADDR=0x8a49eb35 LEN=241
# UVM_INFO ../src/mst/axi4_master_driver.sv(55) @ 25385000: uvm_test_top.env.master_agent.drv [axi4_master_driver] Driving AXI4_WRITE  ID=0x7  ADDR=0x8a49eb35  LEN=241
# UVM_INFO ../src/mst/axi4_master_driver.sv(94) @ 25385000: uvm_test_top.env.master_agent.drv [axi4_master_driver] Write order: AW || W (parallel)
# UVM_INFO ../src/slv/axi4_slave_driver.sv(165) @ 25415000: uvm_test_top.env.slave_agent.drv [axi4_slave_driver] AW received: ID=0x7 ADDR=0x8a49eb35 LEN=241 LOCK=AXI4_LOCK_EXCLUSIVE
# UVM_INFO ../src/slv/axi4_slave_monitor.sv(116) @ 25415000: uvm_test_top.env.slave_agent.mon [axi4_slave_monitor] AW received: ID=0x7 ADDR=0x8a49eb35 LEN=241
# UVM_INFO ../src/mst/axi4_master_monitor.sv(124) @ 25415000: uvm_test_top.env.master_agent.mon [axi4_master_monitor] AW observed: ID=0x7 ADDR=0x8a49eb35 LEN=241
# UVM_INFO ../src/mst/axi4_master_monitor.sv(184) @ 30225000: uvm_test_top.env.master_agent.mon [axi4_master_monitor] W data assembled: ID=0x7 ADDR=0x8a49eb35 242 beats
# UVM_INFO ../src/slv/axi4_slave_monitor.sv(167) @ 30225000: uvm_test_top.env.slave_agent.mon [axi4_slave_monitor] W data assembled: ID=0x7 ADDR=0x8a49eb35 242 beats
# UVM_INFO ../src/mst/axi4_master_driver.sv(197) @ 30255000: uvm_test_top.env.master_agent.drv [axi4_master_driver] Write response: AXI4_RESP_OKAY
# UVM_INFO ../src/slv/axi4_slave_driver.sv(261) @ 30255000: uvm_test_top.env.slave_agent.drv [axi4_slave_driver] Write complete: ID=0x7 ADDR=0x8a49eb35 RESP=AXI4_RESP_OKAY  242 beats processed
# UVM_INFO ../src/slv/axi4_slave_monitor.sv(189) @ 30255000: uvm_test_top.env.slave_agent.mon [axi4_slave_monitor] Write response sent: ID=0x7 ADDR=0x8a49eb35 RESP=AXI4_RESP_OKAY
# UVM_INFO ../src/env/axi4_scoreboard.sv(103) @ 30255000: uvm_test_top.env.scb [axi4_scoreboard] Slave AXI4_WRITE received: ID=0x7 ADDR=0x8a49eb35 LEN=241
# UVM_INFO ../src/mst/axi4_master_monitor.sv(210) @ 30255000: uvm_test_top.env.master_agent.mon [axi4_master_monitor] Write complete: ID=0x7 ADDR=0x8a49eb35 RESP=AXI4_RESP_OKAY
# UVM_INFO ../src/env/axi4_scoreboard.sv(82) @ 30255000: uvm_test_top.env.scb [axi4_scoreboard] Master AXI4_WRITE received: ID=0x7 ADDR=0x8a49eb35 LEN=241
# UVM_INFO ../src/env/axi4_scoreboard.sv(154) @ 30255000: uvm_test_top.env.scb [axi4_scoreboard] [WRITE] MATCH #17: ID=0x7 ADDR=0x8a49eb35 LEN=241
# UVM_INFO ../src/seq/axi4_outstanding_seq.sv(71) @ 30255000: uvm_test_top.env.master_agent.sqr@@outstanding_seq [axi4_outstanding_seq] Outstanding Write [#8] complete: ID=0x7
# UVM_INFO ../src/seq/axi4_outstanding_seq.sv(65) @ 30255000: uvm_test_top.env.master_agent.sqr@@outstanding_seq [axi4_outstanding_seq] Outstanding Write [#9] started: ID=0xf ADDR=0x9b3b2f5b LEN=180
# UVM_INFO ../src/mst/axi4_master_driver.sv(55) @ 30255000: uvm_test_top.env.master_agent.drv [axi4_master_driver] Driving AXI4_WRITE  ID=0xf  ADDR=0x9b3b2f5b  LEN=180
# UVM_INFO ../src/mst/axi4_master_driver.sv(94) @ 30255000: uvm_test_top.env.master_agent.drv [axi4_master_driver] Write order: AW || W (parallel)
# UVM_INFO ../src/slv/axi4_slave_driver.sv(165) @ 30285000: uvm_test_top.env.slave_agent.drv [axi4_slave_driver] AW received: ID=0xf ADDR=0x9b3b2f5b LEN=180 LOCK=AXI4_LOCK_NORMAL
# UVM_INFO ../src/mst/axi4_master_monitor.sv(124) @ 30285000: uvm_test_top.env.master_agent.mon [axi4_master_monitor] AW observed: ID=0xf ADDR=0x9b3b2f5b LEN=180
# UVM_INFO ../src/slv/axi4_slave_monitor.sv(116) @ 30285000: uvm_test_top.env.slave_agent.mon [axi4_slave_monitor] AW received: ID=0xf ADDR=0x9b3b2f5b LEN=180
# UVM_INFO ../src/slv/axi4_slave_monitor.sv(167) @ 33875000: uvm_test_top.env.slave_agent.mon [axi4_slave_monitor] W data assembled: ID=0xf ADDR=0x9b3b2f5b 181 beats
# UVM_INFO ../src/mst/axi4_master_monitor.sv(184) @ 33875000: uvm_test_top.env.master_agent.mon [axi4_master_monitor] W data assembled: ID=0xf ADDR=0x9b3b2f5b 181 beats
# UVM_INFO ../src/mst/axi4_master_driver.sv(197) @ 33905000: uvm_test_top.env.master_agent.drv [axi4_master_driver] Write response: AXI4_RESP_OKAY
# UVM_INFO ../src/slv/axi4_slave_driver.sv(261) @ 33905000: uvm_test_top.env.slave_agent.drv [axi4_slave_driver] Write complete: ID=0xf ADDR=0x9b3b2f5b RESP=AXI4_RESP_OKAY  181 beats processed
# UVM_INFO ../src/mst/axi4_master_monitor.sv(210) @ 33905000: uvm_test_top.env.master_agent.mon [axi4_master_monitor] Write complete: ID=0xf ADDR=0x9b3b2f5b RESP=AXI4_RESP_OKAY
# UVM_INFO ../src/env/axi4_scoreboard.sv(82) @ 33905000: uvm_test_top.env.scb [axi4_scoreboard] Master AXI4_WRITE received: ID=0xf ADDR=0x9b3b2f5b LEN=180
# UVM_INFO ../src/slv/axi4_slave_monitor.sv(189) @ 33905000: uvm_test_top.env.slave_agent.mon [axi4_slave_monitor] Write response sent: ID=0xf ADDR=0x9b3b2f5b RESP=AXI4_RESP_OKAY
# UVM_INFO ../src/env/axi4_scoreboard.sv(103) @ 33905000: uvm_test_top.env.scb [axi4_scoreboard] Slave AXI4_WRITE received: ID=0xf ADDR=0x9b3b2f5b LEN=180
# UVM_INFO ../src/env/axi4_scoreboard.sv(154) @ 33905000: uvm_test_top.env.scb [axi4_scoreboard] [WRITE] MATCH #18: ID=0xf ADDR=0x9b3b2f5b LEN=180
# UVM_INFO ../src/seq/axi4_outstanding_seq.sv(71) @ 33905000: uvm_test_top.env.master_agent.sqr@@outstanding_seq [axi4_outstanding_seq] Outstanding Write [#9] complete: ID=0xf
# UVM_INFO ../src/seq/axi4_outstanding_seq.sv(65) @ 33905000: uvm_test_top.env.master_agent.sqr@@outstanding_seq [axi4_outstanding_seq] Outstanding Write [#10] started: ID=0x8 ADDR=0xf72bb1fb LEN=11
# UVM_INFO ../src/mst/axi4_master_driver.sv(55) @ 33905000: uvm_test_top.env.master_agent.drv [axi4_master_driver] Driving AXI4_WRITE  ID=0x8  ADDR=0xf72bb1fb  LEN=11
# UVM_INFO ../src/mst/axi4_master_driver.sv(94) @ 33905000: uvm_test_top.env.master_agent.drv [axi4_master_driver] Write order: AW || W (parallel)
# UVM_INFO ../src/slv/axi4_slave_driver.sv(165) @ 33935000: uvm_test_top.env.slave_agent.drv [axi4_slave_driver] AW received: ID=0x8 ADDR=0xf72bb1fb LEN=11 LOCK=AXI4_LOCK_NORMAL
# UVM_INFO ../src/slv/axi4_slave_monitor.sv(116) @ 33935000: uvm_test_top.env.slave_agent.mon [axi4_slave_monitor] AW received: ID=0x8 ADDR=0xf72bb1fb LEN=11
# UVM_INFO ../src/mst/axi4_master_monitor.sv(124) @ 33935000: uvm_test_top.env.master_agent.mon [axi4_master_monitor] AW observed: ID=0x8 ADDR=0xf72bb1fb LEN=11
# UVM_INFO ../src/mst/axi4_master_monitor.sv(184) @ 34145000: uvm_test_top.env.master_agent.mon [axi4_master_monitor] W data assembled: ID=0x8 ADDR=0xf72bb1fb 12 beats
# UVM_INFO ../src/slv/axi4_slave_monitor.sv(167) @ 34145000: uvm_test_top.env.slave_agent.mon [axi4_slave_monitor] W data assembled: ID=0x8 ADDR=0xf72bb1fb 12 beats
# UVM_INFO ../src/mst/axi4_master_driver.sv(197) @ 34175000: uvm_test_top.env.master_agent.drv [axi4_master_driver] Write response: AXI4_RESP_DECERR
# UVM_INFO ../src/slv/axi4_slave_driver.sv(261) @ 34175000: uvm_test_top.env.slave_agent.drv [axi4_slave_driver] Write complete: ID=0x8 ADDR=0xf72bb1fb RESP=AXI4_RESP_DECERR  12 beats processed
# UVM_INFO ../src/slv/axi4_slave_monitor.sv(189) @ 34175000: uvm_test_top.env.slave_agent.mon [axi4_slave_monitor] Write response sent: ID=0x8 ADDR=0xf72bb1fb RESP=AXI4_RESP_DECERR
# UVM_INFO ../src/env/axi4_scoreboard.sv(103) @ 34175000: uvm_test_top.env.scb [axi4_scoreboard] Slave AXI4_WRITE received: ID=0x8 ADDR=0xf72bb1fb LEN=11
# UVM_INFO ../src/mst/axi4_master_monitor.sv(210) @ 34175000: uvm_test_top.env.master_agent.mon [axi4_master_monitor] Write complete: ID=0x8 ADDR=0xf72bb1fb RESP=AXI4_RESP_DECERR
# UVM_INFO ../src/env/axi4_scoreboard.sv(82) @ 34175000: uvm_test_top.env.scb [axi4_scoreboard] Master AXI4_WRITE received: ID=0x8 ADDR=0xf72bb1fb LEN=11
# UVM_INFO ../src/env/axi4_scoreboard.sv(154) @ 34175000: uvm_test_top.env.scb [axi4_scoreboard] [WRITE] MATCH #19: ID=0x8 ADDR=0xf72bb1fb LEN=11
# UVM_INFO ../src/seq/axi4_outstanding_seq.sv(71) @ 34175000: uvm_test_top.env.master_agent.sqr@@outstanding_seq [axi4_outstanding_seq] Outstanding Write [#10] complete: ID=0x8
# UVM_INFO ../src/seq/axi4_outstanding_seq.sv(65) @ 34175000: uvm_test_top.env.master_agent.sqr@@outstanding_seq [axi4_outstanding_seq] Outstanding Write [#11] started: ID=0xb ADDR=0xa744a03d LEN=255
# UVM_INFO ../src/mst/axi4_master_driver.sv(55) @ 34175000: uvm_test_top.env.master_agent.drv [axi4_master_driver] Driving AXI4_WRITE  ID=0xb  ADDR=0xa744a03d  LEN=255
# UVM_INFO ../src/mst/axi4_master_driver.sv(101) @ 34175000: uvm_test_top.env.master_agent.drv [axi4_master_driver] Write order: AW -> W (sequential)
# UVM_INFO ../src/slv/axi4_slave_driver.sv(165) @ 34205000: uvm_test_top.env.slave_agent.drv [axi4_slave_driver] AW received: ID=0xb ADDR=0xa744a03d LEN=255 LOCK=AXI4_LOCK_EXCLUSIVE
# UVM_INFO ../src/mst/axi4_master_monitor.sv(124) @ 34205000: uvm_test_top.env.master_agent.mon [axi4_master_monitor] AW observed: ID=0xb ADDR=0xa744a03d LEN=255
# UVM_INFO ../src/slv/axi4_slave_monitor.sv(116) @ 34205000: uvm_test_top.env.slave_agent.mon [axi4_slave_monitor] AW received: ID=0xb ADDR=0xa744a03d LEN=255
# UVM_INFO ../src/mst/axi4_master_monitor.sv(184) @ 39325000: uvm_test_top.env.master_agent.mon [axi4_master_monitor] W data assembled: ID=0xb ADDR=0xa744a03d 256 beats
# UVM_INFO ../src/slv/axi4_slave_monitor.sv(167) @ 39325000: uvm_test_top.env.slave_agent.mon [axi4_slave_monitor] W data assembled: ID=0xb ADDR=0xa744a03d 256 beats
# UVM_INFO ../src/mst/axi4_master_driver.sv(197) @ 39355000: uvm_test_top.env.master_agent.drv [axi4_master_driver] Write response: AXI4_RESP_OKAY
# UVM_INFO ../src/slv/axi4_slave_driver.sv(261) @ 39355000: uvm_test_top.env.slave_agent.drv [axi4_slave_driver] Write complete: ID=0xb ADDR=0xa744a03d RESP=AXI4_RESP_OKAY  256 beats processed
# UVM_INFO ../src/slv/axi4_slave_monitor.sv(189) @ 39355000: uvm_test_top.env.slave_agent.mon [axi4_slave_monitor] Write response sent: ID=0xb ADDR=0xa744a03d RESP=AXI4_RESP_OKAY
# UVM_INFO ../src/env/axi4_scoreboard.sv(103) @ 39355000: uvm_test_top.env.scb [axi4_scoreboard] Slave AXI4_WRITE received: ID=0xb ADDR=0xa744a03d LEN=255
# UVM_INFO ../src/mst/axi4_master_monitor.sv(210) @ 39355000: uvm_test_top.env.master_agent.mon [axi4_master_monitor] Write complete: ID=0xb ADDR=0xa744a03d RESP=AXI4_RESP_OKAY
# UVM_INFO ../src/env/axi4_scoreboard.sv(82) @ 39355000: uvm_test_top.env.scb [axi4_scoreboard] Master AXI4_WRITE received: ID=0xb ADDR=0xa744a03d LEN=255
# UVM_INFO ../src/env/axi4_scoreboard.sv(154) @ 39355000: uvm_test_top.env.scb [axi4_scoreboard] [WRITE] MATCH #20: ID=0xb ADDR=0xa744a03d LEN=255
# UVM_INFO ../src/seq/axi4_outstanding_seq.sv(71) @ 39355000: uvm_test_top.env.master_agent.sqr@@outstanding_seq [axi4_outstanding_seq] Outstanding Write [#11] complete: ID=0xb
# UVM_INFO ../src/seq/axi4_outstanding_seq.sv(100) @ 39355000: uvm_test_top.env.master_agent.sqr@@outstanding_seq [axi4_outstanding_seq] Outstanding Read [#8] started: ID=0xb ADDR=0xbbde499d LEN=91
# UVM_INFO ../src/mst/axi4_master_driver.sv(55) @ 39355000: uvm_test_top.env.master_agent.drv [axi4_master_driver] Driving AXI4_READ  ID=0xb  ADDR=0xbbde499d  LEN=91
# UVM_INFO ../src/slv/axi4_slave_driver.sv(300) @ 39385000: uvm_test_top.env.slave_agent.drv [axi4_slave_driver] AR received: ID=0xb ADDR=0xbbde499d LEN=91 LOCK=AXI4_LOCK_NORMAL
# UVM_INFO ../src/mst/axi4_master_monitor.sv(246) @ 39385000: uvm_test_top.env.master_agent.mon [axi4_master_monitor] AR observed: ID=0xb ADDR=0xbbde499d LEN=91
# UVM_INFO ../src/slv/axi4_slave_monitor.sv(224) @ 39385000: uvm_test_top.env.slave_agent.mon [axi4_slave_monitor] AR received: ID=0xb ADDR=0xbbde499d LEN=91
# UVM_INFO ../src/mst/axi4_master_driver.sv(254) @ 41225000: uvm_test_top.env.master_agent.drv [axi4_master_driver] Read complete: 92 beats received
# UVM_INFO ../src/slv/axi4_slave_driver.sv(349) @ 41225000: uvm_test_top.env.slave_agent.drv [axi4_slave_driver] Read complete: ID=0xb ADDR=0xbbde499d RESP=AXI4_RESP_OKAY  92 beats sent
# UVM_INFO ../src/mst/axi4_master_monitor.sv(314) @ 41225000: uvm_test_top.env.master_agent.mon [axi4_master_monitor] Read complete: ID=0xb ADDR=0xbbde499d 92 beats
# UVM_INFO ../src/env/axi4_scoreboard.sv(82) @ 41225000: uvm_test_top.env.scb [axi4_scoreboard] Master AXI4_READ received: ID=0xb ADDR=0xbbde499d LEN=91
# UVM_INFO ../src/slv/axi4_slave_monitor.sv(287) @ 41225000: uvm_test_top.env.slave_agent.mon [axi4_slave_monitor] Read data sent: ID=0xb ADDR=0xbbde499d 92 beats
# UVM_INFO ../src/env/axi4_scoreboard.sv(103) @ 41225000: uvm_test_top.env.scb [axi4_scoreboard] Slave AXI4_READ received: ID=0xb ADDR=0xbbde499d LEN=91
# UVM_INFO ../src/env/axi4_scoreboard.sv(154) @ 41225000: uvm_test_top.env.scb [axi4_scoreboard] [READ] MATCH #21: ID=0xb ADDR=0xbbde499d LEN=91
# UVM_INFO ../src/seq/axi4_outstanding_seq.sv(106) @ 41225000: uvm_test_top.env.master_agent.sqr@@outstanding_seq [axi4_outstanding_seq] Outstanding Read [#8] complete: ID=0xb
# UVM_INFO ../src/seq/axi4_outstanding_seq.sv(100) @ 41225000: uvm_test_top.env.master_agent.sqr@@outstanding_seq [axi4_outstanding_seq] Outstanding Read [#9] started: ID=0x1 ADDR=0xc9d186e0 LEN=7
# UVM_INFO ../src/mst/axi4_master_driver.sv(55) @ 41225000: uvm_test_top.env.master_agent.drv [axi4_master_driver] Driving AXI4_READ  ID=0x1  ADDR=0xc9d186e0  LEN=7
# UVM_INFO ../src/slv/axi4_slave_driver.sv(300) @ 41255000: uvm_test_top.env.slave_agent.drv [axi4_slave_driver] AR received: ID=0x1 ADDR=0xc9d186e0 LEN=7 LOCK=AXI4_LOCK_NORMAL
# UVM_INFO ../src/slv/axi4_slave_monitor.sv(224) @ 41255000: uvm_test_top.env.slave_agent.mon [axi4_slave_monitor] AR received: ID=0x1 ADDR=0xc9d186e0 LEN=7
# UVM_INFO ../src/mst/axi4_master_monitor.sv(246) @ 41255000: uvm_test_top.env.master_agent.mon [axi4_master_monitor] AR observed: ID=0x1 ADDR=0xc9d186e0 LEN=7
# UVM_INFO ../src/mst/axi4_master_driver.sv(254) @ 41415000: uvm_test_top.env.master_agent.drv [axi4_master_driver] Read complete: 8 beats received
# UVM_INFO ../src/slv/axi4_slave_driver.sv(349) @ 41415000: uvm_test_top.env.slave_agent.drv [axi4_slave_driver] Read complete: ID=0x1 ADDR=0xc9d186e0 RESP=AXI4_RESP_OKAY  8 beats sent
# UVM_INFO ../src/slv/axi4_slave_monitor.sv(287) @ 41415000: uvm_test_top.env.slave_agent.mon [axi4_slave_monitor] Read data sent: ID=0x1 ADDR=0xc9d186e0 8 beats
# UVM_INFO ../src/env/axi4_scoreboard.sv(103) @ 41415000: uvm_test_top.env.scb [axi4_scoreboard] Slave AXI4_READ received: ID=0x1 ADDR=0xc9d186e0 LEN=7
# UVM_INFO ../src/mst/axi4_master_monitor.sv(314) @ 41415000: uvm_test_top.env.master_agent.mon [axi4_master_monitor] Read complete: ID=0x1 ADDR=0xc9d186e0 8 beats
# UVM_INFO ../src/env/axi4_scoreboard.sv(82) @ 41415000: uvm_test_top.env.scb [axi4_scoreboard] Master AXI4_READ received: ID=0x1 ADDR=0xc9d186e0 LEN=7
# UVM_INFO ../src/env/axi4_scoreboard.sv(154) @ 41415000: uvm_test_top.env.scb [axi4_scoreboard] [READ] MATCH #22: ID=0x1 ADDR=0xc9d186e0 LEN=7
# UVM_INFO ../src/seq/axi4_outstanding_seq.sv(106) @ 41415000: uvm_test_top.env.master_agent.sqr@@outstanding_seq [axi4_outstanding_seq] Outstanding Read [#9] complete: ID=0x1
# UVM_INFO ../src/seq/axi4_outstanding_seq.sv(100) @ 41415000: uvm_test_top.env.master_agent.sqr@@outstanding_seq [axi4_outstanding_seq] Outstanding Read [#10] started: ID=0xe ADDR=0x8c489708 LEN=109
# UVM_INFO ../src/mst/axi4_master_driver.sv(55) @ 41415000: uvm_test_top.env.master_agent.drv [axi4_master_driver] Driving AXI4_READ  ID=0xe  ADDR=0x8c489708  LEN=109
# UVM_INFO ../src/slv/axi4_slave_driver.sv(300) @ 41445000: uvm_test_top.env.slave_agent.drv [axi4_slave_driver] AR received: ID=0xe ADDR=0x8c489708 LEN=109 LOCK=AXI4_LOCK_NORMAL
# UVM_INFO ../src/mst/axi4_master_monitor.sv(246) @ 41445000: uvm_test_top.env.master_agent.mon [axi4_master_monitor] AR observed: ID=0xe ADDR=0x8c489708 LEN=109
# UVM_INFO ../src/slv/axi4_slave_monitor.sv(224) @ 41445000: uvm_test_top.env.slave_agent.mon [axi4_slave_monitor] AR received: ID=0xe ADDR=0x8c489708 LEN=109
# UVM_INFO ../src/mst/axi4_master_driver.sv(254) @ 43645000: uvm_test_top.env.master_agent.drv [axi4_master_driver] Read complete: 110 beats received
# UVM_INFO ../src/slv/axi4_slave_driver.sv(349) @ 43645000: uvm_test_top.env.slave_agent.drv [axi4_slave_driver] Read complete: ID=0xe ADDR=0x8c489708 RESP=AXI4_RESP_OKAY  110 beats sent
# UVM_INFO ../src/mst/axi4_master_monitor.sv(314) @ 43645000: uvm_test_top.env.master_agent.mon [axi4_master_monitor] Read complete: ID=0xe ADDR=0x8c489708 110 beats
# UVM_INFO ../src/env/axi4_scoreboard.sv(82) @ 43645000: uvm_test_top.env.scb [axi4_scoreboard] Master AXI4_READ received: ID=0xe ADDR=0x8c489708 LEN=109
# UVM_INFO ../src/slv/axi4_slave_monitor.sv(287) @ 43645000: uvm_test_top.env.slave_agent.mon [axi4_slave_monitor] Read data sent: ID=0xe ADDR=0x8c489708 110 beats
# UVM_INFO ../src/env/axi4_scoreboard.sv(103) @ 43645000: uvm_test_top.env.scb [axi4_scoreboard] Slave AXI4_READ received: ID=0xe ADDR=0x8c489708 LEN=109
# UVM_INFO ../src/env/axi4_scoreboard.sv(154) @ 43645000: uvm_test_top.env.scb [axi4_scoreboard] [READ] MATCH #23: ID=0xe ADDR=0x8c489708 LEN=109
# UVM_INFO ../src/seq/axi4_outstanding_seq.sv(106) @ 43645000: uvm_test_top.env.master_agent.sqr@@outstanding_seq [axi4_outstanding_seq] Outstanding Read [#10] complete: ID=0xe
# UVM_INFO ../src/seq/axi4_outstanding_seq.sv(100) @ 43645000: uvm_test_top.env.master_agent.sqr@@outstanding_seq [axi4_outstanding_seq] Outstanding Read [#11] started: ID=0x3 ADDR=0x35e47e7f LEN=24
# UVM_INFO ../src/mst/axi4_master_driver.sv(55) @ 43645000: uvm_test_top.env.master_agent.drv [axi4_master_driver] Driving AXI4_READ  ID=0x3  ADDR=0x35e47e7f  LEN=24
# UVM_INFO ../src/slv/axi4_slave_driver.sv(300) @ 43675000: uvm_test_top.env.slave_agent.drv [axi4_slave_driver] AR received: ID=0x3 ADDR=0x35e47e7f LEN=24 LOCK=AXI4_LOCK_NORMAL
# UVM_INFO ../src/slv/axi4_slave_monitor.sv(224) @ 43675000: uvm_test_top.env.slave_agent.mon [axi4_slave_monitor] AR received: ID=0x3 ADDR=0x35e47e7f LEN=24
# UVM_INFO ../src/mst/axi4_master_monitor.sv(246) @ 43675000: uvm_test_top.env.master_agent.mon [axi4_master_monitor] AR observed: ID=0x3 ADDR=0x35e47e7f LEN=24
# UVM_INFO ../src/mst/axi4_master_driver.sv(254) @ 44175000: uvm_test_top.env.master_agent.drv [axi4_master_driver] Read complete: 25 beats received
# UVM_INFO ../src/slv/axi4_slave_driver.sv(349) @ 44175000: uvm_test_top.env.slave_agent.drv [axi4_slave_driver] Read complete: ID=0x3 ADDR=0x35e47e7f RESP=AXI4_RESP_OKAY  25 beats sent
# UVM_INFO ../src/slv/axi4_slave_monitor.sv(287) @ 44175000: uvm_test_top.env.slave_agent.mon [axi4_slave_monitor] Read data sent: ID=0x3 ADDR=0x35e47e7f 25 beats
# UVM_INFO ../src/env/axi4_scoreboard.sv(103) @ 44175000: uvm_test_top.env.scb [axi4_scoreboard] Slave AXI4_READ received: ID=0x3 ADDR=0x35e47e7f LEN=24
# UVM_INFO ../src/mst/axi4_master_monitor.sv(314) @ 44175000: uvm_test_top.env.master_agent.mon [axi4_master_monitor] Read complete: ID=0x3 ADDR=0x35e47e7f 25 beats
# UVM_INFO ../src/env/axi4_scoreboard.sv(82) @ 44175000: uvm_test_top.env.scb [axi4_scoreboard] Master AXI4_READ received: ID=0x3 ADDR=0x35e47e7f LEN=24
# UVM_INFO ../src/env/axi4_scoreboard.sv(154) @ 44175000: uvm_test_top.env.scb [axi4_scoreboard] [READ] MATCH #24: ID=0x3 ADDR=0x35e47e7f LEN=24
# UVM_INFO ../src/seq/axi4_outstanding_seq.sv(106) @ 44175000: uvm_test_top.env.master_agent.sqr@@outstanding_seq [axi4_outstanding_seq] Outstanding Read [#11] complete: ID=0x3
# UVM_INFO ../src/seq/axi4_outstanding_seq.sv(65) @ 44175000: uvm_test_top.env.master_agent.sqr@@outstanding_seq [axi4_outstanding_seq] Outstanding Write [#12] started: ID=0x8 ADDR=0xf0cbadfa LEN=65
# UVM_INFO ../src/mst/axi4_master_driver.sv(55) @ 44175000: uvm_test_top.env.master_agent.drv [axi4_master_driver] Driving AXI4_WRITE  ID=0x8  ADDR=0xf0cbadfa  LEN=65
# UVM_INFO ../src/mst/axi4_master_driver.sv(94) @ 44175000: uvm_test_top.env.master_agent.drv [axi4_master_driver] Write order: AW || W (parallel)
# UVM_INFO ../src/slv/axi4_slave_driver.sv(165) @ 44205000: uvm_test_top.env.slave_agent.drv [axi4_slave_driver] AW received: ID=0x8 ADDR=0xf0cbadfa LEN=65 LOCK=AXI4_LOCK_EXCLUSIVE
# UVM_INFO ../src/mst/axi4_master_monitor.sv(124) @ 44205000: uvm_test_top.env.master_agent.mon [axi4_master_monitor] AW observed: ID=0x8 ADDR=0xf0cbadfa LEN=65
# UVM_INFO ../src/slv/axi4_slave_monitor.sv(116) @ 44205000: uvm_test_top.env.slave_agent.mon [axi4_slave_monitor] AW received: ID=0x8 ADDR=0xf0cbadfa LEN=65
# UVM_INFO ../src/slv/axi4_slave_monitor.sv(167) @ 45495000: uvm_test_top.env.slave_agent.mon [axi4_slave_monitor] W data assembled: ID=0x8 ADDR=0xf0cbadfa 66 beats
# UVM_INFO ../src/mst/axi4_master_monitor.sv(184) @ 45495000: uvm_test_top.env.master_agent.mon [axi4_master_monitor] W data assembled: ID=0x8 ADDR=0xf0cbadfa 66 beats
# UVM_INFO ../src/mst/axi4_master_driver.sv(197) @ 45525000: uvm_test_top.env.master_agent.drv [axi4_master_driver] Write response: AXI4_RESP_DECERR
# UVM_INFO ../src/slv/axi4_slave_driver.sv(261) @ 45525000: uvm_test_top.env.slave_agent.drv [axi4_slave_driver] Write complete: ID=0x8 ADDR=0xf0cbadfa RESP=AXI4_RESP_DECERR  66 beats processed
# UVM_INFO ../src/mst/axi4_master_monitor.sv(210) @ 45525000: uvm_test_top.env.master_agent.mon [axi4_master_monitor] Write complete: ID=0x8 ADDR=0xf0cbadfa RESP=AXI4_RESP_DECERR
# UVM_INFO ../src/env/axi4_scoreboard.sv(82) @ 45525000: uvm_test_top.env.scb [axi4_scoreboard] Master AXI4_WRITE received: ID=0x8 ADDR=0xf0cbadfa LEN=65
# UVM_INFO ../src/slv/axi4_slave_monitor.sv(189) @ 45525000: uvm_test_top.env.slave_agent.mon [axi4_slave_monitor] Write response sent: ID=0x8 ADDR=0xf0cbadfa RESP=AXI4_RESP_DECERR
# UVM_INFO ../src/env/axi4_scoreboard.sv(103) @ 45525000: uvm_test_top.env.scb [axi4_scoreboard] Slave AXI4_WRITE received: ID=0x8 ADDR=0xf0cbadfa LEN=65
# UVM_INFO ../src/env/axi4_scoreboard.sv(154) @ 45525000: uvm_test_top.env.scb [axi4_scoreboard] [WRITE] MATCH #25: ID=0x8 ADDR=0xf0cbadfa LEN=65
# UVM_INFO ../src/seq/axi4_outstanding_seq.sv(71) @ 45525000: uvm_test_top.env.master_agent.sqr@@outstanding_seq [axi4_outstanding_seq] Outstanding Write [#12] complete: ID=0x8
# UVM_INFO ../src/seq/axi4_outstanding_seq.sv(65) @ 45525000: uvm_test_top.env.master_agent.sqr@@outstanding_seq [axi4_outstanding_seq] Outstanding Write [#13] started: ID=0xb ADDR=0x59e6c2fa LEN=126
# UVM_INFO ../src/mst/axi4_master_driver.sv(55) @ 45525000: uvm_test_top.env.master_agent.drv [axi4_master_driver] Driving AXI4_WRITE  ID=0xb  ADDR=0x59e6c2fa  LEN=126
# UVM_INFO ../src/mst/axi4_master_driver.sv(106) @ 45525000: uvm_test_top.env.master_agent.drv [axi4_master_driver] Write order: W -> AW (W first)
# UVM_INFO ../src/slv/axi4_slave_driver.sv(165) @ 45605000: uvm_test_top.env.slave_agent.drv [axi4_slave_driver] AW received: ID=0xb ADDR=0x59e6c2fa LEN=126 LOCK=AXI4_LOCK_EXCLUSIVE
# UVM_INFO ../src/mst/axi4_master_monitor.sv(124) @ 45605000: uvm_test_top.env.master_agent.mon [axi4_master_monitor] AW observed: ID=0xb ADDR=0x59e6c2fa LEN=126
# UVM_INFO ../src/slv/axi4_slave_monitor.sv(116) @ 45605000: uvm_test_top.env.slave_agent.mon [axi4_slave_monitor] AW received: ID=0xb ADDR=0x59e6c2fa LEN=126
# UVM_INFO ../src/mst/axi4_master_monitor.sv(184) @ 48065000: uvm_test_top.env.master_agent.mon [axi4_master_monitor] W data assembled: ID=0xb ADDR=0x59e6c2fa 127 beats
# UVM_INFO ../src/slv/axi4_slave_monitor.sv(167) @ 48065000: uvm_test_top.env.slave_agent.mon [axi4_slave_monitor] W data assembled: ID=0xb ADDR=0x59e6c2fa 127 beats
# UVM_INFO ../src/mst/axi4_master_driver.sv(197) @ 48095000: uvm_test_top.env.master_agent.drv [axi4_master_driver] Write response: AXI4_RESP_OKAY
# UVM_INFO ../src/slv/axi4_slave_driver.sv(261) @ 48095000: uvm_test_top.env.slave_agent.drv [axi4_slave_driver] Write complete: ID=0xb ADDR=0x59e6c2fa RESP=AXI4_RESP_OKAY  127 beats processed
# UVM_INFO ../src/slv/axi4_slave_monitor.sv(189) @ 48095000: uvm_test_top.env.slave_agent.mon [axi4_slave_monitor] Write response sent: ID=0xb ADDR=0x59e6c2fa RESP=AXI4_RESP_OKAY
# UVM_INFO ../src/env/axi4_scoreboard.sv(103) @ 48095000: uvm_test_top.env.scb [axi4_scoreboard] Slave AXI4_WRITE received: ID=0xb ADDR=0x59e6c2fa LEN=126
# UVM_INFO ../src/mst/axi4_master_monitor.sv(210) @ 48095000: uvm_test_top.env.master_agent.mon [axi4_master_monitor] Write complete: ID=0xb ADDR=0x59e6c2fa RESP=AXI4_RESP_OKAY
# UVM_INFO ../src/env/axi4_scoreboard.sv(82) @ 48095000: uvm_test_top.env.scb [axi4_scoreboard] Master AXI4_WRITE received: ID=0xb ADDR=0x59e6c2fa LEN=126
# UVM_INFO ../src/env/axi4_scoreboard.sv(154) @ 48095000: uvm_test_top.env.scb [axi4_scoreboard] [WRITE] MATCH #26: ID=0xb ADDR=0x59e6c2fa LEN=126
# UVM_INFO ../src/seq/axi4_outstanding_seq.sv(71) @ 48095000: uvm_test_top.env.master_agent.sqr@@outstanding_seq [axi4_outstanding_seq] Outstanding Write [#13] complete: ID=0xb
# UVM_INFO ../src/seq/axi4_outstanding_seq.sv(65) @ 48095000: uvm_test_top.env.master_agent.sqr@@outstanding_seq [axi4_outstanding_seq] Outstanding Write [#14] started: ID=0x6 ADDR=0xd70beb14 LEN=25
# UVM_INFO ../src/mst/axi4_master_driver.sv(55) @ 48095000: uvm_test_top.env.master_agent.drv [axi4_master_driver] Driving AXI4_WRITE  ID=0x6  ADDR=0xd70beb14  LEN=25
# UVM_INFO ../src/mst/axi4_master_driver.sv(106) @ 48095000: uvm_test_top.env.master_agent.drv [axi4_master_driver] Write order: W -> AW (W first)
# UVM_INFO ../src/slv/axi4_slave_driver.sv(165) @ 48175000: uvm_test_top.env.slave_agent.drv [axi4_slave_driver] AW received: ID=0x6 ADDR=0xd70beb14 LEN=25 LOCK=AXI4_LOCK_NORMAL
# UVM_INFO ../src/slv/axi4_slave_monitor.sv(116) @ 48175000: uvm_test_top.env.slave_agent.mon [axi4_slave_monitor] AW received: ID=0x6 ADDR=0xd70beb14 LEN=25
# UVM_INFO ../src/mst/axi4_master_monitor.sv(124) @ 48175000: uvm_test_top.env.master_agent.mon [axi4_master_monitor] AW observed: ID=0x6 ADDR=0xd70beb14 LEN=25
# UVM_INFO ../src/slv/axi4_slave_monitor.sv(167) @ 48615000: uvm_test_top.env.slave_agent.mon [axi4_slave_monitor] W data assembled: ID=0x6 ADDR=0xd70beb14 26 beats
# UVM_INFO ../src/mst/axi4_master_monitor.sv(184) @ 48615000: uvm_test_top.env.master_agent.mon [axi4_master_monitor] W data assembled: ID=0x6 ADDR=0xd70beb14 26 beats
# UVM_INFO ../src/mst/axi4_master_driver.sv(197) @ 48645000: uvm_test_top.env.master_agent.drv [axi4_master_driver] Write response: AXI4_RESP_OKAY
# UVM_INFO ../src/slv/axi4_slave_driver.sv(261) @ 48645000: uvm_test_top.env.slave_agent.drv [axi4_slave_driver] Write complete: ID=0x6 ADDR=0xd70beb14 RESP=AXI4_RESP_OKAY  26 beats processed
# UVM_INFO ../src/mst/axi4_master_monitor.sv(210) @ 48645000: uvm_test_top.env.master_agent.mon [axi4_master_monitor] Write complete: ID=0x6 ADDR=0xd70beb14 RESP=AXI4_RESP_OKAY
# UVM_INFO ../src/env/axi4_scoreboard.sv(82) @ 48645000: uvm_test_top.env.scb [axi4_scoreboard] Master AXI4_WRITE received: ID=0x6 ADDR=0xd70beb14 LEN=25
# UVM_INFO ../src/slv/axi4_slave_monitor.sv(189) @ 48645000: uvm_test_top.env.slave_agent.mon [axi4_slave_monitor] Write response sent: ID=0x6 ADDR=0xd70beb14 RESP=AXI4_RESP_OKAY
# UVM_INFO ../src/env/axi4_scoreboard.sv(103) @ 48645000: uvm_test_top.env.scb [axi4_scoreboard] Slave AXI4_WRITE received: ID=0x6 ADDR=0xd70beb14 LEN=25
# UVM_INFO ../src/env/axi4_scoreboard.sv(154) @ 48645000: uvm_test_top.env.scb [axi4_scoreboard] [WRITE] MATCH #27: ID=0x6 ADDR=0xd70beb14 LEN=25
# UVM_INFO ../src/seq/axi4_outstanding_seq.sv(71) @ 48645000: uvm_test_top.env.master_agent.sqr@@outstanding_seq [axi4_outstanding_seq] Outstanding Write [#14] complete: ID=0x6
# UVM_INFO ../src/seq/axi4_outstanding_seq.sv(78) @ 48645000: uvm_test_top.env.master_agent.sqr@@outstanding_seq [axi4_outstanding_seq] All outstanding write transactions finished
# UVM_INFO ../src/seq/axi4_outstanding_seq.sv(100) @ 48645000: uvm_test_top.env.master_agent.sqr@@outstanding_seq [axi4_outstanding_seq] Outstanding Read [#12] started: ID=0xc ADDR=0xe8e487c6 LEN=187
# UVM_INFO ../src/mst/axi4_master_driver.sv(55) @ 48645000: uvm_test_top.env.master_agent.drv [axi4_master_driver] Driving AXI4_READ  ID=0xc  ADDR=0xe8e487c6  LEN=187
# UVM_INFO ../src/slv/axi4_slave_driver.sv(300) @ 48675000: uvm_test_top.env.slave_agent.drv [axi4_slave_driver] AR received: ID=0xc ADDR=0xe8e487c6 LEN=187 LOCK=AXI4_LOCK_NORMAL
# UVM_INFO ../src/slv/axi4_slave_monitor.sv(224) @ 48675000: uvm_test_top.env.slave_agent.mon [axi4_slave_monitor] AR received: ID=0xc ADDR=0xe8e487c6 LEN=187
# UVM_INFO ../src/mst/axi4_master_monitor.sv(246) @ 48675000: uvm_test_top.env.master_agent.mon [axi4_master_monitor] AR observed: ID=0xc ADDR=0xe8e487c6 LEN=187
# UVM_INFO ../src/mst/axi4_master_driver.sv(254) @ 52435000: uvm_test_top.env.master_agent.drv [axi4_master_driver] Read complete: 188 beats received
# UVM_INFO ../src/slv/axi4_slave_driver.sv(349) @ 52435000: uvm_test_top.env.slave_agent.drv [axi4_slave_driver] Read complete: ID=0xc ADDR=0xe8e487c6 RESP=AXI4_RESP_SLVERR  188 beats sent
# UVM_INFO ../src/slv/axi4_slave_monitor.sv(287) @ 52435000: uvm_test_top.env.slave_agent.mon [axi4_slave_monitor] Read data sent: ID=0xc ADDR=0xe8e487c6 188 beats
# UVM_INFO ../src/env/axi4_scoreboard.sv(103) @ 52435000: uvm_test_top.env.scb [axi4_scoreboard] Slave AXI4_READ received: ID=0xc ADDR=0xe8e487c6 LEN=187
# UVM_INFO ../src/mst/axi4_master_monitor.sv(314) @ 52435000: uvm_test_top.env.master_agent.mon [axi4_master_monitor] Read complete: ID=0xc ADDR=0xe8e487c6 188 beats
# UVM_INFO ../src/env/axi4_scoreboard.sv(82) @ 52435000: uvm_test_top.env.scb [axi4_scoreboard] Master AXI4_READ received: ID=0xc ADDR=0xe8e487c6 LEN=187
# UVM_INFO ../src/env/axi4_scoreboard.sv(154) @ 52435000: uvm_test_top.env.scb [axi4_scoreboard] [READ] MATCH #28: ID=0xc ADDR=0xe8e487c6 LEN=187
# UVM_INFO ../src/seq/axi4_outstanding_seq.sv(106) @ 52435000: uvm_test_top.env.master_agent.sqr@@outstanding_seq [axi4_outstanding_seq] Outstanding Read [#12] complete: ID=0xc
# UVM_INFO ../src/seq/axi4_outstanding_seq.sv(100) @ 52435000: uvm_test_top.env.master_agent.sqr@@outstanding_seq [axi4_outstanding_seq] Outstanding Read [#13] started: ID=0x7 ADDR=0x3592f11f LEN=83
# UVM_INFO ../src/mst/axi4_master_driver.sv(55) @ 52435000: uvm_test_top.env.master_agent.drv [axi4_master_driver] Driving AXI4_READ  ID=0x7  ADDR=0x3592f11f  LEN=83
# UVM_INFO ../src/slv/axi4_slave_driver.sv(300) @ 52465000: uvm_test_top.env.slave_agent.drv [axi4_slave_driver] AR received: ID=0x7 ADDR=0x3592f11f LEN=83 LOCK=AXI4_LOCK_NORMAL
# UVM_INFO ../src/mst/axi4_master_monitor.sv(246) @ 52465000: uvm_test_top.env.master_agent.mon [axi4_master_monitor] AR observed: ID=0x7 ADDR=0x3592f11f LEN=83
# UVM_INFO ../src/slv/axi4_slave_monitor.sv(224) @ 52465000: uvm_test_top.env.slave_agent.mon [axi4_slave_monitor] AR received: ID=0x7 ADDR=0x3592f11f LEN=83
# UVM_INFO ../src/mst/axi4_master_driver.sv(254) @ 54145000: uvm_test_top.env.master_agent.drv [axi4_master_driver] Read complete: 84 beats received
# UVM_INFO ../src/slv/axi4_slave_driver.sv(349) @ 54145000: uvm_test_top.env.slave_agent.drv [axi4_slave_driver] Read complete: ID=0x7 ADDR=0x3592f11f RESP=AXI4_RESP_OKAY  84 beats sent
# UVM_INFO ../src/mst/axi4_master_monitor.sv(314) @ 54145000: uvm_test_top.env.master_agent.mon [axi4_master_monitor] Read complete: ID=0x7 ADDR=0x3592f11f 84 beats
# UVM_INFO ../src/env/axi4_scoreboard.sv(82) @ 54145000: uvm_test_top.env.scb [axi4_scoreboard] Master AXI4_READ received: ID=0x7 ADDR=0x3592f11f LEN=83
# UVM_INFO ../src/slv/axi4_slave_monitor.sv(287) @ 54145000: uvm_test_top.env.slave_agent.mon [axi4_slave_monitor] Read data sent: ID=0x7 ADDR=0x3592f11f 84 beats
# UVM_INFO ../src/env/axi4_scoreboard.sv(103) @ 54145000: uvm_test_top.env.scb [axi4_scoreboard] Slave AXI4_READ received: ID=0x7 ADDR=0x3592f11f LEN=83
# UVM_INFO ../src/env/axi4_scoreboard.sv(154) @ 54145000: uvm_test_top.env.scb [axi4_scoreboard] [READ] MATCH #29: ID=0x7 ADDR=0x3592f11f LEN=83
# UVM_INFO ../src/seq/axi4_outstanding_seq.sv(106) @ 54145000: uvm_test_top.env.master_agent.sqr@@outstanding_seq [axi4_outstanding_seq] Outstanding Read [#13] complete: ID=0x7
# UVM_INFO ../src/seq/axi4_outstanding_seq.sv(100) @ 54145000: uvm_test_top.env.master_agent.sqr@@outstanding_seq [axi4_outstanding_seq] Outstanding Read [#14] started: ID=0xc ADDR=0x56a908a4 LEN=54
# UVM_INFO ../src/mst/axi4_master_driver.sv(55) @ 54145000: uvm_test_top.env.master_agent.drv [axi4_master_driver] Driving AXI4_READ  ID=0xc  ADDR=0x56a908a4  LEN=54
# UVM_INFO ../src/slv/axi4_slave_driver.sv(300) @ 54175000: uvm_test_top.env.slave_agent.drv [axi4_slave_driver] AR received: ID=0xc ADDR=0x56a908a4 LEN=54 LOCK=AXI4_LOCK_EXCLUSIVE
# UVM_INFO ../src/slv/axi4_slave_monitor.sv(224) @ 54175000: uvm_test_top.env.slave_agent.mon [axi4_slave_monitor] AR received: ID=0xc ADDR=0x56a908a4 LEN=54
# UVM_INFO ../src/mst/axi4_master_monitor.sv(246) @ 54175000: uvm_test_top.env.master_agent.mon [axi4_master_monitor] AR observed: ID=0xc ADDR=0x56a908a4 LEN=54
# UVM_INFO ../src/mst/axi4_master_driver.sv(254) @ 55275000: uvm_test_top.env.master_agent.drv [axi4_master_driver] Read complete: 55 beats received
# UVM_INFO ../src/slv/axi4_slave_driver.sv(349) @ 55275000: uvm_test_top.env.slave_agent.drv [axi4_slave_driver] Read complete: ID=0xc ADDR=0x56a908a4 RESP=AXI4_RESP_EXOKAY  55 beats sent
# UVM_INFO ../src/slv/axi4_slave_monitor.sv(287) @ 55275000: uvm_test_top.env.slave_agent.mon [axi4_slave_monitor] Read data sent: ID=0xc ADDR=0x56a908a4 55 beats
# UVM_INFO ../src/env/axi4_scoreboard.sv(103) @ 55275000: uvm_test_top.env.scb [axi4_scoreboard] Slave AXI4_READ received: ID=0xc ADDR=0x56a908a4 LEN=54
# UVM_INFO ../src/mst/axi4_master_monitor.sv(314) @ 55275000: uvm_test_top.env.master_agent.mon [axi4_master_monitor] Read complete: ID=0xc ADDR=0x56a908a4 55 beats
# UVM_INFO ../src/env/axi4_scoreboard.sv(82) @ 55275000: uvm_test_top.env.scb [axi4_scoreboard] Master AXI4_READ received: ID=0xc ADDR=0x56a908a4 LEN=54
# UVM_INFO ../src/env/axi4_scoreboard.sv(154) @ 55275000: uvm_test_top.env.scb [axi4_scoreboard] [READ] MATCH #30: ID=0xc ADDR=0x56a908a4 LEN=54
# UVM_INFO ../src/seq/axi4_outstanding_seq.sv(106) @ 55275000: uvm_test_top.env.master_agent.sqr@@outstanding_seq [axi4_outstanding_seq] Outstanding Read [#14] complete: ID=0xc
# UVM_INFO ../src/seq/axi4_outstanding_seq.sv(113) @ 55275000: uvm_test_top.env.master_agent.sqr@@outstanding_seq [axi4_outstanding_seq] All outstanding read transactions finished
# UVM_INFO ../src/seq/axi4_outstanding_seq.sv(117) @ 55275000: uvm_test_top.env.master_agent.sqr@@outstanding_seq [axi4_outstanding_seq] Outstanding sequence complete
# UVM_INFO ../src/test/axi4_outstanding_test.sv(59) @ 56275000: uvm_test_top [axi4_outstanding_test] Outstanding test completed successfully
# UVM_INFO verilog_src/uvm-1.1d/src/base/uvm_objection.svh(1268) @ 56275000: reporter [TEST_DONE] 'run' phase is ready to proceed to the 'extract' phase
# UVM_INFO ../src/env/axi4_scoreboard.sv(218) @ 56275000: uvm_test_top.env.scb [axi4_scoreboard] 
# ========================================
#          SCOREBOARD SUMMARY
# ========================================
#   Master transactions : 30
#   Slave transactions  : 30
#   Matches             : 30
#   Mismatches          : 0
#   Unmatched master WR : 0
#   Unmatched master RD : 0
#   Unmatched slave  WR : 0
#   Unmatched slave  RD : 0
# ========================================
#   RESULT : PASS
# ========================================
# UVM_INFO ../src/test/axi4_base_test.sv(91) @ 56275000: uvm_test_top [axi4_outstanding_test] 
# === TEST PASSED ===
# 
# 
# --- UVM Report Summary ---
# 
# ** Report counts by severity
# UVM_INFO :  463
# UVM_WARNING :    0
# UVM_ERROR :    0
# UVM_FATAL :    0
# ** Report counts by id
# [Questa UVM]     3
# [RNTST]     1
# [TB_TOP]     2
# [TEST_DONE]     1
# [TOP_TB]     1
# [UVMTOP]     1
# [axi4_master_agent]     1
# [axi4_master_driver]    76
# [axi4_master_monitor]    76
# [axi4_outstanding_seq]    64
# [axi4_outstanding_test]     3
# [axi4_scoreboard]    91
# [axi4_slave_agent]     1
# [axi4_slave_driver]    61
# [axi4_slave_monitor]    76
# [axi4_vip_env]     5
# ** Note: $finish    : /cadtools/mentor/Questa_10.6b/questasim/linux_x86_64/../verilog_src/uvm-1.1d/src/base/uvm_root.svh(430)
#    Time: 56275 ns  Iteration: 55  Instance: /tb_top
# Saving coverage database on exit...
# End time: 11:24:26 on Jun 05,2026, Elapsed time: 0:00:42
# Errors: 0, Warnings: 0
