# vsim -c -coverage -sv_seed 28698498 "+UVM_TESTNAME=axi4_random_test" "+UVM_VERBOSITY=UVM_HIGH" "+DUMP_VCD" -l ./report/logs/axi4_random_test_run_10_seed_28698498.log -do "coverage save -onexit ./report/coverage/axi4_random_test_run_10_seed_28698498.ucdb; run -all; quit -f" opt_tb_top 
# Start time: 11:23:43 on Jun 05,2026
# //  Questa Sim-64
# //  Version 10.6b linux_x86_64 May 25 2017
# //
# //  Copyright 1991-2017 Mentor Graphics Corporation
# //  All Rights Reserved.
# //
# //  QuestaSim and its associated documentation contain trade
# //  secrets and commercial or financial information that are the property of
# //  Mentor Graphics Corporation and are privileged, confidential,
# //  and exempt from disclosure under the Freedom of Information Act,
# //  5 U.S.C. Section 552. Furthermore, this information
# //  is prohibited from disclosure under the Trade Secrets Act,
# //  18 U.S.C. Section 1905.
# //
# Loading sv_std.std
# Loading work.axi4_if(fast)
# Loading mtiUvm.uvm_pkg
# Loading work.axi4_pkg(fast)
# Loading work.axi4_test_pkg(fast)
# Loading work.tb_top(fast)
# Loading work.axi4_if(fast)
# Loading work.axi4_sva(fast)
# Loading mtiUvm.questa_uvm_pkg(fast)
# Loading /cadtools/mentor/Questa_10.6b/questasim/uvm-1.1d/linux_x86_64/uvm_dpi.so
# coverage save -onexit ./report/coverage/axi4_random_test_run_10_seed_28698498.ucdb
#  run -all
# ----------------------------------------------------------------
# UVM-1.1d
# (C) 2007-2013 Mentor Graphics Corporation
# (C) 2007-2013 Cadence Design Systems, Inc.
# (C) 2006-2013 Synopsys, Inc.
# (C) 2011-2013 Cypress Semiconductor Corp.
# ----------------------------------------------------------------
# 
#   ***********       IMPORTANT RELEASE NOTES         ************
# 
#   You are using a version of the UVM library that has been compiled
#   with `UVM_NO_DEPRECATED undefined.
#   See http://www.eda.org/svdb/view.php?id=3313 for more details.
# 
#   You are using a version of the UVM library that has been compiled
#   with `UVM_OBJECT_MUST_HAVE_CONSTRUCTOR undefined.
#   See http://www.eda.org/svdb/view.php?id=3770 for more details.
# 
#       (Specify +UVM_NO_RELNOTES to turn off this notice)
# 
# UVM_INFO verilog_src/questa_uvm_pkg-1.2/src/questa_uvm_pkg.sv(215) @ 0: reporter [Questa UVM] QUESTA_UVM-1.2.3
# UVM_INFO verilog_src/questa_uvm_pkg-1.2/src/questa_uvm_pkg.sv(217) @ 0: reporter [Questa UVM]  questa_uvm::init(+struct)
# UVM_INFO ../src/tb_top.sv(128) @ 0: reporter [TB_TOP] Virtual interface set in config_db
# UVM_INFO @ 0: reporter [RNTST] Running test axi4_random_test...
# UVM_INFO ../src/tb_top.sv(142) @ 0: reporter [TB_TOP] Waveform VCD dumping enabled (axi4_vip.vcd)
# UVM_INFO ../src/env/axi4_vip_env.sv(83) @ 0: uvm_test_top.env [axi4_vip_env] slave_vif not set - reusing master_vif (passthrough mode)
# UVM_INFO ../src/env/axi4_vip_env.sv(93) @ 0: uvm_test_top.env [axi4_vip_env] Scoreboard created
# UVM_INFO ../src/env/axi4_vip_env.sv(100) @ 0: uvm_test_top.env [axi4_vip_env] Coverage collectors created
# UVM_INFO ../src/mst/axi4_master_agent.sv(69) @ 0: uvm_test_top.env.master_agent [axi4_master_agent] ACTIVE mode - driver + sequencer created
# UVM_INFO ../src/slv/axi4_slave_agent.sv(82) @ 0: uvm_test_top.env.slave_agent [axi4_slave_agent] ACTIVE mode — ready_delay=[0:0] resp_delay=[0:0]
# UVM_INFO ../src/env/axi4_vip_env.sv(116) @ 0: uvm_test_top.env [axi4_vip_env] Scoreboard connected: master_mon.ap -> scb, slave_mon.ap -> scb
# UVM_INFO ../src/env/axi4_vip_env.sv(124) @ 0: uvm_test_top.env [axi4_vip_env] Coverage connected: master_mon.ap -> master_cov, slave_mon.ap -> slave_cov
# UVM_INFO @ 0: reporter [UVMTOP] UVM testbench topology:
# ---------------------------------------------------------------
# Name                       Type                     Size  Value
# ---------------------------------------------------------------
# uvm_test_top               axi4_random_test         -     @473 
#   env                      axi4_vip_env             -     @488 
#     master_agent           axi4_master_agent        -     @503 
#       drv                  axi4_master_driver       -     @567 
#         rsp_port           uvm_analysis_port        -     @582 
#         seq_item_port      uvm_seq_item_pull_port   -     @574 
#       mon                  axi4_master_monitor      -     @559 
#         ap                 uvm_analysis_port        -     @700 
#       sqr                  axi4_master_sequencer    -     @590 
#         rsp_export         uvm_analysis_export      -     @597 
#         seq_item_export    uvm_seq_item_pull_imp    -     @691 
#         arbitration_queue  array                    0     -    
#         lock_queue         array                    0     -    
#         num_last_reqs      integral                 32    'd1  
#         num_last_rsps      integral                 32    'd1  
#     master_cov             axi4_coverage            -     @524 
#       analysis_imp         uvm_analysis_imp         -     @531 
#     scb                    axi4_scoreboard          -     @517 
#       master_export        uvm_analysis_imp_master  -     @714 
#       slave_export         uvm_analysis_imp_slave   -     @722 
#     slave_agent            axi4_slave_agent         -     @510 
#       drv                  axi4_slave_driver        -     @753 
#         rsp_port           uvm_analysis_port        -     @768 
#         seq_item_port      uvm_seq_item_pull_port   -     @760 
#       mon                  axi4_slave_monitor       -     @735 
#         ap                 uvm_analysis_port        -     @890 
#       sqr                  axi4_slave_sequencer     -     @776 
#         rsp_export         uvm_analysis_export      -     @783 
#         seq_item_export    uvm_seq_item_pull_imp    -     @877 
#         arbitration_queue  array                    0     -    
#         lock_queue         array                    0     -    
#         num_last_reqs      integral                 32    'd1  
#         num_last_rsps      integral                 32    'd1  
#     slave_cov              axi4_coverage            -     @539 
#       analysis_imp         uvm_analysis_imp         -     @546 
# ---------------------------------------------------------------
# 
# UVM_INFO verilog_src/questa_uvm_pkg-1.2/src/questa_uvm_pkg.sv(277) @ 0: reporter [Questa UVM] End Of Elaboration
# UVM_INFO ../src/test/axi4_random_test.sv(43) @ 0: uvm_test_top [axi4_random_test] Starting random test with 50 transactions
# UVM_INFO ../src/seq/axi4_random_seq.sv(34) @ 0: uvm_test_top.env.master_agent.sqr@@rand_seq [axi4_random_seq] Starting random sequence: 50 transactions
# UVM_INFO ../src/tb_top.sv(49) @ 95000: reporter [TOP_TB] Reset de-asserted
# UVM_INFO ../src/slv/axi4_slave_driver.sv(70) @ 95000: uvm_test_top.env.slave_agent.drv [axi4_slave_driver] Reset deasserted - slave driver active
# UVM_INFO ../src/mst/axi4_master_driver.sv(46) @ 95000: uvm_test_top.env.master_agent.drv [axi4_master_driver] Reset deasserted - master driver active
# UVM_INFO ../src/mst/axi4_master_monitor.sv(77) @ 95000: uvm_test_top.env.master_agent.mon [axi4_master_monitor] Reset deasserted — monitor active
# UVM_INFO ../src/slv/axi4_slave_monitor.sv(71) @ 95000: uvm_test_top.env.slave_agent.mon [axi4_slave_monitor] Reset deasserted — monitor active
# UVM_INFO ../src/mst/axi4_master_driver.sv(55) @ 95000: uvm_test_top.env.master_agent.drv [axi4_master_driver] Driving AXI4_WRITE  ID=0x9  ADDR=0xec9007b3  LEN=57
# UVM_INFO ../src/mst/axi4_master_driver.sv(94) @ 95000: uvm_test_top.env.master_agent.drv [axi4_master_driver] Write order: AW || W (parallel)
# UVM_INFO ../src/slv/axi4_slave_driver.sv(165) @ 115000: uvm_test_top.env.slave_agent.drv [axi4_slave_driver] AW received: ID=0x9 ADDR=0xec9007b3 LEN=57 LOCK=AXI4_LOCK_NORMAL
# UVM_INFO ../src/slv/axi4_slave_monitor.sv(116) @ 115000: uvm_test_top.env.slave_agent.mon [axi4_slave_monitor] AW received: ID=0x9 ADDR=0xec9007b3 LEN=57
# UVM_INFO ../src/mst/axi4_master_monitor.sv(124) @ 115000: uvm_test_top.env.master_agent.mon [axi4_master_monitor] AW observed: ID=0x9 ADDR=0xec9007b3 LEN=57
# UVM_INFO ../src/mst/axi4_master_monitor.sv(184) @ 1245000: uvm_test_top.env.master_agent.mon [axi4_master_monitor] W data assembled: ID=0x9 ADDR=0xec9007b3 58 beats
# UVM_INFO ../src/slv/axi4_slave_monitor.sv(167) @ 1245000: uvm_test_top.env.slave_agent.mon [axi4_slave_monitor] W data assembled: ID=0x9 ADDR=0xec9007b3 58 beats
# UVM_INFO ../src/mst/axi4_master_driver.sv(197) @ 1275000: uvm_test_top.env.master_agent.drv [axi4_master_driver] Write response: AXI4_RESP_SLVERR
# UVM_INFO ../src/slv/axi4_slave_driver.sv(261) @ 1275000: uvm_test_top.env.slave_agent.drv [axi4_slave_driver] Write complete: ID=0x9 ADDR=0xec9007b3 RESP=AXI4_RESP_SLVERR  58 beats processed
# UVM_INFO ../src/slv/axi4_slave_monitor.sv(189) @ 1275000: uvm_test_top.env.slave_agent.mon [axi4_slave_monitor] Write response sent: ID=0x9 ADDR=0xec9007b3 RESP=AXI4_RESP_SLVERR
# UVM_INFO ../src/env/axi4_scoreboard.sv(103) @ 1275000: uvm_test_top.env.scb [axi4_scoreboard] Slave AXI4_WRITE received: ID=0x9 ADDR=0xec9007b3 LEN=57
# UVM_INFO ../src/mst/axi4_master_monitor.sv(210) @ 1275000: uvm_test_top.env.master_agent.mon [axi4_master_monitor] Write complete: ID=0x9 ADDR=0xec9007b3 RESP=AXI4_RESP_SLVERR
# UVM_INFO ../src/env/axi4_scoreboard.sv(82) @ 1275000: uvm_test_top.env.scb [axi4_scoreboard] Master AXI4_WRITE received: ID=0x9 ADDR=0xec9007b3 LEN=57
# UVM_INFO ../src/env/axi4_scoreboard.sv(154) @ 1275000: uvm_test_top.env.scb [axi4_scoreboard] [WRITE] MATCH #1: ID=0x9 ADDR=0xec9007b3 LEN=57
# UVM_INFO ../src/seq/axi4_random_seq.sv(55) @ 1275000: uvm_test_top.env.master_agent.sqr@@rand_seq [axi4_random_seq] [1/50] AXI4_WRITE: ID=0x9 ADDR=0xec9007b3 LEN=57 BURST=AXI4_BURST_INCR
# UVM_INFO ../src/mst/axi4_master_driver.sv(55) @ 1275000: uvm_test_top.env.master_agent.drv [axi4_master_driver] Driving AXI4_WRITE  ID=0xf  ADDR=0x0be36fa8  LEN=7
# UVM_INFO ../src/mst/axi4_master_driver.sv(94) @ 1275000: uvm_test_top.env.master_agent.drv [axi4_master_driver] Write order: AW || W (parallel)
# UVM_INFO ../src/slv/axi4_slave_driver.sv(165) @ 1305000: uvm_test_top.env.slave_agent.drv [axi4_slave_driver] AW received: ID=0xf ADDR=0x0be36fa8 LEN=7 LOCK=AXI4_LOCK_EXCLUSIVE
# UVM_INFO ../src/mst/axi4_master_monitor.sv(124) @ 1305000: uvm_test_top.env.master_agent.mon [axi4_master_monitor] AW observed: ID=0xf ADDR=0x0be36fa8 LEN=7
# UVM_INFO ../src/slv/axi4_slave_monitor.sv(116) @ 1305000: uvm_test_top.env.slave_agent.mon [axi4_slave_monitor] AW received: ID=0xf ADDR=0x0be36fa8 LEN=7
# UVM_INFO ../src/slv/axi4_slave_monitor.sv(167) @ 1435000: uvm_test_top.env.slave_agent.mon [axi4_slave_monitor] W data assembled: ID=0xf ADDR=0x0be36fa8 8 beats
# UVM_INFO ../src/mst/axi4_master_monitor.sv(184) @ 1435000: uvm_test_top.env.master_agent.mon [axi4_master_monitor] W data assembled: ID=0xf ADDR=0x0be36fa8 8 beats
# UVM_INFO ../src/mst/axi4_master_driver.sv(197) @ 1465000: uvm_test_top.env.master_agent.drv [axi4_master_driver] Write response: AXI4_RESP_OKAY
# UVM_INFO ../src/slv/axi4_slave_driver.sv(261) @ 1465000: uvm_test_top.env.slave_agent.drv [axi4_slave_driver] Write complete: ID=0xf ADDR=0x0be36fa8 RESP=AXI4_RESP_OKAY  8 beats processed
# UVM_INFO ../src/mst/axi4_master_monitor.sv(210) @ 1465000: uvm_test_top.env.master_agent.mon [axi4_master_monitor] Write complete: ID=0xf ADDR=0x0be36fa8 RESP=AXI4_RESP_OKAY
# UVM_INFO ../src/env/axi4_scoreboard.sv(82) @ 1465000: uvm_test_top.env.scb [axi4_scoreboard] Master AXI4_WRITE received: ID=0xf ADDR=0x0be36fa8 LEN=7
# UVM_INFO ../src/slv/axi4_slave_monitor.sv(189) @ 1465000: uvm_test_top.env.slave_agent.mon [axi4_slave_monitor] Write response sent: ID=0xf ADDR=0x0be36fa8 RESP=AXI4_RESP_OKAY
# UVM_INFO ../src/env/axi4_scoreboard.sv(103) @ 1465000: uvm_test_top.env.scb [axi4_scoreboard] Slave AXI4_WRITE received: ID=0xf ADDR=0x0be36fa8 LEN=7
# UVM_INFO ../src/env/axi4_scoreboard.sv(154) @ 1465000: uvm_test_top.env.scb [axi4_scoreboard] [WRITE] MATCH #2: ID=0xf ADDR=0x0be36fa8 LEN=7
# UVM_INFO ../src/seq/axi4_random_seq.sv(55) @ 1465000: uvm_test_top.env.master_agent.sqr@@rand_seq [axi4_random_seq] [2/50] AXI4_WRITE: ID=0xf ADDR=0x0be36fa8 LEN=7 BURST=AXI4_BURST_FIXED
# UVM_INFO ../src/mst/axi4_master_driver.sv(55) @ 1465000: uvm_test_top.env.master_agent.drv [axi4_master_driver] Driving AXI4_WRITE  ID=0x8  ADDR=0xde281257  LEN=5
# UVM_INFO ../src/mst/axi4_master_driver.sv(101) @ 1465000: uvm_test_top.env.master_agent.drv [axi4_master_driver] Write order: AW -> W (sequential)
# UVM_INFO ../src/slv/axi4_slave_driver.sv(165) @ 1495000: uvm_test_top.env.slave_agent.drv [axi4_slave_driver] AW received: ID=0x8 ADDR=0xde281257 LEN=5 LOCK=AXI4_LOCK_EXCLUSIVE
# UVM_INFO ../src/slv/axi4_slave_monitor.sv(116) @ 1495000: uvm_test_top.env.slave_agent.mon [axi4_slave_monitor] AW received: ID=0x8 ADDR=0xde281257 LEN=5
# UVM_INFO ../src/mst/axi4_master_monitor.sv(124) @ 1495000: uvm_test_top.env.master_agent.mon [axi4_master_monitor] AW observed: ID=0x8 ADDR=0xde281257 LEN=5
# UVM_INFO ../src/slv/axi4_slave_monitor.sv(167) @ 1615000: uvm_test_top.env.slave_agent.mon [axi4_slave_monitor] W data assembled: ID=0x8 ADDR=0xde281257 6 beats
# UVM_INFO ../src/mst/axi4_master_monitor.sv(184) @ 1615000: uvm_test_top.env.master_agent.mon [axi4_master_monitor] W data assembled: ID=0x8 ADDR=0xde281257 6 beats
# UVM_INFO ../src/mst/axi4_master_driver.sv(197) @ 1645000: uvm_test_top.env.master_agent.drv [axi4_master_driver] Write response: AXI4_RESP_OKAY
# UVM_INFO ../src/slv/axi4_slave_driver.sv(261) @ 1645000: uvm_test_top.env.slave_agent.drv [axi4_slave_driver] Write complete: ID=0x8 ADDR=0xde281257 RESP=AXI4_RESP_OKAY  6 beats processed
# UVM_INFO ../src/mst/axi4_master_monitor.sv(210) @ 1645000: uvm_test_top.env.master_agent.mon [axi4_master_monitor] Write complete: ID=0x8 ADDR=0xde281257 RESP=AXI4_RESP_OKAY
# UVM_INFO ../src/env/axi4_scoreboard.sv(82) @ 1645000: uvm_test_top.env.scb [axi4_scoreboard] Master AXI4_WRITE received: ID=0x8 ADDR=0xde281257 LEN=5
# UVM_INFO ../src/slv/axi4_slave_monitor.sv(189) @ 1645000: uvm_test_top.env.slave_agent.mon [axi4_slave_monitor] Write response sent: ID=0x8 ADDR=0xde281257 RESP=AXI4_RESP_OKAY
# UVM_INFO ../src/env/axi4_scoreboard.sv(103) @ 1645000: uvm_test_top.env.scb [axi4_scoreboard] Slave AXI4_WRITE received: ID=0x8 ADDR=0xde281257 LEN=5
# UVM_INFO ../src/env/axi4_scoreboard.sv(154) @ 1645000: uvm_test_top.env.scb [axi4_scoreboard] [WRITE] MATCH #3: ID=0x8 ADDR=0xde281257 LEN=5
# UVM_INFO ../src/seq/axi4_random_seq.sv(55) @ 1645000: uvm_test_top.env.master_agent.sqr@@rand_seq [axi4_random_seq] [3/50] AXI4_WRITE: ID=0x8 ADDR=0xde281257 LEN=5 BURST=AXI4_BURST_FIXED
# UVM_INFO ../src/mst/axi4_master_driver.sv(55) @ 1645000: uvm_test_top.env.master_agent.drv [axi4_master_driver] Driving AXI4_WRITE  ID=0x1  ADDR=0x7655582a  LEN=69
# UVM_INFO ../src/mst/axi4_master_driver.sv(106) @ 1645000: uvm_test_top.env.master_agent.drv [axi4_master_driver] Write order: W -> AW (W first)
# UVM_INFO ../src/slv/axi4_slave_driver.sv(165) @ 1695000: uvm_test_top.env.slave_agent.drv [axi4_slave_driver] AW received: ID=0x1 ADDR=0x7655582a LEN=69 LOCK=AXI4_LOCK_EXCLUSIVE
# UVM_INFO ../src/slv/axi4_slave_monitor.sv(116) @ 1695000: uvm_test_top.env.slave_agent.mon [axi4_slave_monitor] AW received: ID=0x1 ADDR=0x7655582a LEN=69
# UVM_INFO ../src/mst/axi4_master_monitor.sv(124) @ 1695000: uvm_test_top.env.master_agent.mon [axi4_master_monitor] AW observed: ID=0x1 ADDR=0x7655582a LEN=69
# UVM_INFO ../src/mst/axi4_master_monitor.sv(184) @ 3045000: uvm_test_top.env.master_agent.mon [axi4_master_monitor] W data assembled: ID=0x1 ADDR=0x7655582a 70 beats
# UVM_INFO ../src/slv/axi4_slave_monitor.sv(167) @ 3045000: uvm_test_top.env.slave_agent.mon [axi4_slave_monitor] W data assembled: ID=0x1 ADDR=0x7655582a 70 beats
# UVM_INFO ../src/mst/axi4_master_driver.sv(197) @ 3075000: uvm_test_top.env.master_agent.drv [axi4_master_driver] Write response: AXI4_RESP_OKAY
# UVM_INFO ../src/slv/axi4_slave_driver.sv(261) @ 3075000: uvm_test_top.env.slave_agent.drv [axi4_slave_driver] Write complete: ID=0x1 ADDR=0x7655582a RESP=AXI4_RESP_OKAY  70 beats processed
# UVM_INFO ../src/slv/axi4_slave_monitor.sv(189) @ 3075000: uvm_test_top.env.slave_agent.mon [axi4_slave_monitor] Write response sent: ID=0x1 ADDR=0x7655582a RESP=AXI4_RESP_OKAY
# UVM_INFO ../src/env/axi4_scoreboard.sv(103) @ 3075000: uvm_test_top.env.scb [axi4_scoreboard] Slave AXI4_WRITE received: ID=0x1 ADDR=0x7655582a LEN=69
# UVM_INFO ../src/mst/axi4_master_monitor.sv(210) @ 3075000: uvm_test_top.env.master_agent.mon [axi4_master_monitor] Write complete: ID=0x1 ADDR=0x7655582a RESP=AXI4_RESP_OKAY
# UVM_INFO ../src/env/axi4_scoreboard.sv(82) @ 3075000: uvm_test_top.env.scb [axi4_scoreboard] Master AXI4_WRITE received: ID=0x1 ADDR=0x7655582a LEN=69
# UVM_INFO ../src/env/axi4_scoreboard.sv(154) @ 3075000: uvm_test_top.env.scb [axi4_scoreboard] [WRITE] MATCH #4: ID=0x1 ADDR=0x7655582a LEN=69
# UVM_INFO ../src/seq/axi4_random_seq.sv(55) @ 3075000: uvm_test_top.env.master_agent.sqr@@rand_seq [axi4_random_seq] [4/50] AXI4_WRITE: ID=0x1 ADDR=0x7655582a LEN=69 BURST=AXI4_BURST_INCR
# UVM_INFO ../src/mst/axi4_master_driver.sv(55) @ 3075000: uvm_test_top.env.master_agent.drv [axi4_master_driver] Driving AXI4_READ  ID=0x7  ADDR=0xfb660d47  LEN=148
# UVM_INFO ../src/slv/axi4_slave_driver.sv(300) @ 3105000: uvm_test_top.env.slave_agent.drv [axi4_slave_driver] AR received: ID=0x7 ADDR=0xfb660d47 LEN=148 LOCK=AXI4_LOCK_EXCLUSIVE
# UVM_INFO ../src/mst/axi4_master_monitor.sv(246) @ 3105000: uvm_test_top.env.master_agent.mon [axi4_master_monitor] AR observed: ID=0x7 ADDR=0xfb660d47 LEN=148
# UVM_INFO ../src/slv/axi4_slave_monitor.sv(224) @ 3105000: uvm_test_top.env.slave_agent.mon [axi4_slave_monitor] AR received: ID=0x7 ADDR=0xfb660d47 LEN=148
# UVM_INFO ../src/mst/axi4_master_driver.sv(254) @ 6085000: uvm_test_top.env.master_agent.drv [axi4_master_driver] Read complete: 149 beats received
# UVM_INFO ../src/slv/axi4_slave_driver.sv(349) @ 6085000: uvm_test_top.env.slave_agent.drv [axi4_slave_driver] Read complete: ID=0x7 ADDR=0xfb660d47 RESP=AXI4_RESP_DECERR  149 beats sent
# UVM_INFO ../src/mst/axi4_master_monitor.sv(314) @ 6085000: uvm_test_top.env.master_agent.mon [axi4_master_monitor] Read complete: ID=0x7 ADDR=0xfb660d47 149 beats
# UVM_INFO ../src/env/axi4_scoreboard.sv(82) @ 6085000: uvm_test_top.env.scb [axi4_scoreboard] Master AXI4_READ received: ID=0x7 ADDR=0xfb660d47 LEN=148
# UVM_INFO ../src/slv/axi4_slave_monitor.sv(287) @ 6085000: uvm_test_top.env.slave_agent.mon [axi4_slave_monitor] Read data sent: ID=0x7 ADDR=0xfb660d47 149 beats
# UVM_INFO ../src/env/axi4_scoreboard.sv(103) @ 6085000: uvm_test_top.env.scb [axi4_scoreboard] Slave AXI4_READ received: ID=0x7 ADDR=0xfb660d47 LEN=148
# UVM_INFO ../src/env/axi4_scoreboard.sv(154) @ 6085000: uvm_test_top.env.scb [axi4_scoreboard] [READ] MATCH #5: ID=0x7 ADDR=0xfb660d47 LEN=148
# UVM_INFO ../src/seq/axi4_random_seq.sv(55) @ 6085000: uvm_test_top.env.master_agent.sqr@@rand_seq [axi4_random_seq] [5/50] AXI4_READ: ID=0x7 ADDR=0xfb660d47 LEN=148 BURST=AXI4_BURST_INCR
# UVM_INFO ../src/mst/axi4_master_driver.sv(55) @ 6085000: uvm_test_top.env.master_agent.drv [axi4_master_driver] Driving AXI4_WRITE  ID=0x4  ADDR=0x0d798839  LEN=248
# UVM_INFO ../src/mst/axi4_master_driver.sv(94) @ 6085000: uvm_test_top.env.master_agent.drv [axi4_master_driver] Write order: AW || W (parallel)
# UVM_INFO ../src/slv/axi4_slave_driver.sv(165) @ 6115000: uvm_test_top.env.slave_agent.drv [axi4_slave_driver] AW received: ID=0x4 ADDR=0x0d798839 LEN=248 LOCK=AXI4_LOCK_EXCLUSIVE
# UVM_INFO ../src/slv/axi4_slave_monitor.sv(116) @ 6115000: uvm_test_top.env.slave_agent.mon [axi4_slave_monitor] AW received: ID=0x4 ADDR=0x0d798839 LEN=248
# UVM_INFO ../src/mst/axi4_master_monitor.sv(124) @ 6115000: uvm_test_top.env.master_agent.mon [axi4_master_monitor] AW observed: ID=0x4 ADDR=0x0d798839 LEN=248
# UVM_INFO ../src/mst/axi4_master_monitor.sv(184) @ 11065000: uvm_test_top.env.master_agent.mon [axi4_master_monitor] W data assembled: ID=0x4 ADDR=0x0d798839 249 beats
# UVM_INFO ../src/slv/axi4_slave_monitor.sv(167) @ 11065000: uvm_test_top.env.slave_agent.mon [axi4_slave_monitor] W data assembled: ID=0x4 ADDR=0x0d798839 249 beats
# UVM_INFO ../src/mst/axi4_master_driver.sv(197) @ 11095000: uvm_test_top.env.master_agent.drv [axi4_master_driver] Write response: AXI4_RESP_OKAY
# UVM_INFO ../src/slv/axi4_slave_driver.sv(261) @ 11095000: uvm_test_top.env.slave_agent.drv [axi4_slave_driver] Write complete: ID=0x4 ADDR=0x0d798839 RESP=AXI4_RESP_OKAY  249 beats processed
# UVM_INFO ../src/slv/axi4_slave_monitor.sv(189) @ 11095000: uvm_test_top.env.slave_agent.mon [axi4_slave_monitor] Write response sent: ID=0x4 ADDR=0x0d798839 RESP=AXI4_RESP_OKAY
# UVM_INFO ../src/env/axi4_scoreboard.sv(103) @ 11095000: uvm_test_top.env.scb [axi4_scoreboard] Slave AXI4_WRITE received: ID=0x4 ADDR=0x0d798839 LEN=248
# UVM_INFO ../src/mst/axi4_master_monitor.sv(210) @ 11095000: uvm_test_top.env.master_agent.mon [axi4_master_monitor] Write complete: ID=0x4 ADDR=0x0d798839 RESP=AXI4_RESP_OKAY
# UVM_INFO ../src/env/axi4_scoreboard.sv(82) @ 11095000: uvm_test_top.env.scb [axi4_scoreboard] Master AXI4_WRITE received: ID=0x4 ADDR=0x0d798839 LEN=248
# UVM_INFO ../src/env/axi4_scoreboard.sv(154) @ 11095000: uvm_test_top.env.scb [axi4_scoreboard] [WRITE] MATCH #6: ID=0x4 ADDR=0x0d798839 LEN=248
# UVM_INFO ../src/seq/axi4_random_seq.sv(55) @ 11095000: uvm_test_top.env.master_agent.sqr@@rand_seq [axi4_random_seq] [6/50] AXI4_WRITE: ID=0x4 ADDR=0x0d798839 LEN=248 BURST=AXI4_BURST_INCR
# UVM_INFO ../src/mst/axi4_master_driver.sv(55) @ 11095000: uvm_test_top.env.master_agent.drv [axi4_master_driver] Driving AXI4_WRITE  ID=0x0  ADDR=0x46e7ddd4  LEN=41
# UVM_INFO ../src/mst/axi4_master_driver.sv(94) @ 11095000: uvm_test_top.env.master_agent.drv [axi4_master_driver] Write order: AW || W (parallel)
# UVM_INFO ../src/slv/axi4_slave_driver.sv(165) @ 11125000: uvm_test_top.env.slave_agent.drv [axi4_slave_driver] AW received: ID=0x0 ADDR=0x46e7ddd4 LEN=41 LOCK=AXI4_LOCK_NORMAL
# UVM_INFO ../src/mst/axi4_master_monitor.sv(124) @ 11125000: uvm_test_top.env.master_agent.mon [axi4_master_monitor] AW observed: ID=0x0 ADDR=0x46e7ddd4 LEN=41
# UVM_INFO ../src/slv/axi4_slave_monitor.sv(116) @ 11125000: uvm_test_top.env.slave_agent.mon [axi4_slave_monitor] AW received: ID=0x0 ADDR=0x46e7ddd4 LEN=41
# UVM_INFO ../src/slv/axi4_slave_monitor.sv(167) @ 11935000: uvm_test_top.env.slave_agent.mon [axi4_slave_monitor] W data assembled: ID=0x0 ADDR=0x46e7ddd4 42 beats
# UVM_INFO ../src/mst/axi4_master_monitor.sv(184) @ 11935000: uvm_test_top.env.master_agent.mon [axi4_master_monitor] W data assembled: ID=0x0 ADDR=0x46e7ddd4 42 beats
# UVM_INFO ../src/mst/axi4_master_driver.sv(197) @ 11965000: uvm_test_top.env.master_agent.drv [axi4_master_driver] Write response: AXI4_RESP_OKAY
# UVM_INFO ../src/slv/axi4_slave_driver.sv(261) @ 11965000: uvm_test_top.env.slave_agent.drv [axi4_slave_driver] Write complete: ID=0x0 ADDR=0x46e7ddd4 RESP=AXI4_RESP_OKAY  42 beats processed
# UVM_INFO ../src/mst/axi4_master_monitor.sv(210) @ 11965000: uvm_test_top.env.master_agent.mon [axi4_master_monitor] Write complete: ID=0x0 ADDR=0x46e7ddd4 RESP=AXI4_RESP_OKAY
# UVM_INFO ../src/env/axi4_scoreboard.sv(82) @ 11965000: uvm_test_top.env.scb [axi4_scoreboard] Master AXI4_WRITE received: ID=0x0 ADDR=0x46e7ddd4 LEN=41
# UVM_INFO ../src/slv/axi4_slave_monitor.sv(189) @ 11965000: uvm_test_top.env.slave_agent.mon [axi4_slave_monitor] Write response sent: ID=0x0 ADDR=0x46e7ddd4 RESP=AXI4_RESP_OKAY
# UVM_INFO ../src/env/axi4_scoreboard.sv(103) @ 11965000: uvm_test_top.env.scb [axi4_scoreboard] Slave AXI4_WRITE received: ID=0x0 ADDR=0x46e7ddd4 LEN=41
# UVM_INFO ../src/env/axi4_scoreboard.sv(154) @ 11965000: uvm_test_top.env.scb [axi4_scoreboard] [WRITE] MATCH #7: ID=0x0 ADDR=0x46e7ddd4 LEN=41
# UVM_INFO ../src/seq/axi4_random_seq.sv(55) @ 11965000: uvm_test_top.env.master_agent.sqr@@rand_seq [axi4_random_seq] [7/50] AXI4_WRITE: ID=0x0 ADDR=0x46e7ddd4 LEN=41 BURST=AXI4_BURST_INCR
# UVM_INFO ../src/mst/axi4_master_driver.sv(55) @ 11965000: uvm_test_top.env.master_agent.drv [axi4_master_driver] Driving AXI4_WRITE  ID=0xd  ADDR=0xd40591d8  LEN=2
# UVM_INFO ../src/mst/axi4_master_driver.sv(106) @ 11965000: uvm_test_top.env.master_agent.drv [axi4_master_driver] Write order: W -> AW (W first)
# UVM_INFO ../src/slv/axi4_slave_driver.sv(165) @ 12045000: uvm_test_top.env.slave_agent.drv [axi4_slave_driver] AW received: ID=0xd ADDR=0xd40591d8 LEN=2 LOCK=AXI4_LOCK_NORMAL
# UVM_INFO ../src/mst/axi4_master_monitor.sv(124) @ 12045000: uvm_test_top.env.master_agent.mon [axi4_master_monitor] AW observed: ID=0xd ADDR=0xd40591d8 LEN=2
# UVM_INFO ../src/slv/axi4_slave_monitor.sv(116) @ 12045000: uvm_test_top.env.slave_agent.mon [axi4_slave_monitor] AW received: ID=0xd ADDR=0xd40591d8 LEN=2
# UVM_INFO ../src/mst/axi4_master_monitor.sv(184) @ 12045000: uvm_test_top.env.master_agent.mon [axi4_master_monitor] W data assembled: ID=0xd ADDR=0xd40591d8 3 beats
# UVM_INFO ../src/slv/axi4_slave_monitor.sv(167) @ 12045000: uvm_test_top.env.slave_agent.mon [axi4_slave_monitor] W data assembled: ID=0xd ADDR=0xd40591d8 3 beats
# UVM_INFO ../src/mst/axi4_master_driver.sv(197) @ 12065000: uvm_test_top.env.master_agent.drv [axi4_master_driver] Write response: AXI4_RESP_OKAY
# UVM_INFO ../src/slv/axi4_slave_driver.sv(261) @ 12065000: uvm_test_top.env.slave_agent.drv [axi4_slave_driver] Write complete: ID=0xd ADDR=0xd40591d8 RESP=AXI4_RESP_OKAY  3 beats processed
# UVM_INFO ../src/mst/axi4_master_monitor.sv(210) @ 12065000: uvm_test_top.env.master_agent.mon [axi4_master_monitor] Write complete: ID=0xd ADDR=0xd40591d8 RESP=AXI4_RESP_OKAY
# UVM_INFO ../src/env/axi4_scoreboard.sv(82) @ 12065000: uvm_test_top.env.scb [axi4_scoreboard] Master AXI4_WRITE received: ID=0xd ADDR=0xd40591d8 LEN=2
# UVM_INFO ../src/slv/axi4_slave_monitor.sv(189) @ 12065000: uvm_test_top.env.slave_agent.mon [axi4_slave_monitor] Write response sent: ID=0xd ADDR=0xd40591d8 RESP=AXI4_RESP_OKAY
# UVM_INFO ../src/env/axi4_scoreboard.sv(103) @ 12065000: uvm_test_top.env.scb [axi4_scoreboard] Slave AXI4_WRITE received: ID=0xd ADDR=0xd40591d8 LEN=2
# UVM_INFO ../src/env/axi4_scoreboard.sv(154) @ 12065000: uvm_test_top.env.scb [axi4_scoreboard] [WRITE] MATCH #8: ID=0xd ADDR=0xd40591d8 LEN=2
# UVM_INFO ../src/seq/axi4_random_seq.sv(55) @ 12065000: uvm_test_top.env.master_agent.sqr@@rand_seq [axi4_random_seq] [8/50] AXI4_WRITE: ID=0xd ADDR=0xd40591d8 LEN=2 BURST=AXI4_BURST_INCR
# UVM_INFO ../src/mst/axi4_master_driver.sv(55) @ 12065000: uvm_test_top.env.master_agent.drv [axi4_master_driver] Driving AXI4_WRITE  ID=0x4  ADDR=0x25c5d8ce  LEN=161
# UVM_INFO ../src/mst/axi4_master_driver.sv(94) @ 12065000: uvm_test_top.env.master_agent.drv [axi4_master_driver] Write order: AW || W (parallel)
# UVM_INFO ../src/slv/axi4_slave_driver.sv(165) @ 12095000: uvm_test_top.env.slave_agent.drv [axi4_slave_driver] AW received: ID=0x4 ADDR=0x25c5d8ce LEN=161 LOCK=AXI4_LOCK_NORMAL
# UVM_INFO ../src/slv/axi4_slave_monitor.sv(116) @ 12095000: uvm_test_top.env.slave_agent.mon [axi4_slave_monitor] AW received: ID=0x4 ADDR=0x25c5d8ce LEN=161
# UVM_INFO ../src/mst/axi4_master_monitor.sv(124) @ 12095000: uvm_test_top.env.master_agent.mon [axi4_master_monitor] AW observed: ID=0x4 ADDR=0x25c5d8ce LEN=161
# UVM_INFO ../src/mst/axi4_master_monitor.sv(184) @ 15305000: uvm_test_top.env.master_agent.mon [axi4_master_monitor] W data assembled: ID=0x4 ADDR=0x25c5d8ce 162 beats
# UVM_INFO ../src/slv/axi4_slave_monitor.sv(167) @ 15305000: uvm_test_top.env.slave_agent.mon [axi4_slave_monitor] W data assembled: ID=0x4 ADDR=0x25c5d8ce 162 beats
# UVM_INFO ../src/mst/axi4_master_driver.sv(197) @ 15335000: uvm_test_top.env.master_agent.drv [axi4_master_driver] Write response: AXI4_RESP_OKAY
# UVM_INFO ../src/slv/axi4_slave_driver.sv(261) @ 15335000: uvm_test_top.env.slave_agent.drv [axi4_slave_driver] Write complete: ID=0x4 ADDR=0x25c5d8ce RESP=AXI4_RESP_OKAY  162 beats processed
# UVM_INFO ../src/slv/axi4_slave_monitor.sv(189) @ 15335000: uvm_test_top.env.slave_agent.mon [axi4_slave_monitor] Write response sent: ID=0x4 ADDR=0x25c5d8ce RESP=AXI4_RESP_OKAY
# UVM_INFO ../src/env/axi4_scoreboard.sv(103) @ 15335000: uvm_test_top.env.scb [axi4_scoreboard] Slave AXI4_WRITE received: ID=0x4 ADDR=0x25c5d8ce LEN=161
# UVM_INFO ../src/mst/axi4_master_monitor.sv(210) @ 15335000: uvm_test_top.env.master_agent.mon [axi4_master_monitor] Write complete: ID=0x4 ADDR=0x25c5d8ce RESP=AXI4_RESP_OKAY
# UVM_INFO ../src/env/axi4_scoreboard.sv(82) @ 15335000: uvm_test_top.env.scb [axi4_scoreboard] Master AXI4_WRITE received: ID=0x4 ADDR=0x25c5d8ce LEN=161
# UVM_INFO ../src/env/axi4_scoreboard.sv(154) @ 15335000: uvm_test_top.env.scb [axi4_scoreboard] [WRITE] MATCH #9: ID=0x4 ADDR=0x25c5d8ce LEN=161
# UVM_INFO ../src/seq/axi4_random_seq.sv(55) @ 15335000: uvm_test_top.env.master_agent.sqr@@rand_seq [axi4_random_seq] [9/50] AXI4_WRITE: ID=0x4 ADDR=0x25c5d8ce LEN=161 BURST=AXI4_BURST_INCR
# UVM_INFO ../src/mst/axi4_master_driver.sv(55) @ 15335000: uvm_test_top.env.master_agent.drv [axi4_master_driver] Driving AXI4_READ  ID=0x2  ADDR=0x2d1a1dca  LEN=4
# UVM_INFO ../src/slv/axi4_slave_driver.sv(300) @ 15365000: uvm_test_top.env.slave_agent.drv [axi4_slave_driver] AR received: ID=0x2 ADDR=0x2d1a1dca LEN=4 LOCK=AXI4_LOCK_EXCLUSIVE
# UVM_INFO ../src/mst/axi4_master_monitor.sv(246) @ 15365000: uvm_test_top.env.master_agent.mon [axi4_master_monitor] AR observed: ID=0x2 ADDR=0x2d1a1dca LEN=4
# UVM_INFO ../src/slv/axi4_slave_monitor.sv(224) @ 15365000: uvm_test_top.env.slave_agent.mon [axi4_slave_monitor] AR received: ID=0x2 ADDR=0x2d1a1dca LEN=4
# UVM_INFO ../src/mst/axi4_master_driver.sv(254) @ 15465000: uvm_test_top.env.master_agent.drv [axi4_master_driver] Read complete: 5 beats received
# UVM_INFO ../src/slv/axi4_slave_driver.sv(349) @ 15465000: uvm_test_top.env.slave_agent.drv [axi4_slave_driver] Read complete: ID=0x2 ADDR=0x2d1a1dca RESP=AXI4_RESP_EXOKAY  5 beats sent
# UVM_INFO ../src/mst/axi4_master_monitor.sv(314) @ 15465000: uvm_test_top.env.master_agent.mon [axi4_master_monitor] Read complete: ID=0x2 ADDR=0x2d1a1dca 5 beats
# UVM_INFO ../src/env/axi4_scoreboard.sv(82) @ 15465000: uvm_test_top.env.scb [axi4_scoreboard] Master AXI4_READ received: ID=0x2 ADDR=0x2d1a1dca LEN=4
# UVM_INFO ../src/slv/axi4_slave_monitor.sv(287) @ 15465000: uvm_test_top.env.slave_agent.mon [axi4_slave_monitor] Read data sent: ID=0x2 ADDR=0x2d1a1dca 5 beats
# UVM_INFO ../src/env/axi4_scoreboard.sv(103) @ 15465000: uvm_test_top.env.scb [axi4_scoreboard] Slave AXI4_READ received: ID=0x2 ADDR=0x2d1a1dca LEN=4
# UVM_INFO ../src/env/axi4_scoreboard.sv(154) @ 15465000: uvm_test_top.env.scb [axi4_scoreboard] [READ] MATCH #10: ID=0x2 ADDR=0x2d1a1dca LEN=4
# UVM_INFO ../src/seq/axi4_random_seq.sv(55) @ 15465000: uvm_test_top.env.master_agent.sqr@@rand_seq [axi4_random_seq] [10/50] AXI4_READ: ID=0x2 ADDR=0x2d1a1dca LEN=4 BURST=AXI4_BURST_FIXED
# UVM_INFO ../src/mst/axi4_master_driver.sv(55) @ 15465000: uvm_test_top.env.master_agent.drv [axi4_master_driver] Driving AXI4_READ  ID=0x1  ADDR=0xa7b73e59  LEN=100
# UVM_INFO ../src/slv/axi4_slave_driver.sv(300) @ 15495000: uvm_test_top.env.slave_agent.drv [axi4_slave_driver] AR received: ID=0x1 ADDR=0xa7b73e59 LEN=100 LOCK=AXI4_LOCK_EXCLUSIVE
# UVM_INFO ../src/slv/axi4_slave_monitor.sv(224) @ 15495000: uvm_test_top.env.slave_agent.mon [axi4_slave_monitor] AR received: ID=0x1 ADDR=0xa7b73e59 LEN=100
# UVM_INFO ../src/mst/axi4_master_monitor.sv(246) @ 15495000: uvm_test_top.env.master_agent.mon [axi4_master_monitor] AR observed: ID=0x1 ADDR=0xa7b73e59 LEN=100
# UVM_INFO ../src/mst/axi4_master_driver.sv(254) @ 17515000: uvm_test_top.env.master_agent.drv [axi4_master_driver] Read complete: 101 beats received
# UVM_INFO ../src/slv/axi4_slave_driver.sv(349) @ 17515000: uvm_test_top.env.slave_agent.drv [axi4_slave_driver] Read complete: ID=0x1 ADDR=0xa7b73e59 RESP=AXI4_RESP_EXOKAY  101 beats sent
# UVM_INFO ../src/slv/axi4_slave_monitor.sv(287) @ 17515000: uvm_test_top.env.slave_agent.mon [axi4_slave_monitor] Read data sent: ID=0x1 ADDR=0xa7b73e59 101 beats
# UVM_INFO ../src/env/axi4_scoreboard.sv(103) @ 17515000: uvm_test_top.env.scb [axi4_scoreboard] Slave AXI4_READ received: ID=0x1 ADDR=0xa7b73e59 LEN=100
# UVM_INFO ../src/mst/axi4_master_monitor.sv(314) @ 17515000: uvm_test_top.env.master_agent.mon [axi4_master_monitor] Read complete: ID=0x1 ADDR=0xa7b73e59 101 beats
# UVM_INFO ../src/env/axi4_scoreboard.sv(82) @ 17515000: uvm_test_top.env.scb [axi4_scoreboard] Master AXI4_READ received: ID=0x1 ADDR=0xa7b73e59 LEN=100
# UVM_INFO ../src/env/axi4_scoreboard.sv(154) @ 17515000: uvm_test_top.env.scb [axi4_scoreboard] [READ] MATCH #11: ID=0x1 ADDR=0xa7b73e59 LEN=100
# UVM_INFO ../src/seq/axi4_random_seq.sv(55) @ 17515000: uvm_test_top.env.master_agent.sqr@@rand_seq [axi4_random_seq] [11/50] AXI4_READ: ID=0x1 ADDR=0xa7b73e59 LEN=100 BURST=AXI4_BURST_INCR
# UVM_INFO ../src/mst/axi4_master_driver.sv(55) @ 17515000: uvm_test_top.env.master_agent.drv [axi4_master_driver] Driving AXI4_READ  ID=0x7  ADDR=0x4b185410  LEN=124
# UVM_INFO ../src/slv/axi4_slave_driver.sv(300) @ 17545000: uvm_test_top.env.slave_agent.drv [axi4_slave_driver] AR received: ID=0x7 ADDR=0x4b185410 LEN=124 LOCK=AXI4_LOCK_EXCLUSIVE
# UVM_INFO ../src/mst/axi4_master_monitor.sv(246) @ 17545000: uvm_test_top.env.master_agent.mon [axi4_master_monitor] AR observed: ID=0x7 ADDR=0x4b185410 LEN=124
# UVM_INFO ../src/slv/axi4_slave_monitor.sv(224) @ 17545000: uvm_test_top.env.slave_agent.mon [axi4_slave_monitor] AR received: ID=0x7 ADDR=0x4b185410 LEN=124
# UVM_INFO ../src/mst/axi4_master_driver.sv(254) @ 20045000: uvm_test_top.env.master_agent.drv [axi4_master_driver] Read complete: 125 beats received
# UVM_INFO ../src/slv/axi4_slave_driver.sv(349) @ 20045000: uvm_test_top.env.slave_agent.drv [axi4_slave_driver] Read complete: ID=0x7 ADDR=0x4b185410 RESP=AXI4_RESP_EXOKAY  125 beats sent
# UVM_INFO ../src/mst/axi4_master_monitor.sv(314) @ 20045000: uvm_test_top.env.master_agent.mon [axi4_master_monitor] Read complete: ID=0x7 ADDR=0x4b185410 125 beats
# UVM_INFO ../src/env/axi4_scoreboard.sv(82) @ 20045000: uvm_test_top.env.scb [axi4_scoreboard] Master AXI4_READ received: ID=0x7 ADDR=0x4b185410 LEN=124
# UVM_INFO ../src/slv/axi4_slave_monitor.sv(287) @ 20045000: uvm_test_top.env.slave_agent.mon [axi4_slave_monitor] Read data sent: ID=0x7 ADDR=0x4b185410 125 beats
# UVM_INFO ../src/env/axi4_scoreboard.sv(103) @ 20045000: uvm_test_top.env.scb [axi4_scoreboard] Slave AXI4_READ received: ID=0x7 ADDR=0x4b185410 LEN=124
# UVM_INFO ../src/env/axi4_scoreboard.sv(154) @ 20045000: uvm_test_top.env.scb [axi4_scoreboard] [READ] MATCH #12: ID=0x7 ADDR=0x4b185410 LEN=124
# UVM_INFO ../src/seq/axi4_random_seq.sv(55) @ 20045000: uvm_test_top.env.master_agent.sqr@@rand_seq [axi4_random_seq] [12/50] AXI4_READ: ID=0x7 ADDR=0x4b185410 LEN=124 BURST=AXI4_BURST_INCR
# UVM_INFO ../src/mst/axi4_master_driver.sv(55) @ 20045000: uvm_test_top.env.master_agent.drv [axi4_master_driver] Driving AXI4_WRITE  ID=0x4  ADDR=0x596adeaf  LEN=1
# UVM_INFO ../src/mst/axi4_master_driver.sv(94) @ 20045000: uvm_test_top.env.master_agent.drv [axi4_master_driver] Write order: AW || W (parallel)
# UVM_INFO ../src/slv/axi4_slave_driver.sv(165) @ 20075000: uvm_test_top.env.slave_agent.drv [axi4_slave_driver] AW received: ID=0x4 ADDR=0x596adeaf LEN=1 LOCK=AXI4_LOCK_EXCLUSIVE
# UVM_INFO ../src/slv/axi4_slave_monitor.sv(116) @ 20075000: uvm_test_top.env.slave_agent.mon [axi4_slave_monitor] AW received: ID=0x4 ADDR=0x596adeaf LEN=1
# UVM_INFO ../src/mst/axi4_master_monitor.sv(124) @ 20075000: uvm_test_top.env.master_agent.mon [axi4_master_monitor] AW observed: ID=0x4 ADDR=0x596adeaf LEN=1
# UVM_INFO ../src/mst/axi4_master_monitor.sv(184) @ 20085000: uvm_test_top.env.master_agent.mon [axi4_master_monitor] W data assembled: ID=0x4 ADDR=0x596adeaf 2 beats
# UVM_INFO ../src/slv/axi4_slave_monitor.sv(167) @ 20085000: uvm_test_top.env.slave_agent.mon [axi4_slave_monitor] W data assembled: ID=0x4 ADDR=0x596adeaf 2 beats
# UVM_INFO ../src/mst/axi4_master_driver.sv(197) @ 20115000: uvm_test_top.env.master_agent.drv [axi4_master_driver] Write response: AXI4_RESP_OKAY
# UVM_INFO ../src/slv/axi4_slave_driver.sv(261) @ 20115000: uvm_test_top.env.slave_agent.drv [axi4_slave_driver] Write complete: ID=0x4 ADDR=0x596adeaf RESP=AXI4_RESP_OKAY  2 beats processed
# UVM_INFO ../src/slv/axi4_slave_monitor.sv(189) @ 20115000: uvm_test_top.env.slave_agent.mon [axi4_slave_monitor] Write response sent: ID=0x4 ADDR=0x596adeaf RESP=AXI4_RESP_OKAY
# UVM_INFO ../src/env/axi4_scoreboard.sv(103) @ 20115000: uvm_test_top.env.scb [axi4_scoreboard] Slave AXI4_WRITE received: ID=0x4 ADDR=0x596adeaf LEN=1
# UVM_INFO ../src/mst/axi4_master_monitor.sv(210) @ 20115000: uvm_test_top.env.master_agent.mon [axi4_master_monitor] Write complete: ID=0x4 ADDR=0x596adeaf RESP=AXI4_RESP_OKAY
# UVM_INFO ../src/env/axi4_scoreboard.sv(82) @ 20115000: uvm_test_top.env.scb [axi4_scoreboard] Master AXI4_WRITE received: ID=0x4 ADDR=0x596adeaf LEN=1
# UVM_INFO ../src/env/axi4_scoreboard.sv(154) @ 20115000: uvm_test_top.env.scb [axi4_scoreboard] [WRITE] MATCH #13: ID=0x4 ADDR=0x596adeaf LEN=1
# UVM_INFO ../src/seq/axi4_random_seq.sv(55) @ 20115000: uvm_test_top.env.master_agent.sqr@@rand_seq [axi4_random_seq] [13/50] AXI4_WRITE: ID=0x4 ADDR=0x596adeaf LEN=1 BURST=AXI4_BURST_INCR
# UVM_INFO ../src/mst/axi4_master_driver.sv(55) @ 20115000: uvm_test_top.env.master_agent.drv [axi4_master_driver] Driving AXI4_WRITE  ID=0x3  ADDR=0xc70db46d  LEN=214
# UVM_INFO ../src/mst/axi4_master_driver.sv(106) @ 20115000: uvm_test_top.env.master_agent.drv [axi4_master_driver] Write order: W -> AW (W first)
# UVM_INFO ../src/slv/axi4_slave_driver.sv(165) @ 20195000: uvm_test_top.env.slave_agent.drv [axi4_slave_driver] AW received: ID=0x3 ADDR=0xc70db46d LEN=214 LOCK=AXI4_LOCK_EXCLUSIVE
# UVM_INFO ../src/slv/axi4_slave_monitor.sv(116) @ 20195000: uvm_test_top.env.slave_agent.mon [axi4_slave_monitor] AW received: ID=0x3 ADDR=0xc70db46d LEN=214
# UVM_INFO ../src/mst/axi4_master_monitor.sv(124) @ 20195000: uvm_test_top.env.master_agent.mon [axi4_master_monitor] AW observed: ID=0x3 ADDR=0xc70db46d LEN=214
# UVM_INFO ../src/slv/axi4_slave_monitor.sv(167) @ 24415000: uvm_test_top.env.slave_agent.mon [axi4_slave_monitor] W data assembled: ID=0x3 ADDR=0xc70db46d 215 beats
# UVM_INFO ../src/mst/axi4_master_monitor.sv(184) @ 24415000: uvm_test_top.env.master_agent.mon [axi4_master_monitor] W data assembled: ID=0x3 ADDR=0xc70db46d 215 beats
# UVM_INFO ../src/mst/axi4_master_driver.sv(197) @ 24445000: uvm_test_top.env.master_agent.drv [axi4_master_driver] Write response: AXI4_RESP_OKAY
# UVM_INFO ../src/slv/axi4_slave_driver.sv(261) @ 24445000: uvm_test_top.env.slave_agent.drv [axi4_slave_driver] Write complete: ID=0x3 ADDR=0xc70db46d RESP=AXI4_RESP_OKAY  215 beats processed
# UVM_INFO ../src/mst/axi4_master_monitor.sv(210) @ 24445000: uvm_test_top.env.master_agent.mon [axi4_master_monitor] Write complete: ID=0x3 ADDR=0xc70db46d RESP=AXI4_RESP_OKAY
# UVM_INFO ../src/env/axi4_scoreboard.sv(82) @ 24445000: uvm_test_top.env.scb [axi4_scoreboard] Master AXI4_WRITE received: ID=0x3 ADDR=0xc70db46d LEN=214
# UVM_INFO ../src/slv/axi4_slave_monitor.sv(189) @ 24445000: uvm_test_top.env.slave_agent.mon [axi4_slave_monitor] Write response sent: ID=0x3 ADDR=0xc70db46d RESP=AXI4_RESP_OKAY
# UVM_INFO ../src/env/axi4_scoreboard.sv(103) @ 24445000: uvm_test_top.env.scb [axi4_scoreboard] Slave AXI4_WRITE received: ID=0x3 ADDR=0xc70db46d LEN=214
# UVM_INFO ../src/env/axi4_scoreboard.sv(154) @ 24445000: uvm_test_top.env.scb [axi4_scoreboard] [WRITE] MATCH #14: ID=0x3 ADDR=0xc70db46d LEN=214
# UVM_INFO ../src/seq/axi4_random_seq.sv(55) @ 24445000: uvm_test_top.env.master_agent.sqr@@rand_seq [axi4_random_seq] [14/50] AXI4_WRITE: ID=0x3 ADDR=0xc70db46d LEN=214 BURST=AXI4_BURST_INCR
# UVM_INFO ../src/mst/axi4_master_driver.sv(55) @ 24445000: uvm_test_top.env.master_agent.drv [axi4_master_driver] Driving AXI4_READ  ID=0x4  ADDR=0x7fa2e23a  LEN=14
# UVM_INFO ../src/slv/axi4_slave_driver.sv(300) @ 24475000: uvm_test_top.env.slave_agent.drv [axi4_slave_driver] AR received: ID=0x4 ADDR=0x7fa2e23a LEN=14 LOCK=AXI4_LOCK_NORMAL
# UVM_INFO ../src/slv/axi4_slave_monitor.sv(224) @ 24475000: uvm_test_top.env.slave_agent.mon [axi4_slave_monitor] AR received: ID=0x4 ADDR=0x7fa2e23a LEN=14
# UVM_INFO ../src/mst/axi4_master_monitor.sv(246) @ 24475000: uvm_test_top.env.master_agent.mon [axi4_master_monitor] AR observed: ID=0x4 ADDR=0x7fa2e23a LEN=14
# UVM_INFO ../src/mst/axi4_master_driver.sv(254) @ 24775000: uvm_test_top.env.master_agent.drv [axi4_master_driver] Read complete: 15 beats received
# UVM_INFO ../src/slv/axi4_slave_driver.sv(349) @ 24775000: uvm_test_top.env.slave_agent.drv [axi4_slave_driver] Read complete: ID=0x4 ADDR=0x7fa2e23a RESP=AXI4_RESP_OKAY  15 beats sent
# UVM_INFO ../src/slv/axi4_slave_monitor.sv(287) @ 24775000: uvm_test_top.env.slave_agent.mon [axi4_slave_monitor] Read data sent: ID=0x4 ADDR=0x7fa2e23a 15 beats
# UVM_INFO ../src/env/axi4_scoreboard.sv(103) @ 24775000: uvm_test_top.env.scb [axi4_scoreboard] Slave AXI4_READ received: ID=0x4 ADDR=0x7fa2e23a LEN=14
# UVM_INFO ../src/mst/axi4_master_monitor.sv(314) @ 24775000: uvm_test_top.env.master_agent.mon [axi4_master_monitor] Read complete: ID=0x4 ADDR=0x7fa2e23a 15 beats
# UVM_INFO ../src/env/axi4_scoreboard.sv(82) @ 24775000: uvm_test_top.env.scb [axi4_scoreboard] Master AXI4_READ received: ID=0x4 ADDR=0x7fa2e23a LEN=14
# UVM_INFO ../src/env/axi4_scoreboard.sv(154) @ 24775000: uvm_test_top.env.scb [axi4_scoreboard] [READ] MATCH #15: ID=0x4 ADDR=0x7fa2e23a LEN=14
# UVM_INFO ../src/seq/axi4_random_seq.sv(55) @ 24775000: uvm_test_top.env.master_agent.sqr@@rand_seq [axi4_random_seq] [15/50] AXI4_READ: ID=0x4 ADDR=0x7fa2e23a LEN=14 BURST=AXI4_BURST_FIXED
# UVM_INFO ../src/mst/axi4_master_driver.sv(55) @ 24775000: uvm_test_top.env.master_agent.drv [axi4_master_driver] Driving AXI4_WRITE  ID=0xc  ADDR=0xab7a21ae  LEN=54
# UVM_INFO ../src/mst/axi4_master_driver.sv(106) @ 24775000: uvm_test_top.env.master_agent.drv [axi4_master_driver] Write order: W -> AW (W first)
# UVM_INFO ../src/slv/axi4_slave_driver.sv(165) @ 24855000: uvm_test_top.env.slave_agent.drv [axi4_slave_driver] AW received: ID=0xc ADDR=0xab7a21ae LEN=54 LOCK=AXI4_LOCK_NORMAL
# UVM_INFO ../src/slv/axi4_slave_monitor.sv(116) @ 24855000: uvm_test_top.env.slave_agent.mon [axi4_slave_monitor] AW received: ID=0xc ADDR=0xab7a21ae LEN=54
# UVM_INFO ../src/mst/axi4_master_monitor.sv(124) @ 24855000: uvm_test_top.env.master_agent.mon [axi4_master_monitor] AW observed: ID=0xc ADDR=0xab7a21ae LEN=54
# UVM_INFO ../src/slv/axi4_slave_monitor.sv(167) @ 25875000: uvm_test_top.env.slave_agent.mon [axi4_slave_monitor] W data assembled: ID=0xc ADDR=0xab7a21ae 55 beats
# UVM_INFO ../src/mst/axi4_master_monitor.sv(184) @ 25875000: uvm_test_top.env.master_agent.mon [axi4_master_monitor] W data assembled: ID=0xc ADDR=0xab7a21ae 55 beats
# UVM_INFO ../src/mst/axi4_master_driver.sv(197) @ 25905000: uvm_test_top.env.master_agent.drv [axi4_master_driver] Write response: AXI4_RESP_OKAY
# UVM_INFO ../src/slv/axi4_slave_driver.sv(261) @ 25905000: uvm_test_top.env.slave_agent.drv [axi4_slave_driver] Write complete: ID=0xc ADDR=0xab7a21ae RESP=AXI4_RESP_OKAY  55 beats processed
# UVM_INFO ../src/mst/axi4_master_monitor.sv(210) @ 25905000: uvm_test_top.env.master_agent.mon [axi4_master_monitor] Write complete: ID=0xc ADDR=0xab7a21ae RESP=AXI4_RESP_OKAY
# UVM_INFO ../src/env/axi4_scoreboard.sv(82) @ 25905000: uvm_test_top.env.scb [axi4_scoreboard] Master AXI4_WRITE received: ID=0xc ADDR=0xab7a21ae LEN=54
# UVM_INFO ../src/slv/axi4_slave_monitor.sv(189) @ 25905000: uvm_test_top.env.slave_agent.mon [axi4_slave_monitor] Write response sent: ID=0xc ADDR=0xab7a21ae RESP=AXI4_RESP_OKAY
# UVM_INFO ../src/env/axi4_scoreboard.sv(103) @ 25905000: uvm_test_top.env.scb [axi4_scoreboard] Slave AXI4_WRITE received: ID=0xc ADDR=0xab7a21ae LEN=54
# UVM_INFO ../src/env/axi4_scoreboard.sv(154) @ 25905000: uvm_test_top.env.scb [axi4_scoreboard] [WRITE] MATCH #16: ID=0xc ADDR=0xab7a21ae LEN=54
# UVM_INFO ../src/seq/axi4_random_seq.sv(55) @ 25905000: uvm_test_top.env.master_agent.sqr@@rand_seq [axi4_random_seq] [16/50] AXI4_WRITE: ID=0xc ADDR=0xab7a21ae LEN=54 BURST=AXI4_BURST_INCR
# UVM_INFO ../src/mst/axi4_master_driver.sv(55) @ 25905000: uvm_test_top.env.master_agent.drv [axi4_master_driver] Driving AXI4_WRITE  ID=0x0  ADDR=0xb127f228  LEN=137
# UVM_INFO ../src/mst/axi4_master_driver.sv(94) @ 25905000: uvm_test_top.env.master_agent.drv [axi4_master_driver] Write order: AW || W (parallel)
# UVM_INFO ../src/slv/axi4_slave_driver.sv(165) @ 25935000: uvm_test_top.env.slave_agent.drv [axi4_slave_driver] AW received: ID=0x0 ADDR=0xb127f228 LEN=137 LOCK=AXI4_LOCK_EXCLUSIVE
# UVM_INFO ../src/slv/axi4_slave_monitor.sv(116) @ 25935000: uvm_test_top.env.slave_agent.mon [axi4_slave_monitor] AW received: ID=0x0 ADDR=0xb127f228 LEN=137
# UVM_INFO ../src/mst/axi4_master_monitor.sv(124) @ 25935000: uvm_test_top.env.master_agent.mon [axi4_master_monitor] AW observed: ID=0x0 ADDR=0xb127f228 LEN=137
# UVM_INFO ../src/mst/axi4_master_monitor.sv(184) @ 28665000: uvm_test_top.env.master_agent.mon [axi4_master_monitor] W data assembled: ID=0x0 ADDR=0xb127f228 138 beats
# UVM_INFO ../src/slv/axi4_slave_monitor.sv(167) @ 28665000: uvm_test_top.env.slave_agent.mon [axi4_slave_monitor] W data assembled: ID=0x0 ADDR=0xb127f228 138 beats
# UVM_INFO ../src/mst/axi4_master_driver.sv(197) @ 28695000: uvm_test_top.env.master_agent.drv [axi4_master_driver] Write response: AXI4_RESP_OKAY
# UVM_INFO ../src/slv/axi4_slave_driver.sv(261) @ 28695000: uvm_test_top.env.slave_agent.drv [axi4_slave_driver] Write complete: ID=0x0 ADDR=0xb127f228 RESP=AXI4_RESP_OKAY  138 beats processed
# UVM_INFO ../src/slv/axi4_slave_monitor.sv(189) @ 28695000: uvm_test_top.env.slave_agent.mon [axi4_slave_monitor] Write response sent: ID=0x0 ADDR=0xb127f228 RESP=AXI4_RESP_OKAY
# UVM_INFO ../src/env/axi4_scoreboard.sv(103) @ 28695000: uvm_test_top.env.scb [axi4_scoreboard] Slave AXI4_WRITE received: ID=0x0 ADDR=0xb127f228 LEN=137
# UVM_INFO ../src/mst/axi4_master_monitor.sv(210) @ 28695000: uvm_test_top.env.master_agent.mon [axi4_master_monitor] Write complete: ID=0x0 ADDR=0xb127f228 RESP=AXI4_RESP_OKAY
# UVM_INFO ../src/env/axi4_scoreboard.sv(82) @ 28695000: uvm_test_top.env.scb [axi4_scoreboard] Master AXI4_WRITE received: ID=0x0 ADDR=0xb127f228 LEN=137
# UVM_INFO ../src/env/axi4_scoreboard.sv(154) @ 28695000: uvm_test_top.env.scb [axi4_scoreboard] [WRITE] MATCH #17: ID=0x0 ADDR=0xb127f228 LEN=137
# UVM_INFO ../src/seq/axi4_random_seq.sv(55) @ 28695000: uvm_test_top.env.master_agent.sqr@@rand_seq [axi4_random_seq] [17/50] AXI4_WRITE: ID=0x0 ADDR=0xb127f228 LEN=137 BURST=AXI4_BURST_INCR
# UVM_INFO ../src/mst/axi4_master_driver.sv(55) @ 28695000: uvm_test_top.env.master_agent.drv [axi4_master_driver] Driving AXI4_READ  ID=0xf  ADDR=0x71d165e8  LEN=230
# UVM_INFO ../src/slv/axi4_slave_driver.sv(300) @ 28725000: uvm_test_top.env.slave_agent.drv [axi4_slave_driver] AR received: ID=0xf ADDR=0x71d165e8 LEN=230 LOCK=AXI4_LOCK_EXCLUSIVE
# UVM_INFO ../src/mst/axi4_master_monitor.sv(246) @ 28725000: uvm_test_top.env.master_agent.mon [axi4_master_monitor] AR observed: ID=0xf ADDR=0x71d165e8 LEN=230
# UVM_INFO ../src/slv/axi4_slave_monitor.sv(224) @ 28725000: uvm_test_top.env.slave_agent.mon [axi4_slave_monitor] AR received: ID=0xf ADDR=0x71d165e8 LEN=230
# UVM_INFO ../src/mst/axi4_master_driver.sv(254) @ 33345000: uvm_test_top.env.master_agent.drv [axi4_master_driver] Read complete: 231 beats received
# UVM_INFO ../src/slv/axi4_slave_driver.sv(349) @ 33345000: uvm_test_top.env.slave_agent.drv [axi4_slave_driver] Read complete: ID=0xf ADDR=0x71d165e8 RESP=AXI4_RESP_EXOKAY  231 beats sent
# UVM_INFO ../src/mst/axi4_master_monitor.sv(314) @ 33345000: uvm_test_top.env.master_agent.mon [axi4_master_monitor] Read complete: ID=0xf ADDR=0x71d165e8 231 beats
# UVM_INFO ../src/env/axi4_scoreboard.sv(82) @ 33345000: uvm_test_top.env.scb [axi4_scoreboard] Master AXI4_READ received: ID=0xf ADDR=0x71d165e8 LEN=230
# UVM_INFO ../src/slv/axi4_slave_monitor.sv(287) @ 33345000: uvm_test_top.env.slave_agent.mon [axi4_slave_monitor] Read data sent: ID=0xf ADDR=0x71d165e8 231 beats
# UVM_INFO ../src/env/axi4_scoreboard.sv(103) @ 33345000: uvm_test_top.env.scb [axi4_scoreboard] Slave AXI4_READ received: ID=0xf ADDR=0x71d165e8 LEN=230
# UVM_INFO ../src/env/axi4_scoreboard.sv(154) @ 33345000: uvm_test_top.env.scb [axi4_scoreboard] [READ] MATCH #18: ID=0xf ADDR=0x71d165e8 LEN=230
# UVM_INFO ../src/seq/axi4_random_seq.sv(55) @ 33345000: uvm_test_top.env.master_agent.sqr@@rand_seq [axi4_random_seq] [18/50] AXI4_READ: ID=0xf ADDR=0x71d165e8 LEN=230 BURST=AXI4_BURST_INCR
# UVM_INFO ../src/mst/axi4_master_driver.sv(55) @ 33345000: uvm_test_top.env.master_agent.drv [axi4_master_driver] Driving AXI4_WRITE  ID=0x3  ADDR=0x7a5e1526  LEN=255
# UVM_INFO ../src/mst/axi4_master_driver.sv(94) @ 33345000: uvm_test_top.env.master_agent.drv [axi4_master_driver] Write order: AW || W (parallel)
# UVM_INFO ../src/slv/axi4_slave_driver.sv(165) @ 33375000: uvm_test_top.env.slave_agent.drv [axi4_slave_driver] AW received: ID=0x3 ADDR=0x7a5e1526 LEN=255 LOCK=AXI4_LOCK_EXCLUSIVE
# UVM_INFO ../src/slv/axi4_slave_monitor.sv(116) @ 33375000: uvm_test_top.env.slave_agent.mon [axi4_slave_monitor] AW received: ID=0x3 ADDR=0x7a5e1526 LEN=255
# UVM_INFO ../src/mst/axi4_master_monitor.sv(124) @ 33375000: uvm_test_top.env.master_agent.mon [axi4_master_monitor] AW observed: ID=0x3 ADDR=0x7a5e1526 LEN=255
# UVM_INFO ../src/mst/axi4_master_monitor.sv(184) @ 38465000: uvm_test_top.env.master_agent.mon [axi4_master_monitor] W data assembled: ID=0x3 ADDR=0x7a5e1526 256 beats
# UVM_INFO ../src/slv/axi4_slave_monitor.sv(167) @ 38465000: uvm_test_top.env.slave_agent.mon [axi4_slave_monitor] W data assembled: ID=0x3 ADDR=0x7a5e1526 256 beats
# UVM_INFO ../src/mst/axi4_master_driver.sv(197) @ 38495000: uvm_test_top.env.master_agent.drv [axi4_master_driver] Write response: AXI4_RESP_OKAY
# UVM_INFO ../src/slv/axi4_slave_driver.sv(261) @ 38495000: uvm_test_top.env.slave_agent.drv [axi4_slave_driver] Write complete: ID=0x3 ADDR=0x7a5e1526 RESP=AXI4_RESP_OKAY  256 beats processed
# UVM_INFO ../src/slv/axi4_slave_monitor.sv(189) @ 38495000: uvm_test_top.env.slave_agent.mon [axi4_slave_monitor] Write response sent: ID=0x3 ADDR=0x7a5e1526 RESP=AXI4_RESP_OKAY
# UVM_INFO ../src/env/axi4_scoreboard.sv(103) @ 38495000: uvm_test_top.env.scb [axi4_scoreboard] Slave AXI4_WRITE received: ID=0x3 ADDR=0x7a5e1526 LEN=255
# UVM_INFO ../src/mst/axi4_master_monitor.sv(210) @ 38495000: uvm_test_top.env.master_agent.mon [axi4_master_monitor] Write complete: ID=0x3 ADDR=0x7a5e1526 RESP=AXI4_RESP_OKAY
# UVM_INFO ../src/env/axi4_scoreboard.sv(82) @ 38495000: uvm_test_top.env.scb [axi4_scoreboard] Master AXI4_WRITE received: ID=0x3 ADDR=0x7a5e1526 LEN=255
# UVM_INFO ../src/env/axi4_scoreboard.sv(154) @ 38495000: uvm_test_top.env.scb [axi4_scoreboard] [WRITE] MATCH #19: ID=0x3 ADDR=0x7a5e1526 LEN=255
# UVM_INFO ../src/seq/axi4_random_seq.sv(55) @ 38495000: uvm_test_top.env.master_agent.sqr@@rand_seq [axi4_random_seq] [19/50] AXI4_WRITE: ID=0x3 ADDR=0x7a5e1526 LEN=255 BURST=AXI4_BURST_INCR
# UVM_INFO ../src/mst/axi4_master_driver.sv(55) @ 38495000: uvm_test_top.env.master_agent.drv [axi4_master_driver] Driving AXI4_WRITE  ID=0x1  ADDR=0x5b215c95  LEN=7
# UVM_INFO ../src/mst/axi4_master_driver.sv(101) @ 38495000: uvm_test_top.env.master_agent.drv [axi4_master_driver] Write order: AW -> W (sequential)
# UVM_INFO ../src/slv/axi4_slave_driver.sv(165) @ 38525000: uvm_test_top.env.slave_agent.drv [axi4_slave_driver] AW received: ID=0x1 ADDR=0x5b215c95 LEN=7 LOCK=AXI4_LOCK_NORMAL
# UVM_INFO ../src/mst/axi4_master_monitor.sv(124) @ 38525000: uvm_test_top.env.master_agent.mon [axi4_master_monitor] AW observed: ID=0x1 ADDR=0x5b215c95 LEN=7
# UVM_INFO ../src/slv/axi4_slave_monitor.sv(116) @ 38525000: uvm_test_top.env.slave_agent.mon [axi4_slave_monitor] AW received: ID=0x1 ADDR=0x5b215c95 LEN=7
# UVM_INFO ../src/mst/axi4_master_monitor.sv(184) @ 38685000: uvm_test_top.env.master_agent.mon [axi4_master_monitor] W data assembled: ID=0x1 ADDR=0x5b215c95 8 beats
# UVM_INFO ../src/slv/axi4_slave_monitor.sv(167) @ 38685000: uvm_test_top.env.slave_agent.mon [axi4_slave_monitor] W data assembled: ID=0x1 ADDR=0x5b215c95 8 beats
# UVM_INFO ../src/mst/axi4_master_driver.sv(197) @ 38715000: uvm_test_top.env.master_agent.drv [axi4_master_driver] Write response: AXI4_RESP_OKAY
# UVM_INFO ../src/slv/axi4_slave_driver.sv(261) @ 38715000: uvm_test_top.env.slave_agent.drv [axi4_slave_driver] Write complete: ID=0x1 ADDR=0x5b215c95 RESP=AXI4_RESP_OKAY  8 beats processed
# UVM_INFO ../src/slv/axi4_slave_monitor.sv(189) @ 38715000: uvm_test_top.env.slave_agent.mon [axi4_slave_monitor] Write response sent: ID=0x1 ADDR=0x5b215c95 RESP=AXI4_RESP_OKAY
# UVM_INFO ../src/env/axi4_scoreboard.sv(103) @ 38715000: uvm_test_top.env.scb [axi4_scoreboard] Slave AXI4_WRITE received: ID=0x1 ADDR=0x5b215c95 LEN=7
# UVM_INFO ../src/mst/axi4_master_monitor.sv(210) @ 38715000: uvm_test_top.env.master_agent.mon [axi4_master_monitor] Write complete: ID=0x1 ADDR=0x5b215c95 RESP=AXI4_RESP_OKAY
# UVM_INFO ../src/env/axi4_scoreboard.sv(82) @ 38715000: uvm_test_top.env.scb [axi4_scoreboard] Master AXI4_WRITE received: ID=0x1 ADDR=0x5b215c95 LEN=7
# UVM_INFO ../src/env/axi4_scoreboard.sv(154) @ 38715000: uvm_test_top.env.scb [axi4_scoreboard] [WRITE] MATCH #20: ID=0x1 ADDR=0x5b215c95 LEN=7
# UVM_INFO ../src/seq/axi4_random_seq.sv(55) @ 38715000: uvm_test_top.env.master_agent.sqr@@rand_seq [axi4_random_seq] [20/50] AXI4_WRITE: ID=0x1 ADDR=0x5b215c95 LEN=7 BURST=AXI4_BURST_WRAP
# UVM_INFO ../src/mst/axi4_master_driver.sv(55) @ 38715000: uvm_test_top.env.master_agent.drv [axi4_master_driver] Driving AXI4_WRITE  ID=0x1  ADDR=0x23ed1614  LEN=169
# UVM_INFO ../src/mst/axi4_master_driver.sv(94) @ 38715000: uvm_test_top.env.master_agent.drv [axi4_master_driver] Write order: AW || W (parallel)
# UVM_INFO ../src/slv/axi4_slave_driver.sv(165) @ 38745000: uvm_test_top.env.slave_agent.drv [axi4_slave_driver] AW received: ID=0x1 ADDR=0x23ed1614 LEN=169 LOCK=AXI4_LOCK_EXCLUSIVE
# UVM_INFO ../src/mst/axi4_master_monitor.sv(124) @ 38745000: uvm_test_top.env.master_agent.mon [axi4_master_monitor] AW observed: ID=0x1 ADDR=0x23ed1614 LEN=169
# UVM_INFO ../src/slv/axi4_slave_monitor.sv(116) @ 38745000: uvm_test_top.env.slave_agent.mon [axi4_slave_monitor] AW received: ID=0x1 ADDR=0x23ed1614 LEN=169
# UVM_INFO ../src/slv/axi4_slave_monitor.sv(167) @ 42115000: uvm_test_top.env.slave_agent.mon [axi4_slave_monitor] W data assembled: ID=0x1 ADDR=0x23ed1614 170 beats
# UVM_INFO ../src/mst/axi4_master_monitor.sv(184) @ 42115000: uvm_test_top.env.master_agent.mon [axi4_master_monitor] W data assembled: ID=0x1 ADDR=0x23ed1614 170 beats
# UVM_INFO ../src/mst/axi4_master_driver.sv(197) @ 42145000: uvm_test_top.env.master_agent.drv [axi4_master_driver] Write response: AXI4_RESP_OKAY
# UVM_INFO ../src/slv/axi4_slave_driver.sv(261) @ 42145000: uvm_test_top.env.slave_agent.drv [axi4_slave_driver] Write complete: ID=0x1 ADDR=0x23ed1614 RESP=AXI4_RESP_OKAY  170 beats processed
# UVM_INFO ../src/mst/axi4_master_monitor.sv(210) @ 42145000: uvm_test_top.env.master_agent.mon [axi4_master_monitor] Write complete: ID=0x1 ADDR=0x23ed1614 RESP=AXI4_RESP_OKAY
# UVM_INFO ../src/env/axi4_scoreboard.sv(82) @ 42145000: uvm_test_top.env.scb [axi4_scoreboard] Master AXI4_WRITE received: ID=0x1 ADDR=0x23ed1614 LEN=169
# UVM_INFO ../src/slv/axi4_slave_monitor.sv(189) @ 42145000: uvm_test_top.env.slave_agent.mon [axi4_slave_monitor] Write response sent: ID=0x1 ADDR=0x23ed1614 RESP=AXI4_RESP_OKAY
# UVM_INFO ../src/env/axi4_scoreboard.sv(103) @ 42145000: uvm_test_top.env.scb [axi4_scoreboard] Slave AXI4_WRITE received: ID=0x1 ADDR=0x23ed1614 LEN=169
# UVM_INFO ../src/env/axi4_scoreboard.sv(154) @ 42145000: uvm_test_top.env.scb [axi4_scoreboard] [WRITE] MATCH #21: ID=0x1 ADDR=0x23ed1614 LEN=169
# UVM_INFO ../src/seq/axi4_random_seq.sv(55) @ 42145000: uvm_test_top.env.master_agent.sqr@@rand_seq [axi4_random_seq] [21/50] AXI4_WRITE: ID=0x1 ADDR=0x23ed1614 LEN=169 BURST=AXI4_BURST_INCR
# UVM_INFO ../src/mst/axi4_master_driver.sv(55) @ 42145000: uvm_test_top.env.master_agent.drv [axi4_master_driver] Driving AXI4_WRITE  ID=0xb  ADDR=0xdb159eaf  LEN=70
# UVM_INFO ../src/mst/axi4_master_driver.sv(106) @ 42145000: uvm_test_top.env.master_agent.drv [axi4_master_driver] Write order: W -> AW (W first)
# UVM_INFO ../src/slv/axi4_slave_driver.sv(165) @ 42225000: uvm_test_top.env.slave_agent.drv [axi4_slave_driver] AW received: ID=0xb ADDR=0xdb159eaf LEN=70 LOCK=AXI4_LOCK_NORMAL
# UVM_INFO ../src/mst/axi4_master_monitor.sv(124) @ 42225000: uvm_test_top.env.master_agent.mon [axi4_master_monitor] AW observed: ID=0xb ADDR=0xdb159eaf LEN=70
# UVM_INFO ../src/slv/axi4_slave_monitor.sv(116) @ 42225000: uvm_test_top.env.slave_agent.mon [axi4_slave_monitor] AW received: ID=0xb ADDR=0xdb159eaf LEN=70
# UVM_INFO ../src/mst/axi4_master_monitor.sv(184) @ 43565000: uvm_test_top.env.master_agent.mon [axi4_master_monitor] W data assembled: ID=0xb ADDR=0xdb159eaf 71 beats
# UVM_INFO ../src/slv/axi4_slave_monitor.sv(167) @ 43565000: uvm_test_top.env.slave_agent.mon [axi4_slave_monitor] W data assembled: ID=0xb ADDR=0xdb159eaf 71 beats
# UVM_INFO ../src/mst/axi4_master_driver.sv(197) @ 43595000: uvm_test_top.env.master_agent.drv [axi4_master_driver] Write response: AXI4_RESP_OKAY
# UVM_INFO ../src/slv/axi4_slave_driver.sv(261) @ 43595000: uvm_test_top.env.slave_agent.drv [axi4_slave_driver] Write complete: ID=0xb ADDR=0xdb159eaf RESP=AXI4_RESP_OKAY  71 beats processed
# UVM_INFO ../src/slv/axi4_slave_monitor.sv(189) @ 43595000: uvm_test_top.env.slave_agent.mon [axi4_slave_monitor] Write response sent: ID=0xb ADDR=0xdb159eaf RESP=AXI4_RESP_OKAY
# UVM_INFO ../src/env/axi4_scoreboard.sv(103) @ 43595000: uvm_test_top.env.scb [axi4_scoreboard] Slave AXI4_WRITE received: ID=0xb ADDR=0xdb159eaf LEN=70
# UVM_INFO ../src/mst/axi4_master_monitor.sv(210) @ 43595000: uvm_test_top.env.master_agent.mon [axi4_master_monitor] Write complete: ID=0xb ADDR=0xdb159eaf RESP=AXI4_RESP_OKAY
# UVM_INFO ../src/env/axi4_scoreboard.sv(82) @ 43595000: uvm_test_top.env.scb [axi4_scoreboard] Master AXI4_WRITE received: ID=0xb ADDR=0xdb159eaf LEN=70
# UVM_INFO ../src/env/axi4_scoreboard.sv(154) @ 43595000: uvm_test_top.env.scb [axi4_scoreboard] [WRITE] MATCH #22: ID=0xb ADDR=0xdb159eaf LEN=70
# UVM_INFO ../src/seq/axi4_random_seq.sv(55) @ 43595000: uvm_test_top.env.master_agent.sqr@@rand_seq [axi4_random_seq] [22/50] AXI4_WRITE: ID=0xb ADDR=0xdb159eaf LEN=70 BURST=AXI4_BURST_INCR
# UVM_INFO ../src/mst/axi4_master_driver.sv(55) @ 43595000: uvm_test_top.env.master_agent.drv [axi4_master_driver] Driving AXI4_WRITE  ID=0x4  ADDR=0xcfb548ed  LEN=105
# UVM_INFO ../src/mst/axi4_master_driver.sv(94) @ 43595000: uvm_test_top.env.master_agent.drv [axi4_master_driver] Write order: AW || W (parallel)
# UVM_INFO ../src/slv/axi4_slave_driver.sv(165) @ 43625000: uvm_test_top.env.slave_agent.drv [axi4_slave_driver] AW received: ID=0x4 ADDR=0xcfb548ed LEN=105 LOCK=AXI4_LOCK_EXCLUSIVE
# UVM_INFO ../src/mst/axi4_master_monitor.sv(124) @ 43625000: uvm_test_top.env.master_agent.mon [axi4_master_monitor] AW observed: ID=0x4 ADDR=0xcfb548ed LEN=105
# UVM_INFO ../src/slv/axi4_slave_monitor.sv(116) @ 43625000: uvm_test_top.env.slave_agent.mon [axi4_slave_monitor] AW received: ID=0x4 ADDR=0xcfb548ed LEN=105
# UVM_INFO ../src/slv/axi4_slave_monitor.sv(167) @ 45715000: uvm_test_top.env.slave_agent.mon [axi4_slave_monitor] W data assembled: ID=0x4 ADDR=0xcfb548ed 106 beats
# UVM_INFO ../src/mst/axi4_master_monitor.sv(184) @ 45715000: uvm_test_top.env.master_agent.mon [axi4_master_monitor] W data assembled: ID=0x4 ADDR=0xcfb548ed 106 beats
# UVM_INFO ../src/mst/axi4_master_driver.sv(197) @ 45745000: uvm_test_top.env.master_agent.drv [axi4_master_driver] Write response: AXI4_RESP_OKAY
# UVM_INFO ../src/slv/axi4_slave_driver.sv(261) @ 45745000: uvm_test_top.env.slave_agent.drv [axi4_slave_driver] Write complete: ID=0x4 ADDR=0xcfb548ed RESP=AXI4_RESP_OKAY  106 beats processed
# UVM_INFO ../src/mst/axi4_master_monitor.sv(210) @ 45745000: uvm_test_top.env.master_agent.mon [axi4_master_monitor] Write complete: ID=0x4 ADDR=0xcfb548ed RESP=AXI4_RESP_OKAY
# UVM_INFO ../src/env/axi4_scoreboard.sv(82) @ 45745000: uvm_test_top.env.scb [axi4_scoreboard] Master AXI4_WRITE received: ID=0x4 ADDR=0xcfb548ed LEN=105
# UVM_INFO ../src/slv/axi4_slave_monitor.sv(189) @ 45745000: uvm_test_top.env.slave_agent.mon [axi4_slave_monitor] Write response sent: ID=0x4 ADDR=0xcfb548ed RESP=AXI4_RESP_OKAY
# UVM_INFO ../src/env/axi4_scoreboard.sv(103) @ 45745000: uvm_test_top.env.scb [axi4_scoreboard] Slave AXI4_WRITE received: ID=0x4 ADDR=0xcfb548ed LEN=105
# UVM_INFO ../src/env/axi4_scoreboard.sv(154) @ 45745000: uvm_test_top.env.scb [axi4_scoreboard] [WRITE] MATCH #23: ID=0x4 ADDR=0xcfb548ed LEN=105
# UVM_INFO ../src/seq/axi4_random_seq.sv(55) @ 45745000: uvm_test_top.env.master_agent.sqr@@rand_seq [axi4_random_seq] [23/50] AXI4_WRITE: ID=0x4 ADDR=0xcfb548ed LEN=105 BURST=AXI4_BURST_INCR
# UVM_INFO ../src/mst/axi4_master_driver.sv(55) @ 45745000: uvm_test_top.env.master_agent.drv [axi4_master_driver] Driving AXI4_WRITE  ID=0x0  ADDR=0x12ad3980  LEN=224
# UVM_INFO ../src/mst/axi4_master_driver.sv(94) @ 45745000: uvm_test_top.env.master_agent.drv [axi4_master_driver] Write order: AW || W (parallel)
# UVM_INFO ../src/slv/axi4_slave_driver.sv(165) @ 45775000: uvm_test_top.env.slave_agent.drv [axi4_slave_driver] AW received: ID=0x0 ADDR=0x12ad3980 LEN=224 LOCK=AXI4_LOCK_EXCLUSIVE
# UVM_INFO ../src/slv/axi4_slave_monitor.sv(116) @ 45775000: uvm_test_top.env.slave_agent.mon [axi4_slave_monitor] AW received: ID=0x0 ADDR=0x12ad3980 LEN=224
# UVM_INFO ../src/mst/axi4_master_monitor.sv(124) @ 45775000: uvm_test_top.env.master_agent.mon [axi4_master_monitor] AW observed: ID=0x0 ADDR=0x12ad3980 LEN=224
# UVM_INFO ../src/mst/axi4_master_monitor.sv(184) @ 50245000: uvm_test_top.env.master_agent.mon [axi4_master_monitor] W data assembled: ID=0x0 ADDR=0x12ad3980 225 beats
# UVM_INFO ../src/slv/axi4_slave_monitor.sv(167) @ 50245000: uvm_test_top.env.slave_agent.mon [axi4_slave_monitor] W data assembled: ID=0x0 ADDR=0x12ad3980 225 beats
# UVM_INFO ../src/mst/axi4_master_driver.sv(197) @ 50275000: uvm_test_top.env.master_agent.drv [axi4_master_driver] Write response: AXI4_RESP_OKAY
# UVM_INFO ../src/slv/axi4_slave_driver.sv(261) @ 50275000: uvm_test_top.env.slave_agent.drv [axi4_slave_driver] Write complete: ID=0x0 ADDR=0x12ad3980 RESP=AXI4_RESP_OKAY  225 beats processed
# UVM_INFO ../src/slv/axi4_slave_monitor.sv(189) @ 50275000: uvm_test_top.env.slave_agent.mon [axi4_slave_monitor] Write response sent: ID=0x0 ADDR=0x12ad3980 RESP=AXI4_RESP_OKAY
# UVM_INFO ../src/env/axi4_scoreboard.sv(103) @ 50275000: uvm_test_top.env.scb [axi4_scoreboard] Slave AXI4_WRITE received: ID=0x0 ADDR=0x12ad3980 LEN=224
# UVM_INFO ../src/mst/axi4_master_monitor.sv(210) @ 50275000: uvm_test_top.env.master_agent.mon [axi4_master_monitor] Write complete: ID=0x0 ADDR=0x12ad3980 RESP=AXI4_RESP_OKAY
# UVM_INFO ../src/env/axi4_scoreboard.sv(82) @ 50275000: uvm_test_top.env.scb [axi4_scoreboard] Master AXI4_WRITE received: ID=0x0 ADDR=0x12ad3980 LEN=224
# UVM_INFO ../src/env/axi4_scoreboard.sv(154) @ 50275000: uvm_test_top.env.scb [axi4_scoreboard] [WRITE] MATCH #24: ID=0x0 ADDR=0x12ad3980 LEN=224
# UVM_INFO ../src/seq/axi4_random_seq.sv(55) @ 50275000: uvm_test_top.env.master_agent.sqr@@rand_seq [axi4_random_seq] [24/50] AXI4_WRITE: ID=0x0 ADDR=0x12ad3980 LEN=224 BURST=AXI4_BURST_INCR
# UVM_INFO ../src/mst/axi4_master_driver.sv(55) @ 50275000: uvm_test_top.env.master_agent.drv [axi4_master_driver] Driving AXI4_WRITE  ID=0xc  ADDR=0x20d16dfe  LEN=153
# UVM_INFO ../src/mst/axi4_master_driver.sv(106) @ 50275000: uvm_test_top.env.master_agent.drv [axi4_master_driver] Write order: W -> AW (W first)
# UVM_INFO ../src/slv/axi4_slave_driver.sv(165) @ 50325000: uvm_test_top.env.slave_agent.drv [axi4_slave_driver] AW received: ID=0xc ADDR=0x20d16dfe LEN=153 LOCK=AXI4_LOCK_EXCLUSIVE
# UVM_INFO ../src/mst/axi4_master_monitor.sv(124) @ 50325000: uvm_test_top.env.master_agent.mon [axi4_master_monitor] AW observed: ID=0xc ADDR=0x20d16dfe LEN=153
# UVM_INFO ../src/slv/axi4_slave_monitor.sv(116) @ 50325000: uvm_test_top.env.slave_agent.mon [axi4_slave_monitor] AW received: ID=0xc ADDR=0x20d16dfe LEN=153
# UVM_INFO ../src/slv/axi4_slave_monitor.sv(167) @ 53355000: uvm_test_top.env.slave_agent.mon [axi4_slave_monitor] W data assembled: ID=0xc ADDR=0x20d16dfe 154 beats
# UVM_INFO ../src/mst/axi4_master_monitor.sv(184) @ 53355000: uvm_test_top.env.master_agent.mon [axi4_master_monitor] W data assembled: ID=0xc ADDR=0x20d16dfe 154 beats
# UVM_INFO ../src/mst/axi4_master_driver.sv(197) @ 53385000: uvm_test_top.env.master_agent.drv [axi4_master_driver] Write response: AXI4_RESP_OKAY
# UVM_INFO ../src/slv/axi4_slave_driver.sv(261) @ 53385000: uvm_test_top.env.slave_agent.drv [axi4_slave_driver] Write complete: ID=0xc ADDR=0x20d16dfe RESP=AXI4_RESP_OKAY  154 beats processed
# UVM_INFO ../src/mst/axi4_master_monitor.sv(210) @ 53385000: uvm_test_top.env.master_agent.mon [axi4_master_monitor] Write complete: ID=0xc ADDR=0x20d16dfe RESP=AXI4_RESP_OKAY
# UVM_INFO ../src/env/axi4_scoreboard.sv(82) @ 53385000: uvm_test_top.env.scb [axi4_scoreboard] Master AXI4_WRITE received: ID=0xc ADDR=0x20d16dfe LEN=153
# UVM_INFO ../src/slv/axi4_slave_monitor.sv(189) @ 53385000: uvm_test_top.env.slave_agent.mon [axi4_slave_monitor] Write response sent: ID=0xc ADDR=0x20d16dfe RESP=AXI4_RESP_OKAY
# UVM_INFO ../src/env/axi4_scoreboard.sv(103) @ 53385000: uvm_test_top.env.scb [axi4_scoreboard] Slave AXI4_WRITE received: ID=0xc ADDR=0x20d16dfe LEN=153
# UVM_INFO ../src/env/axi4_scoreboard.sv(154) @ 53385000: uvm_test_top.env.scb [axi4_scoreboard] [WRITE] MATCH #25: ID=0xc ADDR=0x20d16dfe LEN=153
# UVM_INFO ../src/seq/axi4_random_seq.sv(55) @ 53385000: uvm_test_top.env.master_agent.sqr@@rand_seq [axi4_random_seq] [25/50] AXI4_WRITE: ID=0xc ADDR=0x20d16dfe LEN=153 BURST=AXI4_BURST_INCR
# UVM_INFO ../src/mst/axi4_master_driver.sv(55) @ 53385000: uvm_test_top.env.master_agent.drv [axi4_master_driver] Driving AXI4_READ  ID=0x0  ADDR=0x173b7108  LEN=59
# UVM_INFO ../src/slv/axi4_slave_driver.sv(300) @ 53415000: uvm_test_top.env.slave_agent.drv [axi4_slave_driver] AR received: ID=0x0 ADDR=0x173b7108 LEN=59 LOCK=AXI4_LOCK_NORMAL
# UVM_INFO ../src/slv/axi4_slave_monitor.sv(224) @ 53415000: uvm_test_top.env.slave_agent.mon [axi4_slave_monitor] AR received: ID=0x0 ADDR=0x173b7108 LEN=59
# UVM_INFO ../src/mst/axi4_master_monitor.sv(246) @ 53415000: uvm_test_top.env.master_agent.mon [axi4_master_monitor] AR observed: ID=0x0 ADDR=0x173b7108 LEN=59
# UVM_INFO ../src/mst/axi4_master_driver.sv(254) @ 54615000: uvm_test_top.env.master_agent.drv [axi4_master_driver] Read complete: 60 beats received
# UVM_INFO ../src/slv/axi4_slave_driver.sv(349) @ 54615000: uvm_test_top.env.slave_agent.drv [axi4_slave_driver] Read complete: ID=0x0 ADDR=0x173b7108 RESP=AXI4_RESP_OKAY  60 beats sent
# UVM_INFO ../src/slv/axi4_slave_monitor.sv(287) @ 54615000: uvm_test_top.env.slave_agent.mon [axi4_slave_monitor] Read data sent: ID=0x0 ADDR=0x173b7108 60 beats
# UVM_INFO ../src/env/axi4_scoreboard.sv(103) @ 54615000: uvm_test_top.env.scb [axi4_scoreboard] Slave AXI4_READ received: ID=0x0 ADDR=0x173b7108 LEN=59
# UVM_INFO ../src/mst/axi4_master_monitor.sv(314) @ 54615000: uvm_test_top.env.master_agent.mon [axi4_master_monitor] Read complete: ID=0x0 ADDR=0x173b7108 60 beats
# UVM_INFO ../src/env/axi4_scoreboard.sv(82) @ 54615000: uvm_test_top.env.scb [axi4_scoreboard] Master AXI4_READ received: ID=0x0 ADDR=0x173b7108 LEN=59
# UVM_INFO ../src/env/axi4_scoreboard.sv(154) @ 54615000: uvm_test_top.env.scb [axi4_scoreboard] [READ] MATCH #26: ID=0x0 ADDR=0x173b7108 LEN=59
# UVM_INFO ../src/seq/axi4_random_seq.sv(55) @ 54615000: uvm_test_top.env.master_agent.sqr@@rand_seq [axi4_random_seq] [26/50] AXI4_READ: ID=0x0 ADDR=0x173b7108 LEN=59 BURST=AXI4_BURST_INCR
# UVM_INFO ../src/mst/axi4_master_driver.sv(55) @ 54615000: uvm_test_top.env.master_agent.drv [axi4_master_driver] Driving AXI4_WRITE  ID=0xe  ADDR=0x79ad4ece  LEN=87
# UVM_INFO ../src/mst/axi4_master_driver.sv(101) @ 54615000: uvm_test_top.env.master_agent.drv [axi4_master_driver] Write order: AW -> W (sequential)
# UVM_INFO ../src/slv/axi4_slave_driver.sv(165) @ 54645000: uvm_test_top.env.slave_agent.drv [axi4_slave_driver] AW received: ID=0xe ADDR=0x79ad4ece LEN=87 LOCK=AXI4_LOCK_EXCLUSIVE
# UVM_INFO ../src/mst/axi4_master_monitor.sv(124) @ 54645000: uvm_test_top.env.master_agent.mon [axi4_master_monitor] AW observed: ID=0xe ADDR=0x79ad4ece LEN=87
# UVM_INFO ../src/slv/axi4_slave_monitor.sv(116) @ 54645000: uvm_test_top.env.slave_agent.mon [axi4_slave_monitor] AW received: ID=0xe ADDR=0x79ad4ece LEN=87
# UVM_INFO ../src/mst/axi4_master_monitor.sv(184) @ 56405000: uvm_test_top.env.master_agent.mon [axi4_master_monitor] W data assembled: ID=0xe ADDR=0x79ad4ece 88 beats
# UVM_INFO ../src/slv/axi4_slave_monitor.sv(167) @ 56405000: uvm_test_top.env.slave_agent.mon [axi4_slave_monitor] W data assembled: ID=0xe ADDR=0x79ad4ece 88 beats
# UVM_INFO ../src/mst/axi4_master_driver.sv(197) @ 56435000: uvm_test_top.env.master_agent.drv [axi4_master_driver] Write response: AXI4_RESP_OKAY
# UVM_INFO ../src/slv/axi4_slave_driver.sv(261) @ 56435000: uvm_test_top.env.slave_agent.drv [axi4_slave_driver] Write complete: ID=0xe ADDR=0x79ad4ece RESP=AXI4_RESP_OKAY  88 beats processed
# UVM_INFO ../src/slv/axi4_slave_monitor.sv(189) @ 56435000: uvm_test_top.env.slave_agent.mon [axi4_slave_monitor] Write response sent: ID=0xe ADDR=0x79ad4ece RESP=AXI4_RESP_OKAY
# UVM_INFO ../src/env/axi4_scoreboard.sv(103) @ 56435000: uvm_test_top.env.scb [axi4_scoreboard] Slave AXI4_WRITE received: ID=0xe ADDR=0x79ad4ece LEN=87
# UVM_INFO ../src/mst/axi4_master_monitor.sv(210) @ 56435000: uvm_test_top.env.master_agent.mon [axi4_master_monitor] Write complete: ID=0xe ADDR=0x79ad4ece RESP=AXI4_RESP_OKAY
# UVM_INFO ../src/env/axi4_scoreboard.sv(82) @ 56435000: uvm_test_top.env.scb [axi4_scoreboard] Master AXI4_WRITE received: ID=0xe ADDR=0x79ad4ece LEN=87
# UVM_INFO ../src/env/axi4_scoreboard.sv(154) @ 56435000: uvm_test_top.env.scb [axi4_scoreboard] [WRITE] MATCH #27: ID=0xe ADDR=0x79ad4ece LEN=87
# UVM_INFO ../src/seq/axi4_random_seq.sv(55) @ 56435000: uvm_test_top.env.master_agent.sqr@@rand_seq [axi4_random_seq] [27/50] AXI4_WRITE: ID=0xe ADDR=0x79ad4ece LEN=87 BURST=AXI4_BURST_INCR
# UVM_INFO ../src/mst/axi4_master_driver.sv(55) @ 56435000: uvm_test_top.env.master_agent.drv [axi4_master_driver] Driving AXI4_WRITE  ID=0xc  ADDR=0x3ee981a1  LEN=24
# UVM_INFO ../src/mst/axi4_master_driver.sv(94) @ 56435000: uvm_test_top.env.master_agent.drv [axi4_master_driver] Write order: AW || W (parallel)
# UVM_INFO ../src/slv/axi4_slave_driver.sv(165) @ 56465000: uvm_test_top.env.slave_agent.drv [axi4_slave_driver] AW received: ID=0xc ADDR=0x3ee981a1 LEN=24 LOCK=AXI4_LOCK_NORMAL
# UVM_INFO ../src/mst/axi4_master_monitor.sv(124) @ 56465000: uvm_test_top.env.master_agent.mon [axi4_master_monitor] AW observed: ID=0xc ADDR=0x3ee981a1 LEN=24
# UVM_INFO ../src/slv/axi4_slave_monitor.sv(116) @ 56465000: uvm_test_top.env.slave_agent.mon [axi4_slave_monitor] AW received: ID=0xc ADDR=0x3ee981a1 LEN=24
# UVM_INFO ../src/slv/axi4_slave_monitor.sv(167) @ 56935000: uvm_test_top.env.slave_agent.mon [axi4_slave_monitor] W data assembled: ID=0xc ADDR=0x3ee981a1 25 beats
# UVM_INFO ../src/mst/axi4_master_monitor.sv(184) @ 56935000: uvm_test_top.env.master_agent.mon [axi4_master_monitor] W data assembled: ID=0xc ADDR=0x3ee981a1 25 beats
# UVM_INFO ../src/mst/axi4_master_driver.sv(197) @ 56965000: uvm_test_top.env.master_agent.drv [axi4_master_driver] Write response: AXI4_RESP_OKAY
# UVM_INFO ../src/slv/axi4_slave_driver.sv(261) @ 56965000: uvm_test_top.env.slave_agent.drv [axi4_slave_driver] Write complete: ID=0xc ADDR=0x3ee981a1 RESP=AXI4_RESP_OKAY  25 beats processed
# UVM_INFO ../src/mst/axi4_master_monitor.sv(210) @ 56965000: uvm_test_top.env.master_agent.mon [axi4_master_monitor] Write complete: ID=0xc ADDR=0x3ee981a1 RESP=AXI4_RESP_OKAY
# UVM_INFO ../src/env/axi4_scoreboard.sv(82) @ 56965000: uvm_test_top.env.scb [axi4_scoreboard] Master AXI4_WRITE received: ID=0xc ADDR=0x3ee981a1 LEN=24
# UVM_INFO ../src/slv/axi4_slave_monitor.sv(189) @ 56965000: uvm_test_top.env.slave_agent.mon [axi4_slave_monitor] Write response sent: ID=0xc ADDR=0x3ee981a1 RESP=AXI4_RESP_OKAY
# UVM_INFO ../src/env/axi4_scoreboard.sv(103) @ 56965000: uvm_test_top.env.scb [axi4_scoreboard] Slave AXI4_WRITE received: ID=0xc ADDR=0x3ee981a1 LEN=24
# UVM_INFO ../src/env/axi4_scoreboard.sv(154) @ 56965000: uvm_test_top.env.scb [axi4_scoreboard] [WRITE] MATCH #28: ID=0xc ADDR=0x3ee981a1 LEN=24
# UVM_INFO ../src/seq/axi4_random_seq.sv(55) @ 56965000: uvm_test_top.env.master_agent.sqr@@rand_seq [axi4_random_seq] [28/50] AXI4_WRITE: ID=0xc ADDR=0x3ee981a1 LEN=24 BURST=AXI4_BURST_INCR
# UVM_INFO ../src/mst/axi4_master_driver.sv(55) @ 56965000: uvm_test_top.env.master_agent.drv [axi4_master_driver] Driving AXI4_WRITE  ID=0x8  ADDR=0x633bf3f9  LEN=32
# UVM_INFO ../src/mst/axi4_master_driver.sv(94) @ 56965000: uvm_test_top.env.master_agent.drv [axi4_master_driver] Write order: AW || W (parallel)
# UVM_INFO ../src/slv/axi4_slave_driver.sv(165) @ 56995000: uvm_test_top.env.slave_agent.drv [axi4_slave_driver] AW received: ID=0x8 ADDR=0x633bf3f9 LEN=32 LOCK=AXI4_LOCK_EXCLUSIVE
# UVM_INFO ../src/slv/axi4_slave_monitor.sv(116) @ 56995000: uvm_test_top.env.slave_agent.mon [axi4_slave_monitor] AW received: ID=0x8 ADDR=0x633bf3f9 LEN=32
# UVM_INFO ../src/mst/axi4_master_monitor.sv(124) @ 56995000: uvm_test_top.env.master_agent.mon [axi4_master_monitor] AW observed: ID=0x8 ADDR=0x633bf3f9 LEN=32
# UVM_INFO ../src/mst/axi4_master_monitor.sv(184) @ 57625000: uvm_test_top.env.master_agent.mon [axi4_master_monitor] W data assembled: ID=0x8 ADDR=0x633bf3f9 33 beats
# UVM_INFO ../src/slv/axi4_slave_monitor.sv(167) @ 57625000: uvm_test_top.env.slave_agent.mon [axi4_slave_monitor] W data assembled: ID=0x8 ADDR=0x633bf3f9 33 beats
# UVM_INFO ../src/mst/axi4_master_driver.sv(197) @ 57655000: uvm_test_top.env.master_agent.drv [axi4_master_driver] Write response: AXI4_RESP_OKAY
# UVM_INFO ../src/slv/axi4_slave_driver.sv(261) @ 57655000: uvm_test_top.env.slave_agent.drv [axi4_slave_driver] Write complete: ID=0x8 ADDR=0x633bf3f9 RESP=AXI4_RESP_OKAY  33 beats processed
# UVM_INFO ../src/slv/axi4_slave_monitor.sv(189) @ 57655000: uvm_test_top.env.slave_agent.mon [axi4_slave_monitor] Write response sent: ID=0x8 ADDR=0x633bf3f9 RESP=AXI4_RESP_OKAY
# UVM_INFO ../src/env/axi4_scoreboard.sv(103) @ 57655000: uvm_test_top.env.scb [axi4_scoreboard] Slave AXI4_WRITE received: ID=0x8 ADDR=0x633bf3f9 LEN=32
# UVM_INFO ../src/mst/axi4_master_monitor.sv(210) @ 57655000: uvm_test_top.env.master_agent.mon [axi4_master_monitor] Write complete: ID=0x8 ADDR=0x633bf3f9 RESP=AXI4_RESP_OKAY
# UVM_INFO ../src/env/axi4_scoreboard.sv(82) @ 57655000: uvm_test_top.env.scb [axi4_scoreboard] Master AXI4_WRITE received: ID=0x8 ADDR=0x633bf3f9 LEN=32
# UVM_INFO ../src/env/axi4_scoreboard.sv(154) @ 57655000: uvm_test_top.env.scb [axi4_scoreboard] [WRITE] MATCH #29: ID=0x8 ADDR=0x633bf3f9 LEN=32
# UVM_INFO ../src/seq/axi4_random_seq.sv(55) @ 57655000: uvm_test_top.env.master_agent.sqr@@rand_seq [axi4_random_seq] [29/50] AXI4_WRITE: ID=0x8 ADDR=0x633bf3f9 LEN=32 BURST=AXI4_BURST_INCR
# UVM_INFO ../src/mst/axi4_master_driver.sv(55) @ 57655000: uvm_test_top.env.master_agent.drv [axi4_master_driver] Driving AXI4_WRITE  ID=0xa  ADDR=0xb31bddeb  LEN=7
# UVM_INFO ../src/mst/axi4_master_driver.sv(94) @ 57655000: uvm_test_top.env.master_agent.drv [axi4_master_driver] Write order: AW || W (parallel)
# UVM_INFO ../src/slv/axi4_slave_driver.sv(165) @ 57685000: uvm_test_top.env.slave_agent.drv [axi4_slave_driver] AW received: ID=0xa ADDR=0xb31bddeb LEN=7 LOCK=AXI4_LOCK_EXCLUSIVE
# UVM_INFO ../src/mst/axi4_master_monitor.sv(124) @ 57685000: uvm_test_top.env.master_agent.mon [axi4_master_monitor] AW observed: ID=0xa ADDR=0xb31bddeb LEN=7
# UVM_INFO ../src/slv/axi4_slave_monitor.sv(116) @ 57685000: uvm_test_top.env.slave_agent.mon [axi4_slave_monitor] AW received: ID=0xa ADDR=0xb31bddeb LEN=7
# UVM_INFO ../src/slv/axi4_slave_monitor.sv(167) @ 57815000: uvm_test_top.env.slave_agent.mon [axi4_slave_monitor] W data assembled: ID=0xa ADDR=0xb31bddeb 8 beats
# UVM_INFO ../src/mst/axi4_master_monitor.sv(184) @ 57815000: uvm_test_top.env.master_agent.mon [axi4_master_monitor] W data assembled: ID=0xa ADDR=0xb31bddeb 8 beats
# UVM_INFO ../src/mst/axi4_master_driver.sv(197) @ 57845000: uvm_test_top.env.master_agent.drv [axi4_master_driver] Write response: AXI4_RESP_OKAY
# UVM_INFO ../src/slv/axi4_slave_driver.sv(261) @ 57845000: uvm_test_top.env.slave_agent.drv [axi4_slave_driver] Write complete: ID=0xa ADDR=0xb31bddeb RESP=AXI4_RESP_OKAY  8 beats processed
# UVM_INFO ../src/mst/axi4_master_monitor.sv(210) @ 57845000: uvm_test_top.env.master_agent.mon [axi4_master_monitor] Write complete: ID=0xa ADDR=0xb31bddeb RESP=AXI4_RESP_OKAY
# UVM_INFO ../src/env/axi4_scoreboard.sv(82) @ 57845000: uvm_test_top.env.scb [axi4_scoreboard] Master AXI4_WRITE received: ID=0xa ADDR=0xb31bddeb LEN=7
# UVM_INFO ../src/slv/axi4_slave_monitor.sv(189) @ 57845000: uvm_test_top.env.slave_agent.mon [axi4_slave_monitor] Write response sent: ID=0xa ADDR=0xb31bddeb RESP=AXI4_RESP_OKAY
# UVM_INFO ../src/env/axi4_scoreboard.sv(103) @ 57845000: uvm_test_top.env.scb [axi4_scoreboard] Slave AXI4_WRITE received: ID=0xa ADDR=0xb31bddeb LEN=7
# UVM_INFO ../src/env/axi4_scoreboard.sv(154) @ 57845000: uvm_test_top.env.scb [axi4_scoreboard] [WRITE] MATCH #30: ID=0xa ADDR=0xb31bddeb LEN=7
# UVM_INFO ../src/seq/axi4_random_seq.sv(55) @ 57845000: uvm_test_top.env.master_agent.sqr@@rand_seq [axi4_random_seq] [30/50] AXI4_WRITE: ID=0xa ADDR=0xb31bddeb LEN=7 BURST=AXI4_BURST_FIXED
# UVM_INFO ../src/mst/axi4_master_driver.sv(55) @ 57845000: uvm_test_top.env.master_agent.drv [axi4_master_driver] Driving AXI4_WRITE  ID=0xd  ADDR=0x9bcd96f3  LEN=7
# UVM_INFO ../src/mst/axi4_master_driver.sv(94) @ 57845000: uvm_test_top.env.master_agent.drv [axi4_master_driver] Write order: AW || W (parallel)
# UVM_INFO ../src/slv/axi4_slave_driver.sv(165) @ 57875000: uvm_test_top.env.slave_agent.drv [axi4_slave_driver] AW received: ID=0xd ADDR=0x9bcd96f3 LEN=7 LOCK=AXI4_LOCK_EXCLUSIVE
# UVM_INFO ../src/slv/axi4_slave_monitor.sv(116) @ 57875000: uvm_test_top.env.slave_agent.mon [axi4_slave_monitor] AW received: ID=0xd ADDR=0x9bcd96f3 LEN=7
# UVM_INFO ../src/mst/axi4_master_monitor.sv(124) @ 57875000: uvm_test_top.env.master_agent.mon [axi4_master_monitor] AW observed: ID=0xd ADDR=0x9bcd96f3 LEN=7
# UVM_INFO ../src/mst/axi4_master_monitor.sv(184) @ 58005000: uvm_test_top.env.master_agent.mon [axi4_master_monitor] W data assembled: ID=0xd ADDR=0x9bcd96f3 8 beats
# UVM_INFO ../src/slv/axi4_slave_monitor.sv(167) @ 58005000: uvm_test_top.env.slave_agent.mon [axi4_slave_monitor] W data assembled: ID=0xd ADDR=0x9bcd96f3 8 beats
# UVM_INFO ../src/mst/axi4_master_driver.sv(197) @ 58035000: uvm_test_top.env.master_agent.drv [axi4_master_driver] Write response: AXI4_RESP_OKAY
# UVM_INFO ../src/slv/axi4_slave_driver.sv(261) @ 58035000: uvm_test_top.env.slave_agent.drv [axi4_slave_driver] Write complete: ID=0xd ADDR=0x9bcd96f3 RESP=AXI4_RESP_OKAY  8 beats processed
# UVM_INFO ../src/slv/axi4_slave_monitor.sv(189) @ 58035000: uvm_test_top.env.slave_agent.mon [axi4_slave_monitor] Write response sent: ID=0xd ADDR=0x9bcd96f3 RESP=AXI4_RESP_OKAY
# UVM_INFO ../src/env/axi4_scoreboard.sv(103) @ 58035000: uvm_test_top.env.scb [axi4_scoreboard] Slave AXI4_WRITE received: ID=0xd ADDR=0x9bcd96f3 LEN=7
# UVM_INFO ../src/mst/axi4_master_monitor.sv(210) @ 58035000: uvm_test_top.env.master_agent.mon [axi4_master_monitor] Write complete: ID=0xd ADDR=0x9bcd96f3 RESP=AXI4_RESP_OKAY
# UVM_INFO ../src/env/axi4_scoreboard.sv(82) @ 58035000: uvm_test_top.env.scb [axi4_scoreboard] Master AXI4_WRITE received: ID=0xd ADDR=0x9bcd96f3 LEN=7
# UVM_INFO ../src/env/axi4_scoreboard.sv(154) @ 58035000: uvm_test_top.env.scb [axi4_scoreboard] [WRITE] MATCH #31: ID=0xd ADDR=0x9bcd96f3 LEN=7
# UVM_INFO ../src/seq/axi4_random_seq.sv(55) @ 58035000: uvm_test_top.env.master_agent.sqr@@rand_seq [axi4_random_seq] [31/50] AXI4_WRITE: ID=0xd ADDR=0x9bcd96f3 LEN=7 BURST=AXI4_BURST_WRAP
# UVM_INFO ../src/mst/axi4_master_driver.sv(55) @ 58035000: uvm_test_top.env.master_agent.drv [axi4_master_driver] Driving AXI4_WRITE  ID=0xa  ADDR=0xb29ae994  LEN=182
# UVM_INFO ../src/mst/axi4_master_driver.sv(94) @ 58035000: uvm_test_top.env.master_agent.drv [axi4_master_driver] Write order: AW || W (parallel)
# UVM_INFO ../src/slv/axi4_slave_driver.sv(165) @ 58065000: uvm_test_top.env.slave_agent.drv [axi4_slave_driver] AW received: ID=0xa ADDR=0xb29ae994 LEN=182 LOCK=AXI4_LOCK_NORMAL
# UVM_INFO ../src/mst/axi4_master_monitor.sv(124) @ 58065000: uvm_test_top.env.master_agent.mon [axi4_master_monitor] AW observed: ID=0xa ADDR=0xb29ae994 LEN=182
# UVM_INFO ../src/slv/axi4_slave_monitor.sv(116) @ 58065000: uvm_test_top.env.slave_agent.mon [axi4_slave_monitor] AW received: ID=0xa ADDR=0xb29ae994 LEN=182
# UVM_INFO ../src/slv/axi4_slave_monitor.sv(167) @ 61695000: uvm_test_top.env.slave_agent.mon [axi4_slave_monitor] W data assembled: ID=0xa ADDR=0xb29ae994 183 beats
# UVM_INFO ../src/mst/axi4_master_monitor.sv(184) @ 61695000: uvm_test_top.env.master_agent.mon [axi4_master_monitor] W data assembled: ID=0xa ADDR=0xb29ae994 183 beats
# UVM_INFO ../src/mst/axi4_master_driver.sv(197) @ 61725000: uvm_test_top.env.master_agent.drv [axi4_master_driver] Write response: AXI4_RESP_OKAY
# UVM_INFO ../src/slv/axi4_slave_driver.sv(261) @ 61725000: uvm_test_top.env.slave_agent.drv [axi4_slave_driver] Write complete: ID=0xa ADDR=0xb29ae994 RESP=AXI4_RESP_OKAY  183 beats processed
# UVM_INFO ../src/mst/axi4_master_monitor.sv(210) @ 61725000: uvm_test_top.env.master_agent.mon [axi4_master_monitor] Write complete: ID=0xa ADDR=0xb29ae994 RESP=AXI4_RESP_OKAY
# UVM_INFO ../src/env/axi4_scoreboard.sv(82) @ 61725000: uvm_test_top.env.scb [axi4_scoreboard] Master AXI4_WRITE received: ID=0xa ADDR=0xb29ae994 LEN=182
# UVM_INFO ../src/slv/axi4_slave_monitor.sv(189) @ 61725000: uvm_test_top.env.slave_agent.mon [axi4_slave_monitor] Write response sent: ID=0xa ADDR=0xb29ae994 RESP=AXI4_RESP_OKAY
# UVM_INFO ../src/env/axi4_scoreboard.sv(103) @ 61725000: uvm_test_top.env.scb [axi4_scoreboard] Slave AXI4_WRITE received: ID=0xa ADDR=0xb29ae994 LEN=182
# UVM_INFO ../src/env/axi4_scoreboard.sv(154) @ 61725000: uvm_test_top.env.scb [axi4_scoreboard] [WRITE] MATCH #32: ID=0xa ADDR=0xb29ae994 LEN=182
# UVM_INFO ../src/seq/axi4_random_seq.sv(55) @ 61725000: uvm_test_top.env.master_agent.sqr@@rand_seq [axi4_random_seq] [32/50] AXI4_WRITE: ID=0xa ADDR=0xb29ae994 LEN=182 BURST=AXI4_BURST_INCR
# UVM_INFO ../src/mst/axi4_master_driver.sv(55) @ 61725000: uvm_test_top.env.master_agent.drv [axi4_master_driver] Driving AXI4_READ  ID=0xe  ADDR=0xca32246c  LEN=141
# UVM_INFO ../src/slv/axi4_slave_driver.sv(300) @ 61755000: uvm_test_top.env.slave_agent.drv [axi4_slave_driver] AR received: ID=0xe ADDR=0xca32246c LEN=141 LOCK=AXI4_LOCK_EXCLUSIVE
# UVM_INFO ../src/slv/axi4_slave_monitor.sv(224) @ 61755000: uvm_test_top.env.slave_agent.mon [axi4_slave_monitor] AR received: ID=0xe ADDR=0xca32246c LEN=141
# UVM_INFO ../src/mst/axi4_master_monitor.sv(246) @ 61755000: uvm_test_top.env.master_agent.mon [axi4_master_monitor] AR observed: ID=0xe ADDR=0xca32246c LEN=141
# UVM_INFO ../src/mst/axi4_master_driver.sv(254) @ 64595000: uvm_test_top.env.master_agent.drv [axi4_master_driver] Read complete: 142 beats received
# UVM_INFO ../src/slv/axi4_slave_driver.sv(349) @ 64595000: uvm_test_top.env.slave_agent.drv [axi4_slave_driver] Read complete: ID=0xe ADDR=0xca32246c RESP=AXI4_RESP_EXOKAY  142 beats sent
# UVM_INFO ../src/slv/axi4_slave_monitor.sv(287) @ 64595000: uvm_test_top.env.slave_agent.mon [axi4_slave_monitor] Read data sent: ID=0xe ADDR=0xca32246c 142 beats
# UVM_INFO ../src/env/axi4_scoreboard.sv(103) @ 64595000: uvm_test_top.env.scb [axi4_scoreboard] Slave AXI4_READ received: ID=0xe ADDR=0xca32246c LEN=141
# UVM_INFO ../src/mst/axi4_master_monitor.sv(314) @ 64595000: uvm_test_top.env.master_agent.mon [axi4_master_monitor] Read complete: ID=0xe ADDR=0xca32246c 142 beats
# UVM_INFO ../src/env/axi4_scoreboard.sv(82) @ 64595000: uvm_test_top.env.scb [axi4_scoreboard] Master AXI4_READ received: ID=0xe ADDR=0xca32246c LEN=141
# UVM_INFO ../src/env/axi4_scoreboard.sv(154) @ 64595000: uvm_test_top.env.scb [axi4_scoreboard] [READ] MATCH #33: ID=0xe ADDR=0xca32246c LEN=141
# UVM_INFO ../src/seq/axi4_random_seq.sv(55) @ 64595000: uvm_test_top.env.master_agent.sqr@@rand_seq [axi4_random_seq] [33/50] AXI4_READ: ID=0xe ADDR=0xca32246c LEN=141 BURST=AXI4_BURST_INCR
# UVM_INFO ../src/mst/axi4_master_driver.sv(55) @ 64595000: uvm_test_top.env.master_agent.drv [axi4_master_driver] Driving AXI4_READ  ID=0x5  ADDR=0x7ccabab3  LEN=229
# UVM_INFO ../src/slv/axi4_slave_driver.sv(300) @ 64625000: uvm_test_top.env.slave_agent.drv [axi4_slave_driver] AR received: ID=0x5 ADDR=0x7ccabab3 LEN=229 LOCK=AXI4_LOCK_NORMAL
# UVM_INFO ../src/mst/axi4_master_monitor.sv(246) @ 64625000: uvm_test_top.env.master_agent.mon [axi4_master_monitor] AR observed: ID=0x5 ADDR=0x7ccabab3 LEN=229
# UVM_INFO ../src/slv/axi4_slave_monitor.sv(224) @ 64625000: uvm_test_top.env.slave_agent.mon [axi4_slave_monitor] AR received: ID=0x5 ADDR=0x7ccabab3 LEN=229
# UVM_INFO ../src/mst/axi4_master_driver.sv(254) @ 69225000: uvm_test_top.env.master_agent.drv [axi4_master_driver] Read complete: 230 beats received
# UVM_INFO ../src/slv/axi4_slave_driver.sv(349) @ 69225000: uvm_test_top.env.slave_agent.drv [axi4_slave_driver] Read complete: ID=0x5 ADDR=0x7ccabab3 RESP=AXI4_RESP_OKAY  230 beats sent
# UVM_INFO ../src/mst/axi4_master_monitor.sv(314) @ 69225000: uvm_test_top.env.master_agent.mon [axi4_master_monitor] Read complete: ID=0x5 ADDR=0x7ccabab3 230 beats
# UVM_INFO ../src/env/axi4_scoreboard.sv(82) @ 69225000: uvm_test_top.env.scb [axi4_scoreboard] Master AXI4_READ received: ID=0x5 ADDR=0x7ccabab3 LEN=229
# UVM_INFO ../src/slv/axi4_slave_monitor.sv(287) @ 69225000: uvm_test_top.env.slave_agent.mon [axi4_slave_monitor] Read data sent: ID=0x5 ADDR=0x7ccabab3 230 beats
# UVM_INFO ../src/env/axi4_scoreboard.sv(103) @ 69225000: uvm_test_top.env.scb [axi4_scoreboard] Slave AXI4_READ received: ID=0x5 ADDR=0x7ccabab3 LEN=229
# UVM_INFO ../src/env/axi4_scoreboard.sv(154) @ 69225000: uvm_test_top.env.scb [axi4_scoreboard] [READ] MATCH #34: ID=0x5 ADDR=0x7ccabab3 LEN=229
# UVM_INFO ../src/seq/axi4_random_seq.sv(55) @ 69225000: uvm_test_top.env.master_agent.sqr@@rand_seq [axi4_random_seq] [34/50] AXI4_READ: ID=0x5 ADDR=0x7ccabab3 LEN=229 BURST=AXI4_BURST_INCR
# UVM_INFO ../src/mst/axi4_master_driver.sv(55) @ 69225000: uvm_test_top.env.master_agent.drv [axi4_master_driver] Driving AXI4_READ  ID=0x9  ADDR=0xdd208861  LEN=109
# UVM_INFO ../src/slv/axi4_slave_driver.sv(300) @ 69255000: uvm_test_top.env.slave_agent.drv [axi4_slave_driver] AR received: ID=0x9 ADDR=0xdd208861 LEN=109 LOCK=AXI4_LOCK_EXCLUSIVE
# UVM_INFO ../src/slv/axi4_slave_monitor.sv(224) @ 69255000: uvm_test_top.env.slave_agent.mon [axi4_slave_monitor] AR received: ID=0x9 ADDR=0xdd208861 LEN=109
# UVM_INFO ../src/mst/axi4_master_monitor.sv(246) @ 69255000: uvm_test_top.env.master_agent.mon [axi4_master_monitor] AR observed: ID=0x9 ADDR=0xdd208861 LEN=109
# UVM_INFO ../src/mst/axi4_master_driver.sv(254) @ 71455000: uvm_test_top.env.master_agent.drv [axi4_master_driver] Read complete: 110 beats received
# UVM_INFO ../src/slv/axi4_slave_driver.sv(349) @ 71455000: uvm_test_top.env.slave_agent.drv [axi4_slave_driver] Read complete: ID=0x9 ADDR=0xdd208861 RESP=AXI4_RESP_EXOKAY  110 beats sent
# UVM_INFO ../src/slv/axi4_slave_monitor.sv(287) @ 71455000: uvm_test_top.env.slave_agent.mon [axi4_slave_monitor] Read data sent: ID=0x9 ADDR=0xdd208861 110 beats
# UVM_INFO ../src/env/axi4_scoreboard.sv(103) @ 71455000: uvm_test_top.env.scb [axi4_scoreboard] Slave AXI4_READ received: ID=0x9 ADDR=0xdd208861 LEN=109
# UVM_INFO ../src/mst/axi4_master_monitor.sv(314) @ 71455000: uvm_test_top.env.master_agent.mon [axi4_master_monitor] Read complete: ID=0x9 ADDR=0xdd208861 110 beats
# UVM_INFO ../src/env/axi4_scoreboard.sv(82) @ 71455000: uvm_test_top.env.scb [axi4_scoreboard] Master AXI4_READ received: ID=0x9 ADDR=0xdd208861 LEN=109
# UVM_INFO ../src/env/axi4_scoreboard.sv(154) @ 71455000: uvm_test_top.env.scb [axi4_scoreboard] [READ] MATCH #35: ID=0x9 ADDR=0xdd208861 LEN=109
# UVM_INFO ../src/seq/axi4_random_seq.sv(55) @ 71455000: uvm_test_top.env.master_agent.sqr@@rand_seq [axi4_random_seq] [35/50] AXI4_READ: ID=0x9 ADDR=0xdd208861 LEN=109 BURST=AXI4_BURST_INCR
# UVM_INFO ../src/mst/axi4_master_driver.sv(55) @ 71455000: uvm_test_top.env.master_agent.drv [axi4_master_driver] Driving AXI4_READ  ID=0x3  ADDR=0xaf2f07be  LEN=173
# UVM_INFO ../src/slv/axi4_slave_driver.sv(300) @ 71485000: uvm_test_top.env.slave_agent.drv [axi4_slave_driver] AR received: ID=0x3 ADDR=0xaf2f07be LEN=173 LOCK=AXI4_LOCK_NORMAL
# UVM_INFO ../src/mst/axi4_master_monitor.sv(246) @ 71485000: uvm_test_top.env.master_agent.mon [axi4_master_monitor] AR observed: ID=0x3 ADDR=0xaf2f07be LEN=173
# UVM_INFO ../src/slv/axi4_slave_monitor.sv(224) @ 71485000: uvm_test_top.env.slave_agent.mon [axi4_slave_monitor] AR received: ID=0x3 ADDR=0xaf2f07be LEN=173
# UVM_INFO ../src/mst/axi4_master_driver.sv(254) @ 74965000: uvm_test_top.env.master_agent.drv [axi4_master_driver] Read complete: 174 beats received
# UVM_INFO ../src/slv/axi4_slave_driver.sv(349) @ 74965000: uvm_test_top.env.slave_agent.drv [axi4_slave_driver] Read complete: ID=0x3 ADDR=0xaf2f07be RESP=AXI4_RESP_OKAY  174 beats sent
# UVM_INFO ../src/mst/axi4_master_monitor.sv(314) @ 74965000: uvm_test_top.env.master_agent.mon [axi4_master_monitor] Read complete: ID=0x3 ADDR=0xaf2f07be 174 beats
# UVM_INFO ../src/env/axi4_scoreboard.sv(82) @ 74965000: uvm_test_top.env.scb [axi4_scoreboard] Master AXI4_READ received: ID=0x3 ADDR=0xaf2f07be LEN=173
# UVM_INFO ../src/slv/axi4_slave_monitor.sv(287) @ 74965000: uvm_test_top.env.slave_agent.mon [axi4_slave_monitor] Read data sent: ID=0x3 ADDR=0xaf2f07be 174 beats
# UVM_INFO ../src/env/axi4_scoreboard.sv(103) @ 74965000: uvm_test_top.env.scb [axi4_scoreboard] Slave AXI4_READ received: ID=0x3 ADDR=0xaf2f07be LEN=173
# UVM_INFO ../src/env/axi4_scoreboard.sv(154) @ 74965000: uvm_test_top.env.scb [axi4_scoreboard] [READ] MATCH #36: ID=0x3 ADDR=0xaf2f07be LEN=173
# UVM_INFO ../src/seq/axi4_random_seq.sv(55) @ 74965000: uvm_test_top.env.master_agent.sqr@@rand_seq [axi4_random_seq] [36/50] AXI4_READ: ID=0x3 ADDR=0xaf2f07be LEN=173 BURST=AXI4_BURST_INCR
# UVM_INFO ../src/mst/axi4_master_driver.sv(55) @ 74965000: uvm_test_top.env.master_agent.drv [axi4_master_driver] Driving AXI4_WRITE  ID=0x0  ADDR=0xe72ad418  LEN=179
# UVM_INFO ../src/mst/axi4_master_driver.sv(101) @ 74965000: uvm_test_top.env.master_agent.drv [axi4_master_driver] Write order: AW -> W (sequential)
# UVM_INFO ../src/slv/axi4_slave_driver.sv(165) @ 74995000: uvm_test_top.env.slave_agent.drv [axi4_slave_driver] AW received: ID=0x0 ADDR=0xe72ad418 LEN=179 LOCK=AXI4_LOCK_NORMAL
# UVM_INFO ../src/slv/axi4_slave_monitor.sv(116) @ 74995000: uvm_test_top.env.slave_agent.mon [axi4_slave_monitor] AW received: ID=0x0 ADDR=0xe72ad418 LEN=179
# UVM_INFO ../src/mst/axi4_master_monitor.sv(124) @ 74995000: uvm_test_top.env.master_agent.mon [axi4_master_monitor] AW observed: ID=0x0 ADDR=0xe72ad418 LEN=179
# UVM_INFO ../src/slv/axi4_slave_monitor.sv(167) @ 78595000: uvm_test_top.env.slave_agent.mon [axi4_slave_monitor] W data assembled: ID=0x0 ADDR=0xe72ad418 180 beats
# UVM_INFO ../src/mst/axi4_master_monitor.sv(184) @ 78595000: uvm_test_top.env.master_agent.mon [axi4_master_monitor] W data assembled: ID=0x0 ADDR=0xe72ad418 180 beats
# UVM_INFO ../src/mst/axi4_master_driver.sv(197) @ 78625000: uvm_test_top.env.master_agent.drv [axi4_master_driver] Write response: AXI4_RESP_SLVERR
# UVM_INFO ../src/slv/axi4_slave_driver.sv(261) @ 78625000: uvm_test_top.env.slave_agent.drv [axi4_slave_driver] Write complete: ID=0x0 ADDR=0xe72ad418 RESP=AXI4_RESP_SLVERR  180 beats processed
# UVM_INFO ../src/mst/axi4_master_monitor.sv(210) @ 78625000: uvm_test_top.env.master_agent.mon [axi4_master_monitor] Write complete: ID=0x0 ADDR=0xe72ad418 RESP=AXI4_RESP_SLVERR
# UVM_INFO ../src/env/axi4_scoreboard.sv(82) @ 78625000: uvm_test_top.env.scb [axi4_scoreboard] Master AXI4_WRITE received: ID=0x0 ADDR=0xe72ad418 LEN=179
# UVM_INFO ../src/slv/axi4_slave_monitor.sv(189) @ 78625000: uvm_test_top.env.slave_agent.mon [axi4_slave_monitor] Write response sent: ID=0x0 ADDR=0xe72ad418 RESP=AXI4_RESP_SLVERR
# UVM_INFO ../src/env/axi4_scoreboard.sv(103) @ 78625000: uvm_test_top.env.scb [axi4_scoreboard] Slave AXI4_WRITE received: ID=0x0 ADDR=0xe72ad418 LEN=179
# UVM_INFO ../src/env/axi4_scoreboard.sv(154) @ 78625000: uvm_test_top.env.scb [axi4_scoreboard] [WRITE] MATCH #37: ID=0x0 ADDR=0xe72ad418 LEN=179
# UVM_INFO ../src/seq/axi4_random_seq.sv(55) @ 78625000: uvm_test_top.env.master_agent.sqr@@rand_seq [axi4_random_seq] [37/50] AXI4_WRITE: ID=0x0 ADDR=0xe72ad418 LEN=179 BURST=AXI4_BURST_INCR
# UVM_INFO ../src/mst/axi4_master_driver.sv(55) @ 78625000: uvm_test_top.env.master_agent.drv [axi4_master_driver] Driving AXI4_WRITE  ID=0x1  ADDR=0xe82e3f4a  LEN=5
# UVM_INFO ../src/mst/axi4_master_driver.sv(101) @ 78625000: uvm_test_top.env.master_agent.drv [axi4_master_driver] Write order: AW -> W (sequential)
# UVM_INFO ../src/slv/axi4_slave_driver.sv(165) @ 78655000: uvm_test_top.env.slave_agent.drv [axi4_slave_driver] AW received: ID=0x1 ADDR=0xe82e3f4a LEN=5 LOCK=AXI4_LOCK_NORMAL
# UVM_INFO ../src/slv/axi4_slave_monitor.sv(116) @ 78655000: uvm_test_top.env.slave_agent.mon [axi4_slave_monitor] AW received: ID=0x1 ADDR=0xe82e3f4a LEN=5
# UVM_INFO ../src/mst/axi4_master_monitor.sv(124) @ 78655000: uvm_test_top.env.master_agent.mon [axi4_master_monitor] AW observed: ID=0x1 ADDR=0xe82e3f4a LEN=5
# UVM_INFO ../src/slv/axi4_slave_monitor.sv(167) @ 78775000: uvm_test_top.env.slave_agent.mon [axi4_slave_monitor] W data assembled: ID=0x1 ADDR=0xe82e3f4a 6 beats
# UVM_INFO ../src/mst/axi4_master_monitor.sv(184) @ 78775000: uvm_test_top.env.master_agent.mon [axi4_master_monitor] W data assembled: ID=0x1 ADDR=0xe82e3f4a 6 beats
# UVM_INFO ../src/mst/axi4_master_driver.sv(197) @ 78805000: uvm_test_top.env.master_agent.drv [axi4_master_driver] Write response: AXI4_RESP_SLVERR
# UVM_INFO ../src/slv/axi4_slave_driver.sv(261) @ 78805000: uvm_test_top.env.slave_agent.drv [axi4_slave_driver] Write complete: ID=0x1 ADDR=0xe82e3f4a RESP=AXI4_RESP_SLVERR  6 beats processed
# UVM_INFO ../src/mst/axi4_master_monitor.sv(210) @ 78805000: uvm_test_top.env.master_agent.mon [axi4_master_monitor] Write complete: ID=0x1 ADDR=0xe82e3f4a RESP=AXI4_RESP_SLVERR
# UVM_INFO ../src/env/axi4_scoreboard.sv(82) @ 78805000: uvm_test_top.env.scb [axi4_scoreboard] Master AXI4_WRITE received: ID=0x1 ADDR=0xe82e3f4a LEN=5
# UVM_INFO ../src/slv/axi4_slave_monitor.sv(189) @ 78805000: uvm_test_top.env.slave_agent.mon [axi4_slave_monitor] Write response sent: ID=0x1 ADDR=0xe82e3f4a RESP=AXI4_RESP_SLVERR
# UVM_INFO ../src/env/axi4_scoreboard.sv(103) @ 78805000: uvm_test_top.env.scb [axi4_scoreboard] Slave AXI4_WRITE received: ID=0x1 ADDR=0xe82e3f4a LEN=5
# UVM_INFO ../src/env/axi4_scoreboard.sv(154) @ 78805000: uvm_test_top.env.scb [axi4_scoreboard] [WRITE] MATCH #38: ID=0x1 ADDR=0xe82e3f4a LEN=5
# UVM_INFO ../src/seq/axi4_random_seq.sv(55) @ 78805000: uvm_test_top.env.master_agent.sqr@@rand_seq [axi4_random_seq] [38/50] AXI4_WRITE: ID=0x1 ADDR=0xe82e3f4a LEN=5 BURST=AXI4_BURST_FIXED
# UVM_INFO ../src/mst/axi4_master_driver.sv(55) @ 78805000: uvm_test_top.env.master_agent.drv [axi4_master_driver] Driving AXI4_READ  ID=0xd  ADDR=0xf59872c3  LEN=4
# UVM_INFO ../src/slv/axi4_slave_driver.sv(300) @ 78835000: uvm_test_top.env.slave_agent.drv [axi4_slave_driver] AR received: ID=0xd ADDR=0xf59872c3 LEN=4 LOCK=AXI4_LOCK_NORMAL
# UVM_INFO ../src/slv/axi4_slave_monitor.sv(224) @ 78835000: uvm_test_top.env.slave_agent.mon [axi4_slave_monitor] AR received: ID=0xd ADDR=0xf59872c3 LEN=4
# UVM_INFO ../src/mst/axi4_master_monitor.sv(246) @ 78835000: uvm_test_top.env.master_agent.mon [axi4_master_monitor] AR observed: ID=0xd ADDR=0xf59872c3 LEN=4
# UVM_INFO ../src/mst/axi4_master_driver.sv(254) @ 78935000: uvm_test_top.env.master_agent.drv [axi4_master_driver] Read complete: 5 beats received
# UVM_INFO ../src/slv/axi4_slave_driver.sv(349) @ 78935000: uvm_test_top.env.slave_agent.drv [axi4_slave_driver] Read complete: ID=0xd ADDR=0xf59872c3 RESP=AXI4_RESP_DECERR  5 beats sent
# UVM_INFO ../src/slv/axi4_slave_monitor.sv(287) @ 78935000: uvm_test_top.env.slave_agent.mon [axi4_slave_monitor] Read data sent: ID=0xd ADDR=0xf59872c3 5 beats
# UVM_INFO ../src/env/axi4_scoreboard.sv(103) @ 78935000: uvm_test_top.env.scb [axi4_scoreboard] Slave AXI4_READ received: ID=0xd ADDR=0xf59872c3 LEN=4
# UVM_INFO ../src/mst/axi4_master_monitor.sv(314) @ 78935000: uvm_test_top.env.master_agent.mon [axi4_master_monitor] Read complete: ID=0xd ADDR=0xf59872c3 5 beats
# UVM_INFO ../src/env/axi4_scoreboard.sv(82) @ 78935000: uvm_test_top.env.scb [axi4_scoreboard] Master AXI4_READ received: ID=0xd ADDR=0xf59872c3 LEN=4
# UVM_INFO ../src/env/axi4_scoreboard.sv(154) @ 78935000: uvm_test_top.env.scb [axi4_scoreboard] [READ] MATCH #39: ID=0xd ADDR=0xf59872c3 LEN=4
# UVM_INFO ../src/seq/axi4_random_seq.sv(55) @ 78935000: uvm_test_top.env.master_agent.sqr@@rand_seq [axi4_random_seq] [39/50] AXI4_READ: ID=0xd ADDR=0xf59872c3 LEN=4 BURST=AXI4_BURST_FIXED
# UVM_INFO ../src/mst/axi4_master_driver.sv(55) @ 78935000: uvm_test_top.env.master_agent.drv [axi4_master_driver] Driving AXI4_READ  ID=0x8  ADDR=0xa68ddd22  LEN=150
# UVM_INFO ../src/slv/axi4_slave_driver.sv(300) @ 78965000: uvm_test_top.env.slave_agent.drv [axi4_slave_driver] AR received: ID=0x8 ADDR=0xa68ddd22 LEN=150 LOCK=AXI4_LOCK_EXCLUSIVE
# UVM_INFO ../src/mst/axi4_master_monitor.sv(246) @ 78965000: uvm_test_top.env.master_agent.mon [axi4_master_monitor] AR observed: ID=0x8 ADDR=0xa68ddd22 LEN=150
# UVM_INFO ../src/slv/axi4_slave_monitor.sv(224) @ 78965000: uvm_test_top.env.slave_agent.mon [axi4_slave_monitor] AR received: ID=0x8 ADDR=0xa68ddd22 LEN=150
# UVM_INFO ../src/mst/axi4_master_driver.sv(254) @ 81985000: uvm_test_top.env.master_agent.drv [axi4_master_driver] Read complete: 151 beats received
# UVM_INFO ../src/slv/axi4_slave_driver.sv(349) @ 81985000: uvm_test_top.env.slave_agent.drv [axi4_slave_driver] Read complete: ID=0x8 ADDR=0xa68ddd22 RESP=AXI4_RESP_EXOKAY  151 beats sent
# UVM_INFO ../src/mst/axi4_master_monitor.sv(314) @ 81985000: uvm_test_top.env.master_agent.mon [axi4_master_monitor] Read complete: ID=0x8 ADDR=0xa68ddd22 151 beats
# UVM_INFO ../src/env/axi4_scoreboard.sv(82) @ 81985000: uvm_test_top.env.scb [axi4_scoreboard] Master AXI4_READ received: ID=0x8 ADDR=0xa68ddd22 LEN=150
# UVM_INFO ../src/slv/axi4_slave_monitor.sv(287) @ 81985000: uvm_test_top.env.slave_agent.mon [axi4_slave_monitor] Read data sent: ID=0x8 ADDR=0xa68ddd22 151 beats
# UVM_INFO ../src/env/axi4_scoreboard.sv(103) @ 81985000: uvm_test_top.env.scb [axi4_scoreboard] Slave AXI4_READ received: ID=0x8 ADDR=0xa68ddd22 LEN=150
# UVM_INFO ../src/env/axi4_scoreboard.sv(154) @ 81985000: uvm_test_top.env.scb [axi4_scoreboard] [READ] MATCH #40: ID=0x8 ADDR=0xa68ddd22 LEN=150
