# vsim -c -coverage -sv_seed 82373173 "+UVM_TESTNAME=axi4_burst_sweep_test" "+UVM_VERBOSITY=UVM_HIGH" "+DUMP_VCD" -l ./report/logs/axi4_burst_sweep_test_run_3_seed_82373173.log -do "coverage save -onexit ./report/coverage/axi4_burst_sweep_test_run_3_seed_82373173.ucdb; run -all; quit -f" opt_tb_top 
# Start time: 14:10:02 on Jun 11,2026
# //  Questa Sim-64
# //  Version 10.6b linux_x86_64 May 25 2017
# //
# //  Copyright 1991-2017 Mentor Graphics Corporation
# //  All Rights Reserved.
# //
# //  QuestaSim and its associated documentation contain trade
# //  secrets and commercial or financial information that are the property of
# //  Mentor Graphics Corporation and are privileged, confidential,
# //  and exempt from disclosure under the Freedom of Information Act,
# //  5 U.S.C. Section 552. Furthermore, this information
# //  is prohibited from disclosure under the Trade Secrets Act,
# //  18 U.S.C. Section 1905.
# //
# Loading sv_std.std
# Loading work.axi4_if(fast)
# Loading mtiUvm.uvm_pkg
# Loading work.axi4_pkg(fast)
# Loading work.axi4_test_pkg(fast)
# Loading work.tb_top(fast)
# Loading work.axi4_if(fast)
# Loading work.axi4_sva(fast)
# Loading mtiUvm.questa_uvm_pkg(fast)
# Loading /cadtools/mentor/Questa_10.6b/questasim/uvm-1.1d/linux_x86_64/uvm_dpi.so
# coverage save -onexit ./report/coverage/axi4_burst_sweep_test_run_3_seed_82373173.ucdb
#  run -all
# ----------------------------------------------------------------
# UVM-1.1d
# (C) 2007-2013 Mentor Graphics Corporation
# (C) 2007-2013 Cadence Design Systems, Inc.
# (C) 2006-2013 Synopsys, Inc.
# (C) 2011-2013 Cypress Semiconductor Corp.
# ----------------------------------------------------------------
# 
#   ***********       IMPORTANT RELEASE NOTES         ************
# 
#   You are using a version of the UVM library that has been compiled
#   with `UVM_NO_DEPRECATED undefined.
#   See http://www.eda.org/svdb/view.php?id=3313 for more details.
# 
#   You are using a version of the UVM library that has been compiled
#   with `UVM_OBJECT_MUST_HAVE_CONSTRUCTOR undefined.
#   See http://www.eda.org/svdb/view.php?id=3770 for more details.
# 
#       (Specify +UVM_NO_RELNOTES to turn off this notice)
# 
# UVM_INFO verilog_src/questa_uvm_pkg-1.2/src/questa_uvm_pkg.sv(215) @ 0: reporter [Questa UVM] QUESTA_UVM-1.2.3
# UVM_INFO verilog_src/questa_uvm_pkg-1.2/src/questa_uvm_pkg.sv(217) @ 0: reporter [Questa UVM]  questa_uvm::init(+struct)
# UVM_INFO ../src/tb_top.sv(128) @ 0: reporter [TB_TOP] Virtual interface set in config_db
# UVM_INFO @ 0: reporter [RNTST] Running test axi4_burst_sweep_test...
# UVM_INFO ../src/tb_top.sv(142) @ 0: reporter [TB_TOP] Waveform VCD dumping enabled (axi4_vip.vcd)
# UVM_INFO ../src/env/axi4_vip_env.sv(83) @ 0: uvm_test_top.env [axi4_vip_env] slave_vif not set - reusing master_vif (passthrough mode)
# UVM_INFO ../src/env/axi4_vip_env.sv(93) @ 0: uvm_test_top.env [axi4_vip_env] Scoreboard created
# UVM_INFO ../src/env/axi4_vip_env.sv(100) @ 0: uvm_test_top.env [axi4_vip_env] Coverage collectors created
# UVM_INFO ../src/mst/axi4_master_agent.sv(69) @ 0: uvm_test_top.env.master_agent [axi4_master_agent] ACTIVE mode - driver + sequencer created
# UVM_INFO ../src/slv/axi4_slave_agent.sv(82) @ 0: uvm_test_top.env.slave_agent [axi4_slave_agent] ACTIVE mode — ready_delay=[0:0] resp_delay=[0:0]
# UVM_INFO ../src/env/axi4_vip_env.sv(116) @ 0: uvm_test_top.env [axi4_vip_env] Scoreboard connected: master_mon.ap -> scb, slave_mon.ap -> scb
# UVM_INFO ../src/env/axi4_vip_env.sv(124) @ 0: uvm_test_top.env [axi4_vip_env] Coverage connected: master_mon.ap -> master_cov, slave_mon.ap -> slave_cov
# UVM_INFO @ 0: reporter [UVMTOP] UVM testbench topology:
# ---------------------------------------------------------------
# Name                       Type                     Size  Value
# ---------------------------------------------------------------
# uvm_test_top               axi4_burst_sweep_test    -     @473 
#   env                      axi4_vip_env             -     @488 
#     master_agent           axi4_master_agent        -     @503 
#       drv                  axi4_master_driver       -     @567 
#         rsp_port           uvm_analysis_port        -     @582 
#         seq_item_port      uvm_seq_item_pull_port   -     @574 
#       mon                  axi4_master_monitor      -     @559 
#         ap                 uvm_analysis_port        -     @700 
#       sqr                  axi4_master_sequencer    -     @590 
#         rsp_export         uvm_analysis_export      -     @597 
#         seq_item_export    uvm_seq_item_pull_imp    -     @691 
#         arbitration_queue  array                    0     -    
#         lock_queue         array                    0     -    
#         num_last_reqs      integral                 32    'd1  
#         num_last_rsps      integral                 32    'd1  
#     master_cov             axi4_coverage            -     @524 
#       analysis_imp         uvm_analysis_imp         -     @531 
#     scb                    axi4_scoreboard          -     @517 
#       master_export        uvm_analysis_imp_master  -     @714 
#       slave_export         uvm_analysis_imp_slave   -     @722 
#     slave_agent            axi4_slave_agent         -     @510 
#       drv                  axi4_slave_driver        -     @753 
#         rsp_port           uvm_analysis_port        -     @768 
#         seq_item_port      uvm_seq_item_pull_port   -     @760 
#       mon                  axi4_slave_monitor       -     @735 
#         ap                 uvm_analysis_port        -     @892 
#       sqr                  axi4_slave_sequencer     -     @776 
#         rsp_export         uvm_analysis_export      -     @783 
#         seq_item_export    uvm_seq_item_pull_imp    -     @877 
#         arbitration_queue  array                    0     -    
#         lock_queue         array                    0     -    
#         num_last_reqs      integral                 32    'd1  
#         num_last_rsps      integral                 32    'd1  
#     slave_cov              axi4_coverage            -     @539 
#       analysis_imp         uvm_analysis_imp         -     @546 
# ---------------------------------------------------------------
# 
# UVM_INFO verilog_src/questa_uvm_pkg-1.2/src/questa_uvm_pkg.sv(277) @ 0: reporter [Questa UVM] End Of Elaboration
# UVM_INFO ../src/test/axi4_burst_sweep_test.sv(24) @ 0: uvm_test_top [axi4_burst_sweep_test] Starting burst parameters sweep test (including error injection)
# UVM_INFO ../src/seq/axi4_burst_sweep_seq.sv(38) @ 0: uvm_test_top.env.master_agent.sqr@@sweep_seq [axi4_burst_sweep_seq] Starting burst type, size, and length sweep sequence
# UVM_INFO ../src/tb_top.sv(49) @ 95000: reporter [TOP_TB] Reset de-asserted
# UVM_INFO ../src/slv/axi4_slave_driver.sv(122) @ 95000: uvm_test_top.env.slave_agent.drv [axi4_slave_driver] Reset deasserted - slave driver active
# UVM_INFO ../src/mst/axi4_master_driver.sv(64) @ 95000: uvm_test_top.env.master_agent.drv [axi4_master_driver] Reset deasserted - master driver active
# UVM_INFO ../src/mst/axi4_master_monitor.sv(77) @ 95000: uvm_test_top.env.master_agent.mon [axi4_master_monitor] Reset deasserted - monitor active
# UVM_INFO ../src/slv/axi4_slave_monitor.sv(71) @ 95000: uvm_test_top.env.slave_agent.mon [axi4_slave_monitor] Reset deasserted - monitor active
# UVM_INFO ../src/mst/axi4_master_driver.sv(73) @ 95000: uvm_test_top.env.master_agent.drv [axi4_master_driver] Driving AXI4_WRITE  ID=0x0  ADDR=0x09894fca  LEN=0
# UVM_INFO ../src/mst/axi4_master_driver.sv(73) @ 95000: uvm_test_top.env.master_agent.drv [axi4_master_driver] Driving AXI4_READ  ID=0xd  ADDR=0x77438686  LEN=0
# UVM_INFO ../src/mst/axi4_master_driver.sv(73) @ 95000: uvm_test_top.env.master_agent.drv [axi4_master_driver] Driving AXI4_WRITE  ID=0xb  ADDR=0xbf97aae2  LEN=0
# UVM_INFO ../src/mst/axi4_master_driver.sv(73) @ 95000: uvm_test_top.env.master_agent.drv [axi4_master_driver] Driving AXI4_READ  ID=0x4  ADDR=0x959c21b7  LEN=0
# UVM_INFO ../src/mst/axi4_master_driver.sv(73) @ 95000: uvm_test_top.env.master_agent.drv [axi4_master_driver] Driving AXI4_WRITE  ID=0x6  ADDR=0xd8a72cb7  LEN=0
# UVM_INFO ../src/mst/axi4_master_driver.sv(73) @ 95000: uvm_test_top.env.master_agent.drv [axi4_master_driver] Driving AXI4_READ  ID=0xc  ADDR=0x78f5ea23  LEN=0
# UVM_INFO ../src/mst/axi4_master_driver.sv(73) @ 95000: uvm_test_top.env.master_agent.drv [axi4_master_driver] Driving AXI4_WRITE  ID=0xf  ADDR=0xddfa6876  LEN=1
# UVM_INFO ../src/mst/axi4_master_driver.sv(73) @ 95000: uvm_test_top.env.master_agent.drv [axi4_master_driver] Driving AXI4_READ  ID=0xb  ADDR=0xd415990e  LEN=1
# UVM_INFO ../src/mst/axi4_master_driver.sv(73) @ 95000: uvm_test_top.env.master_agent.drv [axi4_master_driver] Driving AXI4_WRITE  ID=0x0  ADDR=0x8c288841  LEN=1
# UVM_INFO ../src/mst/axi4_master_driver.sv(73) @ 95000: uvm_test_top.env.master_agent.drv [axi4_master_driver] Driving AXI4_READ  ID=0x7  ADDR=0xb690ebb9  LEN=1
# UVM_INFO ../src/mst/axi4_master_driver.sv(73) @ 95000: uvm_test_top.env.master_agent.drv [axi4_master_driver] Driving AXI4_WRITE  ID=0x3  ADDR=0xc3a04142  LEN=1
# UVM_INFO ../src/mst/axi4_master_driver.sv(73) @ 95000: uvm_test_top.env.master_agent.drv [axi4_master_driver] Driving AXI4_READ  ID=0xf  ADDR=0x149157ab  LEN=1
# UVM_INFO ../src/mst/axi4_master_driver.sv(73) @ 95000: uvm_test_top.env.master_agent.drv [axi4_master_driver] Driving AXI4_WRITE  ID=0xb  ADDR=0x51960a6c  LEN=3
# UVM_INFO ../src/mst/axi4_master_driver.sv(73) @ 95000: uvm_test_top.env.master_agent.drv [axi4_master_driver] Driving AXI4_READ  ID=0xd  ADDR=0xa8f5d5f7  LEN=3
# UVM_INFO ../src/mst/axi4_master_driver.sv(73) @ 95000: uvm_test_top.env.master_agent.drv [axi4_master_driver] Driving AXI4_WRITE  ID=0x8  ADDR=0xc2e60b61  LEN=3
# UVM_INFO ../src/mst/axi4_master_driver.sv(73) @ 95000: uvm_test_top.env.master_agent.drv [axi4_master_driver] Driving AXI4_READ  ID=0xa  ADDR=0x198ea3af  LEN=3
# UVM_INFO ../src/mst/axi4_master_driver.sv(73) @ 95000: uvm_test_top.env.master_agent.drv [axi4_master_driver] Driving AXI4_WRITE  ID=0xb  ADDR=0xa48b95c5  LEN=3
# UVM_INFO ../src/mst/axi4_master_driver.sv(73) @ 95000: uvm_test_top.env.master_agent.drv [axi4_master_driver] Driving AXI4_READ  ID=0x1  ADDR=0x7adea7cf  LEN=3
# UVM_INFO ../src/mst/axi4_master_driver.sv(73) @ 95000: uvm_test_top.env.master_agent.drv [axi4_master_driver] Driving AXI4_WRITE  ID=0xe  ADDR=0xc81e9ea3  LEN=7
# UVM_INFO ../src/mst/axi4_master_driver.sv(73) @ 95000: uvm_test_top.env.master_agent.drv [axi4_master_driver] Driving AXI4_READ  ID=0xd  ADDR=0x817ee12a  LEN=7
# UVM_INFO ../src/mst/axi4_master_driver.sv(73) @ 95000: uvm_test_top.env.master_agent.drv [axi4_master_driver] Driving AXI4_WRITE  ID=0x5  ADDR=0x0572ab81  LEN=7
# UVM_INFO ../src/mst/axi4_master_driver.sv(73) @ 95000: uvm_test_top.env.master_agent.drv [axi4_master_driver] Driving AXI4_READ  ID=0x9  ADDR=0x9590b344  LEN=7
# UVM_INFO ../src/mst/axi4_master_driver.sv(73) @ 95000: uvm_test_top.env.master_agent.drv [axi4_master_driver] Driving AXI4_WRITE  ID=0x6  ADDR=0x919433ab  LEN=7
# UVM_INFO ../src/mst/axi4_master_driver.sv(73) @ 95000: uvm_test_top.env.master_agent.drv [axi4_master_driver] Driving AXI4_READ  ID=0x7  ADDR=0x61540425  LEN=7
# UVM_INFO ../src/mst/axi4_master_driver.sv(73) @ 95000: uvm_test_top.env.master_agent.drv [axi4_master_driver] Driving AXI4_WRITE  ID=0x0  ADDR=0xb1881436  LEN=15
# UVM_INFO ../src/mst/axi4_master_driver.sv(73) @ 95000: uvm_test_top.env.master_agent.drv [axi4_master_driver] Driving AXI4_READ  ID=0x5  ADDR=0x9fc9c148  LEN=15
# UVM_INFO ../src/mst/axi4_master_driver.sv(73) @ 95000: uvm_test_top.env.master_agent.drv [axi4_master_driver] Driving AXI4_WRITE  ID=0x2  ADDR=0x90a5923b  LEN=15
# UVM_INFO ../src/mst/axi4_master_driver.sv(73) @ 95000: uvm_test_top.env.master_agent.drv [axi4_master_driver] Driving AXI4_READ  ID=0xb  ADDR=0xcdf2f784  LEN=15
# UVM_INFO ../src/mst/axi4_master_driver.sv(73) @ 95000: uvm_test_top.env.master_agent.drv [axi4_master_driver] Driving AXI4_WRITE  ID=0xe  ADDR=0x3a19600c  LEN=15
# UVM_INFO ../src/mst/axi4_master_driver.sv(73) @ 95000: uvm_test_top.env.master_agent.drv [axi4_master_driver] Driving AXI4_READ  ID=0x4  ADDR=0x2049a5c8  LEN=15
# UVM_INFO ../src/mst/axi4_master_driver.sv(73) @ 95000: uvm_test_top.env.master_agent.drv [axi4_master_driver] Driving AXI4_WRITE  ID=0x2  ADDR=0x5cf50fda  LEN=1
# UVM_INFO ../src/mst/axi4_master_driver.sv(73) @ 95000: uvm_test_top.env.master_agent.drv [axi4_master_driver] Driving AXI4_READ  ID=0xc  ADDR=0x78e6d1bb  LEN=1
# UVM_INFO ../src/mst/axi4_master_driver.sv(73) @ 95000: uvm_test_top.env.master_agent.drv [axi4_master_driver] Driving AXI4_WRITE  ID=0x1  ADDR=0x524e5a0e  LEN=1
# UVM_INFO ../src/mst/axi4_master_driver.sv(73) @ 95000: uvm_test_top.env.master_agent.drv [axi4_master_driver] Driving AXI4_READ  ID=0xd  ADDR=0x60368944  LEN=1
# UVM_INFO ../src/mst/axi4_master_driver.sv(73) @ 95000: uvm_test_top.env.master_agent.drv [axi4_master_driver] Driving AXI4_WRITE  ID=0x2  ADDR=0xb8161380  LEN=1
# UVM_INFO ../src/mst/axi4_master_driver.sv(73) @ 95000: uvm_test_top.env.master_agent.drv [axi4_master_driver] Driving AXI4_READ  ID=0x6  ADDR=0x41307dc0  LEN=1
# UVM_INFO ../src/mst/axi4_master_driver.sv(73) @ 95000: uvm_test_top.env.master_agent.drv [axi4_master_driver] Driving AXI4_WRITE  ID=0x8  ADDR=0x500daf62  LEN=3
# UVM_INFO ../src/mst/axi4_master_driver.sv(73) @ 95000: uvm_test_top.env.master_agent.drv [axi4_master_driver] Driving AXI4_READ  ID=0x7  ADDR=0x6d02e3f0  LEN=3
# UVM_INFO ../src/mst/axi4_master_driver.sv(73) @ 95000: uvm_test_top.env.master_agent.drv [axi4_master_driver] Driving AXI4_WRITE  ID=0x0  ADDR=0x66d2ec84  LEN=3
# UVM_INFO ../src/mst/axi4_master_driver.sv(73) @ 95000: uvm_test_top.env.master_agent.drv [axi4_master_driver] Driving AXI4_READ  ID=0x1  ADDR=0x5a760094  LEN=3
# UVM_INFO ../src/mst/axi4_master_driver.sv(73) @ 95000: uvm_test_top.env.master_agent.drv [axi4_master_driver] Driving AXI4_WRITE  ID=0x3  ADDR=0x92bac14c  LEN=3
# UVM_INFO ../src/mst/axi4_master_driver.sv(73) @ 95000: uvm_test_top.env.master_agent.drv [axi4_master_driver] Driving AXI4_READ  ID=0x4  ADDR=0x795de248  LEN=3
# UVM_INFO ../src/mst/axi4_master_driver.sv(73) @ 95000: uvm_test_top.env.master_agent.drv [axi4_master_driver] Driving AXI4_WRITE  ID=0x4  ADDR=0xc1a0baa0  LEN=7
# UVM_INFO ../src/mst/axi4_master_driver.sv(73) @ 95000: uvm_test_top.env.master_agent.drv [axi4_master_driver] Driving AXI4_READ  ID=0x4  ADDR=0x9b6d768b  LEN=7
# UVM_INFO ../src/mst/axi4_master_driver.sv(73) @ 95000: uvm_test_top.env.master_agent.drv [axi4_master_driver] Driving AXI4_WRITE  ID=0xa  ADDR=0x657a4d3c  LEN=7
# UVM_INFO ../src/mst/axi4_master_driver.sv(73) @ 95000: uvm_test_top.env.master_agent.drv [axi4_master_driver] Driving AXI4_READ  ID=0xe  ADDR=0xc625a8a0  LEN=7
# UVM_INFO ../src/mst/axi4_master_driver.sv(73) @ 95000: uvm_test_top.env.master_agent.drv [axi4_master_driver] Driving AXI4_WRITE  ID=0xc  ADDR=0x7991711c  LEN=7
# UVM_INFO ../src/mst/axi4_master_driver.sv(73) @ 95000: uvm_test_top.env.master_agent.drv [axi4_master_driver] Driving AXI4_READ  ID=0xc  ADDR=0xb0899f70  LEN=7
# UVM_INFO ../src/mst/axi4_master_driver.sv(73) @ 95000: uvm_test_top.env.master_agent.drv [axi4_master_driver] Driving AXI4_WRITE  ID=0x5  ADDR=0x6512a458  LEN=15
# UVM_INFO ../src/mst/axi4_master_driver.sv(73) @ 95000: uvm_test_top.env.master_agent.drv [axi4_master_driver] Driving AXI4_READ  ID=0x6  ADDR=0xc932d05e  LEN=15
# UVM_INFO ../src/mst/axi4_master_driver.sv(73) @ 95000: uvm_test_top.env.master_agent.drv [axi4_master_driver] Driving AXI4_WRITE  ID=0xc  ADDR=0x633fcdec  LEN=15
# UVM_INFO ../src/mst/axi4_master_driver.sv(73) @ 95000: uvm_test_top.env.master_agent.drv [axi4_master_driver] Driving AXI4_READ  ID=0x4  ADDR=0x75217e6c  LEN=15
# UVM_INFO ../src/mst/axi4_master_driver.sv(73) @ 95000: uvm_test_top.env.master_agent.drv [axi4_master_driver] Driving AXI4_WRITE  ID=0x4  ADDR=0x36307d30  LEN=15
# UVM_INFO ../src/mst/axi4_master_driver.sv(73) @ 95000: uvm_test_top.env.master_agent.drv [axi4_master_driver] Driving AXI4_READ  ID=0x6  ADDR=0x62cbaeb4  LEN=15
# UVM_INFO ../src/mst/axi4_master_driver.sv(73) @ 95000: uvm_test_top.env.master_agent.drv [axi4_master_driver] Driving AXI4_WRITE  ID=0x1  ADDR=0x332b49ba  LEN=0
# UVM_INFO ../src/mst/axi4_master_driver.sv(73) @ 95000: uvm_test_top.env.master_agent.drv [axi4_master_driver] Driving AXI4_READ  ID=0xc  ADDR=0xca8af372  LEN=0
# UVM_INFO ../src/mst/axi4_master_driver.sv(73) @ 95000: uvm_test_top.env.master_agent.drv [axi4_master_driver] Driving AXI4_WRITE  ID=0x7  ADDR=0x36a75721  LEN=0
# UVM_INFO ../src/mst/axi4_master_driver.sv(73) @ 95000: uvm_test_top.env.master_agent.drv [axi4_master_driver] Driving AXI4_READ  ID=0xd  ADDR=0x89bfa548  LEN=0
# UVM_INFO ../src/mst/axi4_master_driver.sv(73) @ 95000: uvm_test_top.env.master_agent.drv [axi4_master_driver] Driving AXI4_WRITE  ID=0x9  ADDR=0x69dd060d  LEN=0
# UVM_INFO ../src/mst/axi4_master_driver.sv(73) @ 95000: uvm_test_top.env.master_agent.drv [axi4_master_driver] Driving AXI4_READ  ID=0x1  ADDR=0x24156618  LEN=0
# UVM_INFO ../src/mst/axi4_master_driver.sv(73) @ 95000: uvm_test_top.env.master_agent.drv [axi4_master_driver] Driving AXI4_WRITE  ID=0x0  ADDR=0x89140146  LEN=2
# UVM_INFO ../src/mst/axi4_master_driver.sv(73) @ 95000: uvm_test_top.env.master_agent.drv [axi4_master_driver] Driving AXI4_READ  ID=0x6  ADDR=0xcd84369e  LEN=2
# UVM_INFO ../src/mst/axi4_master_driver.sv(73) @ 95000: uvm_test_top.env.master_agent.drv [axi4_master_driver] Driving AXI4_WRITE  ID=0x0  ADDR=0xaf7b6e61  LEN=2
# UVM_INFO ../src/mst/axi4_master_driver.sv(73) @ 95000: uvm_test_top.env.master_agent.drv [axi4_master_driver] Driving AXI4_READ  ID=0x9  ADDR=0x66cc0650  LEN=2
# UVM_INFO ../src/mst/axi4_master_driver.sv(73) @ 95000: uvm_test_top.env.master_agent.drv [axi4_master_driver] Driving AXI4_WRITE  ID=0x0  ADDR=0x1d4c4c67  LEN=2
# UVM_INFO ../src/mst/axi4_master_driver.sv(73) @ 95000: uvm_test_top.env.master_agent.drv [axi4_master_driver] Driving AXI4_READ  ID=0x3  ADDR=0x6bd30c5b  LEN=2
# UVM_INFO ../src/mst/axi4_master_driver.sv(73) @ 95000: uvm_test_top.env.master_agent.drv [axi4_master_driver] Driving AXI4_WRITE  ID=0xf  ADDR=0x4687b005  LEN=10
# UVM_INFO ../src/mst/axi4_master_driver.sv(73) @ 95000: uvm_test_top.env.master_agent.drv [axi4_master_driver] Driving AXI4_READ  ID=0xc  ADDR=0x0566c2fd  LEN=10
# UVM_INFO ../src/mst/axi4_master_driver.sv(73) @ 95000: uvm_test_top.env.master_agent.drv [axi4_master_driver] Driving AXI4_WRITE  ID=0x2  ADDR=0xc80238ea  LEN=10
# UVM_INFO ../src/mst/axi4_master_driver.sv(73) @ 95000: uvm_test_top.env.master_agent.drv [axi4_master_driver] Driving AXI4_READ  ID=0x0  ADDR=0x21f7aa05  LEN=10
# UVM_INFO ../src/mst/axi4_master_driver.sv(73) @ 95000: uvm_test_top.env.master_agent.drv [axi4_master_driver] Driving AXI4_WRITE  ID=0x5  ADDR=0x4fe00779  LEN=10
# UVM_INFO ../src/mst/axi4_master_driver.sv(73) @ 95000: uvm_test_top.env.master_agent.drv [axi4_master_driver] Driving AXI4_READ  ID=0x3  ADDR=0x7f7feaea  LEN=10
# UVM_INFO ../src/mst/axi4_master_driver.sv(73) @ 95000: uvm_test_top.env.master_agent.drv [axi4_master_driver] Driving AXI4_WRITE  ID=0x6  ADDR=0x2b686691  LEN=32
# UVM_INFO ../src/mst/axi4_master_driver.sv(73) @ 95000: uvm_test_top.env.master_agent.drv [axi4_master_driver] Driving AXI4_READ  ID=0x5  ADDR=0x3e56e6d8  LEN=32
# UVM_INFO ../src/mst/axi4_master_driver.sv(73) @ 95000: uvm_test_top.env.master_agent.drv [axi4_master_driver] Driving AXI4_WRITE  ID=0xc  ADDR=0xd537ce50  LEN=32
# UVM_INFO ../src/mst/axi4_master_driver.sv(73) @ 95000: uvm_test_top.env.master_agent.drv [axi4_master_driver] Driving AXI4_READ  ID=0xd  ADDR=0xd0759d45  LEN=32
# UVM_INFO ../src/mst/axi4_master_driver.sv(73) @ 95000: uvm_test_top.env.master_agent.drv [axi4_master_driver] Driving AXI4_WRITE  ID=0x3  ADDR=0x5201b3c5  LEN=32
# UVM_INFO ../src/mst/axi4_master_driver.sv(73) @ 95000: uvm_test_top.env.master_agent.drv [axi4_master_driver] Driving AXI4_READ  ID=0x1  ADDR=0x8eebf087  LEN=32
# UVM_INFO ../src/mst/axi4_master_driver.sv(73) @ 95000: uvm_test_top.env.master_agent.drv [axi4_master_driver] Driving AXI4_WRITE  ID=0xa  ADDR=0x74355ac1  LEN=100
# UVM_INFO ../src/mst/axi4_master_driver.sv(73) @ 95000: uvm_test_top.env.master_agent.drv [axi4_master_driver] Driving AXI4_READ  ID=0xb  ADDR=0xa9236f12  LEN=100
# UVM_INFO ../src/mst/axi4_master_driver.sv(73) @ 95000: uvm_test_top.env.master_agent.drv [axi4_master_driver] Driving AXI4_WRITE  ID=0x3  ADDR=0x52a4d1d3  LEN=100
# UVM_INFO ../src/mst/axi4_master_driver.sv(73) @ 95000: uvm_test_top.env.master_agent.drv [axi4_master_driver] Driving AXI4_READ  ID=0x9  ADDR=0xa4ac0a99  LEN=100
# UVM_INFO ../src/mst/axi4_master_driver.sv(73) @ 95000: uvm_test_top.env.master_agent.drv [axi4_master_driver] Driving AXI4_WRITE  ID=0x9  ADDR=0xdd272b40  LEN=100
# UVM_INFO ../src/mst/axi4_master_driver.sv(73) @ 95000: uvm_test_top.env.master_agent.drv [axi4_master_driver] Driving AXI4_READ  ID=0xe  ADDR=0x92ab8fc0  LEN=100
# UVM_INFO ../src/mst/axi4_master_driver.sv(73) @ 95000: uvm_test_top.env.master_agent.drv [axi4_master_driver] Driving AXI4_WRITE  ID=0x7  ADDR=0x22fe12e8  LEN=255
# UVM_INFO ../src/mst/axi4_master_driver.sv(73) @ 95000: uvm_test_top.env.master_agent.drv [axi4_master_driver] Driving AXI4_READ  ID=0x9  ADDR=0x5d8c5edd  LEN=255
# UVM_INFO ../src/mst/axi4_master_driver.sv(73) @ 95000: uvm_test_top.env.master_agent.drv [axi4_master_driver] Driving AXI4_WRITE  ID=0xb  ADDR=0xd8614cc4  LEN=255
# UVM_INFO ../src/mst/axi4_master_driver.sv(73) @ 95000: uvm_test_top.env.master_agent.drv [axi4_master_driver] Driving AXI4_READ  ID=0xf  ADDR=0x0e21cce6  LEN=255
# UVM_INFO ../src/mst/axi4_master_driver.sv(73) @ 95000: uvm_test_top.env.master_agent.drv [axi4_master_driver] Driving AXI4_WRITE  ID=0x0  ADDR=0x71a20a81  LEN=255
# UVM_INFO ../src/mst/axi4_master_driver.sv(73) @ 95000: uvm_test_top.env.master_agent.drv [axi4_master_driver] Driving AXI4_READ  ID=0x3  ADDR=0x62d4c924  LEN=255
# UVM_INFO ../src/mst/axi4_master_driver.sv(73) @ 95000: uvm_test_top.env.master_agent.drv [axi4_master_driver] Driving AXI4_WRITE  ID=0xf  ADDR=0xe0000000  LEN=0
# UVM_INFO ../src/mst/axi4_master_driver.sv(73) @ 95000: uvm_test_top.env.master_agent.drv [axi4_master_driver] Driving AXI4_READ  ID=0xd  ADDR=0xe0000000  LEN=0
# UVM_INFO ../src/mst/axi4_master_driver.sv(73) @ 95000: uvm_test_top.env.master_agent.drv [axi4_master_driver] Driving AXI4_WRITE  ID=0xe  ADDR=0xf0000000  LEN=0
# UVM_INFO ../src/mst/axi4_master_driver.sv(73) @ 95000: uvm_test_top.env.master_agent.drv [axi4_master_driver] Driving AXI4_READ  ID=0xc  ADDR=0xf0000000  LEN=0
# UVM_INFO ../src/seq/axi4_burst_sweep_seq.sv(173) @ 95000: uvm_test_top.env.master_agent.sqr@@sweep_seq [axi4_burst_sweep_seq] Burst sweep sequence complete: sent 94 transactions
# UVM_INFO ../src/slv/axi4_slave_driver.sv(358) @ 115000: uvm_test_top.env.slave_agent.drv [axi4_slave_driver] AR received: ID=0xd ADDR=0x77438686 LEN=0 LOCK=AXI4_LOCK_EXCLUSIVE
# UVM_INFO ../src/slv/axi4_slave_driver.sv(212) @ 115000: uvm_test_top.env.slave_agent.drv [axi4_slave_driver] AW received: ID=0x0 ADDR=0x09894fca LEN=0 LOCK=AXI4_LOCK_EXCLUSIVE
# UVM_INFO ../src/slv/axi4_slave_monitor.sv(224) @ 115000: uvm_test_top.env.slave_agent.mon [axi4_slave_monitor] AR received: ID=0xd ADDR=0x77438686 LEN=0
# UVM_INFO ../src/slv/axi4_slave_monitor.sv(116) @ 115000: uvm_test_top.env.slave_agent.mon [axi4_slave_monitor] AW received: ID=0x0 ADDR=0x09894fca LEN=0
# UVM_INFO ../src/mst/axi4_master_monitor.sv(246) @ 115000: uvm_test_top.env.master_agent.mon [axi4_master_monitor] AR observed: ID=0xd ADDR=0x77438686 LEN=0
# UVM_INFO ../src/mst/axi4_master_monitor.sv(124) @ 115000: uvm_test_top.env.master_agent.mon [axi4_master_monitor] AW observed: ID=0x0 ADDR=0x09894fca LEN=0
# UVM_INFO ../src/slv/axi4_slave_monitor.sv(167) @ 115000: uvm_test_top.env.slave_agent.mon [axi4_slave_monitor] W data assembled: ID=0x0 ADDR=0x09894fca 1 beats
# UVM_INFO ../src/mst/axi4_master_monitor.sv(184) @ 115000: uvm_test_top.env.master_agent.mon [axi4_master_monitor] W data assembled: ID=0x0 ADDR=0x09894fca 1 beats
# UVM_INFO ../src/mst/axi4_master_driver.sv(348) @ 135000: uvm_test_top.env.master_agent.drv [axi4_master_driver] Master driver received all R beats for ID=0xd
# UVM_INFO ../src/mst/axi4_master_driver.sv(289) @ 135000: uvm_test_top.env.master_agent.drv [axi4_master_driver] Master driver received B response: ID=0x0 RESP=AXI4_RESP_OKAY
# UVM_INFO ../src/slv/axi4_slave_driver.sv(464) @ 135000: uvm_test_top.env.slave_agent.drv [axi4_slave_driver] Read complete: ID=0xd ADDR=0x77438686 RESP=AXI4_RESP_EXOKAY  1 beats sent
# UVM_INFO ../src/slv/axi4_slave_driver.sv(320) @ 135000: uvm_test_top.env.slave_agent.drv [axi4_slave_driver] Write complete: ID=0x0 RESP=AXI4_RESP_OKAY
# UVM_INFO ../src/slv/axi4_slave_monitor.sv(287) @ 135000: uvm_test_top.env.slave_agent.mon [axi4_slave_monitor] Read data sent: ID=0xd ADDR=0x77438686 1 beats
# UVM_INFO ../src/env/axi4_scoreboard.sv(108) @ 135000: uvm_test_top.env.scb [axi4_scoreboard] Slave AXI4_READ received: ID=0xd ADDR=0x77438686 LEN=0
# UVM_INFO ../src/slv/axi4_slave_monitor.sv(189) @ 135000: uvm_test_top.env.slave_agent.mon [axi4_slave_monitor] Write response sent: ID=0x0 ADDR=0x09894fca RESP=AXI4_RESP_OKAY
# UVM_INFO ../src/env/axi4_scoreboard.sv(108) @ 135000: uvm_test_top.env.scb [axi4_scoreboard] Slave AXI4_WRITE received: ID=0x0 ADDR=0x09894fca LEN=0
# UVM_INFO ../src/mst/axi4_master_monitor.sv(314) @ 135000: uvm_test_top.env.master_agent.mon [axi4_master_monitor] Read complete: ID=0xd ADDR=0x77438686 1 beats
# UVM_INFO ../src/env/axi4_scoreboard.sv(87) @ 135000: uvm_test_top.env.scb [axi4_scoreboard] Master AXI4_READ received: ID=0xd ADDR=0x77438686 LEN=0
# UVM_INFO ../src/env/axi4_scoreboard.sv(291) @ 135000: uvm_test_top.env.scb [axi4_scoreboard] [READ] MATCH #1: ID=0xd ADDR=0x77438686 LEN=0
# UVM_INFO ../src/mst/axi4_master_monitor.sv(210) @ 135000: uvm_test_top.env.master_agent.mon [axi4_master_monitor] Write complete: ID=0x0 ADDR=0x09894fca RESP=AXI4_RESP_OKAY
# UVM_INFO ../src/env/axi4_scoreboard.sv(87) @ 135000: uvm_test_top.env.scb [axi4_scoreboard] Master AXI4_WRITE received: ID=0x0 ADDR=0x09894fca LEN=0
# UVM_INFO ../src/env/axi4_scoreboard.sv(291) @ 135000: uvm_test_top.env.scb [axi4_scoreboard] [WRITE] MATCH #2: ID=0x0 ADDR=0x09894fca LEN=0
# UVM_INFO ../src/env/axi4_scoreboard.sv(226) @ 135000: uvm_test_top.env.scb [axi4_scoreboard] [REF_MEM_WRITE_IGNORED] Write ignored for ADDR=0x09894fca LOCK=AXI4_LOCK_EXCLUSIVE RESP=AXI4_RESP_OKAY
# UVM_INFO ../src/slv/axi4_slave_driver.sv(212) @ 145000: uvm_test_top.env.slave_agent.drv [axi4_slave_driver] AW received: ID=0xb ADDR=0xbf97aae2 LEN=0 LOCK=AXI4_LOCK_EXCLUSIVE
# UVM_INFO ../src/slv/axi4_slave_driver.sv(358) @ 145000: uvm_test_top.env.slave_agent.drv [axi4_slave_driver] AR received: ID=0x4 ADDR=0x959c21b7 LEN=0 LOCK=AXI4_LOCK_EXCLUSIVE
# UVM_INFO ../src/mst/axi4_master_monitor.sv(124) @ 145000: uvm_test_top.env.master_agent.mon [axi4_master_monitor] AW observed: ID=0xb ADDR=0xbf97aae2 LEN=0
# UVM_INFO ../src/mst/axi4_master_monitor.sv(246) @ 145000: uvm_test_top.env.master_agent.mon [axi4_master_monitor] AR observed: ID=0x4 ADDR=0x959c21b7 LEN=0
# UVM_INFO ../src/slv/axi4_slave_monitor.sv(116) @ 145000: uvm_test_top.env.slave_agent.mon [axi4_slave_monitor] AW received: ID=0xb ADDR=0xbf97aae2 LEN=0
# UVM_INFO ../src/slv/axi4_slave_monitor.sv(224) @ 145000: uvm_test_top.env.slave_agent.mon [axi4_slave_monitor] AR received: ID=0x4 ADDR=0x959c21b7 LEN=0
# UVM_INFO ../src/mst/axi4_master_monitor.sv(184) @ 145000: uvm_test_top.env.master_agent.mon [axi4_master_monitor] W data assembled: ID=0xb ADDR=0xbf97aae2 1 beats
# UVM_INFO ../src/slv/axi4_slave_monitor.sv(167) @ 145000: uvm_test_top.env.slave_agent.mon [axi4_slave_monitor] W data assembled: ID=0xb ADDR=0xbf97aae2 1 beats
# UVM_INFO ../src/mst/axi4_master_driver.sv(289) @ 165000: uvm_test_top.env.master_agent.drv [axi4_master_driver] Master driver received B response: ID=0xb RESP=AXI4_RESP_OKAY
# UVM_INFO ../src/mst/axi4_master_driver.sv(348) @ 165000: uvm_test_top.env.master_agent.drv [axi4_master_driver] Master driver received all R beats for ID=0x4
# UVM_INFO ../src/slv/axi4_slave_driver.sv(464) @ 165000: uvm_test_top.env.slave_agent.drv [axi4_slave_driver] Read complete: ID=0x4 ADDR=0x959c21b7 RESP=AXI4_RESP_EXOKAY  1 beats sent
# UVM_INFO ../src/slv/axi4_slave_driver.sv(320) @ 165000: uvm_test_top.env.slave_agent.drv [axi4_slave_driver] Write complete: ID=0xb RESP=AXI4_RESP_OKAY
# UVM_INFO ../src/mst/axi4_master_monitor.sv(210) @ 165000: uvm_test_top.env.master_agent.mon [axi4_master_monitor] Write complete: ID=0xb ADDR=0xbf97aae2 RESP=AXI4_RESP_OKAY
# UVM_INFO ../src/env/axi4_scoreboard.sv(87) @ 165000: uvm_test_top.env.scb [axi4_scoreboard] Master AXI4_WRITE received: ID=0xb ADDR=0xbf97aae2 LEN=0
# UVM_INFO ../src/mst/axi4_master_monitor.sv(314) @ 165000: uvm_test_top.env.master_agent.mon [axi4_master_monitor] Read complete: ID=0x4 ADDR=0x959c21b7 1 beats
# UVM_INFO ../src/env/axi4_scoreboard.sv(87) @ 165000: uvm_test_top.env.scb [axi4_scoreboard] Master AXI4_READ received: ID=0x4 ADDR=0x959c21b7 LEN=0
# UVM_INFO ../src/slv/axi4_slave_monitor.sv(189) @ 165000: uvm_test_top.env.slave_agent.mon [axi4_slave_monitor] Write response sent: ID=0xb ADDR=0xbf97aae2 RESP=AXI4_RESP_OKAY
# UVM_INFO ../src/env/axi4_scoreboard.sv(108) @ 165000: uvm_test_top.env.scb [axi4_scoreboard] Slave AXI4_WRITE received: ID=0xb ADDR=0xbf97aae2 LEN=0
# UVM_INFO ../src/env/axi4_scoreboard.sv(291) @ 165000: uvm_test_top.env.scb [axi4_scoreboard] [WRITE] MATCH #3: ID=0xb ADDR=0xbf97aae2 LEN=0
# UVM_INFO ../src/env/axi4_scoreboard.sv(226) @ 165000: uvm_test_top.env.scb [axi4_scoreboard] [REF_MEM_WRITE_IGNORED] Write ignored for ADDR=0xbf97aae2 LOCK=AXI4_LOCK_EXCLUSIVE RESP=AXI4_RESP_OKAY
# UVM_INFO ../src/slv/axi4_slave_monitor.sv(287) @ 165000: uvm_test_top.env.slave_agent.mon [axi4_slave_monitor] Read data sent: ID=0x4 ADDR=0x959c21b7 1 beats
# UVM_INFO ../src/env/axi4_scoreboard.sv(108) @ 165000: uvm_test_top.env.scb [axi4_scoreboard] Slave AXI4_READ received: ID=0x4 ADDR=0x959c21b7 LEN=0
# UVM_INFO ../src/env/axi4_scoreboard.sv(291) @ 165000: uvm_test_top.env.scb [axi4_scoreboard] [READ] MATCH #4: ID=0x4 ADDR=0x959c21b7 LEN=0
# UVM_INFO ../src/slv/axi4_slave_driver.sv(358) @ 175000: uvm_test_top.env.slave_agent.drv [axi4_slave_driver] AR received: ID=0xc ADDR=0x78f5ea23 LEN=0 LOCK=AXI4_LOCK_NORMAL
# UVM_INFO ../src/slv/axi4_slave_driver.sv(212) @ 175000: uvm_test_top.env.slave_agent.drv [axi4_slave_driver] AW received: ID=0x6 ADDR=0xd8a72cb7 LEN=0 LOCK=AXI4_LOCK_NORMAL
# UVM_INFO ../src/slv/axi4_slave_monitor.sv(224) @ 175000: uvm_test_top.env.slave_agent.mon [axi4_slave_monitor] AR received: ID=0xc ADDR=0x78f5ea23 LEN=0
# UVM_INFO ../src/slv/axi4_slave_monitor.sv(116) @ 175000: uvm_test_top.env.slave_agent.mon [axi4_slave_monitor] AW received: ID=0x6 ADDR=0xd8a72cb7 LEN=0
# UVM_INFO ../src/mst/axi4_master_monitor.sv(246) @ 175000: uvm_test_top.env.master_agent.mon [axi4_master_monitor] AR observed: ID=0xc ADDR=0x78f5ea23 LEN=0
# UVM_INFO ../src/mst/axi4_master_monitor.sv(124) @ 175000: uvm_test_top.env.master_agent.mon [axi4_master_monitor] AW observed: ID=0x6 ADDR=0xd8a72cb7 LEN=0
# UVM_INFO ../src/slv/axi4_slave_monitor.sv(167) @ 175000: uvm_test_top.env.slave_agent.mon [axi4_slave_monitor] W data assembled: ID=0x6 ADDR=0xd8a72cb7 1 beats
# UVM_INFO ../src/mst/axi4_master_monitor.sv(184) @ 175000: uvm_test_top.env.master_agent.mon [axi4_master_monitor] W data assembled: ID=0x6 ADDR=0xd8a72cb7 1 beats
# UVM_INFO ../src/mst/axi4_master_driver.sv(348) @ 195000: uvm_test_top.env.master_agent.drv [axi4_master_driver] Master driver received all R beats for ID=0xc
# UVM_INFO ../src/mst/axi4_master_driver.sv(289) @ 195000: uvm_test_top.env.master_agent.drv [axi4_master_driver] Master driver received B response: ID=0x6 RESP=AXI4_RESP_OKAY
# UVM_INFO ../src/slv/axi4_slave_driver.sv(464) @ 195000: uvm_test_top.env.slave_agent.drv [axi4_slave_driver] Read complete: ID=0xc ADDR=0x78f5ea23 RESP=AXI4_RESP_OKAY  1 beats sent
# UVM_INFO ../src/slv/axi4_slave_driver.sv(320) @ 195000: uvm_test_top.env.slave_agent.drv [axi4_slave_driver] Write complete: ID=0x6 RESP=AXI4_RESP_OKAY
# UVM_INFO ../src/slv/axi4_slave_monitor.sv(287) @ 195000: uvm_test_top.env.slave_agent.mon [axi4_slave_monitor] Read data sent: ID=0xc ADDR=0x78f5ea23 1 beats
# UVM_INFO ../src/env/axi4_scoreboard.sv(108) @ 195000: uvm_test_top.env.scb [axi4_scoreboard] Slave AXI4_READ received: ID=0xc ADDR=0x78f5ea23 LEN=0
# UVM_INFO ../src/slv/axi4_slave_monitor.sv(189) @ 195000: uvm_test_top.env.slave_agent.mon [axi4_slave_monitor] Write response sent: ID=0x6 ADDR=0xd8a72cb7 RESP=AXI4_RESP_OKAY
# UVM_INFO ../src/env/axi4_scoreboard.sv(108) @ 195000: uvm_test_top.env.scb [axi4_scoreboard] Slave AXI4_WRITE received: ID=0x6 ADDR=0xd8a72cb7 LEN=0
# UVM_INFO ../src/mst/axi4_master_monitor.sv(314) @ 195000: uvm_test_top.env.master_agent.mon [axi4_master_monitor] Read complete: ID=0xc ADDR=0x78f5ea23 1 beats
# UVM_INFO ../src/env/axi4_scoreboard.sv(87) @ 195000: uvm_test_top.env.scb [axi4_scoreboard] Master AXI4_READ received: ID=0xc ADDR=0x78f5ea23 LEN=0
# UVM_INFO ../src/env/axi4_scoreboard.sv(291) @ 195000: uvm_test_top.env.scb [axi4_scoreboard] [READ] MATCH #5: ID=0xc ADDR=0x78f5ea23 LEN=0
# UVM_INFO ../src/mst/axi4_master_monitor.sv(210) @ 195000: uvm_test_top.env.master_agent.mon [axi4_master_monitor] Write complete: ID=0x6 ADDR=0xd8a72cb7 RESP=AXI4_RESP_OKAY
# UVM_INFO ../src/env/axi4_scoreboard.sv(87) @ 195000: uvm_test_top.env.scb [axi4_scoreboard] Master AXI4_WRITE received: ID=0x6 ADDR=0xd8a72cb7 LEN=0
# UVM_INFO ../src/env/axi4_scoreboard.sv(291) @ 195000: uvm_test_top.env.scb [axi4_scoreboard] [WRITE] MATCH #6: ID=0x6 ADDR=0xd8a72cb7 LEN=0
# UVM_INFO ../src/env/axi4_scoreboard.sv(219) @ 195000: uvm_test_top.env.scb [axi4_scoreboard] [REF_MEM_WRITE] Addr=0xd8a72cb4 Data=0x42
# UVM_INFO ../src/env/axi4_scoreboard.sv(219) @ 195000: uvm_test_top.env.scb [axi4_scoreboard] [REF_MEM_WRITE] Addr=0xd8a72cb6 Data=0x66
# UVM_INFO ../src/slv/axi4_slave_driver.sv(212) @ 205000: uvm_test_top.env.slave_agent.drv [axi4_slave_driver] AW received: ID=0xf ADDR=0xddfa6876 LEN=1 LOCK=AXI4_LOCK_NORMAL
# UVM_INFO ../src/slv/axi4_slave_driver.sv(358) @ 205000: uvm_test_top.env.slave_agent.drv [axi4_slave_driver] AR received: ID=0xb ADDR=0xd415990e LEN=1 LOCK=AXI4_LOCK_EXCLUSIVE
# UVM_INFO ../src/mst/axi4_master_monitor.sv(124) @ 205000: uvm_test_top.env.master_agent.mon [axi4_master_monitor] AW observed: ID=0xf ADDR=0xddfa6876 LEN=1
# UVM_INFO ../src/mst/axi4_master_monitor.sv(246) @ 205000: uvm_test_top.env.master_agent.mon [axi4_master_monitor] AR observed: ID=0xb ADDR=0xd415990e LEN=1
# UVM_INFO ../src/slv/axi4_slave_monitor.sv(116) @ 205000: uvm_test_top.env.slave_agent.mon [axi4_slave_monitor] AW received: ID=0xf ADDR=0xddfa6876 LEN=1
# UVM_INFO ../src/slv/axi4_slave_monitor.sv(224) @ 205000: uvm_test_top.env.slave_agent.mon [axi4_slave_monitor] AR received: ID=0xb ADDR=0xd415990e LEN=1
# UVM_INFO ../src/mst/axi4_master_monitor.sv(184) @ 205000: uvm_test_top.env.master_agent.mon [axi4_master_monitor] W data assembled: ID=0xf ADDR=0xddfa6876 2 beats
# UVM_INFO ../src/slv/axi4_slave_monitor.sv(167) @ 205000: uvm_test_top.env.slave_agent.mon [axi4_slave_monitor] W data assembled: ID=0xf ADDR=0xddfa6876 2 beats
# UVM_INFO ../src/mst/axi4_master_driver.sv(289) @ 225000: uvm_test_top.env.master_agent.drv [axi4_master_driver] Master driver received B response: ID=0xf RESP=AXI4_RESP_OKAY
# UVM_INFO ../src/slv/axi4_slave_driver.sv(320) @ 225000: uvm_test_top.env.slave_agent.drv [axi4_slave_driver] Write complete: ID=0xf RESP=AXI4_RESP_OKAY
# UVM_INFO ../src/mst/axi4_master_monitor.sv(210) @ 225000: uvm_test_top.env.master_agent.mon [axi4_master_monitor] Write complete: ID=0xf ADDR=0xddfa6876 RESP=AXI4_RESP_OKAY
# UVM_INFO ../src/env/axi4_scoreboard.sv(87) @ 225000: uvm_test_top.env.scb [axi4_scoreboard] Master AXI4_WRITE received: ID=0xf ADDR=0xddfa6876 LEN=1
# UVM_INFO ../src/slv/axi4_slave_monitor.sv(189) @ 225000: uvm_test_top.env.slave_agent.mon [axi4_slave_monitor] Write response sent: ID=0xf ADDR=0xddfa6876 RESP=AXI4_RESP_OKAY
# UVM_INFO ../src/env/axi4_scoreboard.sv(108) @ 225000: uvm_test_top.env.scb [axi4_scoreboard] Slave AXI4_WRITE received: ID=0xf ADDR=0xddfa6876 LEN=1
# UVM_INFO ../src/env/axi4_scoreboard.sv(291) @ 225000: uvm_test_top.env.scb [axi4_scoreboard] [WRITE] MATCH #7: ID=0xf ADDR=0xddfa6876 LEN=1
# UVM_INFO ../src/env/axi4_scoreboard.sv(219) @ 225000: uvm_test_top.env.scb [axi4_scoreboard] [REF_MEM_WRITE] Addr=0xddfa6874 Data=0xac
# UVM_INFO ../src/env/axi4_scoreboard.sv(219) @ 225000: uvm_test_top.env.scb [axi4_scoreboard] [REF_MEM_WRITE] Addr=0xddfa6875 Data=0xca
# UVM_INFO ../src/env/axi4_scoreboard.sv(219) @ 225000: uvm_test_top.env.scb [axi4_scoreboard] [REF_MEM_WRITE] Addr=0xddfa6874 Data=0xdf
# UVM_INFO ../src/env/axi4_scoreboard.sv(219) @ 225000: uvm_test_top.env.scb [axi4_scoreboard] [REF_MEM_WRITE] Addr=0xddfa6875 Data=0x77
# UVM_INFO ../src/env/axi4_scoreboard.sv(219) @ 225000: uvm_test_top.env.scb [axi4_scoreboard] [REF_MEM_WRITE] Addr=0xddfa6876 Data=0xd8
# UVM_INFO ../src/slv/axi4_slave_driver.sv(358) @ 235000: uvm_test_top.env.slave_agent.drv [axi4_slave_driver] AR received: ID=0x7 ADDR=0xb690ebb9 LEN=1 LOCK=AXI4_LOCK_NORMAL
# UVM_INFO ../src/slv/axi4_slave_driver.sv(212) @ 235000: uvm_test_top.env.slave_agent.drv [axi4_slave_driver] AW received: ID=0x0 ADDR=0x8c288841 LEN=1 LOCK=AXI4_LOCK_EXCLUSIVE
# UVM_INFO ../src/slv/axi4_slave_monitor.sv(224) @ 235000: uvm_test_top.env.slave_agent.mon [axi4_slave_monitor] AR received: ID=0x7 ADDR=0xb690ebb9 LEN=1
# UVM_INFO ../src/slv/axi4_slave_monitor.sv(116) @ 235000: uvm_test_top.env.slave_agent.mon [axi4_slave_monitor] AW received: ID=0x0 ADDR=0x8c288841 LEN=1
# UVM_INFO ../src/mst/axi4_master_monitor.sv(246) @ 235000: uvm_test_top.env.master_agent.mon [axi4_master_monitor] AR observed: ID=0x7 ADDR=0xb690ebb9 LEN=1
# UVM_INFO ../src/mst/axi4_master_monitor.sv(124) @ 235000: uvm_test_top.env.master_agent.mon [axi4_master_monitor] AW observed: ID=0x0 ADDR=0x8c288841 LEN=1
# UVM_INFO ../src/slv/axi4_slave_monitor.sv(167) @ 235000: uvm_test_top.env.slave_agent.mon [axi4_slave_monitor] W data assembled: ID=0x0 ADDR=0x8c288841 2 beats
# UVM_INFO ../src/mst/axi4_master_monitor.sv(184) @ 235000: uvm_test_top.env.master_agent.mon [axi4_master_monitor] W data assembled: ID=0x0 ADDR=0x8c288841 2 beats
# UVM_INFO ../src/mst/axi4_master_driver.sv(348) @ 245000: uvm_test_top.env.master_agent.drv [axi4_master_driver] Master driver received all R beats for ID=0xb
# UVM_INFO ../src/slv/axi4_slave_driver.sv(464) @ 245000: uvm_test_top.env.slave_agent.drv [axi4_slave_driver] Read complete: ID=0xb ADDR=0xd415990e RESP=AXI4_RESP_EXOKAY  2 beats sent
# UVM_INFO ../src/mst/axi4_master_monitor.sv(314) @ 245000: uvm_test_top.env.master_agent.mon [axi4_master_monitor] Read complete: ID=0xb ADDR=0xd415990e 2 beats
# UVM_INFO ../src/env/axi4_scoreboard.sv(87) @ 245000: uvm_test_top.env.scb [axi4_scoreboard] Master AXI4_READ received: ID=0xb ADDR=0xd415990e LEN=1
# UVM_INFO ../src/slv/axi4_slave_monitor.sv(287) @ 245000: uvm_test_top.env.slave_agent.mon [axi4_slave_monitor] Read data sent: ID=0xb ADDR=0xd415990e 2 beats
# UVM_INFO ../src/env/axi4_scoreboard.sv(108) @ 245000: uvm_test_top.env.scb [axi4_scoreboard] Slave AXI4_READ received: ID=0xb ADDR=0xd415990e LEN=1
# UVM_INFO ../src/env/axi4_scoreboard.sv(291) @ 245000: uvm_test_top.env.scb [axi4_scoreboard] [READ] MATCH #8: ID=0xb ADDR=0xd415990e LEN=1
# UVM_INFO ../src/mst/axi4_master_driver.sv(289) @ 255000: uvm_test_top.env.master_agent.drv [axi4_master_driver] Master driver received B response: ID=0x0 RESP=AXI4_RESP_OKAY
# UVM_INFO ../src/slv/axi4_slave_driver.sv(320) @ 255000: uvm_test_top.env.slave_agent.drv [axi4_slave_driver] Write complete: ID=0x0 RESP=AXI4_RESP_OKAY
# UVM_INFO ../src/slv/axi4_slave_monitor.sv(189) @ 255000: uvm_test_top.env.slave_agent.mon [axi4_slave_monitor] Write response sent: ID=0x0 ADDR=0x8c288841 RESP=AXI4_RESP_OKAY
# UVM_INFO ../src/env/axi4_scoreboard.sv(108) @ 255000: uvm_test_top.env.scb [axi4_scoreboard] Slave AXI4_WRITE received: ID=0x0 ADDR=0x8c288841 LEN=1
# UVM_INFO ../src/mst/axi4_master_monitor.sv(210) @ 255000: uvm_test_top.env.master_agent.mon [axi4_master_monitor] Write complete: ID=0x0 ADDR=0x8c288841 RESP=AXI4_RESP_OKAY
# UVM_INFO ../src/env/axi4_scoreboard.sv(87) @ 255000: uvm_test_top.env.scb [axi4_scoreboard] Master AXI4_WRITE received: ID=0x0 ADDR=0x8c288841 LEN=1
# UVM_INFO ../src/env/axi4_scoreboard.sv(291) @ 255000: uvm_test_top.env.scb [axi4_scoreboard] [WRITE] MATCH #9: ID=0x0 ADDR=0x8c288841 LEN=1
# UVM_INFO ../src/env/axi4_scoreboard.sv(226) @ 255000: uvm_test_top.env.scb [axi4_scoreboard] [REF_MEM_WRITE_IGNORED] Write ignored for ADDR=0x8c288841 LOCK=AXI4_LOCK_EXCLUSIVE RESP=AXI4_RESP_OKAY
# UVM_INFO ../src/slv/axi4_slave_driver.sv(212) @ 265000: uvm_test_top.env.slave_agent.drv [axi4_slave_driver] AW received: ID=0x3 ADDR=0xc3a04142 LEN=1 LOCK=AXI4_LOCK_EXCLUSIVE
# UVM_INFO ../src/slv/axi4_slave_driver.sv(358) @ 265000: uvm_test_top.env.slave_agent.drv [axi4_slave_driver] AR received: ID=0xf ADDR=0x149157ab LEN=1 LOCK=AXI4_LOCK_EXCLUSIVE
# UVM_INFO ../src/mst/axi4_master_monitor.sv(124) @ 265000: uvm_test_top.env.master_agent.mon [axi4_master_monitor] AW observed: ID=0x3 ADDR=0xc3a04142 LEN=1
# UVM_INFO ../src/mst/axi4_master_monitor.sv(246) @ 265000: uvm_test_top.env.master_agent.mon [axi4_master_monitor] AR observed: ID=0xf ADDR=0x149157ab LEN=1
# UVM_INFO ../src/slv/axi4_slave_monitor.sv(116) @ 265000: uvm_test_top.env.slave_agent.mon [axi4_slave_monitor] AW received: ID=0x3 ADDR=0xc3a04142 LEN=1
# UVM_INFO ../src/slv/axi4_slave_monitor.sv(224) @ 265000: uvm_test_top.env.slave_agent.mon [axi4_slave_monitor] AR received: ID=0xf ADDR=0x149157ab LEN=1
# UVM_INFO ../src/mst/axi4_master_monitor.sv(184) @ 265000: uvm_test_top.env.master_agent.mon [axi4_master_monitor] W data assembled: ID=0x3 ADDR=0xc3a04142 2 beats
# UVM_INFO ../src/slv/axi4_slave_monitor.sv(167) @ 265000: uvm_test_top.env.slave_agent.mon [axi4_slave_monitor] W data assembled: ID=0x3 ADDR=0xc3a04142 2 beats
# UVM_INFO ../src/mst/axi4_master_driver.sv(348) @ 285000: uvm_test_top.env.master_agent.drv [axi4_master_driver] Master driver received all R beats for ID=0x7
# UVM_INFO ../src/slv/axi4_slave_driver.sv(464) @ 285000: uvm_test_top.env.slave_agent.drv [axi4_slave_driver] Read complete: ID=0x7 ADDR=0xb690ebb9 RESP=AXI4_RESP_OKAY  2 beats sent
# UVM_INFO ../src/mst/axi4_master_monitor.sv(314) @ 285000: uvm_test_top.env.master_agent.mon [axi4_master_monitor] Read complete: ID=0x7 ADDR=0xb690ebb9 2 beats
# UVM_INFO ../src/env/axi4_scoreboard.sv(87) @ 285000: uvm_test_top.env.scb [axi4_scoreboard] Master AXI4_READ received: ID=0x7 ADDR=0xb690ebb9 LEN=1
# UVM_INFO ../src/slv/axi4_slave_monitor.sv(287) @ 285000: uvm_test_top.env.slave_agent.mon [axi4_slave_monitor] Read data sent: ID=0x7 ADDR=0xb690ebb9 2 beats
# UVM_INFO ../src/env/axi4_scoreboard.sv(108) @ 285000: uvm_test_top.env.scb [axi4_scoreboard] Slave AXI4_READ received: ID=0x7 ADDR=0xb690ebb9 LEN=1
# UVM_INFO ../src/env/axi4_scoreboard.sv(291) @ 285000: uvm_test_top.env.scb [axi4_scoreboard] [READ] MATCH #10: ID=0x7 ADDR=0xb690ebb9 LEN=1
# UVM_INFO ../src/mst/axi4_master_driver.sv(289) @ 295000: uvm_test_top.env.master_agent.drv [axi4_master_driver] Master driver received B response: ID=0x3 RESP=AXI4_RESP_OKAY
# UVM_INFO ../src/slv/axi4_slave_driver.sv(358) @ 295000: uvm_test_top.env.slave_agent.drv [axi4_slave_driver] AR received: ID=0xd ADDR=0xa8f5d5f7 LEN=3 LOCK=AXI4_LOCK_NORMAL
# UVM_INFO ../src/slv/axi4_slave_driver.sv(212) @ 295000: uvm_test_top.env.slave_agent.drv [axi4_slave_driver] AW received: ID=0xb ADDR=0x51960a6c LEN=3 LOCK=AXI4_LOCK_NORMAL
# UVM_INFO ../src/slv/axi4_slave_driver.sv(320) @ 295000: uvm_test_top.env.slave_agent.drv [axi4_slave_driver] Write complete: ID=0x3 RESP=AXI4_RESP_OKAY
# UVM_INFO ../src/slv/axi4_slave_monitor.sv(224) @ 295000: uvm_test_top.env.slave_agent.mon [axi4_slave_monitor] AR received: ID=0xd ADDR=0xa8f5d5f7 LEN=3
# UVM_INFO ../src/slv/axi4_slave_monitor.sv(189) @ 295000: uvm_test_top.env.slave_agent.mon [axi4_slave_monitor] Write response sent: ID=0x3 ADDR=0xc3a04142 RESP=AXI4_RESP_OKAY
# UVM_INFO ../src/env/axi4_scoreboard.sv(108) @ 295000: uvm_test_top.env.scb [axi4_scoreboard] Slave AXI4_WRITE received: ID=0x3 ADDR=0xc3a04142 LEN=1
# UVM_INFO ../src/slv/axi4_slave_monitor.sv(116) @ 295000: uvm_test_top.env.slave_agent.mon [axi4_slave_monitor] AW received: ID=0xb ADDR=0x51960a6c LEN=3
# UVM_INFO ../src/mst/axi4_master_monitor.sv(246) @ 295000: uvm_test_top.env.master_agent.mon [axi4_master_monitor] AR observed: ID=0xd ADDR=0xa8f5d5f7 LEN=3
# UVM_INFO ../src/mst/axi4_master_monitor.sv(210) @ 295000: uvm_test_top.env.master_agent.mon [axi4_master_monitor] Write complete: ID=0x3 ADDR=0xc3a04142 RESP=AXI4_RESP_OKAY
# UVM_INFO ../src/env/axi4_scoreboard.sv(87) @ 295000: uvm_test_top.env.scb [axi4_scoreboard] Master AXI4_WRITE received: ID=0x3 ADDR=0xc3a04142 LEN=1
# UVM_INFO ../src/env/axi4_scoreboard.sv(291) @ 295000: uvm_test_top.env.scb [axi4_scoreboard] [WRITE] MATCH #11: ID=0x3 ADDR=0xc3a04142 LEN=1
# UVM_INFO ../src/env/axi4_scoreboard.sv(226) @ 295000: uvm_test_top.env.scb [axi4_scoreboard] [REF_MEM_WRITE_IGNORED] Write ignored for ADDR=0xc3a04142 LOCK=AXI4_LOCK_EXCLUSIVE RESP=AXI4_RESP_OKAY
# UVM_INFO ../src/mst/axi4_master_monitor.sv(124) @ 295000: uvm_test_top.env.master_agent.mon [axi4_master_monitor] AW observed: ID=0xb ADDR=0x51960a6c LEN=3
# UVM_INFO ../src/mst/axi4_master_driver.sv(348) @ 325000: uvm_test_top.env.master_agent.drv [axi4_master_driver] Master driver received all R beats for ID=0xf
# UVM_INFO ../src/slv/axi4_slave_driver.sv(358) @ 325000: uvm_test_top.env.slave_agent.drv [axi4_slave_driver] AR received: ID=0xa ADDR=0x198ea3af LEN=3 LOCK=AXI4_LOCK_NORMAL
# UVM_INFO ../src/slv/axi4_slave_driver.sv(464) @ 325000: uvm_test_top.env.slave_agent.drv [axi4_slave_driver] Read complete: ID=0xf ADDR=0x149157ab RESP=AXI4_RESP_EXOKAY  2 beats sent
# UVM_INFO ../src/mst/axi4_master_monitor.sv(246) @ 325000: uvm_test_top.env.master_agent.mon [axi4_master_monitor] AR observed: ID=0xa ADDR=0x198ea3af LEN=3
# UVM_INFO ../src/mst/axi4_master_monitor.sv(314) @ 325000: uvm_test_top.env.master_agent.mon [axi4_master_monitor] Read complete: ID=0xf ADDR=0x149157ab 2 beats
# UVM_INFO ../src/env/axi4_scoreboard.sv(87) @ 325000: uvm_test_top.env.scb [axi4_scoreboard] Master AXI4_READ received: ID=0xf ADDR=0x149157ab LEN=1
# UVM_INFO ../src/slv/axi4_slave_monitor.sv(224) @ 325000: uvm_test_top.env.slave_agent.mon [axi4_slave_monitor] AR received: ID=0xa ADDR=0x198ea3af LEN=3
# UVM_INFO ../src/slv/axi4_slave_monitor.sv(287) @ 325000: uvm_test_top.env.slave_agent.mon [axi4_slave_monitor] Read data sent: ID=0xf ADDR=0x149157ab 2 beats
# UVM_INFO ../src/env/axi4_scoreboard.sv(108) @ 325000: uvm_test_top.env.scb [axi4_scoreboard] Slave AXI4_READ received: ID=0xf ADDR=0x149157ab LEN=1
# UVM_INFO ../src/env/axi4_scoreboard.sv(291) @ 325000: uvm_test_top.env.scb [axi4_scoreboard] [READ] MATCH #12: ID=0xf ADDR=0x149157ab LEN=1
# UVM_INFO ../src/mst/axi4_master_monitor.sv(184) @ 345000: uvm_test_top.env.master_agent.mon [axi4_master_monitor] W data assembled: ID=0xb ADDR=0x51960a6c 4 beats
# UVM_INFO ../src/slv/axi4_slave_monitor.sv(167) @ 345000: uvm_test_top.env.slave_agent.mon [axi4_slave_monitor] W data assembled: ID=0xb ADDR=0x51960a6c 4 beats
# UVM_INFO ../src/slv/axi4_slave_driver.sv(358) @ 355000: uvm_test_top.env.slave_agent.drv [axi4_slave_driver] AR received: ID=0x1 ADDR=0x7adea7cf LEN=3 LOCK=AXI4_LOCK_EXCLUSIVE
# UVM_INFO ../src/slv/axi4_slave_monitor.sv(224) @ 355000: uvm_test_top.env.slave_agent.mon [axi4_slave_monitor] AR received: ID=0x1 ADDR=0x7adea7cf LEN=3
# UVM_INFO ../src/mst/axi4_master_monitor.sv(246) @ 355000: uvm_test_top.env.master_agent.mon [axi4_master_monitor] AR observed: ID=0x1 ADDR=0x7adea7cf LEN=3
# UVM_INFO ../src/mst/axi4_master_driver.sv(289) @ 375000: uvm_test_top.env.master_agent.drv [axi4_master_driver] Master driver received B response: ID=0xb RESP=AXI4_RESP_OKAY
# UVM_INFO ../src/slv/axi4_slave_driver.sv(320) @ 375000: uvm_test_top.env.slave_agent.drv [axi4_slave_driver] Write complete: ID=0xb RESP=AXI4_RESP_OKAY
# UVM_INFO ../src/slv/axi4_slave_monitor.sv(189) @ 375000: uvm_test_top.env.slave_agent.mon [axi4_slave_monitor] Write response sent: ID=0xb ADDR=0x51960a6c RESP=AXI4_RESP_OKAY
# UVM_INFO ../src/env/axi4_scoreboard.sv(108) @ 375000: uvm_test_top.env.scb [axi4_scoreboard] Slave AXI4_WRITE received: ID=0xb ADDR=0x51960a6c LEN=3
# UVM_INFO ../src/mst/axi4_master_monitor.sv(210) @ 375000: uvm_test_top.env.master_agent.mon [axi4_master_monitor] Write complete: ID=0xb ADDR=0x51960a6c RESP=AXI4_RESP_OKAY
# UVM_INFO ../src/env/axi4_scoreboard.sv(87) @ 375000: uvm_test_top.env.scb [axi4_scoreboard] Master AXI4_WRITE received: ID=0xb ADDR=0x51960a6c LEN=3
# UVM_INFO ../src/env/axi4_scoreboard.sv(291) @ 375000: uvm_test_top.env.scb [axi4_scoreboard] [WRITE] MATCH #13: ID=0xb ADDR=0x51960a6c LEN=3
# UVM_INFO ../src/env/axi4_scoreboard.sv(219) @ 375000: uvm_test_top.env.scb [axi4_scoreboard] [REF_MEM_WRITE] Addr=0x51960a6d Data=0xd7
# UVM_INFO ../src/env/axi4_scoreboard.sv(219) @ 375000: uvm_test_top.env.scb [axi4_scoreboard] [REF_MEM_WRITE] Addr=0x51960a6e Data=0xa8
# UVM_INFO ../src/env/axi4_scoreboard.sv(219) @ 375000: uvm_test_top.env.scb [axi4_scoreboard] [REF_MEM_WRITE] Addr=0x51960a6c Data=0x7c
# UVM_INFO ../src/env/axi4_scoreboard.sv(219) @ 375000: uvm_test_top.env.scb [axi4_scoreboard] [REF_MEM_WRITE] Addr=0x51960a6d Data=0x50
# UVM_INFO ../src/env/axi4_scoreboard.sv(219) @ 375000: uvm_test_top.env.scb [axi4_scoreboard] [REF_MEM_WRITE] Addr=0x51960a6f Data=0xa3
# UVM_INFO ../src/env/axi4_scoreboard.sv(219) @ 375000: uvm_test_top.env.scb [axi4_scoreboard] [REF_MEM_WRITE] Addr=0x51960a6d Data=0xd9
# UVM_INFO ../src/env/axi4_scoreboard.sv(219) @ 375000: uvm_test_top.env.scb [axi4_scoreboard] [REF_MEM_WRITE] Addr=0x51960a6f Data=0xd6
# UVM_INFO ../src/env/axi4_scoreboard.sv(219) @ 375000: uvm_test_top.env.scb [axi4_scoreboard] [REF_MEM_WRITE] Addr=0x51960a6c Data=0xad
# UVM_INFO ../src/slv/axi4_slave_driver.sv(358) @ 385000: uvm_test_top.env.slave_agent.drv [axi4_slave_driver] AR received: ID=0xd ADDR=0x817ee12a LEN=7 LOCK=AXI4_LOCK_NORMAL
# UVM_INFO ../src/mst/axi4_master_monitor.sv(246) @ 385000: uvm_test_top.env.master_agent.mon [axi4_master_monitor] AR observed: ID=0xd ADDR=0x817ee12a LEN=7
# UVM_INFO ../src/slv/axi4_slave_monitor.sv(224) @ 385000: uvm_test_top.env.slave_agent.mon [axi4_slave_monitor] AR received: ID=0xd ADDR=0x817ee12a LEN=7
# UVM_INFO ../src/mst/axi4_master_driver.sv(348) @ 405000: uvm_test_top.env.master_agent.drv [axi4_master_driver] Master driver received all R beats for ID=0xd
# UVM_INFO ../src/slv/axi4_slave_driver.sv(212) @ 405000: uvm_test_top.env.slave_agent.drv [axi4_slave_driver] AW received: ID=0x8 ADDR=0xc2e60b61 LEN=3 LOCK=AXI4_LOCK_NORMAL
# UVM_INFO ../src/slv/axi4_slave_driver.sv(464) @ 405000: uvm_test_top.env.slave_agent.drv [axi4_slave_driver] Read complete: ID=0xd ADDR=0xa8f5d5f7 RESP=AXI4_RESP_OKAY  4 beats sent
# UVM_INFO ../src/mst/axi4_master_monitor.sv(124) @ 405000: uvm_test_top.env.master_agent.mon [axi4_master_monitor] AW observed: ID=0x8 ADDR=0xc2e60b61 LEN=3
# UVM_INFO ../src/mst/axi4_master_monitor.sv(314) @ 405000: uvm_test_top.env.master_agent.mon [axi4_master_monitor] Read complete: ID=0xd ADDR=0xa8f5d5f7 4 beats
# UVM_INFO ../src/env/axi4_scoreboard.sv(87) @ 405000: uvm_test_top.env.scb [axi4_scoreboard] Master AXI4_READ received: ID=0xd ADDR=0xa8f5d5f7 LEN=3
# UVM_INFO ../src/slv/axi4_slave_monitor.sv(116) @ 405000: uvm_test_top.env.slave_agent.mon [axi4_slave_monitor] AW received: ID=0x8 ADDR=0xc2e60b61 LEN=3
# UVM_INFO ../src/slv/axi4_slave_monitor.sv(287) @ 405000: uvm_test_top.env.slave_agent.mon [axi4_slave_monitor] Read data sent: ID=0xd ADDR=0xa8f5d5f7 4 beats
# UVM_INFO ../src/env/axi4_scoreboard.sv(108) @ 405000: uvm_test_top.env.scb [axi4_scoreboard] Slave AXI4_READ received: ID=0xd ADDR=0xa8f5d5f7 LEN=3
# UVM_INFO ../src/env/axi4_scoreboard.sv(291) @ 405000: uvm_test_top.env.scb [axi4_scoreboard] [READ] MATCH #14: ID=0xd ADDR=0xa8f5d5f7 LEN=3
# UVM_INFO ../src/slv/axi4_slave_driver.sv(358) @ 415000: uvm_test_top.env.slave_agent.drv [axi4_slave_driver] AR received: ID=0x9 ADDR=0x9590b344 LEN=7 LOCK=AXI4_LOCK_EXCLUSIVE
# UVM_INFO ../src/slv/axi4_slave_monitor.sv(224) @ 415000: uvm_test_top.env.slave_agent.mon [axi4_slave_monitor] AR received: ID=0x9 ADDR=0x9590b344 LEN=7
# UVM_INFO ../src/mst/axi4_master_monitor.sv(246) @ 415000: uvm_test_top.env.master_agent.mon [axi4_master_monitor] AR observed: ID=0x9 ADDR=0x9590b344 LEN=7
# UVM_INFO ../src/mst/axi4_master_monitor.sv(184) @ 425000: uvm_test_top.env.master_agent.mon [axi4_master_monitor] W data assembled: ID=0x8 ADDR=0xc2e60b61 4 beats
# UVM_INFO ../src/slv/axi4_slave_monitor.sv(167) @ 425000: uvm_test_top.env.slave_agent.mon [axi4_slave_monitor] W data assembled: ID=0x8 ADDR=0xc2e60b61 4 beats
# UVM_INFO ../src/slv/axi4_slave_driver.sv(212) @ 435000: uvm_test_top.env.slave_agent.drv [axi4_slave_driver] AW received: ID=0xb ADDR=0xa48b95c5 LEN=3 LOCK=AXI4_LOCK_NORMAL
# UVM_INFO ../src/slv/axi4_slave_monitor.sv(116) @ 435000: uvm_test_top.env.slave_agent.mon [axi4_slave_monitor] AW received: ID=0xb ADDR=0xa48b95c5 LEN=3
# UVM_INFO ../src/mst/axi4_master_monitor.sv(124) @ 435000: uvm_test_top.env.master_agent.mon [axi4_master_monitor] AW observed: ID=0xb ADDR=0xa48b95c5 LEN=3
# UVM_INFO ../src/slv/axi4_slave_driver.sv(358) @ 445000: uvm_test_top.env.slave_agent.drv [axi4_slave_driver] AR received: ID=0x7 ADDR=0x61540425 LEN=7 LOCK=AXI4_LOCK_EXCLUSIVE
# UVM_INFO ../src/mst/axi4_master_monitor.sv(246) @ 445000: uvm_test_top.env.master_agent.mon [axi4_master_monitor] AR observed: ID=0x7 ADDR=0x61540425 LEN=7
# UVM_INFO ../src/slv/axi4_slave_monitor.sv(224) @ 445000: uvm_test_top.env.slave_agent.mon [axi4_slave_monitor] AR received: ID=0x7 ADDR=0x61540425 LEN=7
# UVM_INFO ../src/mst/axi4_master_driver.sv(289) @ 455000: uvm_test_top.env.master_agent.drv [axi4_master_driver] Master driver received B response: ID=0x8 RESP=AXI4_RESP_OKAY
# UVM_INFO ../src/slv/axi4_slave_driver.sv(320) @ 455000: uvm_test_top.env.slave_agent.drv [axi4_slave_driver] Write complete: ID=0x8 RESP=AXI4_RESP_OKAY
# UVM_INFO ../src/slv/axi4_slave_monitor.sv(189) @ 455000: uvm_test_top.env.slave_agent.mon [axi4_slave_monitor] Write response sent: ID=0x8 ADDR=0xc2e60b61 RESP=AXI4_RESP_OKAY
# UVM_INFO ../src/env/axi4_scoreboard.sv(108) @ 455000: uvm_test_top.env.scb [axi4_scoreboard] Slave AXI4_WRITE received: ID=0x8 ADDR=0xc2e60b61 LEN=3
# UVM_INFO ../src/mst/axi4_master_monitor.sv(210) @ 455000: uvm_test_top.env.master_agent.mon [axi4_master_monitor] Write complete: ID=0x8 ADDR=0xc2e60b61 RESP=AXI4_RESP_OKAY
# UVM_INFO ../src/env/axi4_scoreboard.sv(87) @ 455000: uvm_test_top.env.scb [axi4_scoreboard] Master AXI4_WRITE received: ID=0x8 ADDR=0xc2e60b61 LEN=3
# UVM_INFO ../src/env/axi4_scoreboard.sv(291) @ 455000: uvm_test_top.env.scb [axi4_scoreboard] [WRITE] MATCH #15: ID=0x8 ADDR=0xc2e60b61 LEN=3
# UVM_INFO ../src/env/axi4_scoreboard.sv(219) @ 455000: uvm_test_top.env.scb [axi4_scoreboard] [REF_MEM_WRITE] Addr=0xc2e60b61 Data=0xbd
# UVM_INFO ../src/env/axi4_scoreboard.sv(219) @ 455000: uvm_test_top.env.scb [axi4_scoreboard] [REF_MEM_WRITE] Addr=0xc2e60b62 Data=0xf8
# UVM_INFO ../src/env/axi4_scoreboard.sv(219) @ 455000: uvm_test_top.env.scb [axi4_scoreboard] [REF_MEM_WRITE] Addr=0xc2e60b63 Data=0xce
# UVM_INFO ../src/env/axi4_scoreboard.sv(219) @ 455000: uvm_test_top.env.scb [axi4_scoreboard] [REF_MEM_WRITE] Addr=0xc2e60b60 Data=0xd5
# UVM_INFO ../src/env/axi4_scoreboard.sv(219) @ 455000: uvm_test_top.env.scb [axi4_scoreboard] [REF_MEM_WRITE] Addr=0xc2e60b62 Data=0x36
# UVM_INFO ../src/env/axi4_scoreboard.sv(219) @ 455000: uvm_test_top.env.scb [axi4_scoreboard] [REF_MEM_WRITE] Addr=0xc2e60b63 Data=0xb9
# UVM_INFO ../src/env/axi4_scoreboard.sv(219) @ 455000: uvm_test_top.env.scb [axi4_scoreboard] [REF_MEM_WRITE] Addr=0xc2e60b60 Data=0xea
# UVM_INFO ../src/env/axi4_scoreboard.sv(219) @ 455000: uvm_test_top.env.scb [axi4_scoreboard] [REF_MEM_WRITE] Addr=0xc2e60b61 Data=0x3a
# UVM_INFO ../src/slv/axi4_slave_driver.sv(212) @ 465000: uvm_test_top.env.slave_agent.drv [axi4_slave_driver] AW received: ID=0xe ADDR=0xc81e9ea3 LEN=7 LOCK=AXI4_LOCK_NORMAL
# UVM_INFO ../src/mst/axi4_master_monitor.sv(124) @ 465000: uvm_test_top.env.master_agent.mon [axi4_master_monitor] AW observed: ID=0xe ADDR=0xc81e9ea3 LEN=7
# UVM_INFO ../src/slv/axi4_slave_monitor.sv(116) @ 465000: uvm_test_top.env.slave_agent.mon [axi4_slave_monitor] AW received: ID=0xe ADDR=0xc81e9ea3 LEN=7
# UVM_INFO ../src/slv/axi4_slave_driver.sv(358) @ 475000: uvm_test_top.env.slave_agent.drv [axi4_slave_driver] AR received: ID=0x5 ADDR=0x9fc9c148 LEN=15 LOCK=AXI4_LOCK_EXCLUSIVE
# UVM_INFO ../src/slv/axi4_slave_monitor.sv(224) @ 475000: uvm_test_top.env.slave_agent.mon [axi4_slave_monitor] AR received: ID=0x5 ADDR=0x9fc9c148 LEN=15
# UVM_INFO ../src/mst/axi4_master_monitor.sv(246) @ 475000: uvm_test_top.env.master_agent.mon [axi4_master_monitor] AR observed: ID=0x5 ADDR=0x9fc9c148 LEN=15
# UVM_INFO ../src/mst/axi4_master_driver.sv(348) @ 485000: uvm_test_top.env.master_agent.drv [axi4_master_driver] Master driver received all R beats for ID=0xa
# UVM_INFO ../src/slv/axi4_slave_driver.sv(464) @ 485000: uvm_test_top.env.slave_agent.drv [axi4_slave_driver] Read complete: ID=0xa ADDR=0x198ea3af RESP=AXI4_RESP_OKAY  4 beats sent
# UVM_INFO ../src/mst/axi4_master_monitor.sv(314) @ 485000: uvm_test_top.env.master_agent.mon [axi4_master_monitor] Read complete: ID=0xa ADDR=0x198ea3af 4 beats
# UVM_INFO ../src/env/axi4_scoreboard.sv(87) @ 485000: uvm_test_top.env.scb [axi4_scoreboard] Master AXI4_READ received: ID=0xa ADDR=0x198ea3af LEN=3
# UVM_INFO ../src/slv/axi4_slave_monitor.sv(287) @ 485000: uvm_test_top.env.slave_agent.mon [axi4_slave_monitor] Read data sent: ID=0xa ADDR=0x198ea3af 4 beats
# UVM_INFO ../src/env/axi4_scoreboard.sv(108) @ 485000: uvm_test_top.env.scb [axi4_scoreboard] Slave AXI4_READ received: ID=0xa ADDR=0x198ea3af LEN=3
# UVM_INFO ../src/env/axi4_scoreboard.sv(291) @ 485000: uvm_test_top.env.scb [axi4_scoreboard] [READ] MATCH #16: ID=0xa ADDR=0x198ea3af LEN=3
# UVM_INFO ../src/slv/axi4_slave_driver.sv(212) @ 495000: uvm_test_top.env.slave_agent.drv [axi4_slave_driver] AW received: ID=0x5 ADDR=0x0572ab81 LEN=7 LOCK=AXI4_LOCK_EXCLUSIVE
# UVM_INFO ../src/slv/axi4_slave_monitor.sv(116) @ 495000: uvm_test_top.env.slave_agent.mon [axi4_slave_monitor] AW received: ID=0x5 ADDR=0x0572ab81 LEN=7
# UVM_INFO ../src/mst/axi4_master_monitor.sv(124) @ 495000: uvm_test_top.env.master_agent.mon [axi4_master_monitor] AW observed: ID=0x5 ADDR=0x0572ab81 LEN=7
# UVM_INFO ../src/slv/axi4_slave_driver.sv(358) @ 505000: uvm_test_top.env.slave_agent.drv [axi4_slave_driver] AR received: ID=0xb ADDR=0xcdf2f784 LEN=15 LOCK=AXI4_LOCK_NORMAL
# UVM_INFO ../src/mst/axi4_master_monitor.sv(246) @ 505000: uvm_test_top.env.master_agent.mon [axi4_master_monitor] AR observed: ID=0xb ADDR=0xcdf2f784 LEN=15
# UVM_INFO ../src/slv/axi4_slave_monitor.sv(224) @ 505000: uvm_test_top.env.slave_agent.mon [axi4_slave_monitor] AR received: ID=0xb ADDR=0xcdf2f784 LEN=15
# UVM_INFO ../src/slv/axi4_slave_monitor.sv(167) @ 515000: uvm_test_top.env.slave_agent.mon [axi4_slave_monitor] W data assembled: ID=0xb ADDR=0xa48b95c5 4 beats
# UVM_INFO ../src/mst/axi4_master_monitor.sv(184) @ 515000: uvm_test_top.env.master_agent.mon [axi4_master_monitor] W data assembled: ID=0xb ADDR=0xa48b95c5 4 beats
# UVM_INFO ../src/slv/axi4_slave_driver.sv(358) @ 535000: uvm_test_top.env.slave_agent.drv [axi4_slave_driver] AR received: ID=0x4 ADDR=0x2049a5c8 LEN=15 LOCK=AXI4_LOCK_EXCLUSIVE
# UVM_INFO ../src/slv/axi4_slave_monitor.sv(224) @ 535000: uvm_test_top.env.slave_agent.mon [axi4_slave_monitor] AR received: ID=0x4 ADDR=0x2049a5c8 LEN=15
# UVM_INFO ../src/mst/axi4_master_monitor.sv(246) @ 535000: uvm_test_top.env.master_agent.mon [axi4_master_monitor] AR observed: ID=0x4 ADDR=0x2049a5c8 LEN=15
# UVM_INFO ../src/mst/axi4_master_driver.sv(289) @ 545000: uvm_test_top.env.master_agent.drv [axi4_master_driver] Master driver received B response: ID=0xb RESP=AXI4_RESP_OKAY
# UVM_INFO ../src/slv/axi4_slave_driver.sv(320) @ 545000: uvm_test_top.env.slave_agent.drv [axi4_slave_driver] Write complete: ID=0xb RESP=AXI4_RESP_OKAY
# UVM_INFO ../src/mst/axi4_master_monitor.sv(210) @ 545000: uvm_test_top.env.master_agent.mon [axi4_master_monitor] Write complete: ID=0xb ADDR=0xa48b95c5 RESP=AXI4_RESP_OKAY
# UVM_INFO ../src/env/axi4_scoreboard.sv(87) @ 545000: uvm_test_top.env.scb [axi4_scoreboard] Master AXI4_WRITE received: ID=0xb ADDR=0xa48b95c5 LEN=3
# UVM_INFO ../src/slv/axi4_slave_monitor.sv(189) @ 545000: uvm_test_top.env.slave_agent.mon [axi4_slave_monitor] Write response sent: ID=0xb ADDR=0xa48b95c5 RESP=AXI4_RESP_OKAY
# UVM_INFO ../src/env/axi4_scoreboard.sv(108) @ 545000: uvm_test_top.env.scb [axi4_scoreboard] Slave AXI4_WRITE received: ID=0xb ADDR=0xa48b95c5 LEN=3
# UVM_INFO ../src/env/axi4_scoreboard.sv(291) @ 545000: uvm_test_top.env.scb [axi4_scoreboard] [WRITE] MATCH #17: ID=0xb ADDR=0xa48b95c5 LEN=3
# UVM_INFO ../src/env/axi4_scoreboard.sv(219) @ 545000: uvm_test_top.env.scb [axi4_scoreboard] [REF_MEM_WRITE] Addr=0xa48b95c5 Data=0x30
# UVM_INFO ../src/env/axi4_scoreboard.sv(219) @ 545000: uvm_test_top.env.scb [axi4_scoreboard] [REF_MEM_WRITE] Addr=0xa48b95c7 Data=0x51
# UVM_INFO ../src/env/axi4_scoreboard.sv(219) @ 545000: uvm_test_top.env.scb [axi4_scoreboard] [REF_MEM_WRITE] Addr=0xa48b95c5 Data=0x68
# UVM_INFO ../src/mst/axi4_master_driver.sv(348) @ 565000: uvm_test_top.env.master_agent.drv [axi4_master_driver] Master driver received all R beats for ID=0x1
# UVM_INFO ../src/slv/axi4_slave_driver.sv(358) @ 565000: uvm_test_top.env.slave_agent.drv [axi4_slave_driver] AR received: ID=0xc ADDR=0x78e6d1bb LEN=1 LOCK=AXI4_LOCK_NORMAL
# UVM_INFO ../src/slv/axi4_slave_driver.sv(464) @ 565000: uvm_test_top.env.slave_agent.drv [axi4_slave_driver] Read complete: ID=0x1 ADDR=0x7adea7cf RESP=AXI4_RESP_EXOKAY  4 beats sent
# UVM_INFO ../src/mst/axi4_master_monitor.sv(246) @ 565000: uvm_test_top.env.master_agent.mon [axi4_master_monitor] AR observed: ID=0xc ADDR=0x78e6d1bb LEN=1
# UVM_INFO ../src/mst/axi4_master_monitor.sv(314) @ 565000: uvm_test_top.env.master_agent.mon [axi4_master_monitor] Read complete: ID=0x1 ADDR=0x7adea7cf 4 beats
# UVM_INFO ../src/env/axi4_scoreboard.sv(87) @ 565000: uvm_test_top.env.scb [axi4_scoreboard] Master AXI4_READ received: ID=0x1 ADDR=0x7adea7cf LEN=3
# UVM_INFO ../src/slv/axi4_slave_monitor.sv(224) @ 565000: uvm_test_top.env.slave_agent.mon [axi4_slave_monitor] AR received: ID=0xc ADDR=0x78e6d1bb LEN=1
# UVM_INFO ../src/slv/axi4_slave_monitor.sv(287) @ 565000: uvm_test_top.env.slave_agent.mon [axi4_slave_monitor] Read data sent: ID=0x1 ADDR=0x7adea7cf 4 beats
# UVM_INFO ../src/env/axi4_scoreboard.sv(108) @ 565000: uvm_test_top.env.scb [axi4_scoreboard] Slave AXI4_READ received: ID=0x1 ADDR=0x7adea7cf LEN=3
# UVM_INFO ../src/env/axi4_scoreboard.sv(291) @ 565000: uvm_test_top.env.scb [axi4_scoreboard] [READ] MATCH #18: ID=0x1 ADDR=0x7adea7cf LEN=3
# UVM_INFO ../src/slv/axi4_slave_driver.sv(358) @ 595000: uvm_test_top.env.slave_agent.drv [axi4_slave_driver] AR received: ID=0xd ADDR=0x60368944 LEN=1 LOCK=AXI4_LOCK_NORMAL
# UVM_INFO ../src/slv/axi4_slave_monitor.sv(224) @ 595000: uvm_test_top.env.slave_agent.mon [axi4_slave_monitor] AR received: ID=0xd ADDR=0x60368944 LEN=1
# UVM_INFO ../src/mst/axi4_master_monitor.sv(246) @ 595000: uvm_test_top.env.master_agent.mon [axi4_master_monitor] AR observed: ID=0xd ADDR=0x60368944 LEN=1
# UVM_INFO ../src/slv/axi4_slave_driver.sv(358) @ 625000: uvm_test_top.env.slave_agent.drv [axi4_slave_driver] AR received: ID=0x6 ADDR=0x41307dc0 LEN=1 LOCK=AXI4_LOCK_NORMAL
# UVM_INFO ../src/mst/axi4_master_monitor.sv(246) @ 625000: uvm_test_top.env.master_agent.mon [axi4_master_monitor] AR observed: ID=0x6 ADDR=0x41307dc0 LEN=1
# UVM_INFO ../src/slv/axi4_slave_monitor.sv(224) @ 625000: uvm_test_top.env.slave_agent.mon [axi4_slave_monitor] AR received: ID=0x6 ADDR=0x41307dc0 LEN=1
# UVM_INFO ../src/slv/axi4_slave_driver.sv(358) @ 655000: uvm_test_top.env.slave_agent.drv [axi4_slave_driver] AR received: ID=0x7 ADDR=0x6d02e3f0 LEN=3 LOCK=AXI4_LOCK_EXCLUSIVE
# UVM_INFO ../src/slv/axi4_slave_monitor.sv(224) @ 655000: uvm_test_top.env.slave_agent.mon [axi4_slave_monitor] AR received: ID=0x7 ADDR=0x6d02e3f0 LEN=3
# UVM_INFO ../src/mst/axi4_master_monitor.sv(246) @ 655000: uvm_test_top.env.master_agent.mon [axi4_master_monitor] AR observed: ID=0x7 ADDR=0x6d02e3f0 LEN=3
# UVM_INFO ../src/slv/axi4_slave_monitor.sv(167) @ 675000: uvm_test_top.env.slave_agent.mon [axi4_slave_monitor] W data assembled: ID=0xe ADDR=0xc81e9ea3 8 beats
# UVM_INFO ../src/mst/axi4_master_monitor.sv(184) @ 675000: uvm_test_top.env.master_agent.mon [axi4_master_monitor] W data assembled: ID=0xe ADDR=0xc81e9ea3 8 beats
# UVM_INFO ../src/slv/axi4_slave_driver.sv(358) @ 685000: uvm_test_top.env.slave_agent.drv [axi4_slave_driver] AR received: ID=0x1 ADDR=0x5a760094 LEN=3 LOCK=AXI4_LOCK_NORMAL
# UVM_INFO ../src/mst/axi4_master_monitor.sv(246) @ 685000: uvm_test_top.env.master_agent.mon [axi4_master_monitor] AR observed: ID=0x1 ADDR=0x5a760094 LEN=3
# UVM_INFO ../src/slv/axi4_slave_monitor.sv(224) @ 685000: uvm_test_top.env.slave_agent.mon [axi4_slave_monitor] AR received: ID=0x1 ADDR=0x5a760094 LEN=3
# UVM_INFO ../src/mst/axi4_master_driver.sv(289) @ 705000: uvm_test_top.env.master_agent.drv [axi4_master_driver] Master driver received B response: ID=0xe RESP=AXI4_RESP_OKAY
# UVM_INFO ../src/slv/axi4_slave_driver.sv(320) @ 705000: uvm_test_top.env.slave_agent.drv [axi4_slave_driver] Write complete: ID=0xe RESP=AXI4_RESP_OKAY
# UVM_INFO ../src/mst/axi4_master_monitor.sv(210) @ 705000: uvm_test_top.env.master_agent.mon [axi4_master_monitor] Write complete: ID=0xe ADDR=0xc81e9ea3 RESP=AXI4_RESP_OKAY
# UVM_INFO ../src/env/axi4_scoreboard.sv(87) @ 705000: uvm_test_top.env.scb [axi4_scoreboard] Master AXI4_WRITE received: ID=0xe ADDR=0xc81e9ea3 LEN=7
# UVM_INFO ../src/slv/axi4_slave_monitor.sv(189) @ 705000: uvm_test_top.env.slave_agent.mon [axi4_slave_monitor] Write response sent: ID=0xe ADDR=0xc81e9ea3 RESP=AXI4_RESP_OKAY
# UVM_INFO ../src/env/axi4_scoreboard.sv(108) @ 705000: uvm_test_top.env.scb [axi4_scoreboard] Slave AXI4_WRITE received: ID=0xe ADDR=0xc81e9ea3 LEN=7
# UVM_INFO ../src/env/axi4_scoreboard.sv(291) @ 705000: uvm_test_top.env.scb [axi4_scoreboard] [WRITE] MATCH #19: ID=0xe ADDR=0xc81e9ea3 LEN=7
# UVM_INFO ../src/env/axi4_scoreboard.sv(219) @ 705000: uvm_test_top.env.scb [axi4_scoreboard] [REF_MEM_WRITE] Addr=0xc81e9ea0 Data=0xc1
# UVM_INFO ../src/env/axi4_scoreboard.sv(219) @ 705000: uvm_test_top.env.scb [axi4_scoreboard] [REF_MEM_WRITE] Addr=0xc81e9ea1 Data=0xdc
# UVM_INFO ../src/env/axi4_scoreboard.sv(219) @ 705000: uvm_test_top.env.scb [axi4_scoreboard] [REF_MEM_WRITE] Addr=0xc81e9ea3 Data=0xcf
# UVM_INFO ../src/env/axi4_scoreboard.sv(219) @ 705000: uvm_test_top.env.scb [axi4_scoreboard] [REF_MEM_WRITE] Addr=0xc81e9ea1 Data=0xc7
# UVM_INFO ../src/env/axi4_scoreboard.sv(219) @ 705000: uvm_test_top.env.scb [axi4_scoreboard] [REF_MEM_WRITE] Addr=0xc81e9ea3 Data=0xd3
# UVM_INFO ../src/env/axi4_scoreboard.sv(219) @ 705000: uvm_test_top.env.scb [axi4_scoreboard] [REF_MEM_WRITE] Addr=0xc81e9ea0 Data=0x2d
# UVM_INFO ../src/env/axi4_scoreboard.sv(219) @ 705000: uvm_test_top.env.scb [axi4_scoreboard] [REF_MEM_WRITE] Addr=0xc81e9ea2 Data=0xde
# UVM_INFO ../src/env/axi4_scoreboard.sv(219) @ 705000: uvm_test_top.env.scb [axi4_scoreboard] [REF_MEM_WRITE] Addr=0xc81e9ea3 Data=0x4a
# UVM_INFO ../src/env/axi4_scoreboard.sv(219) @ 705000: uvm_test_top.env.scb [axi4_scoreboard] [REF_MEM_WRITE] Addr=0xc81e9ea2 Data=0x68
# UVM_INFO ../src/env/axi4_scoreboard.sv(219) @ 705000: uvm_test_top.env.scb [axi4_scoreboard] [REF_MEM_WRITE] Addr=0xc81e9ea3 Data=0x52
# UVM_INFO ../src/env/axi4_scoreboard.sv(219) @ 705000: uvm_test_top.env.scb [axi4_scoreboard] [REF_MEM_WRITE] Addr=0xc81e9ea0 Data=0xd7
# UVM_INFO ../src/env/axi4_scoreboard.sv(219) @ 705000: uvm_test_top.env.scb [axi4_scoreboard] [REF_MEM_WRITE] Addr=0xc81e9ea2 Data=0x3e
# UVM_INFO ../src/env/axi4_scoreboard.sv(219) @ 705000: uvm_test_top.env.scb [axi4_scoreboard] [REF_MEM_WRITE] Addr=0xc81e9ea1 Data=0x2a
# UVM_INFO ../src/env/axi4_scoreboard.sv(219) @ 705000: uvm_test_top.env.scb [axi4_scoreboard] [REF_MEM_WRITE] Addr=0xc81e9ea2 Data=0xa2
# UVM_INFO ../src/env/axi4_scoreboard.sv(219) @ 705000: uvm_test_top.env.scb [axi4_scoreboard] [REF_MEM_WRITE] Addr=0xc81e9ea3 Data=0xb8
# UVM_INFO ../src/env/axi4_scoreboard.sv(219) @ 705000: uvm_test_top.env.scb [axi4_scoreboard] [REF_MEM_WRITE] Addr=0xc81e9ea1 Data=0x43
# UVM_INFO ../src/env/axi4_scoreboard.sv(219) @ 705000: uvm_test_top.env.scb [axi4_scoreboard] [REF_MEM_WRITE] Addr=0xc81e9ea2 Data=0x21
# UVM_INFO ../src/env/axi4_scoreboard.sv(219) @ 705000: uvm_test_top.env.scb [axi4_scoreboard] [REF_MEM_WRITE] Addr=0xc81e9ea3 Data=0x57
# UVM_INFO ../src/slv/axi4_slave_driver.sv(358) @ 715000: uvm_test_top.env.slave_agent.drv [axi4_slave_driver] AR received: ID=0x4 ADDR=0x795de248 LEN=3 LOCK=AXI4_LOCK_EXCLUSIVE
# UVM_INFO ../src/slv/axi4_slave_monitor.sv(224) @ 715000: uvm_test_top.env.slave_agent.mon [axi4_slave_monitor] AR received: ID=0x4 ADDR=0x795de248 LEN=3
# UVM_INFO ../src/mst/axi4_master_monitor.sv(246) @ 715000: uvm_test_top.env.master_agent.mon [axi4_master_monitor] AR observed: ID=0x4 ADDR=0x795de248 LEN=3
# UVM_INFO ../src/mst/axi4_master_driver.sv(348) @ 725000: uvm_test_top.env.master_agent.drv [axi4_master_driver] Master driver received all R beats for ID=0xd
# UVM_INFO ../src/slv/axi4_slave_driver.sv(464) @ 725000: uvm_test_top.env.slave_agent.drv [axi4_slave_driver] Read complete: ID=0xd ADDR=0x817ee12a RESP=AXI4_RESP_OKAY  8 beats sent
# UVM_INFO ../src/mst/axi4_master_monitor.sv(314) @ 725000: uvm_test_top.env.master_agent.mon [axi4_master_monitor] Read complete: ID=0xd ADDR=0x817ee12a 8 beats
# UVM_INFO ../src/env/axi4_scoreboard.sv(87) @ 725000: uvm_test_top.env.scb [axi4_scoreboard] Master AXI4_READ received: ID=0xd ADDR=0x817ee12a LEN=7
# UVM_INFO ../src/slv/axi4_slave_monitor.sv(287) @ 725000: uvm_test_top.env.slave_agent.mon [axi4_slave_monitor] Read data sent: ID=0xd ADDR=0x817ee12a 8 beats
# UVM_INFO ../src/env/axi4_scoreboard.sv(108) @ 725000: uvm_test_top.env.scb [axi4_scoreboard] Slave AXI4_READ received: ID=0xd ADDR=0x817ee12a LEN=7
# UVM_INFO ../src/env/axi4_scoreboard.sv(291) @ 725000: uvm_test_top.env.scb [axi4_scoreboard] [READ] MATCH #20: ID=0xd ADDR=0x817ee12a LEN=7
# UVM_INFO ../src/slv/axi4_slave_driver.sv(358) @ 745000: uvm_test_top.env.slave_agent.drv [axi4_slave_driver] AR received: ID=0x4 ADDR=0x9b6d768b LEN=7 LOCK=AXI4_LOCK_NORMAL
# UVM_INFO ../src/mst/axi4_master_monitor.sv(246) @ 745000: uvm_test_top.env.master_agent.mon [axi4_master_monitor] AR observed: ID=0x4 ADDR=0x9b6d768b LEN=7
# UVM_INFO ../src/slv/axi4_slave_monitor.sv(224) @ 745000: uvm_test_top.env.slave_agent.mon [axi4_slave_monitor] AR received: ID=0x4 ADDR=0x9b6d768b LEN=7
# UVM_INFO ../src/slv/axi4_slave_driver.sv(358) @ 775000: uvm_test_top.env.slave_agent.drv [axi4_slave_driver] AR received: ID=0xe ADDR=0xc625a8a0 LEN=7 LOCK=AXI4_LOCK_NORMAL
# UVM_INFO ../src/slv/axi4_slave_monitor.sv(224) @ 775000: uvm_test_top.env.slave_agent.mon [axi4_slave_monitor] AR received: ID=0xe ADDR=0xc625a8a0 LEN=7
# UVM_INFO ../src/mst/axi4_master_monitor.sv(246) @ 775000: uvm_test_top.env.master_agent.mon [axi4_master_monitor] AR observed: ID=0xe ADDR=0xc625a8a0 LEN=7
# UVM_INFO ../src/slv/axi4_slave_driver.sv(358) @ 805000: uvm_test_top.env.slave_agent.drv [axi4_slave_driver] AR received: ID=0xc ADDR=0xb0899f70 LEN=7 LOCK=AXI4_LOCK_NORMAL
# UVM_INFO ../src/mst/axi4_master_monitor.sv(246) @ 805000: uvm_test_top.env.master_agent.mon [axi4_master_monitor] AR observed: ID=0xc ADDR=0xb0899f70 LEN=7
# UVM_INFO ../src/slv/axi4_slave_monitor.sv(224) @ 805000: uvm_test_top.env.slave_agent.mon [axi4_slave_monitor] AR received: ID=0xc ADDR=0xb0899f70 LEN=7
# UVM_INFO ../src/slv/axi4_slave_driver.sv(358) @ 835000: uvm_test_top.env.slave_agent.drv [axi4_slave_driver] AR received: ID=0x6 ADDR=0xc932d05e LEN=15 LOCK=AXI4_LOCK_NORMAL
# UVM_INFO ../src/slv/axi4_slave_monitor.sv(224) @ 835000: uvm_test_top.env.slave_agent.mon [axi4_slave_monitor] AR received: ID=0x6 ADDR=0xc932d05e LEN=15
# UVM_INFO ../src/mst/axi4_master_monitor.sv(246) @ 835000: uvm_test_top.env.master_agent.mon [axi4_master_monitor] AR observed: ID=0x6 ADDR=0xc932d05e LEN=15
# UVM_INFO ../src/slv/axi4_slave_monitor.sv(167) @ 835000: uvm_test_top.env.slave_agent.mon [axi4_slave_monitor] W data assembled: ID=0x5 ADDR=0x0572ab81 8 beats
# UVM_INFO ../src/mst/axi4_master_monitor.sv(184) @ 835000: uvm_test_top.env.master_agent.mon [axi4_master_monitor] W data assembled: ID=0x5 ADDR=0x0572ab81 8 beats
# UVM_INFO ../src/mst/axi4_master_driver.sv(289) @ 865000: uvm_test_top.env.master_agent.drv [axi4_master_driver] Master driver received B response: ID=0x5 RESP=AXI4_RESP_OKAY
# UVM_INFO ../src/slv/axi4_slave_driver.sv(358) @ 865000: uvm_test_top.env.slave_agent.drv [axi4_slave_driver] AR received: ID=0x4 ADDR=0x75217e6c LEN=15 LOCK=AXI4_LOCK_NORMAL
# UVM_INFO ../src/slv/axi4_slave_driver.sv(320) @ 865000: uvm_test_top.env.slave_agent.drv [axi4_slave_driver] Write complete: ID=0x5 RESP=AXI4_RESP_OKAY
# UVM_INFO ../src/mst/axi4_master_monitor.sv(210) @ 865000: uvm_test_top.env.master_agent.mon [axi4_master_monitor] Write complete: ID=0x5 ADDR=0x0572ab81 RESP=AXI4_RESP_OKAY
# UVM_INFO ../src/env/axi4_scoreboard.sv(87) @ 865000: uvm_test_top.env.scb [axi4_scoreboard] Master AXI4_WRITE received: ID=0x5 ADDR=0x0572ab81 LEN=7
# UVM_INFO ../src/mst/axi4_master_monitor.sv(246) @ 865000: uvm_test_top.env.master_agent.mon [axi4_master_monitor] AR observed: ID=0x4 ADDR=0x75217e6c LEN=15
# UVM_INFO ../src/slv/axi4_slave_monitor.sv(189) @ 865000: uvm_test_top.env.slave_agent.mon [axi4_slave_monitor] Write response sent: ID=0x5 ADDR=0x0572ab81 RESP=AXI4_RESP_OKAY
# UVM_INFO ../src/env/axi4_scoreboard.sv(108) @ 865000: uvm_test_top.env.scb [axi4_scoreboard] Slave AXI4_WRITE received: ID=0x5 ADDR=0x0572ab81 LEN=7
# UVM_INFO ../src/env/axi4_scoreboard.sv(291) @ 865000: uvm_test_top.env.scb [axi4_scoreboard] [WRITE] MATCH #21: ID=0x5 ADDR=0x0572ab81 LEN=7
# UVM_INFO ../src/env/axi4_scoreboard.sv(226) @ 865000: uvm_test_top.env.scb [axi4_scoreboard] [REF_MEM_WRITE_IGNORED] Write ignored for ADDR=0x0572ab81 LOCK=AXI4_LOCK_EXCLUSIVE RESP=AXI4_RESP_OKAY
# UVM_INFO ../src/slv/axi4_slave_monitor.sv(224) @ 865000: uvm_test_top.env.slave_agent.mon [axi4_slave_monitor] AR received: ID=0x4 ADDR=0x75217e6c LEN=15
# UVM_INFO ../src/mst/axi4_master_driver.sv(348) @ 885000: uvm_test_top.env.master_agent.drv [axi4_master_driver] Master driver received all R beats for ID=0x9
# UVM_INFO ../src/slv/axi4_slave_driver.sv(212) @ 885000: uvm_test_top.env.slave_agent.drv [axi4_slave_driver] AW received: ID=0x6 ADDR=0x919433ab LEN=7 LOCK=AXI4_LOCK_NORMAL
# UVM_INFO ../src/slv/axi4_slave_driver.sv(464) @ 885000: uvm_test_top.env.slave_agent.drv [axi4_slave_driver] Read complete: ID=0x9 ADDR=0x9590b344 RESP=AXI4_RESP_EXOKAY  8 beats sent
# UVM_INFO ../src/mst/axi4_master_monitor.sv(124) @ 885000: uvm_test_top.env.master_agent.mon [axi4_master_monitor] AW observed: ID=0x6 ADDR=0x919433ab LEN=7
# UVM_INFO ../src/mst/axi4_master_monitor.sv(314) @ 885000: uvm_test_top.env.master_agent.mon [axi4_master_monitor] Read complete: ID=0x9 ADDR=0x9590b344 8 beats
# UVM_INFO ../src/env/axi4_scoreboard.sv(87) @ 885000: uvm_test_top.env.scb [axi4_scoreboard] Master AXI4_READ received: ID=0x9 ADDR=0x9590b344 LEN=7
# UVM_INFO ../src/slv/axi4_slave_monitor.sv(116) @ 885000: uvm_test_top.env.slave_agent.mon [axi4_slave_monitor] AW received: ID=0x6 ADDR=0x919433ab LEN=7
# UVM_INFO ../src/slv/axi4_slave_monitor.sv(287) @ 885000: uvm_test_top.env.slave_agent.mon [axi4_slave_monitor] Read data sent: ID=0x9 ADDR=0x9590b344 8 beats
# UVM_INFO ../src/env/axi4_scoreboard.sv(108) @ 885000: uvm_test_top.env.scb [axi4_scoreboard] Slave AXI4_READ received: ID=0x9 ADDR=0x9590b344 LEN=7
# UVM_INFO ../src/env/axi4_scoreboard.sv(291) @ 885000: uvm_test_top.env.scb [axi4_scoreboard] [READ] MATCH #22: ID=0x9 ADDR=0x9590b344 LEN=7
# UVM_INFO ../src/slv/axi4_slave_driver.sv(358) @ 895000: uvm_test_top.env.slave_agent.drv [axi4_slave_driver] AR received: ID=0x6 ADDR=0x62cbaeb4 LEN=15 LOCK=AXI4_LOCK_EXCLUSIVE
# UVM_INFO ../src/slv/axi4_slave_monitor.sv(224) @ 895000: uvm_test_top.env.slave_agent.mon [axi4_slave_monitor] AR received: ID=0x6 ADDR=0x62cbaeb4 LEN=15
# UVM_INFO ../src/mst/axi4_master_monitor.sv(246) @ 895000: uvm_test_top.env.master_agent.mon [axi4_master_monitor] AR observed: ID=0x6 ADDR=0x62cbaeb4 LEN=15
# UVM_INFO ../src/slv/axi4_slave_driver.sv(212) @ 915000: uvm_test_top.env.slave_agent.drv [axi4_slave_driver] AW received: ID=0x0 ADDR=0xb1881436 LEN=15 LOCK=AXI4_LOCK_EXCLUSIVE
# UVM_INFO ../src/slv/axi4_slave_monitor.sv(116) @ 915000: uvm_test_top.env.slave_agent.mon [axi4_slave_monitor] AW received: ID=0x0 ADDR=0xb1881436 LEN=15
# UVM_INFO ../src/mst/axi4_master_monitor.sv(124) @ 915000: uvm_test_top.env.master_agent.mon [axi4_master_monitor] AW observed: ID=0x0 ADDR=0xb1881436 LEN=15
# UVM_INFO ../src/slv/axi4_slave_driver.sv(358) @ 925000: uvm_test_top.env.slave_agent.drv [axi4_slave_driver] AR received: ID=0xc ADDR=0xca8af372 LEN=0 LOCK=AXI4_LOCK_NORMAL
# UVM_INFO ../src/mst/axi4_master_monitor.sv(246) @ 925000: uvm_test_top.env.master_agent.mon [axi4_master_monitor] AR observed: ID=0xc ADDR=0xca8af372 LEN=0
# UVM_INFO ../src/slv/axi4_slave_monitor.sv(224) @ 925000: uvm_test_top.env.slave_agent.mon [axi4_slave_monitor] AR received: ID=0xc ADDR=0xca8af372 LEN=0
# UVM_INFO ../src/slv/axi4_slave_driver.sv(212) @ 945000: uvm_test_top.env.slave_agent.drv [axi4_slave_driver] AW received: ID=0x2 ADDR=0x90a5923b LEN=15 LOCK=AXI4_LOCK_EXCLUSIVE
# UVM_INFO ../src/mst/axi4_master_monitor.sv(124) @ 945000: uvm_test_top.env.master_agent.mon [axi4_master_monitor] AW observed: ID=0x2 ADDR=0x90a5923b LEN=15
# UVM_INFO ../src/slv/axi4_slave_monitor.sv(116) @ 945000: uvm_test_top.env.slave_agent.mon [axi4_slave_monitor] AW received: ID=0x2 ADDR=0x90a5923b LEN=15
# UVM_INFO ../src/slv/axi4_slave_driver.sv(358) @ 955000: uvm_test_top.env.slave_agent.drv [axi4_slave_driver] AR received: ID=0xd ADDR=0x89bfa548 LEN=0 LOCK=AXI4_LOCK_NORMAL
# UVM_INFO ../src/slv/axi4_slave_monitor.sv(224) @ 955000: uvm_test_top.env.slave_agent.mon [axi4_slave_monitor] AR received: ID=0xd ADDR=0x89bfa548 LEN=0
# UVM_INFO ../src/mst/axi4_master_monitor.sv(246) @ 955000: uvm_test_top.env.master_agent.mon [axi4_master_monitor] AR observed: ID=0xd ADDR=0x89bfa548 LEN=0
# UVM_INFO ../src/slv/axi4_slave_driver.sv(212) @ 975000: uvm_test_top.env.slave_agent.drv [axi4_slave_driver] AW received: ID=0xe ADDR=0x3a19600c LEN=15 LOCK=AXI4_LOCK_EXCLUSIVE
# UVM_INFO ../src/slv/axi4_slave_monitor.sv(116) @ 975000: uvm_test_top.env.slave_agent.mon [axi4_slave_monitor] AW received: ID=0xe ADDR=0x3a19600c LEN=15
# UVM_INFO ../src/mst/axi4_master_monitor.sv(124) @ 975000: uvm_test_top.env.master_agent.mon [axi4_master_monitor] AW observed: ID=0xe ADDR=0x3a19600c LEN=15
# UVM_INFO ../src/slv/axi4_slave_driver.sv(358) @ 985000: uvm_test_top.env.slave_agent.drv [axi4_slave_driver] AR received: ID=0x1 ADDR=0x24156618 LEN=0 LOCK=AXI4_LOCK_EXCLUSIVE
# UVM_INFO ../src/mst/axi4_master_monitor.sv(246) @ 985000: uvm_test_top.env.master_agent.mon [axi4_master_monitor] AR observed: ID=0x1 ADDR=0x24156618 LEN=0
# UVM_INFO ../src/slv/axi4_slave_monitor.sv(224) @ 985000: uvm_test_top.env.slave_agent.mon [axi4_slave_monitor] AR received: ID=0x1 ADDR=0x24156618 LEN=0
# UVM_INFO ../src/slv/axi4_slave_monitor.sv(167) @ 995000: uvm_test_top.env.slave_agent.mon [axi4_slave_monitor] W data assembled: ID=0x6 ADDR=0x919433ab 8 beats
# UVM_INFO ../src/mst/axi4_master_monitor.sv(184) @ 995000: uvm_test_top.env.master_agent.mon [axi4_master_monitor] W data assembled: ID=0x6 ADDR=0x919433ab 8 beats
# UVM_INFO ../src/slv/axi4_slave_driver.sv(212) @ 1005000: uvm_test_top.env.slave_agent.drv [axi4_slave_driver] AW received: ID=0x2 ADDR=0x5cf50fda LEN=1 LOCK=AXI4_LOCK_EXCLUSIVE
# UVM_INFO ../src/mst/axi4_master_monitor.sv(124) @ 1005000: uvm_test_top.env.master_agent.mon [axi4_master_monitor] AW observed: ID=0x2 ADDR=0x5cf50fda LEN=1
# UVM_INFO ../src/slv/axi4_slave_monitor.sv(116) @ 1005000: uvm_test_top.env.slave_agent.mon [axi4_slave_monitor] AW received: ID=0x2 ADDR=0x5cf50fda LEN=1
# UVM_INFO ../src/slv/axi4_slave_driver.sv(358) @ 1015000: uvm_test_top.env.slave_agent.drv [axi4_slave_driver] AR received: ID=0x6 ADDR=0xcd84369e LEN=2 LOCK=AXI4_LOCK_NORMAL
# UVM_INFO ../src/slv/axi4_slave_monitor.sv(224) @ 1015000: uvm_test_top.env.slave_agent.mon [axi4_slave_monitor] AR received: ID=0x6 ADDR=0xcd84369e LEN=2
# UVM_INFO ../src/mst/axi4_master_monitor.sv(246) @ 1015000: uvm_test_top.env.master_agent.mon [axi4_master_monitor] AR observed: ID=0x6 ADDR=0xcd84369e LEN=2
# UVM_INFO ../src/mst/axi4_master_driver.sv(289) @ 1025000: uvm_test_top.env.master_agent.drv [axi4_master_driver] Master driver received B response: ID=0x6 RESP=AXI4_RESP_OKAY
# UVM_INFO ../src/slv/axi4_slave_driver.sv(320) @ 1025000: uvm_test_top.env.slave_agent.drv [axi4_slave_driver] Write complete: ID=0x6 RESP=AXI4_RESP_OKAY
# UVM_INFO ../src/mst/axi4_master_monitor.sv(210) @ 1025000: uvm_test_top.env.master_agent.mon [axi4_master_monitor] Write complete: ID=0x6 ADDR=0x919433ab RESP=AXI4_RESP_OKAY
# UVM_INFO ../src/env/axi4_scoreboard.sv(87) @ 1025000: uvm_test_top.env.scb [axi4_scoreboard] Master AXI4_WRITE received: ID=0x6 ADDR=0x919433ab LEN=7
# UVM_INFO ../src/slv/axi4_slave_monitor.sv(189) @ 1025000: uvm_test_top.env.slave_agent.mon [axi4_slave_monitor] Write response sent: ID=0x6 ADDR=0x919433ab RESP=AXI4_RESP_OKAY
# UVM_INFO ../src/env/axi4_scoreboard.sv(108) @ 1025000: uvm_test_top.env.scb [axi4_scoreboard] Slave AXI4_WRITE received: ID=0x6 ADDR=0x919433ab LEN=7
# UVM_INFO ../src/env/axi4_scoreboard.sv(291) @ 1025000: uvm_test_top.env.scb [axi4_scoreboard] [WRITE] MATCH #23: ID=0x6 ADDR=0x919433ab LEN=7
# UVM_INFO ../src/env/axi4_scoreboard.sv(219) @ 1025000: uvm_test_top.env.scb [axi4_scoreboard] [REF_MEM_WRITE] Addr=0x919433a8 Data=0x2d
# UVM_INFO ../src/env/axi4_scoreboard.sv(219) @ 1025000: uvm_test_top.env.scb [axi4_scoreboard] [REF_MEM_WRITE] Addr=0x919433ab Data=0x68
# UVM_INFO ../src/env/axi4_scoreboard.sv(219) @ 1025000: uvm_test_top.env.scb [axi4_scoreboard] [REF_MEM_WRITE] Addr=0x919433a8 Data=0xa0
# UVM_INFO ../src/env/axi4_scoreboard.sv(219) @ 1025000: uvm_test_top.env.scb [axi4_scoreboard] [REF_MEM_WRITE] Addr=0x919433ab Data=0xce
# UVM_INFO ../src/env/axi4_scoreboard.sv(219) @ 1025000: uvm_test_top.env.scb [axi4_scoreboard] [REF_MEM_WRITE] Addr=0x919433a9 Data=0x01
# UVM_INFO ../src/env/axi4_scoreboard.sv(219) @ 1025000: uvm_test_top.env.scb [axi4_scoreboard] [REF_MEM_WRITE] Addr=0x919433a8 Data=0x78
# UVM_INFO ../src/env/axi4_scoreboard.sv(219) @ 1025000: uvm_test_top.env.scb [axi4_scoreboard] [REF_MEM_WRITE] Addr=0x919433a9 Data=0x5d
# UVM_INFO ../src/env/axi4_scoreboard.sv(219) @ 1025000: uvm_test_top.env.scb [axi4_scoreboard] [REF_MEM_WRITE] Addr=0x919433a9 Data=0x38
# UVM_INFO ../src/env/axi4_scoreboard.sv(219) @ 1025000: uvm_test_top.env.scb [axi4_scoreboard] [REF_MEM_WRITE] Addr=0x919433a9 Data=0xd1
# UVM_INFO ../src/env/axi4_scoreboard.sv(219) @ 1025000: uvm_test_top.env.scb [axi4_scoreboard] [REF_MEM_WRITE] Addr=0x919433aa Data=0x20
# UVM_INFO ../src/slv/axi4_slave_driver.sv(212) @ 1035000: uvm_test_top.env.slave_agent.drv [axi4_slave_driver] AW received: ID=0x1 ADDR=0x524e5a0e LEN=1 LOCK=AXI4_LOCK_EXCLUSIVE
# UVM_INFO ../src/slv/axi4_slave_monitor.sv(116) @ 1035000: uvm_test_top.env.slave_agent.mon [axi4_slave_monitor] AW received: ID=0x1 ADDR=0x524e5a0e LEN=1
# UVM_INFO ../src/mst/axi4_master_monitor.sv(124) @ 1035000: uvm_test_top.env.master_agent.mon [axi4_master_monitor] AW observed: ID=0x1 ADDR=0x524e5a0e LEN=1
# UVM_INFO ../src/mst/axi4_master_driver.sv(348) @ 1045000: uvm_test_top.env.master_agent.drv [axi4_master_driver] Master driver received all R beats for ID=0x7
# UVM_INFO ../src/slv/axi4_slave_driver.sv(358) @ 1045000: uvm_test_top.env.slave_agent.drv [axi4_slave_driver] AR received: ID=0x9 ADDR=0x66cc0650 LEN=2 LOCK=AXI4_LOCK_EXCLUSIVE
# UVM_INFO ../src/slv/axi4_slave_driver.sv(464) @ 1045000: uvm_test_top.env.slave_agent.drv [axi4_slave_driver] Read complete: ID=0x7 ADDR=0x61540425 RESP=AXI4_RESP_EXOKAY  8 beats sent
# UVM_INFO ../src/mst/axi4_master_monitor.sv(246) @ 1045000: uvm_test_top.env.master_agent.mon [axi4_master_monitor] AR observed: ID=0x9 ADDR=0x66cc0650 LEN=2
# UVM_INFO ../src/mst/axi4_master_monitor.sv(314) @ 1045000: uvm_test_top.env.master_agent.mon [axi4_master_monitor] Read complete: ID=0x7 ADDR=0x61540425 8 beats
# UVM_INFO ../src/env/axi4_scoreboard.sv(87) @ 1045000: uvm_test_top.env.scb [axi4_scoreboard] Master AXI4_READ received: ID=0x7 ADDR=0x61540425 LEN=7
# UVM_INFO ../src/slv/axi4_slave_monitor.sv(224) @ 1045000: uvm_test_top.env.slave_agent.mon [axi4_slave_monitor] AR received: ID=0x9 ADDR=0x66cc0650 LEN=2
# UVM_INFO ../src/slv/axi4_slave_monitor.sv(287) @ 1045000: uvm_test_top.env.slave_agent.mon [axi4_slave_monitor] Read data sent: ID=0x7 ADDR=0x61540425 8 beats
# UVM_INFO ../src/env/axi4_scoreboard.sv(108) @ 1045000: uvm_test_top.env.scb [axi4_scoreboard] Slave AXI4_READ received: ID=0x7 ADDR=0x61540425 LEN=7
# UVM_INFO ../src/env/axi4_scoreboard.sv(291) @ 1045000: uvm_test_top.env.scb [axi4_scoreboard] [READ] MATCH #24: ID=0x7 ADDR=0x61540425 LEN=7
# UVM_INFO ../src/slv/axi4_slave_driver.sv(212) @ 1065000: uvm_test_top.env.slave_agent.drv [axi4_slave_driver] AW received: ID=0x2 ADDR=0xb8161380 LEN=1 LOCK=AXI4_LOCK_NORMAL
# UVM_INFO ../src/mst/axi4_master_monitor.sv(124) @ 1065000: uvm_test_top.env.master_agent.mon [axi4_master_monitor] AW observed: ID=0x2 ADDR=0xb8161380 LEN=1
# UVM_INFO ../src/slv/axi4_slave_monitor.sv(116) @ 1065000: uvm_test_top.env.slave_agent.mon [axi4_slave_monitor] AW received: ID=0x2 ADDR=0xb8161380 LEN=1
# UVM_INFO ../src/slv/axi4_slave_driver.sv(358) @ 1075000: uvm_test_top.env.slave_agent.drv [axi4_slave_driver] AR received: ID=0x3 ADDR=0x6bd30c5b LEN=2 LOCK=AXI4_LOCK_EXCLUSIVE
# UVM_INFO ../src/slv/axi4_slave_monitor.sv(224) @ 1075000: uvm_test_top.env.slave_agent.mon [axi4_slave_monitor] AR received: ID=0x3 ADDR=0x6bd30c5b LEN=2
# UVM_INFO ../src/mst/axi4_master_monitor.sv(246) @ 1075000: uvm_test_top.env.master_agent.mon [axi4_master_monitor] AR observed: ID=0x3 ADDR=0x6bd30c5b LEN=2
# UVM_INFO ../src/test/axi4_burst_sweep_test.sv(32) @ 1095000: uvm_test_top [axi4_burst_sweep_test] Burst sweep test complete
# UVM_INFO ../src/slv/axi4_slave_driver.sv(212) @ 1095000: uvm_test_top.env.slave_agent.drv [axi4_slave_driver] AW received: ID=0x8 ADDR=0x500daf62 LEN=3 LOCK=AXI4_LOCK_EXCLUSIVE
# UVM_INFO ../src/slv/axi4_slave_monitor.sv(116) @ 1095000: uvm_test_top.env.slave_agent.mon [axi4_slave_monitor] AW received: ID=0x8 ADDR=0x500daf62 LEN=3
# UVM_INFO ../src/mst/axi4_master_monitor.sv(124) @ 1095000: uvm_test_top.env.master_agent.mon [axi4_master_monitor] AW observed: ID=0x8 ADDR=0x500daf62 LEN=3
# UVM_INFO ../src/slv/axi4_slave_driver.sv(358) @ 1105000: uvm_test_top.env.slave_agent.drv [axi4_slave_driver] AR received: ID=0xc ADDR=0x0566c2fd LEN=10 LOCK=AXI4_LOCK_EXCLUSIVE
# UVM_INFO ../src/mst/axi4_master_monitor.sv(246) @ 1105000: uvm_test_top.env.master_agent.mon [axi4_master_monitor] AR observed: ID=0xc ADDR=0x0566c2fd LEN=10
# UVM_INFO ../src/slv/axi4_slave_monitor.sv(224) @ 1105000: uvm_test_top.env.slave_agent.mon [axi4_slave_monitor] AR received: ID=0xc ADDR=0x0566c2fd LEN=10
# UVM_INFO ../src/slv/axi4_slave_driver.sv(358) @ 1135000: uvm_test_top.env.slave_agent.drv [axi4_slave_driver] AR received: ID=0x0 ADDR=0x21f7aa05 LEN=10 LOCK=AXI4_LOCK_EXCLUSIVE
# UVM_INFO ../src/slv/axi4_slave_monitor.sv(224) @ 1135000: uvm_test_top.env.slave_agent.mon [axi4_slave_monitor] AR received: ID=0x0 ADDR=0x21f7aa05 LEN=10
# UVM_INFO ../src/mst/axi4_master_monitor.sv(246) @ 1135000: uvm_test_top.env.master_agent.mon [axi4_master_monitor] AR observed: ID=0x0 ADDR=0x21f7aa05 LEN=10
# UVM_INFO ../src/slv/axi4_slave_driver.sv(358) @ 1165000: uvm_test_top.env.slave_agent.drv [axi4_slave_driver] AR received: ID=0x3 ADDR=0x7f7feaea LEN=10 LOCK=AXI4_LOCK_NORMAL
# UVM_INFO ../src/mst/axi4_master_monitor.sv(246) @ 1165000: uvm_test_top.env.master_agent.mon [axi4_master_monitor] AR observed: ID=0x3 ADDR=0x7f7feaea LEN=10
# UVM_INFO ../src/slv/axi4_slave_monitor.sv(224) @ 1165000: uvm_test_top.env.slave_agent.mon [axi4_slave_monitor] AR received: ID=0x3 ADDR=0x7f7feaea LEN=10
# UVM_INFO ../src/slv/axi4_slave_driver.sv(358) @ 1195000: uvm_test_top.env.slave_agent.drv [axi4_slave_driver] AR received: ID=0x5 ADDR=0x3e56e6d8 LEN=32 LOCK=AXI4_LOCK_NORMAL
# UVM_INFO ../src/slv/axi4_slave_monitor.sv(224) @ 1195000: uvm_test_top.env.slave_agent.mon [axi4_slave_monitor] AR received: ID=0x5 ADDR=0x3e56e6d8 LEN=32
# UVM_INFO ../src/mst/axi4_master_monitor.sv(246) @ 1195000: uvm_test_top.env.master_agent.mon [axi4_master_monitor] AR observed: ID=0x5 ADDR=0x3e56e6d8 LEN=32
# UVM_INFO ../src/slv/axi4_slave_driver.sv(358) @ 1225000: uvm_test_top.env.slave_agent.drv [axi4_slave_driver] AR received: ID=0xd ADDR=0xd0759d45 LEN=32 LOCK=AXI4_LOCK_EXCLUSIVE
# UVM_INFO ../src/mst/axi4_master_monitor.sv(246) @ 1225000: uvm_test_top.env.master_agent.mon [axi4_master_monitor] AR observed: ID=0xd ADDR=0xd0759d45 LEN=32
# UVM_INFO ../src/slv/axi4_slave_monitor.sv(224) @ 1225000: uvm_test_top.env.slave_agent.mon [axi4_slave_monitor] AR received: ID=0xd ADDR=0xd0759d45 LEN=32
# UVM_INFO ../src/slv/axi4_slave_driver.sv(358) @ 1255000: uvm_test_top.env.slave_agent.drv [axi4_slave_driver] AR received: ID=0x1 ADDR=0x8eebf087 LEN=32 LOCK=AXI4_LOCK_NORMAL
# UVM_INFO ../src/slv/axi4_slave_monitor.sv(224) @ 1255000: uvm_test_top.env.slave_agent.mon [axi4_slave_monitor] AR received: ID=0x1 ADDR=0x8eebf087 LEN=32
# UVM_INFO ../src/mst/axi4_master_monitor.sv(246) @ 1255000: uvm_test_top.env.master_agent.mon [axi4_master_monitor] AR observed: ID=0x1 ADDR=0x8eebf087 LEN=32
# UVM_INFO ../src/slv/axi4_slave_driver.sv(358) @ 1285000: uvm_test_top.env.slave_agent.drv [axi4_slave_driver] AR received: ID=0xb ADDR=0xa9236f12 LEN=100 LOCK=AXI4_LOCK_NORMAL
# UVM_INFO ../src/mst/axi4_master_monitor.sv(246) @ 1285000: uvm_test_top.env.master_agent.mon [axi4_master_monitor] AR observed: ID=0xb ADDR=0xa9236f12 LEN=100
# UVM_INFO ../src/slv/axi4_slave_monitor.sv(224) @ 1285000: uvm_test_top.env.slave_agent.mon [axi4_slave_monitor] AR received: ID=0xb ADDR=0xa9236f12 LEN=100
# UVM_INFO ../src/slv/axi4_slave_driver.sv(358) @ 1315000: uvm_test_top.env.slave_agent.drv [axi4_slave_driver] AR received: ID=0x9 ADDR=0xa4ac0a99 LEN=100 LOCK=AXI4_LOCK_NORMAL
# UVM_INFO ../src/slv/axi4_slave_monitor.sv(224) @ 1315000: uvm_test_top.env.slave_agent.mon [axi4_slave_monitor] AR received: ID=0x9 ADDR=0xa4ac0a99 LEN=100
# UVM_INFO ../src/mst/axi4_master_monitor.sv(246) @ 1315000: uvm_test_top.env.master_agent.mon [axi4_master_monitor] AR observed: ID=0x9 ADDR=0xa4ac0a99 LEN=100
# UVM_INFO ../src/slv/axi4_slave_monitor.sv(167) @ 1315000: uvm_test_top.env.slave_agent.mon [axi4_slave_monitor] W data assembled: ID=0x0 ADDR=0xb1881436 16 beats
# UVM_INFO ../src/mst/axi4_master_monitor.sv(184) @ 1315000: uvm_test_top.env.master_agent.mon [axi4_master_monitor] W data assembled: ID=0x0 ADDR=0xb1881436 16 beats
# UVM_INFO ../src/mst/axi4_master_driver.sv(289) @ 1345000: uvm_test_top.env.master_agent.drv [axi4_master_driver] Master driver received B response: ID=0x0 RESP=AXI4_RESP_OKAY
# UVM_INFO ../src/slv/axi4_slave_driver.sv(358) @ 1345000: uvm_test_top.env.slave_agent.drv [axi4_slave_driver] AR received: ID=0xe ADDR=0x92ab8fc0 LEN=100 LOCK=AXI4_LOCK_NORMAL
# UVM_INFO ../src/slv/axi4_slave_driver.sv(320) @ 1345000: uvm_test_top.env.slave_agent.drv [axi4_slave_driver] Write complete: ID=0x0 RESP=AXI4_RESP_OKAY
# UVM_INFO ../src/mst/axi4_master_monitor.sv(210) @ 1345000: uvm_test_top.env.master_agent.mon [axi4_master_monitor] Write complete: ID=0x0 ADDR=0xb1881436 RESP=AXI4_RESP_OKAY
# UVM_INFO ../src/env/axi4_scoreboard.sv(87) @ 1345000: uvm_test_top.env.scb [axi4_scoreboard] Master AXI4_WRITE received: ID=0x0 ADDR=0xb1881436 LEN=15
# UVM_INFO ../src/mst/axi4_master_monitor.sv(246) @ 1345000: uvm_test_top.env.master_agent.mon [axi4_master_monitor] AR observed: ID=0xe ADDR=0x92ab8fc0 LEN=100
# UVM_INFO ../src/slv/axi4_slave_monitor.sv(189) @ 1345000: uvm_test_top.env.slave_agent.mon [axi4_slave_monitor] Write response sent: ID=0x0 ADDR=0xb1881436 RESP=AXI4_RESP_OKAY
# UVM_INFO ../src/env/axi4_scoreboard.sv(108) @ 1345000: uvm_test_top.env.scb [axi4_scoreboard] Slave AXI4_WRITE received: ID=0x0 ADDR=0xb1881436 LEN=15
# UVM_INFO ../src/env/axi4_scoreboard.sv(291) @ 1345000: uvm_test_top.env.scb [axi4_scoreboard] [WRITE] MATCH #25: ID=0x0 ADDR=0xb1881436 LEN=15
# UVM_INFO ../src/env/axi4_scoreboard.sv(226) @ 1345000: uvm_test_top.env.scb [axi4_scoreboard] [REF_MEM_WRITE_IGNORED] Write ignored for ADDR=0xb1881436 LOCK=AXI4_LOCK_EXCLUSIVE RESP=AXI4_RESP_OKAY
# UVM_INFO ../src/slv/axi4_slave_monitor.sv(224) @ 1345000: uvm_test_top.env.slave_agent.mon [axi4_slave_monitor] AR received: ID=0xe ADDR=0x92ab8fc0 LEN=100
# UVM_INFO ../src/mst/axi4_master_driver.sv(348) @ 1365000: uvm_test_top.env.master_agent.drv [axi4_master_driver] Master driver received all R beats for ID=0x5
# UVM_INFO ../src/slv/axi4_slave_driver.sv(464) @ 1365000: uvm_test_top.env.slave_agent.drv [axi4_slave_driver] Read complete: ID=0x5 ADDR=0x9fc9c148 RESP=AXI4_RESP_EXOKAY  16 beats sent
# UVM_INFO ../src/mst/axi4_master_monitor.sv(314) @ 1365000: uvm_test_top.env.master_agent.mon [axi4_master_monitor] Read complete: ID=0x5 ADDR=0x9fc9c148 16 beats
# UVM_INFO ../src/env/axi4_scoreboard.sv(87) @ 1365000: uvm_test_top.env.scb [axi4_scoreboard] Master AXI4_READ received: ID=0x5 ADDR=0x9fc9c148 LEN=15
# UVM_INFO ../src/slv/axi4_slave_monitor.sv(287) @ 1365000: uvm_test_top.env.slave_agent.mon [axi4_slave_monitor] Read data sent: ID=0x5 ADDR=0x9fc9c148 16 beats
# UVM_INFO ../src/env/axi4_scoreboard.sv(108) @ 1365000: uvm_test_top.env.scb [axi4_scoreboard] Slave AXI4_READ received: ID=0x5 ADDR=0x9fc9c148 LEN=15
# UVM_INFO ../src/env/axi4_scoreboard.sv(291) @ 1365000: uvm_test_top.env.scb [axi4_scoreboard] [READ] MATCH #26: ID=0x5 ADDR=0x9fc9c148 LEN=15
# UVM_INFO ../src/slv/axi4_slave_driver.sv(358) @ 1375000: uvm_test_top.env.slave_agent.drv [axi4_slave_driver] AR received: ID=0x9 ADDR=0x5d8c5edd LEN=255 LOCK=AXI4_LOCK_NORMAL
# UVM_INFO ../src/slv/axi4_slave_monitor.sv(224) @ 1375000: uvm_test_top.env.slave_agent.mon [axi4_slave_monitor] AR received: ID=0x9 ADDR=0x5d8c5edd LEN=255
# UVM_INFO ../src/mst/axi4_master_monitor.sv(246) @ 1375000: uvm_test_top.env.master_agent.mon [axi4_master_monitor] AR observed: ID=0x9 ADDR=0x5d8c5edd LEN=255
# UVM_INFO ../src/slv/axi4_slave_driver.sv(358) @ 1405000: uvm_test_top.env.slave_agent.drv [axi4_slave_driver] AR received: ID=0xf ADDR=0x0e21cce6 LEN=255 LOCK=AXI4_LOCK_NORMAL
# UVM_INFO ../src/mst/axi4_master_monitor.sv(246) @ 1405000: uvm_test_top.env.master_agent.mon [axi4_master_monitor] AR observed: ID=0xf ADDR=0x0e21cce6 LEN=255
# UVM_INFO ../src/slv/axi4_slave_monitor.sv(224) @ 1405000: uvm_test_top.env.slave_agent.mon [axi4_slave_monitor] AR received: ID=0xf ADDR=0x0e21cce6 LEN=255
# UVM_INFO ../src/slv/axi4_slave_driver.sv(358) @ 1435000: uvm_test_top.env.slave_agent.drv [axi4_slave_driver] AR received: ID=0x3 ADDR=0x62d4c924 LEN=255 LOCK=AXI4_LOCK_EXCLUSIVE
# UVM_INFO ../src/slv/axi4_slave_monitor.sv(224) @ 1435000: uvm_test_top.env.slave_agent.mon [axi4_slave_monitor] AR received: ID=0x3 ADDR=0x62d4c924 LEN=255
# UVM_INFO ../src/mst/axi4_master_monitor.sv(246) @ 1435000: uvm_test_top.env.master_agent.mon [axi4_master_monitor] AR observed: ID=0x3 ADDR=0x62d4c924 LEN=255
# UVM_INFO ../src/slv/axi4_slave_driver.sv(358) @ 1465000: uvm_test_top.env.slave_agent.drv [axi4_slave_driver] AR received: ID=0xd ADDR=0xe0000000 LEN=0 LOCK=AXI4_LOCK_EXCLUSIVE
# UVM_INFO ../src/mst/axi4_master_monitor.sv(246) @ 1465000: uvm_test_top.env.master_agent.mon [axi4_master_monitor] AR observed: ID=0xd ADDR=0xe0000000 LEN=0
# UVM_INFO ../src/slv/axi4_slave_monitor.sv(224) @ 1465000: uvm_test_top.env.slave_agent.mon [axi4_slave_monitor] AR received: ID=0xd ADDR=0xe0000000 LEN=0
# UVM_INFO ../src/slv/axi4_slave_driver.sv(358) @ 1495000: uvm_test_top.env.slave_agent.drv [axi4_slave_driver] AR received: ID=0xc ADDR=0xf0000000 LEN=0 LOCK=AXI4_LOCK_EXCLUSIVE
# UVM_INFO ../src/slv/axi4_slave_monitor.sv(224) @ 1495000: uvm_test_top.env.slave_agent.mon [axi4_slave_monitor] AR received: ID=0xc ADDR=0xf0000000 LEN=0
# UVM_INFO ../src/mst/axi4_master_monitor.sv(246) @ 1495000: uvm_test_top.env.master_agent.mon [axi4_master_monitor] AR observed: ID=0xc ADDR=0xf0000000 LEN=0
# UVM_INFO ../src/slv/axi4_slave_monitor.sv(167) @ 1635000: uvm_test_top.env.slave_agent.mon [axi4_slave_monitor] W data assembled: ID=0x2 ADDR=0x90a5923b 16 beats
# UVM_INFO ../src/mst/axi4_master_monitor.sv(184) @ 1635000: uvm_test_top.env.master_agent.mon [axi4_master_monitor] W data assembled: ID=0x2 ADDR=0x90a5923b 16 beats
# UVM_INFO ../src/mst/axi4_master_driver.sv(289) @ 1665000: uvm_test_top.env.master_agent.drv [axi4_master_driver] Master driver received B response: ID=0x2 RESP=AXI4_RESP_OKAY
# UVM_INFO ../src/slv/axi4_slave_driver.sv(320) @ 1665000: uvm_test_top.env.slave_agent.drv [axi4_slave_driver] Write complete: ID=0x2 RESP=AXI4_RESP_OKAY
# UVM_INFO ../src/mst/axi4_master_monitor.sv(210) @ 1665000: uvm_test_top.env.master_agent.mon [axi4_master_monitor] Write complete: ID=0x2 ADDR=0x90a5923b RESP=AXI4_RESP_OKAY
# UVM_INFO ../src/env/axi4_scoreboard.sv(87) @ 1665000: uvm_test_top.env.scb [axi4_scoreboard] Master AXI4_WRITE received: ID=0x2 ADDR=0x90a5923b LEN=15
# UVM_INFO ../src/slv/axi4_slave_monitor.sv(189) @ 1665000: uvm_test_top.env.slave_agent.mon [axi4_slave_monitor] Write response sent: ID=0x2 ADDR=0x90a5923b RESP=AXI4_RESP_OKAY
# UVM_INFO ../src/env/axi4_scoreboard.sv(108) @ 1665000: uvm_test_top.env.scb [axi4_scoreboard] Slave AXI4_WRITE received: ID=0x2 ADDR=0x90a5923b LEN=15
# UVM_INFO ../src/env/axi4_scoreboard.sv(291) @ 1665000: uvm_test_top.env.scb [axi4_scoreboard] [WRITE] MATCH #27: ID=0x2 ADDR=0x90a5923b LEN=15
# UVM_INFO ../src/env/axi4_scoreboard.sv(226) @ 1665000: uvm_test_top.env.scb [axi4_scoreboard] [REF_MEM_WRITE_IGNORED] Write ignored for ADDR=0x90a5923b LOCK=AXI4_LOCK_EXCLUSIVE RESP=AXI4_RESP_OKAY
# UVM_INFO ../src/mst/axi4_master_driver.sv(348) @ 1685000: uvm_test_top.env.master_agent.drv [axi4_master_driver] Master driver received all R beats for ID=0xb
# UVM_INFO ../src/slv/axi4_slave_driver.sv(464) @ 1685000: uvm_test_top.env.slave_agent.drv [axi4_slave_driver] Read complete: ID=0xb ADDR=0xcdf2f784 RESP=AXI4_RESP_OKAY  16 beats sent
# UVM_INFO ../src/mst/axi4_master_monitor.sv(314) @ 1685000: uvm_test_top.env.master_agent.mon [axi4_master_monitor] Read complete: ID=0xb ADDR=0xcdf2f784 16 beats
# UVM_INFO ../src/env/axi4_scoreboard.sv(87) @ 1685000: uvm_test_top.env.scb [axi4_scoreboard] Master AXI4_READ received: ID=0xb ADDR=0xcdf2f784 LEN=15
# UVM_INFO ../src/slv/axi4_slave_monitor.sv(287) @ 1685000: uvm_test_top.env.slave_agent.mon [axi4_slave_monitor] Read data sent: ID=0xb ADDR=0xcdf2f784 16 beats
