# vsim -c -coverage -sv_seed 47597712 "+UVM_TESTNAME=axi4_burst_sweep_test" "+UVM_VERBOSITY=UVM_HIGH" "+DUMP_VCD" -l ./report/logs/axi4_burst_sweep_test_run_5_seed_47597712.log -do "coverage save -onexit ./report/coverage/axi4_burst_sweep_test_run_5_seed_47597712.ucdb; run -all; quit -f" opt_tb_top 
# Start time: 11:29:55 on Jun 05,2026
# //  Questa Sim-64
# //  Version 10.6b linux_x86_64 May 25 2017
# //
# //  Copyright 1991-2017 Mentor Graphics Corporation
# //  All Rights Reserved.
# //
# //  QuestaSim and its associated documentation contain trade
# //  secrets and commercial or financial information that are the property of
# //  Mentor Graphics Corporation and are privileged, confidential,
# //  and exempt from disclosure under the Freedom of Information Act,
# //  5 U.S.C. Section 552. Furthermore, this information
# //  is prohibited from disclosure under the Trade Secrets Act,
# //  18 U.S.C. Section 1905.
# //
# Loading sv_std.std
# Loading work.axi4_if(fast)
# Loading mtiUvm.uvm_pkg
# Loading work.axi4_pkg(fast)
# Loading work.axi4_test_pkg(fast)
# Loading work.tb_top(fast)
# Loading work.axi4_if(fast)
# Loading work.axi4_sva(fast)
# Loading mtiUvm.questa_uvm_pkg(fast)
# Loading /cadtools/mentor/Questa_10.6b/questasim/uvm-1.1d/linux_x86_64/uvm_dpi.so
# coverage save -onexit ./report/coverage/axi4_burst_sweep_test_run_5_seed_47597712.ucdb
#  run -all
# ----------------------------------------------------------------
# UVM-1.1d
# (C) 2007-2013 Mentor Graphics Corporation
# (C) 2007-2013 Cadence Design Systems, Inc.
# (C) 2006-2013 Synopsys, Inc.
# (C) 2011-2013 Cypress Semiconductor Corp.
# ----------------------------------------------------------------
# 
#   ***********       IMPORTANT RELEASE NOTES         ************
# 
#   You are using a version of the UVM library that has been compiled
#   with `UVM_NO_DEPRECATED undefined.
#   See http://www.eda.org/svdb/view.php?id=3313 for more details.
# 
#   You are using a version of the UVM library that has been compiled
#   with `UVM_OBJECT_MUST_HAVE_CONSTRUCTOR undefined.
#   See http://www.eda.org/svdb/view.php?id=3770 for more details.
# 
#       (Specify +UVM_NO_RELNOTES to turn off this notice)
# 
# UVM_INFO verilog_src/questa_uvm_pkg-1.2/src/questa_uvm_pkg.sv(215) @ 0: reporter [Questa UVM] QUESTA_UVM-1.2.3
# UVM_INFO verilog_src/questa_uvm_pkg-1.2/src/questa_uvm_pkg.sv(217) @ 0: reporter [Questa UVM]  questa_uvm::init(+struct)
# UVM_INFO ../src/tb_top.sv(128) @ 0: reporter [TB_TOP] Virtual interface set in config_db
# UVM_INFO @ 0: reporter [RNTST] Running test axi4_burst_sweep_test...
# UVM_INFO ../src/tb_top.sv(142) @ 0: reporter [TB_TOP] Waveform VCD dumping enabled (axi4_vip.vcd)
# UVM_INFO ../src/env/axi4_vip_env.sv(83) @ 0: uvm_test_top.env [axi4_vip_env] slave_vif not set - reusing master_vif (passthrough mode)
# UVM_INFO ../src/env/axi4_vip_env.sv(93) @ 0: uvm_test_top.env [axi4_vip_env] Scoreboard created
# UVM_INFO ../src/env/axi4_vip_env.sv(100) @ 0: uvm_test_top.env [axi4_vip_env] Coverage collectors created
# UVM_INFO ../src/mst/axi4_master_agent.sv(69) @ 0: uvm_test_top.env.master_agent [axi4_master_agent] ACTIVE mode - driver + sequencer created
# UVM_INFO ../src/slv/axi4_slave_agent.sv(82) @ 0: uvm_test_top.env.slave_agent [axi4_slave_agent] ACTIVE mode — ready_delay=[0:0] resp_delay=[0:0]
# UVM_INFO ../src/env/axi4_vip_env.sv(116) @ 0: uvm_test_top.env [axi4_vip_env] Scoreboard connected: master_mon.ap -> scb, slave_mon.ap -> scb
# UVM_INFO ../src/env/axi4_vip_env.sv(124) @ 0: uvm_test_top.env [axi4_vip_env] Coverage connected: master_mon.ap -> master_cov, slave_mon.ap -> slave_cov
# UVM_INFO @ 0: reporter [UVMTOP] UVM testbench topology:
# ---------------------------------------------------------------
# Name                       Type                     Size  Value
# ---------------------------------------------------------------
# uvm_test_top               axi4_burst_sweep_test    -     @473 
#   env                      axi4_vip_env             -     @488 
#     master_agent           axi4_master_agent        -     @503 
#       drv                  axi4_master_driver       -     @567 
#         rsp_port           uvm_analysis_port        -     @582 
#         seq_item_port      uvm_seq_item_pull_port   -     @574 
#       mon                  axi4_master_monitor      -     @559 
#         ap                 uvm_analysis_port        -     @700 
#       sqr                  axi4_master_sequencer    -     @590 
#         rsp_export         uvm_analysis_export      -     @597 
#         seq_item_export    uvm_seq_item_pull_imp    -     @691 
#         arbitration_queue  array                    0     -    
#         lock_queue         array                    0     -    
#         num_last_reqs      integral                 32    'd1  
#         num_last_rsps      integral                 32    'd1  
#     master_cov             axi4_coverage            -     @524 
#       analysis_imp         uvm_analysis_imp         -     @531 
#     scb                    axi4_scoreboard          -     @517 
#       master_export        uvm_analysis_imp_master  -     @714 
#       slave_export         uvm_analysis_imp_slave   -     @722 
#     slave_agent            axi4_slave_agent         -     @510 
#       drv                  axi4_slave_driver        -     @753 
#         rsp_port           uvm_analysis_port        -     @768 
#         seq_item_port      uvm_seq_item_pull_port   -     @760 
#       mon                  axi4_slave_monitor       -     @735 
#         ap                 uvm_analysis_port        -     @890 
#       sqr                  axi4_slave_sequencer     -     @776 
#         rsp_export         uvm_analysis_export      -     @783 
#         seq_item_export    uvm_seq_item_pull_imp    -     @877 
#         arbitration_queue  array                    0     -    
#         lock_queue         array                    0     -    
#         num_last_reqs      integral                 32    'd1  
#         num_last_rsps      integral                 32    'd1  
#     slave_cov              axi4_coverage            -     @539 
#       analysis_imp         uvm_analysis_imp         -     @546 
# ---------------------------------------------------------------
# 
# UVM_INFO verilog_src/questa_uvm_pkg-1.2/src/questa_uvm_pkg.sv(277) @ 0: reporter [Questa UVM] End Of Elaboration
# UVM_INFO ../src/test/axi4_burst_sweep_test.sv(24) @ 0: uvm_test_top [axi4_burst_sweep_test] Starting burst parameters sweep test (including error injection)
# UVM_INFO ../src/seq/axi4_burst_sweep_seq.sv(30) @ 0: uvm_test_top.env.master_agent.sqr@@sweep_seq [axi4_burst_sweep_seq] Starting burst type, size, and length sweep sequence
# UVM_INFO ../src/tb_top.sv(49) @ 95000: reporter [TOP_TB] Reset de-asserted
# UVM_INFO ../src/slv/axi4_slave_driver.sv(70) @ 95000: uvm_test_top.env.slave_agent.drv [axi4_slave_driver] Reset deasserted - slave driver active
# UVM_INFO ../src/mst/axi4_master_driver.sv(46) @ 95000: uvm_test_top.env.master_agent.drv [axi4_master_driver] Reset deasserted - master driver active
# UVM_INFO ../src/mst/axi4_master_monitor.sv(77) @ 95000: uvm_test_top.env.master_agent.mon [axi4_master_monitor] Reset deasserted — monitor active
# UVM_INFO ../src/slv/axi4_slave_monitor.sv(71) @ 95000: uvm_test_top.env.slave_agent.mon [axi4_slave_monitor] Reset deasserted — monitor active
# UVM_INFO ../src/mst/axi4_master_driver.sv(55) @ 95000: uvm_test_top.env.master_agent.drv [axi4_master_driver] Driving AXI4_WRITE  ID=0x8  ADDR=0xab590bd3  LEN=0
# UVM_INFO ../src/mst/axi4_master_driver.sv(94) @ 95000: uvm_test_top.env.master_agent.drv [axi4_master_driver] Write order: AW || W (parallel)
# UVM_INFO ../src/slv/axi4_slave_driver.sv(165) @ 115000: uvm_test_top.env.slave_agent.drv [axi4_slave_driver] AW received: ID=0x8 ADDR=0xab590bd3 LEN=0 LOCK=AXI4_LOCK_EXCLUSIVE
# UVM_INFO ../src/slv/axi4_slave_monitor.sv(116) @ 115000: uvm_test_top.env.slave_agent.mon [axi4_slave_monitor] AW received: ID=0x8 ADDR=0xab590bd3 LEN=0
# UVM_INFO ../src/mst/axi4_master_monitor.sv(124) @ 115000: uvm_test_top.env.master_agent.mon [axi4_master_monitor] AW observed: ID=0x8 ADDR=0xab590bd3 LEN=0
# UVM_INFO ../src/slv/axi4_slave_monitor.sv(167) @ 115000: uvm_test_top.env.slave_agent.mon [axi4_slave_monitor] W data assembled: ID=0x8 ADDR=0xab590bd3 1 beats
# UVM_INFO ../src/mst/axi4_master_monitor.sv(184) @ 115000: uvm_test_top.env.master_agent.mon [axi4_master_monitor] W data assembled: ID=0x8 ADDR=0xab590bd3 1 beats
# UVM_INFO ../src/mst/axi4_master_driver.sv(197) @ 135000: uvm_test_top.env.master_agent.drv [axi4_master_driver] Write response: AXI4_RESP_OKAY
# UVM_INFO ../src/slv/axi4_slave_driver.sv(261) @ 135000: uvm_test_top.env.slave_agent.drv [axi4_slave_driver] Write complete: ID=0x8 ADDR=0xab590bd3 RESP=AXI4_RESP_OKAY  1 beats processed
# UVM_INFO ../src/slv/axi4_slave_monitor.sv(189) @ 135000: uvm_test_top.env.slave_agent.mon [axi4_slave_monitor] Write response sent: ID=0x8 ADDR=0xab590bd3 RESP=AXI4_RESP_OKAY
# UVM_INFO ../src/env/axi4_scoreboard.sv(103) @ 135000: uvm_test_top.env.scb [axi4_scoreboard] Slave AXI4_WRITE received: ID=0x8 ADDR=0xab590bd3 LEN=0
# UVM_INFO ../src/mst/axi4_master_monitor.sv(210) @ 135000: uvm_test_top.env.master_agent.mon [axi4_master_monitor] Write complete: ID=0x8 ADDR=0xab590bd3 RESP=AXI4_RESP_OKAY
# UVM_INFO ../src/env/axi4_scoreboard.sv(82) @ 135000: uvm_test_top.env.scb [axi4_scoreboard] Master AXI4_WRITE received: ID=0x8 ADDR=0xab590bd3 LEN=0
# UVM_INFO ../src/env/axi4_scoreboard.sv(154) @ 135000: uvm_test_top.env.scb [axi4_scoreboard] [WRITE] MATCH #1: ID=0x8 ADDR=0xab590bd3 LEN=0
# UVM_INFO ../src/mst/axi4_master_driver.sv(55) @ 135000: uvm_test_top.env.master_agent.drv [axi4_master_driver] Driving AXI4_READ  ID=0xd  ADDR=0x652fcfa4  LEN=0
# UVM_INFO ../src/slv/axi4_slave_driver.sv(300) @ 165000: uvm_test_top.env.slave_agent.drv [axi4_slave_driver] AR received: ID=0xd ADDR=0x652fcfa4 LEN=0 LOCK=AXI4_LOCK_NORMAL
# UVM_INFO ../src/mst/axi4_master_monitor.sv(246) @ 165000: uvm_test_top.env.master_agent.mon [axi4_master_monitor] AR observed: ID=0xd ADDR=0x652fcfa4 LEN=0
# UVM_INFO ../src/slv/axi4_slave_monitor.sv(224) @ 165000: uvm_test_top.env.slave_agent.mon [axi4_slave_monitor] AR received: ID=0xd ADDR=0x652fcfa4 LEN=0
# UVM_INFO ../src/mst/axi4_master_driver.sv(254) @ 185000: uvm_test_top.env.master_agent.drv [axi4_master_driver] Read complete: 1 beats received
# UVM_INFO ../src/slv/axi4_slave_driver.sv(349) @ 185000: uvm_test_top.env.slave_agent.drv [axi4_slave_driver] Read complete: ID=0xd ADDR=0x652fcfa4 RESP=AXI4_RESP_OKAY  1 beats sent
# UVM_INFO ../src/mst/axi4_master_monitor.sv(314) @ 185000: uvm_test_top.env.master_agent.mon [axi4_master_monitor] Read complete: ID=0xd ADDR=0x652fcfa4 1 beats
# UVM_INFO ../src/env/axi4_scoreboard.sv(82) @ 185000: uvm_test_top.env.scb [axi4_scoreboard] Master AXI4_READ received: ID=0xd ADDR=0x652fcfa4 LEN=0
# UVM_INFO ../src/slv/axi4_slave_monitor.sv(287) @ 185000: uvm_test_top.env.slave_agent.mon [axi4_slave_monitor] Read data sent: ID=0xd ADDR=0x652fcfa4 1 beats
# UVM_INFO ../src/env/axi4_scoreboard.sv(103) @ 185000: uvm_test_top.env.scb [axi4_scoreboard] Slave AXI4_READ received: ID=0xd ADDR=0x652fcfa4 LEN=0
# UVM_INFO ../src/env/axi4_scoreboard.sv(154) @ 185000: uvm_test_top.env.scb [axi4_scoreboard] [READ] MATCH #2: ID=0xd ADDR=0x652fcfa4 LEN=0
# UVM_INFO ../src/mst/axi4_master_driver.sv(55) @ 185000: uvm_test_top.env.master_agent.drv [axi4_master_driver] Driving AXI4_WRITE  ID=0x5  ADDR=0x2f56512b  LEN=0
# UVM_INFO ../src/mst/axi4_master_driver.sv(94) @ 185000: uvm_test_top.env.master_agent.drv [axi4_master_driver] Write order: AW || W (parallel)
# UVM_INFO ../src/slv/axi4_slave_driver.sv(165) @ 215000: uvm_test_top.env.slave_agent.drv [axi4_slave_driver] AW received: ID=0x5 ADDR=0x2f56512b LEN=0 LOCK=AXI4_LOCK_NORMAL
# UVM_INFO ../src/slv/axi4_slave_monitor.sv(116) @ 215000: uvm_test_top.env.slave_agent.mon [axi4_slave_monitor] AW received: ID=0x5 ADDR=0x2f56512b LEN=0
# UVM_INFO ../src/mst/axi4_master_monitor.sv(124) @ 215000: uvm_test_top.env.master_agent.mon [axi4_master_monitor] AW observed: ID=0x5 ADDR=0x2f56512b LEN=0
# UVM_INFO ../src/slv/axi4_slave_monitor.sv(167) @ 215000: uvm_test_top.env.slave_agent.mon [axi4_slave_monitor] W data assembled: ID=0x5 ADDR=0x2f56512b 1 beats
# UVM_INFO ../src/mst/axi4_master_monitor.sv(184) @ 215000: uvm_test_top.env.master_agent.mon [axi4_master_monitor] W data assembled: ID=0x5 ADDR=0x2f56512b 1 beats
# UVM_INFO ../src/mst/axi4_master_driver.sv(197) @ 235000: uvm_test_top.env.master_agent.drv [axi4_master_driver] Write response: AXI4_RESP_OKAY
# UVM_INFO ../src/slv/axi4_slave_driver.sv(261) @ 235000: uvm_test_top.env.slave_agent.drv [axi4_slave_driver] Write complete: ID=0x5 ADDR=0x2f56512b RESP=AXI4_RESP_OKAY  1 beats processed
# UVM_INFO ../src/slv/axi4_slave_monitor.sv(189) @ 235000: uvm_test_top.env.slave_agent.mon [axi4_slave_monitor] Write response sent: ID=0x5 ADDR=0x2f56512b RESP=AXI4_RESP_OKAY
# UVM_INFO ../src/env/axi4_scoreboard.sv(103) @ 235000: uvm_test_top.env.scb [axi4_scoreboard] Slave AXI4_WRITE received: ID=0x5 ADDR=0x2f56512b LEN=0
# UVM_INFO ../src/mst/axi4_master_monitor.sv(210) @ 235000: uvm_test_top.env.master_agent.mon [axi4_master_monitor] Write complete: ID=0x5 ADDR=0x2f56512b RESP=AXI4_RESP_OKAY
# UVM_INFO ../src/env/axi4_scoreboard.sv(82) @ 235000: uvm_test_top.env.scb [axi4_scoreboard] Master AXI4_WRITE received: ID=0x5 ADDR=0x2f56512b LEN=0
# UVM_INFO ../src/env/axi4_scoreboard.sv(154) @ 235000: uvm_test_top.env.scb [axi4_scoreboard] [WRITE] MATCH #3: ID=0x5 ADDR=0x2f56512b LEN=0
# UVM_INFO ../src/mst/axi4_master_driver.sv(55) @ 235000: uvm_test_top.env.master_agent.drv [axi4_master_driver] Driving AXI4_READ  ID=0x1  ADDR=0x66017f9f  LEN=0
# UVM_INFO ../src/slv/axi4_slave_driver.sv(300) @ 265000: uvm_test_top.env.slave_agent.drv [axi4_slave_driver] AR received: ID=0x1 ADDR=0x66017f9f LEN=0 LOCK=AXI4_LOCK_NORMAL
# UVM_INFO ../src/mst/axi4_master_monitor.sv(246) @ 265000: uvm_test_top.env.master_agent.mon [axi4_master_monitor] AR observed: ID=0x1 ADDR=0x66017f9f LEN=0
# UVM_INFO ../src/slv/axi4_slave_monitor.sv(224) @ 265000: uvm_test_top.env.slave_agent.mon [axi4_slave_monitor] AR received: ID=0x1 ADDR=0x66017f9f LEN=0
# UVM_INFO ../src/mst/axi4_master_driver.sv(254) @ 285000: uvm_test_top.env.master_agent.drv [axi4_master_driver] Read complete: 1 beats received
# UVM_INFO ../src/slv/axi4_slave_driver.sv(349) @ 285000: uvm_test_top.env.slave_agent.drv [axi4_slave_driver] Read complete: ID=0x1 ADDR=0x66017f9f RESP=AXI4_RESP_OKAY  1 beats sent
# UVM_INFO ../src/mst/axi4_master_monitor.sv(314) @ 285000: uvm_test_top.env.master_agent.mon [axi4_master_monitor] Read complete: ID=0x1 ADDR=0x66017f9f 1 beats
# UVM_INFO ../src/env/axi4_scoreboard.sv(82) @ 285000: uvm_test_top.env.scb [axi4_scoreboard] Master AXI4_READ received: ID=0x1 ADDR=0x66017f9f LEN=0
# UVM_INFO ../src/slv/axi4_slave_monitor.sv(287) @ 285000: uvm_test_top.env.slave_agent.mon [axi4_slave_monitor] Read data sent: ID=0x1 ADDR=0x66017f9f 1 beats
# UVM_INFO ../src/env/axi4_scoreboard.sv(103) @ 285000: uvm_test_top.env.scb [axi4_scoreboard] Slave AXI4_READ received: ID=0x1 ADDR=0x66017f9f LEN=0
# UVM_INFO ../src/env/axi4_scoreboard.sv(154) @ 285000: uvm_test_top.env.scb [axi4_scoreboard] [READ] MATCH #4: ID=0x1 ADDR=0x66017f9f LEN=0
# UVM_INFO ../src/mst/axi4_master_driver.sv(55) @ 285000: uvm_test_top.env.master_agent.drv [axi4_master_driver] Driving AXI4_WRITE  ID=0xc  ADDR=0x82c0af80  LEN=0
# UVM_INFO ../src/mst/axi4_master_driver.sv(94) @ 285000: uvm_test_top.env.master_agent.drv [axi4_master_driver] Write order: AW || W (parallel)
# UVM_INFO ../src/slv/axi4_slave_driver.sv(165) @ 315000: uvm_test_top.env.slave_agent.drv [axi4_slave_driver] AW received: ID=0xc ADDR=0x82c0af80 LEN=0 LOCK=AXI4_LOCK_NORMAL
# UVM_INFO ../src/slv/axi4_slave_monitor.sv(116) @ 315000: uvm_test_top.env.slave_agent.mon [axi4_slave_monitor] AW received: ID=0xc ADDR=0x82c0af80 LEN=0
# UVM_INFO ../src/mst/axi4_master_monitor.sv(124) @ 315000: uvm_test_top.env.master_agent.mon [axi4_master_monitor] AW observed: ID=0xc ADDR=0x82c0af80 LEN=0
# UVM_INFO ../src/slv/axi4_slave_monitor.sv(167) @ 315000: uvm_test_top.env.slave_agent.mon [axi4_slave_monitor] W data assembled: ID=0xc ADDR=0x82c0af80 1 beats
# UVM_INFO ../src/mst/axi4_master_monitor.sv(184) @ 315000: uvm_test_top.env.master_agent.mon [axi4_master_monitor] W data assembled: ID=0xc ADDR=0x82c0af80 1 beats
# UVM_INFO ../src/mst/axi4_master_driver.sv(197) @ 335000: uvm_test_top.env.master_agent.drv [axi4_master_driver] Write response: AXI4_RESP_OKAY
# UVM_INFO ../src/slv/axi4_slave_driver.sv(261) @ 335000: uvm_test_top.env.slave_agent.drv [axi4_slave_driver] Write complete: ID=0xc ADDR=0x82c0af80 RESP=AXI4_RESP_OKAY  1 beats processed
# UVM_INFO ../src/slv/axi4_slave_monitor.sv(189) @ 335000: uvm_test_top.env.slave_agent.mon [axi4_slave_monitor] Write response sent: ID=0xc ADDR=0x82c0af80 RESP=AXI4_RESP_OKAY
# UVM_INFO ../src/env/axi4_scoreboard.sv(103) @ 335000: uvm_test_top.env.scb [axi4_scoreboard] Slave AXI4_WRITE received: ID=0xc ADDR=0x82c0af80 LEN=0
# UVM_INFO ../src/mst/axi4_master_monitor.sv(210) @ 335000: uvm_test_top.env.master_agent.mon [axi4_master_monitor] Write complete: ID=0xc ADDR=0x82c0af80 RESP=AXI4_RESP_OKAY
# UVM_INFO ../src/env/axi4_scoreboard.sv(82) @ 335000: uvm_test_top.env.scb [axi4_scoreboard] Master AXI4_WRITE received: ID=0xc ADDR=0x82c0af80 LEN=0
# UVM_INFO ../src/env/axi4_scoreboard.sv(154) @ 335000: uvm_test_top.env.scb [axi4_scoreboard] [WRITE] MATCH #5: ID=0xc ADDR=0x82c0af80 LEN=0
# UVM_INFO ../src/mst/axi4_master_driver.sv(55) @ 335000: uvm_test_top.env.master_agent.drv [axi4_master_driver] Driving AXI4_READ  ID=0x7  ADDR=0x51b20abd  LEN=0
# UVM_INFO ../src/slv/axi4_slave_driver.sv(300) @ 365000: uvm_test_top.env.slave_agent.drv [axi4_slave_driver] AR received: ID=0x7 ADDR=0x51b20abd LEN=0 LOCK=AXI4_LOCK_NORMAL
# UVM_INFO ../src/mst/axi4_master_monitor.sv(246) @ 365000: uvm_test_top.env.master_agent.mon [axi4_master_monitor] AR observed: ID=0x7 ADDR=0x51b20abd LEN=0
# UVM_INFO ../src/slv/axi4_slave_monitor.sv(224) @ 365000: uvm_test_top.env.slave_agent.mon [axi4_slave_monitor] AR received: ID=0x7 ADDR=0x51b20abd LEN=0
# UVM_INFO ../src/mst/axi4_master_driver.sv(254) @ 385000: uvm_test_top.env.master_agent.drv [axi4_master_driver] Read complete: 1 beats received
# UVM_INFO ../src/slv/axi4_slave_driver.sv(349) @ 385000: uvm_test_top.env.slave_agent.drv [axi4_slave_driver] Read complete: ID=0x7 ADDR=0x51b20abd RESP=AXI4_RESP_OKAY  1 beats sent
# UVM_INFO ../src/mst/axi4_master_monitor.sv(314) @ 385000: uvm_test_top.env.master_agent.mon [axi4_master_monitor] Read complete: ID=0x7 ADDR=0x51b20abd 1 beats
# UVM_INFO ../src/env/axi4_scoreboard.sv(82) @ 385000: uvm_test_top.env.scb [axi4_scoreboard] Master AXI4_READ received: ID=0x7 ADDR=0x51b20abd LEN=0
# UVM_INFO ../src/slv/axi4_slave_monitor.sv(287) @ 385000: uvm_test_top.env.slave_agent.mon [axi4_slave_monitor] Read data sent: ID=0x7 ADDR=0x51b20abd 1 beats
# UVM_INFO ../src/env/axi4_scoreboard.sv(103) @ 385000: uvm_test_top.env.scb [axi4_scoreboard] Slave AXI4_READ received: ID=0x7 ADDR=0x51b20abd LEN=0
# UVM_INFO ../src/env/axi4_scoreboard.sv(154) @ 385000: uvm_test_top.env.scb [axi4_scoreboard] [READ] MATCH #6: ID=0x7 ADDR=0x51b20abd LEN=0
# UVM_INFO ../src/mst/axi4_master_driver.sv(55) @ 385000: uvm_test_top.env.master_agent.drv [axi4_master_driver] Driving AXI4_WRITE  ID=0xa  ADDR=0x2a910973  LEN=1
# UVM_INFO ../src/mst/axi4_master_driver.sv(101) @ 385000: uvm_test_top.env.master_agent.drv [axi4_master_driver] Write order: AW -> W (sequential)
# UVM_INFO ../src/slv/axi4_slave_driver.sv(165) @ 415000: uvm_test_top.env.slave_agent.drv [axi4_slave_driver] AW received: ID=0xa ADDR=0x2a910973 LEN=1 LOCK=AXI4_LOCK_NORMAL
# UVM_INFO ../src/slv/axi4_slave_monitor.sv(116) @ 415000: uvm_test_top.env.slave_agent.mon [axi4_slave_monitor] AW received: ID=0xa ADDR=0x2a910973 LEN=1
# UVM_INFO ../src/mst/axi4_master_monitor.sv(124) @ 415000: uvm_test_top.env.master_agent.mon [axi4_master_monitor] AW observed: ID=0xa ADDR=0x2a910973 LEN=1
# UVM_INFO ../src/slv/axi4_slave_monitor.sv(167) @ 455000: uvm_test_top.env.slave_agent.mon [axi4_slave_monitor] W data assembled: ID=0xa ADDR=0x2a910973 2 beats
# UVM_INFO ../src/mst/axi4_master_monitor.sv(184) @ 455000: uvm_test_top.env.master_agent.mon [axi4_master_monitor] W data assembled: ID=0xa ADDR=0x2a910973 2 beats
# UVM_INFO ../src/mst/axi4_master_driver.sv(197) @ 485000: uvm_test_top.env.master_agent.drv [axi4_master_driver] Write response: AXI4_RESP_OKAY
# UVM_INFO ../src/slv/axi4_slave_driver.sv(261) @ 485000: uvm_test_top.env.slave_agent.drv [axi4_slave_driver] Write complete: ID=0xa ADDR=0x2a910973 RESP=AXI4_RESP_OKAY  2 beats processed
# UVM_INFO ../src/mst/axi4_master_monitor.sv(210) @ 485000: uvm_test_top.env.master_agent.mon [axi4_master_monitor] Write complete: ID=0xa ADDR=0x2a910973 RESP=AXI4_RESP_OKAY
# UVM_INFO ../src/env/axi4_scoreboard.sv(82) @ 485000: uvm_test_top.env.scb [axi4_scoreboard] Master AXI4_WRITE received: ID=0xa ADDR=0x2a910973 LEN=1
# UVM_INFO ../src/slv/axi4_slave_monitor.sv(189) @ 485000: uvm_test_top.env.slave_agent.mon [axi4_slave_monitor] Write response sent: ID=0xa ADDR=0x2a910973 RESP=AXI4_RESP_OKAY
# UVM_INFO ../src/env/axi4_scoreboard.sv(103) @ 485000: uvm_test_top.env.scb [axi4_scoreboard] Slave AXI4_WRITE received: ID=0xa ADDR=0x2a910973 LEN=1
# UVM_INFO ../src/env/axi4_scoreboard.sv(154) @ 485000: uvm_test_top.env.scb [axi4_scoreboard] [WRITE] MATCH #7: ID=0xa ADDR=0x2a910973 LEN=1
# UVM_INFO ../src/mst/axi4_master_driver.sv(55) @ 485000: uvm_test_top.env.master_agent.drv [axi4_master_driver] Driving AXI4_READ  ID=0x3  ADDR=0x6da09bc6  LEN=1
# UVM_INFO ../src/slv/axi4_slave_driver.sv(300) @ 515000: uvm_test_top.env.slave_agent.drv [axi4_slave_driver] AR received: ID=0x3 ADDR=0x6da09bc6 LEN=1 LOCK=AXI4_LOCK_NORMAL
# UVM_INFO ../src/slv/axi4_slave_monitor.sv(224) @ 515000: uvm_test_top.env.slave_agent.mon [axi4_slave_monitor] AR received: ID=0x3 ADDR=0x6da09bc6 LEN=1
# UVM_INFO ../src/mst/axi4_master_monitor.sv(246) @ 515000: uvm_test_top.env.master_agent.mon [axi4_master_monitor] AR observed: ID=0x3 ADDR=0x6da09bc6 LEN=1
# UVM_INFO ../src/mst/axi4_master_driver.sv(254) @ 555000: uvm_test_top.env.master_agent.drv [axi4_master_driver] Read complete: 2 beats received
# UVM_INFO ../src/slv/axi4_slave_driver.sv(349) @ 555000: uvm_test_top.env.slave_agent.drv [axi4_slave_driver] Read complete: ID=0x3 ADDR=0x6da09bc6 RESP=AXI4_RESP_OKAY  2 beats sent
# UVM_INFO ../src/slv/axi4_slave_monitor.sv(287) @ 555000: uvm_test_top.env.slave_agent.mon [axi4_slave_monitor] Read data sent: ID=0x3 ADDR=0x6da09bc6 2 beats
# UVM_INFO ../src/env/axi4_scoreboard.sv(103) @ 555000: uvm_test_top.env.scb [axi4_scoreboard] Slave AXI4_READ received: ID=0x3 ADDR=0x6da09bc6 LEN=1
# UVM_INFO ../src/mst/axi4_master_monitor.sv(314) @ 555000: uvm_test_top.env.master_agent.mon [axi4_master_monitor] Read complete: ID=0x3 ADDR=0x6da09bc6 2 beats
# UVM_INFO ../src/env/axi4_scoreboard.sv(82) @ 555000: uvm_test_top.env.scb [axi4_scoreboard] Master AXI4_READ received: ID=0x3 ADDR=0x6da09bc6 LEN=1
# UVM_INFO ../src/env/axi4_scoreboard.sv(154) @ 555000: uvm_test_top.env.scb [axi4_scoreboard] [READ] MATCH #8: ID=0x3 ADDR=0x6da09bc6 LEN=1
# UVM_INFO ../src/mst/axi4_master_driver.sv(55) @ 555000: uvm_test_top.env.master_agent.drv [axi4_master_driver] Driving AXI4_WRITE  ID=0x3  ADDR=0x5da1811e  LEN=1
# UVM_INFO ../src/mst/axi4_master_driver.sv(94) @ 555000: uvm_test_top.env.master_agent.drv [axi4_master_driver] Write order: AW || W (parallel)
# UVM_INFO ../src/slv/axi4_slave_driver.sv(165) @ 585000: uvm_test_top.env.slave_agent.drv [axi4_slave_driver] AW received: ID=0x3 ADDR=0x5da1811e LEN=1 LOCK=AXI4_LOCK_NORMAL
# UVM_INFO ../src/mst/axi4_master_monitor.sv(124) @ 585000: uvm_test_top.env.master_agent.mon [axi4_master_monitor] AW observed: ID=0x3 ADDR=0x5da1811e LEN=1
# UVM_INFO ../src/slv/axi4_slave_monitor.sv(116) @ 585000: uvm_test_top.env.slave_agent.mon [axi4_slave_monitor] AW received: ID=0x3 ADDR=0x5da1811e LEN=1
# UVM_INFO ../src/slv/axi4_slave_monitor.sv(167) @ 595000: uvm_test_top.env.slave_agent.mon [axi4_slave_monitor] W data assembled: ID=0x3 ADDR=0x5da1811e 2 beats
# UVM_INFO ../src/mst/axi4_master_monitor.sv(184) @ 595000: uvm_test_top.env.master_agent.mon [axi4_master_monitor] W data assembled: ID=0x3 ADDR=0x5da1811e 2 beats
# UVM_INFO ../src/mst/axi4_master_driver.sv(197) @ 625000: uvm_test_top.env.master_agent.drv [axi4_master_driver] Write response: AXI4_RESP_OKAY
# UVM_INFO ../src/slv/axi4_slave_driver.sv(261) @ 625000: uvm_test_top.env.slave_agent.drv [axi4_slave_driver] Write complete: ID=0x3 ADDR=0x5da1811e RESP=AXI4_RESP_OKAY  2 beats processed
# UVM_INFO ../src/mst/axi4_master_monitor.sv(210) @ 625000: uvm_test_top.env.master_agent.mon [axi4_master_monitor] Write complete: ID=0x3 ADDR=0x5da1811e RESP=AXI4_RESP_OKAY
# UVM_INFO ../src/env/axi4_scoreboard.sv(82) @ 625000: uvm_test_top.env.scb [axi4_scoreboard] Master AXI4_WRITE received: ID=0x3 ADDR=0x5da1811e LEN=1
# UVM_INFO ../src/slv/axi4_slave_monitor.sv(189) @ 625000: uvm_test_top.env.slave_agent.mon [axi4_slave_monitor] Write response sent: ID=0x3 ADDR=0x5da1811e RESP=AXI4_RESP_OKAY
# UVM_INFO ../src/env/axi4_scoreboard.sv(103) @ 625000: uvm_test_top.env.scb [axi4_scoreboard] Slave AXI4_WRITE received: ID=0x3 ADDR=0x5da1811e LEN=1
# UVM_INFO ../src/env/axi4_scoreboard.sv(154) @ 625000: uvm_test_top.env.scb [axi4_scoreboard] [WRITE] MATCH #9: ID=0x3 ADDR=0x5da1811e LEN=1
# UVM_INFO ../src/mst/axi4_master_driver.sv(55) @ 625000: uvm_test_top.env.master_agent.drv [axi4_master_driver] Driving AXI4_READ  ID=0x0  ADDR=0x51e73c08  LEN=1
# UVM_INFO ../src/slv/axi4_slave_driver.sv(300) @ 655000: uvm_test_top.env.slave_agent.drv [axi4_slave_driver] AR received: ID=0x0 ADDR=0x51e73c08 LEN=1 LOCK=AXI4_LOCK_NORMAL
# UVM_INFO ../src/slv/axi4_slave_monitor.sv(224) @ 655000: uvm_test_top.env.slave_agent.mon [axi4_slave_monitor] AR received: ID=0x0 ADDR=0x51e73c08 LEN=1
# UVM_INFO ../src/mst/axi4_master_monitor.sv(246) @ 655000: uvm_test_top.env.master_agent.mon [axi4_master_monitor] AR observed: ID=0x0 ADDR=0x51e73c08 LEN=1
# UVM_INFO ../src/mst/axi4_master_driver.sv(254) @ 695000: uvm_test_top.env.master_agent.drv [axi4_master_driver] Read complete: 2 beats received
# UVM_INFO ../src/slv/axi4_slave_driver.sv(349) @ 695000: uvm_test_top.env.slave_agent.drv [axi4_slave_driver] Read complete: ID=0x0 ADDR=0x51e73c08 RESP=AXI4_RESP_OKAY  2 beats sent
# UVM_INFO ../src/slv/axi4_slave_monitor.sv(287) @ 695000: uvm_test_top.env.slave_agent.mon [axi4_slave_monitor] Read data sent: ID=0x0 ADDR=0x51e73c08 2 beats
# UVM_INFO ../src/env/axi4_scoreboard.sv(103) @ 695000: uvm_test_top.env.scb [axi4_scoreboard] Slave AXI4_READ received: ID=0x0 ADDR=0x51e73c08 LEN=1
# UVM_INFO ../src/mst/axi4_master_monitor.sv(314) @ 695000: uvm_test_top.env.master_agent.mon [axi4_master_monitor] Read complete: ID=0x0 ADDR=0x51e73c08 2 beats
# UVM_INFO ../src/env/axi4_scoreboard.sv(82) @ 695000: uvm_test_top.env.scb [axi4_scoreboard] Master AXI4_READ received: ID=0x0 ADDR=0x51e73c08 LEN=1
# UVM_INFO ../src/env/axi4_scoreboard.sv(154) @ 695000: uvm_test_top.env.scb [axi4_scoreboard] [READ] MATCH #10: ID=0x0 ADDR=0x51e73c08 LEN=1
# UVM_INFO ../src/mst/axi4_master_driver.sv(55) @ 695000: uvm_test_top.env.master_agent.drv [axi4_master_driver] Driving AXI4_WRITE  ID=0x4  ADDR=0xb8127c8b  LEN=1
# UVM_INFO ../src/mst/axi4_master_driver.sv(106) @ 695000: uvm_test_top.env.master_agent.drv [axi4_master_driver] Write order: W -> AW (W first)
# UVM_INFO ../src/slv/axi4_slave_driver.sv(165) @ 765000: uvm_test_top.env.slave_agent.drv [axi4_slave_driver] AW received: ID=0x4 ADDR=0xb8127c8b LEN=1 LOCK=AXI4_LOCK_NORMAL
# UVM_INFO ../src/mst/axi4_master_monitor.sv(124) @ 765000: uvm_test_top.env.master_agent.mon [axi4_master_monitor] AW observed: ID=0x4 ADDR=0xb8127c8b LEN=1
# UVM_INFO ../src/slv/axi4_slave_monitor.sv(116) @ 765000: uvm_test_top.env.slave_agent.mon [axi4_slave_monitor] AW received: ID=0x4 ADDR=0xb8127c8b LEN=1
# UVM_INFO ../src/mst/axi4_master_monitor.sv(184) @ 765000: uvm_test_top.env.master_agent.mon [axi4_master_monitor] W data assembled: ID=0x4 ADDR=0xb8127c8b 2 beats
# UVM_INFO ../src/slv/axi4_slave_monitor.sv(167) @ 765000: uvm_test_top.env.slave_agent.mon [axi4_slave_monitor] W data assembled: ID=0x4 ADDR=0xb8127c8b 2 beats
# UVM_INFO ../src/mst/axi4_master_driver.sv(197) @ 785000: uvm_test_top.env.master_agent.drv [axi4_master_driver] Write response: AXI4_RESP_OKAY
# UVM_INFO ../src/slv/axi4_slave_driver.sv(261) @ 785000: uvm_test_top.env.slave_agent.drv [axi4_slave_driver] Write complete: ID=0x4 ADDR=0xb8127c8b RESP=AXI4_RESP_OKAY  2 beats processed
# UVM_INFO ../src/mst/axi4_master_monitor.sv(210) @ 785000: uvm_test_top.env.master_agent.mon [axi4_master_monitor] Write complete: ID=0x4 ADDR=0xb8127c8b RESP=AXI4_RESP_OKAY
# UVM_INFO ../src/env/axi4_scoreboard.sv(82) @ 785000: uvm_test_top.env.scb [axi4_scoreboard] Master AXI4_WRITE received: ID=0x4 ADDR=0xb8127c8b LEN=1
# UVM_INFO ../src/slv/axi4_slave_monitor.sv(189) @ 785000: uvm_test_top.env.slave_agent.mon [axi4_slave_monitor] Write response sent: ID=0x4 ADDR=0xb8127c8b RESP=AXI4_RESP_OKAY
# UVM_INFO ../src/env/axi4_scoreboard.sv(103) @ 785000: uvm_test_top.env.scb [axi4_scoreboard] Slave AXI4_WRITE received: ID=0x4 ADDR=0xb8127c8b LEN=1
# UVM_INFO ../src/env/axi4_scoreboard.sv(154) @ 785000: uvm_test_top.env.scb [axi4_scoreboard] [WRITE] MATCH #11: ID=0x4 ADDR=0xb8127c8b LEN=1
# UVM_INFO ../src/mst/axi4_master_driver.sv(55) @ 785000: uvm_test_top.env.master_agent.drv [axi4_master_driver] Driving AXI4_READ  ID=0xa  ADDR=0x49b4c6bc  LEN=1
# UVM_INFO ../src/slv/axi4_slave_driver.sv(300) @ 815000: uvm_test_top.env.slave_agent.drv [axi4_slave_driver] AR received: ID=0xa ADDR=0x49b4c6bc LEN=1 LOCK=AXI4_LOCK_NORMAL
# UVM_INFO ../src/slv/axi4_slave_monitor.sv(224) @ 815000: uvm_test_top.env.slave_agent.mon [axi4_slave_monitor] AR received: ID=0xa ADDR=0x49b4c6bc LEN=1
# UVM_INFO ../src/mst/axi4_master_monitor.sv(246) @ 815000: uvm_test_top.env.master_agent.mon [axi4_master_monitor] AR observed: ID=0xa ADDR=0x49b4c6bc LEN=1
# UVM_INFO ../src/mst/axi4_master_driver.sv(254) @ 855000: uvm_test_top.env.master_agent.drv [axi4_master_driver] Read complete: 2 beats received
# UVM_INFO ../src/slv/axi4_slave_driver.sv(349) @ 855000: uvm_test_top.env.slave_agent.drv [axi4_slave_driver] Read complete: ID=0xa ADDR=0x49b4c6bc RESP=AXI4_RESP_OKAY  2 beats sent
# UVM_INFO ../src/slv/axi4_slave_monitor.sv(287) @ 855000: uvm_test_top.env.slave_agent.mon [axi4_slave_monitor] Read data sent: ID=0xa ADDR=0x49b4c6bc 2 beats
# UVM_INFO ../src/env/axi4_scoreboard.sv(103) @ 855000: uvm_test_top.env.scb [axi4_scoreboard] Slave AXI4_READ received: ID=0xa ADDR=0x49b4c6bc LEN=1
# UVM_INFO ../src/mst/axi4_master_monitor.sv(314) @ 855000: uvm_test_top.env.master_agent.mon [axi4_master_monitor] Read complete: ID=0xa ADDR=0x49b4c6bc 2 beats
# UVM_INFO ../src/env/axi4_scoreboard.sv(82) @ 855000: uvm_test_top.env.scb [axi4_scoreboard] Master AXI4_READ received: ID=0xa ADDR=0x49b4c6bc LEN=1
# UVM_INFO ../src/env/axi4_scoreboard.sv(154) @ 855000: uvm_test_top.env.scb [axi4_scoreboard] [READ] MATCH #12: ID=0xa ADDR=0x49b4c6bc LEN=1
# UVM_INFO ../src/mst/axi4_master_driver.sv(55) @ 855000: uvm_test_top.env.master_agent.drv [axi4_master_driver] Driving AXI4_WRITE  ID=0x8  ADDR=0xd3ae8b55  LEN=3
# UVM_INFO ../src/mst/axi4_master_driver.sv(94) @ 855000: uvm_test_top.env.master_agent.drv [axi4_master_driver] Write order: AW || W (parallel)
# UVM_INFO ../src/slv/axi4_slave_driver.sv(165) @ 885000: uvm_test_top.env.slave_agent.drv [axi4_slave_driver] AW received: ID=0x8 ADDR=0xd3ae8b55 LEN=3 LOCK=AXI4_LOCK_EXCLUSIVE
# UVM_INFO ../src/mst/axi4_master_monitor.sv(124) @ 885000: uvm_test_top.env.master_agent.mon [axi4_master_monitor] AW observed: ID=0x8 ADDR=0xd3ae8b55 LEN=3
# UVM_INFO ../src/slv/axi4_slave_monitor.sv(116) @ 885000: uvm_test_top.env.slave_agent.mon [axi4_slave_monitor] AW received: ID=0x8 ADDR=0xd3ae8b55 LEN=3
# UVM_INFO ../src/slv/axi4_slave_monitor.sv(167) @ 935000: uvm_test_top.env.slave_agent.mon [axi4_slave_monitor] W data assembled: ID=0x8 ADDR=0xd3ae8b55 4 beats
# UVM_INFO ../src/mst/axi4_master_monitor.sv(184) @ 935000: uvm_test_top.env.master_agent.mon [axi4_master_monitor] W data assembled: ID=0x8 ADDR=0xd3ae8b55 4 beats
# UVM_INFO ../src/mst/axi4_master_driver.sv(197) @ 965000: uvm_test_top.env.master_agent.drv [axi4_master_driver] Write response: AXI4_RESP_OKAY
# UVM_INFO ../src/slv/axi4_slave_driver.sv(261) @ 965000: uvm_test_top.env.slave_agent.drv [axi4_slave_driver] Write complete: ID=0x8 ADDR=0xd3ae8b55 RESP=AXI4_RESP_OKAY  4 beats processed
# UVM_INFO ../src/mst/axi4_master_monitor.sv(210) @ 965000: uvm_test_top.env.master_agent.mon [axi4_master_monitor] Write complete: ID=0x8 ADDR=0xd3ae8b55 RESP=AXI4_RESP_OKAY
# UVM_INFO ../src/env/axi4_scoreboard.sv(82) @ 965000: uvm_test_top.env.scb [axi4_scoreboard] Master AXI4_WRITE received: ID=0x8 ADDR=0xd3ae8b55 LEN=3
# UVM_INFO ../src/slv/axi4_slave_monitor.sv(189) @ 965000: uvm_test_top.env.slave_agent.mon [axi4_slave_monitor] Write response sent: ID=0x8 ADDR=0xd3ae8b55 RESP=AXI4_RESP_OKAY
# UVM_INFO ../src/env/axi4_scoreboard.sv(103) @ 965000: uvm_test_top.env.scb [axi4_scoreboard] Slave AXI4_WRITE received: ID=0x8 ADDR=0xd3ae8b55 LEN=3
# UVM_INFO ../src/env/axi4_scoreboard.sv(154) @ 965000: uvm_test_top.env.scb [axi4_scoreboard] [WRITE] MATCH #13: ID=0x8 ADDR=0xd3ae8b55 LEN=3
# UVM_INFO ../src/mst/axi4_master_driver.sv(55) @ 965000: uvm_test_top.env.master_agent.drv [axi4_master_driver] Driving AXI4_READ  ID=0x2  ADDR=0x5d072547  LEN=3
# UVM_INFO ../src/slv/axi4_slave_driver.sv(300) @ 995000: uvm_test_top.env.slave_agent.drv [axi4_slave_driver] AR received: ID=0x2 ADDR=0x5d072547 LEN=3 LOCK=AXI4_LOCK_EXCLUSIVE
# UVM_INFO ../src/slv/axi4_slave_monitor.sv(224) @ 995000: uvm_test_top.env.slave_agent.mon [axi4_slave_monitor] AR received: ID=0x2 ADDR=0x5d072547 LEN=3
# UVM_INFO ../src/mst/axi4_master_monitor.sv(246) @ 995000: uvm_test_top.env.master_agent.mon [axi4_master_monitor] AR observed: ID=0x2 ADDR=0x5d072547 LEN=3
# UVM_INFO ../src/mst/axi4_master_driver.sv(254) @ 1075000: uvm_test_top.env.master_agent.drv [axi4_master_driver] Read complete: 4 beats received
# UVM_INFO ../src/slv/axi4_slave_driver.sv(349) @ 1075000: uvm_test_top.env.slave_agent.drv [axi4_slave_driver] Read complete: ID=0x2 ADDR=0x5d072547 RESP=AXI4_RESP_EXOKAY  4 beats sent
# UVM_INFO ../src/slv/axi4_slave_monitor.sv(287) @ 1075000: uvm_test_top.env.slave_agent.mon [axi4_slave_monitor] Read data sent: ID=0x2 ADDR=0x5d072547 4 beats
# UVM_INFO ../src/env/axi4_scoreboard.sv(103) @ 1075000: uvm_test_top.env.scb [axi4_scoreboard] Slave AXI4_READ received: ID=0x2 ADDR=0x5d072547 LEN=3
# UVM_INFO ../src/mst/axi4_master_monitor.sv(314) @ 1075000: uvm_test_top.env.master_agent.mon [axi4_master_monitor] Read complete: ID=0x2 ADDR=0x5d072547 4 beats
# UVM_INFO ../src/env/axi4_scoreboard.sv(82) @ 1075000: uvm_test_top.env.scb [axi4_scoreboard] Master AXI4_READ received: ID=0x2 ADDR=0x5d072547 LEN=3
# UVM_INFO ../src/env/axi4_scoreboard.sv(154) @ 1075000: uvm_test_top.env.scb [axi4_scoreboard] [READ] MATCH #14: ID=0x2 ADDR=0x5d072547 LEN=3
# UVM_INFO ../src/mst/axi4_master_driver.sv(55) @ 1075000: uvm_test_top.env.master_agent.drv [axi4_master_driver] Driving AXI4_WRITE  ID=0x4  ADDR=0x6bab2f0a  LEN=3
# UVM_INFO ../src/mst/axi4_master_driver.sv(101) @ 1075000: uvm_test_top.env.master_agent.drv [axi4_master_driver] Write order: AW -> W (sequential)
# UVM_INFO ../src/slv/axi4_slave_driver.sv(165) @ 1105000: uvm_test_top.env.slave_agent.drv [axi4_slave_driver] AW received: ID=0x4 ADDR=0x6bab2f0a LEN=3 LOCK=AXI4_LOCK_NORMAL
# UVM_INFO ../src/mst/axi4_master_monitor.sv(124) @ 1105000: uvm_test_top.env.master_agent.mon [axi4_master_monitor] AW observed: ID=0x4 ADDR=0x6bab2f0a LEN=3
# UVM_INFO ../src/slv/axi4_slave_monitor.sv(116) @ 1105000: uvm_test_top.env.slave_agent.mon [axi4_slave_monitor] AW received: ID=0x4 ADDR=0x6bab2f0a LEN=3
# UVM_INFO ../src/mst/axi4_master_monitor.sv(184) @ 1185000: uvm_test_top.env.master_agent.mon [axi4_master_monitor] W data assembled: ID=0x4 ADDR=0x6bab2f0a 4 beats
# UVM_INFO ../src/slv/axi4_slave_monitor.sv(167) @ 1185000: uvm_test_top.env.slave_agent.mon [axi4_slave_monitor] W data assembled: ID=0x4 ADDR=0x6bab2f0a 4 beats
# UVM_INFO ../src/mst/axi4_master_driver.sv(197) @ 1215000: uvm_test_top.env.master_agent.drv [axi4_master_driver] Write response: AXI4_RESP_OKAY
# UVM_INFO ../src/slv/axi4_slave_driver.sv(261) @ 1215000: uvm_test_top.env.slave_agent.drv [axi4_slave_driver] Write complete: ID=0x4 ADDR=0x6bab2f0a RESP=AXI4_RESP_OKAY  4 beats processed
# UVM_INFO ../src/slv/axi4_slave_monitor.sv(189) @ 1215000: uvm_test_top.env.slave_agent.mon [axi4_slave_monitor] Write response sent: ID=0x4 ADDR=0x6bab2f0a RESP=AXI4_RESP_OKAY
# UVM_INFO ../src/env/axi4_scoreboard.sv(103) @ 1215000: uvm_test_top.env.scb [axi4_scoreboard] Slave AXI4_WRITE received: ID=0x4 ADDR=0x6bab2f0a LEN=3
# UVM_INFO ../src/mst/axi4_master_monitor.sv(210) @ 1215000: uvm_test_top.env.master_agent.mon [axi4_master_monitor] Write complete: ID=0x4 ADDR=0x6bab2f0a RESP=AXI4_RESP_OKAY
# UVM_INFO ../src/env/axi4_scoreboard.sv(82) @ 1215000: uvm_test_top.env.scb [axi4_scoreboard] Master AXI4_WRITE received: ID=0x4 ADDR=0x6bab2f0a LEN=3
# UVM_INFO ../src/env/axi4_scoreboard.sv(154) @ 1215000: uvm_test_top.env.scb [axi4_scoreboard] [WRITE] MATCH #15: ID=0x4 ADDR=0x6bab2f0a LEN=3
# UVM_INFO ../src/mst/axi4_master_driver.sv(55) @ 1215000: uvm_test_top.env.master_agent.drv [axi4_master_driver] Driving AXI4_READ  ID=0x5  ADDR=0x4d005715  LEN=3
# UVM_INFO ../src/slv/axi4_slave_driver.sv(300) @ 1245000: uvm_test_top.env.slave_agent.drv [axi4_slave_driver] AR received: ID=0x5 ADDR=0x4d005715 LEN=3 LOCK=AXI4_LOCK_NORMAL
# UVM_INFO ../src/mst/axi4_master_monitor.sv(246) @ 1245000: uvm_test_top.env.master_agent.mon [axi4_master_monitor] AR observed: ID=0x5 ADDR=0x4d005715 LEN=3
# UVM_INFO ../src/slv/axi4_slave_monitor.sv(224) @ 1245000: uvm_test_top.env.slave_agent.mon [axi4_slave_monitor] AR received: ID=0x5 ADDR=0x4d005715 LEN=3
# UVM_INFO ../src/mst/axi4_master_driver.sv(254) @ 1325000: uvm_test_top.env.master_agent.drv [axi4_master_driver] Read complete: 4 beats received
# UVM_INFO ../src/slv/axi4_slave_driver.sv(349) @ 1325000: uvm_test_top.env.slave_agent.drv [axi4_slave_driver] Read complete: ID=0x5 ADDR=0x4d005715 RESP=AXI4_RESP_OKAY  4 beats sent
# UVM_INFO ../src/mst/axi4_master_monitor.sv(314) @ 1325000: uvm_test_top.env.master_agent.mon [axi4_master_monitor] Read complete: ID=0x5 ADDR=0x4d005715 4 beats
# UVM_INFO ../src/env/axi4_scoreboard.sv(82) @ 1325000: uvm_test_top.env.scb [axi4_scoreboard] Master AXI4_READ received: ID=0x5 ADDR=0x4d005715 LEN=3
# UVM_INFO ../src/slv/axi4_slave_monitor.sv(287) @ 1325000: uvm_test_top.env.slave_agent.mon [axi4_slave_monitor] Read data sent: ID=0x5 ADDR=0x4d005715 4 beats
# UVM_INFO ../src/env/axi4_scoreboard.sv(103) @ 1325000: uvm_test_top.env.scb [axi4_scoreboard] Slave AXI4_READ received: ID=0x5 ADDR=0x4d005715 LEN=3
# UVM_INFO ../src/env/axi4_scoreboard.sv(154) @ 1325000: uvm_test_top.env.scb [axi4_scoreboard] [READ] MATCH #16: ID=0x5 ADDR=0x4d005715 LEN=3
# UVM_INFO ../src/mst/axi4_master_driver.sv(55) @ 1325000: uvm_test_top.env.master_agent.drv [axi4_master_driver] Driving AXI4_WRITE  ID=0xb  ADDR=0x9894b9c9  LEN=3
# UVM_INFO ../src/mst/axi4_master_driver.sv(94) @ 1325000: uvm_test_top.env.master_agent.drv [axi4_master_driver] Write order: AW || W (parallel)
# UVM_INFO ../src/slv/axi4_slave_driver.sv(165) @ 1355000: uvm_test_top.env.slave_agent.drv [axi4_slave_driver] AW received: ID=0xb ADDR=0x9894b9c9 LEN=3 LOCK=AXI4_LOCK_NORMAL
# UVM_INFO ../src/slv/axi4_slave_monitor.sv(116) @ 1355000: uvm_test_top.env.slave_agent.mon [axi4_slave_monitor] AW received: ID=0xb ADDR=0x9894b9c9 LEN=3
# UVM_INFO ../src/mst/axi4_master_monitor.sv(124) @ 1355000: uvm_test_top.env.master_agent.mon [axi4_master_monitor] AW observed: ID=0xb ADDR=0x9894b9c9 LEN=3
# UVM_INFO ../src/mst/axi4_master_monitor.sv(184) @ 1405000: uvm_test_top.env.master_agent.mon [axi4_master_monitor] W data assembled: ID=0xb ADDR=0x9894b9c9 4 beats
# UVM_INFO ../src/slv/axi4_slave_monitor.sv(167) @ 1405000: uvm_test_top.env.slave_agent.mon [axi4_slave_monitor] W data assembled: ID=0xb ADDR=0x9894b9c9 4 beats
# UVM_INFO ../src/mst/axi4_master_driver.sv(197) @ 1435000: uvm_test_top.env.master_agent.drv [axi4_master_driver] Write response: AXI4_RESP_OKAY
# UVM_INFO ../src/slv/axi4_slave_driver.sv(261) @ 1435000: uvm_test_top.env.slave_agent.drv [axi4_slave_driver] Write complete: ID=0xb ADDR=0x9894b9c9 RESP=AXI4_RESP_OKAY  4 beats processed
# UVM_INFO ../src/slv/axi4_slave_monitor.sv(189) @ 1435000: uvm_test_top.env.slave_agent.mon [axi4_slave_monitor] Write response sent: ID=0xb ADDR=0x9894b9c9 RESP=AXI4_RESP_OKAY
# UVM_INFO ../src/env/axi4_scoreboard.sv(103) @ 1435000: uvm_test_top.env.scb [axi4_scoreboard] Slave AXI4_WRITE received: ID=0xb ADDR=0x9894b9c9 LEN=3
# UVM_INFO ../src/mst/axi4_master_monitor.sv(210) @ 1435000: uvm_test_top.env.master_agent.mon [axi4_master_monitor] Write complete: ID=0xb ADDR=0x9894b9c9 RESP=AXI4_RESP_OKAY
# UVM_INFO ../src/env/axi4_scoreboard.sv(82) @ 1435000: uvm_test_top.env.scb [axi4_scoreboard] Master AXI4_WRITE received: ID=0xb ADDR=0x9894b9c9 LEN=3
# UVM_INFO ../src/env/axi4_scoreboard.sv(154) @ 1435000: uvm_test_top.env.scb [axi4_scoreboard] [WRITE] MATCH #17: ID=0xb ADDR=0x9894b9c9 LEN=3
# UVM_INFO ../src/mst/axi4_master_driver.sv(55) @ 1435000: uvm_test_top.env.master_agent.drv [axi4_master_driver] Driving AXI4_READ  ID=0xe  ADDR=0xc0e1f1cd  LEN=3
# UVM_INFO ../src/slv/axi4_slave_driver.sv(300) @ 1465000: uvm_test_top.env.slave_agent.drv [axi4_slave_driver] AR received: ID=0xe ADDR=0xc0e1f1cd LEN=3 LOCK=AXI4_LOCK_EXCLUSIVE
# UVM_INFO ../src/mst/axi4_master_monitor.sv(246) @ 1465000: uvm_test_top.env.master_agent.mon [axi4_master_monitor] AR observed: ID=0xe ADDR=0xc0e1f1cd LEN=3
# UVM_INFO ../src/slv/axi4_slave_monitor.sv(224) @ 1465000: uvm_test_top.env.slave_agent.mon [axi4_slave_monitor] AR received: ID=0xe ADDR=0xc0e1f1cd LEN=3
# UVM_INFO ../src/mst/axi4_master_driver.sv(254) @ 1545000: uvm_test_top.env.master_agent.drv [axi4_master_driver] Read complete: 4 beats received
# UVM_INFO ../src/slv/axi4_slave_driver.sv(349) @ 1545000: uvm_test_top.env.slave_agent.drv [axi4_slave_driver] Read complete: ID=0xe ADDR=0xc0e1f1cd RESP=AXI4_RESP_EXOKAY  4 beats sent
# UVM_INFO ../src/mst/axi4_master_monitor.sv(314) @ 1545000: uvm_test_top.env.master_agent.mon [axi4_master_monitor] Read complete: ID=0xe ADDR=0xc0e1f1cd 4 beats
# UVM_INFO ../src/env/axi4_scoreboard.sv(82) @ 1545000: uvm_test_top.env.scb [axi4_scoreboard] Master AXI4_READ received: ID=0xe ADDR=0xc0e1f1cd LEN=3
# UVM_INFO ../src/slv/axi4_slave_monitor.sv(287) @ 1545000: uvm_test_top.env.slave_agent.mon [axi4_slave_monitor] Read data sent: ID=0xe ADDR=0xc0e1f1cd 4 beats
# UVM_INFO ../src/env/axi4_scoreboard.sv(103) @ 1545000: uvm_test_top.env.scb [axi4_scoreboard] Slave AXI4_READ received: ID=0xe ADDR=0xc0e1f1cd LEN=3
# UVM_INFO ../src/env/axi4_scoreboard.sv(154) @ 1545000: uvm_test_top.env.scb [axi4_scoreboard] [READ] MATCH #18: ID=0xe ADDR=0xc0e1f1cd LEN=3
# UVM_INFO ../src/mst/axi4_master_driver.sv(55) @ 1545000: uvm_test_top.env.master_agent.drv [axi4_master_driver] Driving AXI4_WRITE  ID=0xc  ADDR=0xb421bd5a  LEN=7
# UVM_INFO ../src/mst/axi4_master_driver.sv(106) @ 1545000: uvm_test_top.env.master_agent.drv [axi4_master_driver] Write order: W -> AW (W first)
# UVM_INFO ../src/slv/axi4_slave_driver.sv(165) @ 1615000: uvm_test_top.env.slave_agent.drv [axi4_slave_driver] AW received: ID=0xc ADDR=0xb421bd5a LEN=7 LOCK=AXI4_LOCK_EXCLUSIVE
# UVM_INFO ../src/slv/axi4_slave_monitor.sv(116) @ 1615000: uvm_test_top.env.slave_agent.mon [axi4_slave_monitor] AW received: ID=0xc ADDR=0xb421bd5a LEN=7
# UVM_INFO ../src/mst/axi4_master_monitor.sv(124) @ 1615000: uvm_test_top.env.master_agent.mon [axi4_master_monitor] AW observed: ID=0xc ADDR=0xb421bd5a LEN=7
# UVM_INFO ../src/mst/axi4_master_monitor.sv(184) @ 1705000: uvm_test_top.env.master_agent.mon [axi4_master_monitor] W data assembled: ID=0xc ADDR=0xb421bd5a 8 beats
# UVM_INFO ../src/slv/axi4_slave_monitor.sv(167) @ 1705000: uvm_test_top.env.slave_agent.mon [axi4_slave_monitor] W data assembled: ID=0xc ADDR=0xb421bd5a 8 beats
# UVM_INFO ../src/mst/axi4_master_driver.sv(197) @ 1735000: uvm_test_top.env.master_agent.drv [axi4_master_driver] Write response: AXI4_RESP_OKAY
# UVM_INFO ../src/slv/axi4_slave_driver.sv(261) @ 1735000: uvm_test_top.env.slave_agent.drv [axi4_slave_driver] Write complete: ID=0xc ADDR=0xb421bd5a RESP=AXI4_RESP_OKAY  8 beats processed
# UVM_INFO ../src/slv/axi4_slave_monitor.sv(189) @ 1735000: uvm_test_top.env.slave_agent.mon [axi4_slave_monitor] Write response sent: ID=0xc ADDR=0xb421bd5a RESP=AXI4_RESP_OKAY
# UVM_INFO ../src/env/axi4_scoreboard.sv(103) @ 1735000: uvm_test_top.env.scb [axi4_scoreboard] Slave AXI4_WRITE received: ID=0xc ADDR=0xb421bd5a LEN=7
# UVM_INFO ../src/mst/axi4_master_monitor.sv(210) @ 1735000: uvm_test_top.env.master_agent.mon [axi4_master_monitor] Write complete: ID=0xc ADDR=0xb421bd5a RESP=AXI4_RESP_OKAY
# UVM_INFO ../src/env/axi4_scoreboard.sv(82) @ 1735000: uvm_test_top.env.scb [axi4_scoreboard] Master AXI4_WRITE received: ID=0xc ADDR=0xb421bd5a LEN=7
# UVM_INFO ../src/env/axi4_scoreboard.sv(154) @ 1735000: uvm_test_top.env.scb [axi4_scoreboard] [WRITE] MATCH #19: ID=0xc ADDR=0xb421bd5a LEN=7
# UVM_INFO ../src/mst/axi4_master_driver.sv(55) @ 1735000: uvm_test_top.env.master_agent.drv [axi4_master_driver] Driving AXI4_READ  ID=0x5  ADDR=0x77ab9c53  LEN=7
# UVM_INFO ../src/slv/axi4_slave_driver.sv(300) @ 1765000: uvm_test_top.env.slave_agent.drv [axi4_slave_driver] AR received: ID=0x5 ADDR=0x77ab9c53 LEN=7 LOCK=AXI4_LOCK_NORMAL
# UVM_INFO ../src/mst/axi4_master_monitor.sv(246) @ 1765000: uvm_test_top.env.master_agent.mon [axi4_master_monitor] AR observed: ID=0x5 ADDR=0x77ab9c53 LEN=7
# UVM_INFO ../src/slv/axi4_slave_monitor.sv(224) @ 1765000: uvm_test_top.env.slave_agent.mon [axi4_slave_monitor] AR received: ID=0x5 ADDR=0x77ab9c53 LEN=7
# UVM_INFO ../src/mst/axi4_master_driver.sv(254) @ 1925000: uvm_test_top.env.master_agent.drv [axi4_master_driver] Read complete: 8 beats received
# UVM_INFO ../src/slv/axi4_slave_driver.sv(349) @ 1925000: uvm_test_top.env.slave_agent.drv [axi4_slave_driver] Read complete: ID=0x5 ADDR=0x77ab9c53 RESP=AXI4_RESP_OKAY  8 beats sent
# UVM_INFO ../src/mst/axi4_master_monitor.sv(314) @ 1925000: uvm_test_top.env.master_agent.mon [axi4_master_monitor] Read complete: ID=0x5 ADDR=0x77ab9c53 8 beats
# UVM_INFO ../src/env/axi4_scoreboard.sv(82) @ 1925000: uvm_test_top.env.scb [axi4_scoreboard] Master AXI4_READ received: ID=0x5 ADDR=0x77ab9c53 LEN=7
# UVM_INFO ../src/slv/axi4_slave_monitor.sv(287) @ 1925000: uvm_test_top.env.slave_agent.mon [axi4_slave_monitor] Read data sent: ID=0x5 ADDR=0x77ab9c53 8 beats
# UVM_INFO ../src/env/axi4_scoreboard.sv(103) @ 1925000: uvm_test_top.env.scb [axi4_scoreboard] Slave AXI4_READ received: ID=0x5 ADDR=0x77ab9c53 LEN=7
# UVM_INFO ../src/env/axi4_scoreboard.sv(154) @ 1925000: uvm_test_top.env.scb [axi4_scoreboard] [READ] MATCH #20: ID=0x5 ADDR=0x77ab9c53 LEN=7
# UVM_INFO ../src/mst/axi4_master_driver.sv(55) @ 1925000: uvm_test_top.env.master_agent.drv [axi4_master_driver] Driving AXI4_WRITE  ID=0x9  ADDR=0x1b6327c4  LEN=7
# UVM_INFO ../src/mst/axi4_master_driver.sv(94) @ 1925000: uvm_test_top.env.master_agent.drv [axi4_master_driver] Write order: AW || W (parallel)
# UVM_INFO ../src/slv/axi4_slave_driver.sv(165) @ 1955000: uvm_test_top.env.slave_agent.drv [axi4_slave_driver] AW received: ID=0x9 ADDR=0x1b6327c4 LEN=7 LOCK=AXI4_LOCK_EXCLUSIVE
# UVM_INFO ../src/slv/axi4_slave_monitor.sv(116) @ 1955000: uvm_test_top.env.slave_agent.mon [axi4_slave_monitor] AW received: ID=0x9 ADDR=0x1b6327c4 LEN=7
# UVM_INFO ../src/mst/axi4_master_monitor.sv(124) @ 1955000: uvm_test_top.env.master_agent.mon [axi4_master_monitor] AW observed: ID=0x9 ADDR=0x1b6327c4 LEN=7
# UVM_INFO ../src/mst/axi4_master_monitor.sv(184) @ 2085000: uvm_test_top.env.master_agent.mon [axi4_master_monitor] W data assembled: ID=0x9 ADDR=0x1b6327c4 8 beats
# UVM_INFO ../src/slv/axi4_slave_monitor.sv(167) @ 2085000: uvm_test_top.env.slave_agent.mon [axi4_slave_monitor] W data assembled: ID=0x9 ADDR=0x1b6327c4 8 beats
# UVM_INFO ../src/mst/axi4_master_driver.sv(197) @ 2115000: uvm_test_top.env.master_agent.drv [axi4_master_driver] Write response: AXI4_RESP_OKAY
# UVM_INFO ../src/slv/axi4_slave_driver.sv(261) @ 2115000: uvm_test_top.env.slave_agent.drv [axi4_slave_driver] Write complete: ID=0x9 ADDR=0x1b6327c4 RESP=AXI4_RESP_OKAY  8 beats processed
# UVM_INFO ../src/slv/axi4_slave_monitor.sv(189) @ 2115000: uvm_test_top.env.slave_agent.mon [axi4_slave_monitor] Write response sent: ID=0x9 ADDR=0x1b6327c4 RESP=AXI4_RESP_OKAY
# UVM_INFO ../src/env/axi4_scoreboard.sv(103) @ 2115000: uvm_test_top.env.scb [axi4_scoreboard] Slave AXI4_WRITE received: ID=0x9 ADDR=0x1b6327c4 LEN=7
# UVM_INFO ../src/mst/axi4_master_monitor.sv(210) @ 2115000: uvm_test_top.env.master_agent.mon [axi4_master_monitor] Write complete: ID=0x9 ADDR=0x1b6327c4 RESP=AXI4_RESP_OKAY
# UVM_INFO ../src/env/axi4_scoreboard.sv(82) @ 2115000: uvm_test_top.env.scb [axi4_scoreboard] Master AXI4_WRITE received: ID=0x9 ADDR=0x1b6327c4 LEN=7
# UVM_INFO ../src/env/axi4_scoreboard.sv(154) @ 2115000: uvm_test_top.env.scb [axi4_scoreboard] [WRITE] MATCH #21: ID=0x9 ADDR=0x1b6327c4 LEN=7
# UVM_INFO ../src/mst/axi4_master_driver.sv(55) @ 2115000: uvm_test_top.env.master_agent.drv [axi4_master_driver] Driving AXI4_READ  ID=0x4  ADDR=0x43b62c0e  LEN=7
# UVM_INFO ../src/slv/axi4_slave_driver.sv(300) @ 2145000: uvm_test_top.env.slave_agent.drv [axi4_slave_driver] AR received: ID=0x4 ADDR=0x43b62c0e LEN=7 LOCK=AXI4_LOCK_NORMAL
# UVM_INFO ../src/mst/axi4_master_monitor.sv(246) @ 2145000: uvm_test_top.env.master_agent.mon [axi4_master_monitor] AR observed: ID=0x4 ADDR=0x43b62c0e LEN=7
# UVM_INFO ../src/slv/axi4_slave_monitor.sv(224) @ 2145000: uvm_test_top.env.slave_agent.mon [axi4_slave_monitor] AR received: ID=0x4 ADDR=0x43b62c0e LEN=7
# UVM_INFO ../src/mst/axi4_master_driver.sv(254) @ 2305000: uvm_test_top.env.master_agent.drv [axi4_master_driver] Read complete: 8 beats received
# UVM_INFO ../src/slv/axi4_slave_driver.sv(349) @ 2305000: uvm_test_top.env.slave_agent.drv [axi4_slave_driver] Read complete: ID=0x4 ADDR=0x43b62c0e RESP=AXI4_RESP_OKAY  8 beats sent
# UVM_INFO ../src/mst/axi4_master_monitor.sv(314) @ 2305000: uvm_test_top.env.master_agent.mon [axi4_master_monitor] Read complete: ID=0x4 ADDR=0x43b62c0e 8 beats
# UVM_INFO ../src/env/axi4_scoreboard.sv(82) @ 2305000: uvm_test_top.env.scb [axi4_scoreboard] Master AXI4_READ received: ID=0x4 ADDR=0x43b62c0e LEN=7
# UVM_INFO ../src/slv/axi4_slave_monitor.sv(287) @ 2305000: uvm_test_top.env.slave_agent.mon [axi4_slave_monitor] Read data sent: ID=0x4 ADDR=0x43b62c0e 8 beats
# UVM_INFO ../src/env/axi4_scoreboard.sv(103) @ 2305000: uvm_test_top.env.scb [axi4_scoreboard] Slave AXI4_READ received: ID=0x4 ADDR=0x43b62c0e LEN=7
# UVM_INFO ../src/env/axi4_scoreboard.sv(154) @ 2305000: uvm_test_top.env.scb [axi4_scoreboard] [READ] MATCH #22: ID=0x4 ADDR=0x43b62c0e LEN=7
# UVM_INFO ../src/mst/axi4_master_driver.sv(55) @ 2305000: uvm_test_top.env.master_agent.drv [axi4_master_driver] Driving AXI4_WRITE  ID=0xc  ADDR=0x1e1deaac  LEN=7
# UVM_INFO ../src/mst/axi4_master_driver.sv(94) @ 2305000: uvm_test_top.env.master_agent.drv [axi4_master_driver] Write order: AW || W (parallel)
# UVM_INFO ../src/slv/axi4_slave_driver.sv(165) @ 2335000: uvm_test_top.env.slave_agent.drv [axi4_slave_driver] AW received: ID=0xc ADDR=0x1e1deaac LEN=7 LOCK=AXI4_LOCK_EXCLUSIVE
# UVM_INFO ../src/slv/axi4_slave_monitor.sv(116) @ 2335000: uvm_test_top.env.slave_agent.mon [axi4_slave_monitor] AW received: ID=0xc ADDR=0x1e1deaac LEN=7
# UVM_INFO ../src/mst/axi4_master_monitor.sv(124) @ 2335000: uvm_test_top.env.master_agent.mon [axi4_master_monitor] AW observed: ID=0xc ADDR=0x1e1deaac LEN=7
# UVM_INFO ../src/mst/axi4_master_monitor.sv(184) @ 2465000: uvm_test_top.env.master_agent.mon [axi4_master_monitor] W data assembled: ID=0xc ADDR=0x1e1deaac 8 beats
# UVM_INFO ../src/slv/axi4_slave_monitor.sv(167) @ 2465000: uvm_test_top.env.slave_agent.mon [axi4_slave_monitor] W data assembled: ID=0xc ADDR=0x1e1deaac 8 beats
# UVM_INFO ../src/mst/axi4_master_driver.sv(197) @ 2495000: uvm_test_top.env.master_agent.drv [axi4_master_driver] Write response: AXI4_RESP_OKAY
# UVM_INFO ../src/slv/axi4_slave_driver.sv(261) @ 2495000: uvm_test_top.env.slave_agent.drv [axi4_slave_driver] Write complete: ID=0xc ADDR=0x1e1deaac RESP=AXI4_RESP_OKAY  8 beats processed
# UVM_INFO ../src/slv/axi4_slave_monitor.sv(189) @ 2495000: uvm_test_top.env.slave_agent.mon [axi4_slave_monitor] Write response sent: ID=0xc ADDR=0x1e1deaac RESP=AXI4_RESP_OKAY
# UVM_INFO ../src/env/axi4_scoreboard.sv(103) @ 2495000: uvm_test_top.env.scb [axi4_scoreboard] Slave AXI4_WRITE received: ID=0xc ADDR=0x1e1deaac LEN=7
# UVM_INFO ../src/mst/axi4_master_monitor.sv(210) @ 2495000: uvm_test_top.env.master_agent.mon [axi4_master_monitor] Write complete: ID=0xc ADDR=0x1e1deaac RESP=AXI4_RESP_OKAY
# UVM_INFO ../src/env/axi4_scoreboard.sv(82) @ 2495000: uvm_test_top.env.scb [axi4_scoreboard] Master AXI4_WRITE received: ID=0xc ADDR=0x1e1deaac LEN=7
# UVM_INFO ../src/env/axi4_scoreboard.sv(154) @ 2495000: uvm_test_top.env.scb [axi4_scoreboard] [WRITE] MATCH #23: ID=0xc ADDR=0x1e1deaac LEN=7
# UVM_INFO ../src/mst/axi4_master_driver.sv(55) @ 2495000: uvm_test_top.env.master_agent.drv [axi4_master_driver] Driving AXI4_READ  ID=0x2  ADDR=0x6152a07a  LEN=7
# UVM_INFO ../src/slv/axi4_slave_driver.sv(300) @ 2525000: uvm_test_top.env.slave_agent.drv [axi4_slave_driver] AR received: ID=0x2 ADDR=0x6152a07a LEN=7 LOCK=AXI4_LOCK_EXCLUSIVE
# UVM_INFO ../src/mst/axi4_master_monitor.sv(246) @ 2525000: uvm_test_top.env.master_agent.mon [axi4_master_monitor] AR observed: ID=0x2 ADDR=0x6152a07a LEN=7
# UVM_INFO ../src/slv/axi4_slave_monitor.sv(224) @ 2525000: uvm_test_top.env.slave_agent.mon [axi4_slave_monitor] AR received: ID=0x2 ADDR=0x6152a07a LEN=7
# UVM_INFO ../src/mst/axi4_master_driver.sv(254) @ 2685000: uvm_test_top.env.master_agent.drv [axi4_master_driver] Read complete: 8 beats received
# UVM_INFO ../src/slv/axi4_slave_driver.sv(349) @ 2685000: uvm_test_top.env.slave_agent.drv [axi4_slave_driver] Read complete: ID=0x2 ADDR=0x6152a07a RESP=AXI4_RESP_EXOKAY  8 beats sent
# UVM_INFO ../src/mst/axi4_master_monitor.sv(314) @ 2685000: uvm_test_top.env.master_agent.mon [axi4_master_monitor] Read complete: ID=0x2 ADDR=0x6152a07a 8 beats
# UVM_INFO ../src/env/axi4_scoreboard.sv(82) @ 2685000: uvm_test_top.env.scb [axi4_scoreboard] Master AXI4_READ received: ID=0x2 ADDR=0x6152a07a LEN=7
# UVM_INFO ../src/slv/axi4_slave_monitor.sv(287) @ 2685000: uvm_test_top.env.slave_agent.mon [axi4_slave_monitor] Read data sent: ID=0x2 ADDR=0x6152a07a 8 beats
# UVM_INFO ../src/env/axi4_scoreboard.sv(103) @ 2685000: uvm_test_top.env.scb [axi4_scoreboard] Slave AXI4_READ received: ID=0x2 ADDR=0x6152a07a LEN=7
# UVM_INFO ../src/env/axi4_scoreboard.sv(154) @ 2685000: uvm_test_top.env.scb [axi4_scoreboard] [READ] MATCH #24: ID=0x2 ADDR=0x6152a07a LEN=7
# UVM_INFO ../src/mst/axi4_master_driver.sv(55) @ 2685000: uvm_test_top.env.master_agent.drv [axi4_master_driver] Driving AXI4_WRITE  ID=0x5  ADDR=0xd230a952  LEN=15
# UVM_INFO ../src/mst/axi4_master_driver.sv(101) @ 2685000: uvm_test_top.env.master_agent.drv [axi4_master_driver] Write order: AW -> W (sequential)
# UVM_INFO ../src/slv/axi4_slave_driver.sv(165) @ 2715000: uvm_test_top.env.slave_agent.drv [axi4_slave_driver] AW received: ID=0x5 ADDR=0xd230a952 LEN=15 LOCK=AXI4_LOCK_EXCLUSIVE
# UVM_INFO ../src/slv/axi4_slave_monitor.sv(116) @ 2715000: uvm_test_top.env.slave_agent.mon [axi4_slave_monitor] AW received: ID=0x5 ADDR=0xd230a952 LEN=15
# UVM_INFO ../src/mst/axi4_master_monitor.sv(124) @ 2715000: uvm_test_top.env.master_agent.mon [axi4_master_monitor] AW observed: ID=0x5 ADDR=0xd230a952 LEN=15
# UVM_INFO ../src/slv/axi4_slave_monitor.sv(167) @ 3035000: uvm_test_top.env.slave_agent.mon [axi4_slave_monitor] W data assembled: ID=0x5 ADDR=0xd230a952 16 beats
# UVM_INFO ../src/mst/axi4_master_monitor.sv(184) @ 3035000: uvm_test_top.env.master_agent.mon [axi4_master_monitor] W data assembled: ID=0x5 ADDR=0xd230a952 16 beats
# UVM_INFO ../src/mst/axi4_master_driver.sv(197) @ 3065000: uvm_test_top.env.master_agent.drv [axi4_master_driver] Write response: AXI4_RESP_OKAY
# UVM_INFO ../src/slv/axi4_slave_driver.sv(261) @ 3065000: uvm_test_top.env.slave_agent.drv [axi4_slave_driver] Write complete: ID=0x5 ADDR=0xd230a952 RESP=AXI4_RESP_OKAY  16 beats processed
# UVM_INFO ../src/mst/axi4_master_monitor.sv(210) @ 3065000: uvm_test_top.env.master_agent.mon [axi4_master_monitor] Write complete: ID=0x5 ADDR=0xd230a952 RESP=AXI4_RESP_OKAY
# UVM_INFO ../src/env/axi4_scoreboard.sv(82) @ 3065000: uvm_test_top.env.scb [axi4_scoreboard] Master AXI4_WRITE received: ID=0x5 ADDR=0xd230a952 LEN=15
# UVM_INFO ../src/slv/axi4_slave_monitor.sv(189) @ 3065000: uvm_test_top.env.slave_agent.mon [axi4_slave_monitor] Write response sent: ID=0x5 ADDR=0xd230a952 RESP=AXI4_RESP_OKAY
# UVM_INFO ../src/env/axi4_scoreboard.sv(103) @ 3065000: uvm_test_top.env.scb [axi4_scoreboard] Slave AXI4_WRITE received: ID=0x5 ADDR=0xd230a952 LEN=15
# UVM_INFO ../src/env/axi4_scoreboard.sv(154) @ 3065000: uvm_test_top.env.scb [axi4_scoreboard] [WRITE] MATCH #25: ID=0x5 ADDR=0xd230a952 LEN=15
# UVM_INFO ../src/mst/axi4_master_driver.sv(55) @ 3065000: uvm_test_top.env.master_agent.drv [axi4_master_driver] Driving AXI4_READ  ID=0x9  ADDR=0x26fda5f9  LEN=15
# UVM_INFO ../src/slv/axi4_slave_driver.sv(300) @ 3095000: uvm_test_top.env.slave_agent.drv [axi4_slave_driver] AR received: ID=0x9 ADDR=0x26fda5f9 LEN=15 LOCK=AXI4_LOCK_EXCLUSIVE
# UVM_INFO ../src/slv/axi4_slave_monitor.sv(224) @ 3095000: uvm_test_top.env.slave_agent.mon [axi4_slave_monitor] AR received: ID=0x9 ADDR=0x26fda5f9 LEN=15
# UVM_INFO ../src/mst/axi4_master_monitor.sv(246) @ 3095000: uvm_test_top.env.master_agent.mon [axi4_master_monitor] AR observed: ID=0x9 ADDR=0x26fda5f9 LEN=15
# UVM_INFO ../src/mst/axi4_master_driver.sv(254) @ 3415000: uvm_test_top.env.master_agent.drv [axi4_master_driver] Read complete: 16 beats received
# UVM_INFO ../src/slv/axi4_slave_driver.sv(349) @ 3415000: uvm_test_top.env.slave_agent.drv [axi4_slave_driver] Read complete: ID=0x9 ADDR=0x26fda5f9 RESP=AXI4_RESP_EXOKAY  16 beats sent
# UVM_INFO ../src/slv/axi4_slave_monitor.sv(287) @ 3415000: uvm_test_top.env.slave_agent.mon [axi4_slave_monitor] Read data sent: ID=0x9 ADDR=0x26fda5f9 16 beats
# UVM_INFO ../src/env/axi4_scoreboard.sv(103) @ 3415000: uvm_test_top.env.scb [axi4_scoreboard] Slave AXI4_READ received: ID=0x9 ADDR=0x26fda5f9 LEN=15
# UVM_INFO ../src/mst/axi4_master_monitor.sv(314) @ 3415000: uvm_test_top.env.master_agent.mon [axi4_master_monitor] Read complete: ID=0x9 ADDR=0x26fda5f9 16 beats
# UVM_INFO ../src/env/axi4_scoreboard.sv(82) @ 3415000: uvm_test_top.env.scb [axi4_scoreboard] Master AXI4_READ received: ID=0x9 ADDR=0x26fda5f9 LEN=15
# UVM_INFO ../src/env/axi4_scoreboard.sv(154) @ 3415000: uvm_test_top.env.scb [axi4_scoreboard] [READ] MATCH #26: ID=0x9 ADDR=0x26fda5f9 LEN=15
# UVM_INFO ../src/mst/axi4_master_driver.sv(55) @ 3415000: uvm_test_top.env.master_agent.drv [axi4_master_driver] Driving AXI4_WRITE  ID=0x0  ADDR=0x6ec95de5  LEN=15
# UVM_INFO ../src/mst/axi4_master_driver.sv(94) @ 3415000: uvm_test_top.env.master_agent.drv [axi4_master_driver] Write order: AW || W (parallel)
# UVM_INFO ../src/slv/axi4_slave_driver.sv(165) @ 3445000: uvm_test_top.env.slave_agent.drv [axi4_slave_driver] AW received: ID=0x0 ADDR=0x6ec95de5 LEN=15 LOCK=AXI4_LOCK_NORMAL
# UVM_INFO ../src/mst/axi4_master_monitor.sv(124) @ 3445000: uvm_test_top.env.master_agent.mon [axi4_master_monitor] AW observed: ID=0x0 ADDR=0x6ec95de5 LEN=15
# UVM_INFO ../src/slv/axi4_slave_monitor.sv(116) @ 3445000: uvm_test_top.env.slave_agent.mon [axi4_slave_monitor] AW received: ID=0x0 ADDR=0x6ec95de5 LEN=15
# UVM_INFO ../src/slv/axi4_slave_monitor.sv(167) @ 3735000: uvm_test_top.env.slave_agent.mon [axi4_slave_monitor] W data assembled: ID=0x0 ADDR=0x6ec95de5 16 beats
# UVM_INFO ../src/mst/axi4_master_monitor.sv(184) @ 3735000: uvm_test_top.env.master_agent.mon [axi4_master_monitor] W data assembled: ID=0x0 ADDR=0x6ec95de5 16 beats
# UVM_INFO ../src/mst/axi4_master_driver.sv(197) @ 3765000: uvm_test_top.env.master_agent.drv [axi4_master_driver] Write response: AXI4_RESP_OKAY
# UVM_INFO ../src/slv/axi4_slave_driver.sv(261) @ 3765000: uvm_test_top.env.slave_agent.drv [axi4_slave_driver] Write complete: ID=0x0 ADDR=0x6ec95de5 RESP=AXI4_RESP_OKAY  16 beats processed
# UVM_INFO ../src/mst/axi4_master_monitor.sv(210) @ 3765000: uvm_test_top.env.master_agent.mon [axi4_master_monitor] Write complete: ID=0x0 ADDR=0x6ec95de5 RESP=AXI4_RESP_OKAY
# UVM_INFO ../src/env/axi4_scoreboard.sv(82) @ 3765000: uvm_test_top.env.scb [axi4_scoreboard] Master AXI4_WRITE received: ID=0x0 ADDR=0x6ec95de5 LEN=15
# UVM_INFO ../src/slv/axi4_slave_monitor.sv(189) @ 3765000: uvm_test_top.env.slave_agent.mon [axi4_slave_monitor] Write response sent: ID=0x0 ADDR=0x6ec95de5 RESP=AXI4_RESP_OKAY
# UVM_INFO ../src/env/axi4_scoreboard.sv(103) @ 3765000: uvm_test_top.env.scb [axi4_scoreboard] Slave AXI4_WRITE received: ID=0x0 ADDR=0x6ec95de5 LEN=15
# UVM_INFO ../src/env/axi4_scoreboard.sv(154) @ 3765000: uvm_test_top.env.scb [axi4_scoreboard] [WRITE] MATCH #27: ID=0x0 ADDR=0x6ec95de5 LEN=15
# UVM_INFO ../src/mst/axi4_master_driver.sv(55) @ 3765000: uvm_test_top.env.master_agent.drv [axi4_master_driver] Driving AXI4_READ  ID=0x6  ADDR=0xc7294ea7  LEN=15
# UVM_INFO ../src/slv/axi4_slave_driver.sv(300) @ 3795000: uvm_test_top.env.slave_agent.drv [axi4_slave_driver] AR received: ID=0x6 ADDR=0xc7294ea7 LEN=15 LOCK=AXI4_LOCK_EXCLUSIVE
# UVM_INFO ../src/slv/axi4_slave_monitor.sv(224) @ 3795000: uvm_test_top.env.slave_agent.mon [axi4_slave_monitor] AR received: ID=0x6 ADDR=0xc7294ea7 LEN=15
# UVM_INFO ../src/mst/axi4_master_monitor.sv(246) @ 3795000: uvm_test_top.env.master_agent.mon [axi4_master_monitor] AR observed: ID=0x6 ADDR=0xc7294ea7 LEN=15
# UVM_INFO ../src/mst/axi4_master_driver.sv(254) @ 4115000: uvm_test_top.env.master_agent.drv [axi4_master_driver] Read complete: 16 beats received
# UVM_INFO ../src/slv/axi4_slave_driver.sv(349) @ 4115000: uvm_test_top.env.slave_agent.drv [axi4_slave_driver] Read complete: ID=0x6 ADDR=0xc7294ea7 RESP=AXI4_RESP_EXOKAY  16 beats sent
# UVM_INFO ../src/slv/axi4_slave_monitor.sv(287) @ 4115000: uvm_test_top.env.slave_agent.mon [axi4_slave_monitor] Read data sent: ID=0x6 ADDR=0xc7294ea7 16 beats
# UVM_INFO ../src/env/axi4_scoreboard.sv(103) @ 4115000: uvm_test_top.env.scb [axi4_scoreboard] Slave AXI4_READ received: ID=0x6 ADDR=0xc7294ea7 LEN=15
# UVM_INFO ../src/mst/axi4_master_monitor.sv(314) @ 4115000: uvm_test_top.env.master_agent.mon [axi4_master_monitor] Read complete: ID=0x6 ADDR=0xc7294ea7 16 beats
# UVM_INFO ../src/env/axi4_scoreboard.sv(82) @ 4115000: uvm_test_top.env.scb [axi4_scoreboard] Master AXI4_READ received: ID=0x6 ADDR=0xc7294ea7 LEN=15
# UVM_INFO ../src/env/axi4_scoreboard.sv(154) @ 4115000: uvm_test_top.env.scb [axi4_scoreboard] [READ] MATCH #28: ID=0x6 ADDR=0xc7294ea7 LEN=15
# UVM_INFO ../src/mst/axi4_master_driver.sv(55) @ 4115000: uvm_test_top.env.master_agent.drv [axi4_master_driver] Driving AXI4_WRITE  ID=0x4  ADDR=0xc2dfa657  LEN=15
# UVM_INFO ../src/mst/axi4_master_driver.sv(106) @ 4115000: uvm_test_top.env.master_agent.drv [axi4_master_driver] Write order: W -> AW (W first)
# UVM_INFO ../src/slv/axi4_slave_driver.sv(165) @ 4165000: uvm_test_top.env.slave_agent.drv [axi4_slave_driver] AW received: ID=0x4 ADDR=0xc2dfa657 LEN=15 LOCK=AXI4_LOCK_NORMAL
# UVM_INFO ../src/mst/axi4_master_monitor.sv(124) @ 4165000: uvm_test_top.env.master_agent.mon [axi4_master_monitor] AW observed: ID=0x4 ADDR=0xc2dfa657 LEN=15
# UVM_INFO ../src/slv/axi4_slave_monitor.sv(116) @ 4165000: uvm_test_top.env.slave_agent.mon [axi4_slave_monitor] AW received: ID=0x4 ADDR=0xc2dfa657 LEN=15
# UVM_INFO ../src/slv/axi4_slave_monitor.sv(167) @ 4435000: uvm_test_top.env.slave_agent.mon [axi4_slave_monitor] W data assembled: ID=0x4 ADDR=0xc2dfa657 16 beats
# UVM_INFO ../src/mst/axi4_master_monitor.sv(184) @ 4435000: uvm_test_top.env.master_agent.mon [axi4_master_monitor] W data assembled: ID=0x4 ADDR=0xc2dfa657 16 beats
# UVM_INFO ../src/mst/axi4_master_driver.sv(197) @ 4465000: uvm_test_top.env.master_agent.drv [axi4_master_driver] Write response: AXI4_RESP_OKAY
# UVM_INFO ../src/slv/axi4_slave_driver.sv(261) @ 4465000: uvm_test_top.env.slave_agent.drv [axi4_slave_driver] Write complete: ID=0x4 ADDR=0xc2dfa657 RESP=AXI4_RESP_OKAY  16 beats processed
# UVM_INFO ../src/mst/axi4_master_monitor.sv(210) @ 4465000: uvm_test_top.env.master_agent.mon [axi4_master_monitor] Write complete: ID=0x4 ADDR=0xc2dfa657 RESP=AXI4_RESP_OKAY
# UVM_INFO ../src/env/axi4_scoreboard.sv(82) @ 4465000: uvm_test_top.env.scb [axi4_scoreboard] Master AXI4_WRITE received: ID=0x4 ADDR=0xc2dfa657 LEN=15
# UVM_INFO ../src/slv/axi4_slave_monitor.sv(189) @ 4465000: uvm_test_top.env.slave_agent.mon [axi4_slave_monitor] Write response sent: ID=0x4 ADDR=0xc2dfa657 RESP=AXI4_RESP_OKAY
# UVM_INFO ../src/env/axi4_scoreboard.sv(103) @ 4465000: uvm_test_top.env.scb [axi4_scoreboard] Slave AXI4_WRITE received: ID=0x4 ADDR=0xc2dfa657 LEN=15
# UVM_INFO ../src/env/axi4_scoreboard.sv(154) @ 4465000: uvm_test_top.env.scb [axi4_scoreboard] [WRITE] MATCH #29: ID=0x4 ADDR=0xc2dfa657 LEN=15
# UVM_INFO ../src/mst/axi4_master_driver.sv(55) @ 4465000: uvm_test_top.env.master_agent.drv [axi4_master_driver] Driving AXI4_READ  ID=0xe  ADDR=0x58d619d6  LEN=15
# UVM_INFO ../src/slv/axi4_slave_driver.sv(300) @ 4495000: uvm_test_top.env.slave_agent.drv [axi4_slave_driver] AR received: ID=0xe ADDR=0x58d619d6 LEN=15 LOCK=AXI4_LOCK_NORMAL
# UVM_INFO ../src/slv/axi4_slave_monitor.sv(224) @ 4495000: uvm_test_top.env.slave_agent.mon [axi4_slave_monitor] AR received: ID=0xe ADDR=0x58d619d6 LEN=15
# UVM_INFO ../src/mst/axi4_master_monitor.sv(246) @ 4495000: uvm_test_top.env.master_agent.mon [axi4_master_monitor] AR observed: ID=0xe ADDR=0x58d619d6 LEN=15
# UVM_INFO ../src/mst/axi4_master_driver.sv(254) @ 4815000: uvm_test_top.env.master_agent.drv [axi4_master_driver] Read complete: 16 beats received
# UVM_INFO ../src/slv/axi4_slave_driver.sv(349) @ 4815000: uvm_test_top.env.slave_agent.drv [axi4_slave_driver] Read complete: ID=0xe ADDR=0x58d619d6 RESP=AXI4_RESP_OKAY  16 beats sent
# UVM_INFO ../src/slv/axi4_slave_monitor.sv(287) @ 4815000: uvm_test_top.env.slave_agent.mon [axi4_slave_monitor] Read data sent: ID=0xe ADDR=0x58d619d6 16 beats
# UVM_INFO ../src/env/axi4_scoreboard.sv(103) @ 4815000: uvm_test_top.env.scb [axi4_scoreboard] Slave AXI4_READ received: ID=0xe ADDR=0x58d619d6 LEN=15
# UVM_INFO ../src/mst/axi4_master_monitor.sv(314) @ 4815000: uvm_test_top.env.master_agent.mon [axi4_master_monitor] Read complete: ID=0xe ADDR=0x58d619d6 16 beats
# UVM_INFO ../src/env/axi4_scoreboard.sv(82) @ 4815000: uvm_test_top.env.scb [axi4_scoreboard] Master AXI4_READ received: ID=0xe ADDR=0x58d619d6 LEN=15
# UVM_INFO ../src/env/axi4_scoreboard.sv(154) @ 4815000: uvm_test_top.env.scb [axi4_scoreboard] [READ] MATCH #30: ID=0xe ADDR=0x58d619d6 LEN=15
# UVM_INFO ../src/mst/axi4_master_driver.sv(55) @ 4815000: uvm_test_top.env.master_agent.drv [axi4_master_driver] Driving AXI4_WRITE  ID=0x2  ADDR=0x331a0eff  LEN=1
# UVM_INFO ../src/mst/axi4_master_driver.sv(94) @ 4815000: uvm_test_top.env.master_agent.drv [axi4_master_driver] Write order: AW || W (parallel)
# UVM_INFO ../src/slv/axi4_slave_driver.sv(165) @ 4845000: uvm_test_top.env.slave_agent.drv [axi4_slave_driver] AW received: ID=0x2 ADDR=0x331a0eff LEN=1 LOCK=AXI4_LOCK_EXCLUSIVE
# UVM_INFO ../src/mst/axi4_master_monitor.sv(124) @ 4845000: uvm_test_top.env.master_agent.mon [axi4_master_monitor] AW observed: ID=0x2 ADDR=0x331a0eff LEN=1
# UVM_INFO ../src/slv/axi4_slave_monitor.sv(116) @ 4845000: uvm_test_top.env.slave_agent.mon [axi4_slave_monitor] AW received: ID=0x2 ADDR=0x331a0eff LEN=1
# UVM_INFO ../src/slv/axi4_slave_monitor.sv(167) @ 4855000: uvm_test_top.env.slave_agent.mon [axi4_slave_monitor] W data assembled: ID=0x2 ADDR=0x331a0eff 2 beats
# UVM_INFO ../src/mst/axi4_master_monitor.sv(184) @ 4855000: uvm_test_top.env.master_agent.mon [axi4_master_monitor] W data assembled: ID=0x2 ADDR=0x331a0eff 2 beats
# UVM_INFO ../src/mst/axi4_master_driver.sv(197) @ 4885000: uvm_test_top.env.master_agent.drv [axi4_master_driver] Write response: AXI4_RESP_OKAY
# UVM_INFO ../src/slv/axi4_slave_driver.sv(261) @ 4885000: uvm_test_top.env.slave_agent.drv [axi4_slave_driver] Write complete: ID=0x2 ADDR=0x331a0eff RESP=AXI4_RESP_OKAY  2 beats processed
# UVM_INFO ../src/mst/axi4_master_monitor.sv(210) @ 4885000: uvm_test_top.env.master_agent.mon [axi4_master_monitor] Write complete: ID=0x2 ADDR=0x331a0eff RESP=AXI4_RESP_OKAY
# UVM_INFO ../src/env/axi4_scoreboard.sv(82) @ 4885000: uvm_test_top.env.scb [axi4_scoreboard] Master AXI4_WRITE received: ID=0x2 ADDR=0x331a0eff LEN=1
# UVM_INFO ../src/slv/axi4_slave_monitor.sv(189) @ 4885000: uvm_test_top.env.slave_agent.mon [axi4_slave_monitor] Write response sent: ID=0x2 ADDR=0x331a0eff RESP=AXI4_RESP_OKAY
# UVM_INFO ../src/env/axi4_scoreboard.sv(103) @ 4885000: uvm_test_top.env.scb [axi4_scoreboard] Slave AXI4_WRITE received: ID=0x2 ADDR=0x331a0eff LEN=1
# UVM_INFO ../src/env/axi4_scoreboard.sv(154) @ 4885000: uvm_test_top.env.scb [axi4_scoreboard] [WRITE] MATCH #31: ID=0x2 ADDR=0x331a0eff LEN=1
# UVM_INFO ../src/mst/axi4_master_driver.sv(55) @ 4885000: uvm_test_top.env.master_agent.drv [axi4_master_driver] Driving AXI4_READ  ID=0xf  ADDR=0x0541d572  LEN=1
# UVM_INFO ../src/slv/axi4_slave_driver.sv(300) @ 4915000: uvm_test_top.env.slave_agent.drv [axi4_slave_driver] AR received: ID=0xf ADDR=0x0541d572 LEN=1 LOCK=AXI4_LOCK_EXCLUSIVE
# UVM_INFO ../src/slv/axi4_slave_monitor.sv(224) @ 4915000: uvm_test_top.env.slave_agent.mon [axi4_slave_monitor] AR received: ID=0xf ADDR=0x0541d572 LEN=1
# UVM_INFO ../src/mst/axi4_master_monitor.sv(246) @ 4915000: uvm_test_top.env.master_agent.mon [axi4_master_monitor] AR observed: ID=0xf ADDR=0x0541d572 LEN=1
# UVM_INFO ../src/mst/axi4_master_driver.sv(254) @ 4955000: uvm_test_top.env.master_agent.drv [axi4_master_driver] Read complete: 2 beats received
# UVM_INFO ../src/slv/axi4_slave_driver.sv(349) @ 4955000: uvm_test_top.env.slave_agent.drv [axi4_slave_driver] Read complete: ID=0xf ADDR=0x0541d572 RESP=AXI4_RESP_EXOKAY  2 beats sent
# UVM_INFO ../src/slv/axi4_slave_monitor.sv(287) @ 4955000: uvm_test_top.env.slave_agent.mon [axi4_slave_monitor] Read data sent: ID=0xf ADDR=0x0541d572 2 beats
# UVM_INFO ../src/env/axi4_scoreboard.sv(103) @ 4955000: uvm_test_top.env.scb [axi4_scoreboard] Slave AXI4_READ received: ID=0xf ADDR=0x0541d572 LEN=1
# UVM_INFO ../src/mst/axi4_master_monitor.sv(314) @ 4955000: uvm_test_top.env.master_agent.mon [axi4_master_monitor] Read complete: ID=0xf ADDR=0x0541d572 2 beats
# UVM_INFO ../src/env/axi4_scoreboard.sv(82) @ 4955000: uvm_test_top.env.scb [axi4_scoreboard] Master AXI4_READ received: ID=0xf ADDR=0x0541d572 LEN=1
# UVM_INFO ../src/env/axi4_scoreboard.sv(154) @ 4955000: uvm_test_top.env.scb [axi4_scoreboard] [READ] MATCH #32: ID=0xf ADDR=0x0541d572 LEN=1
# UVM_INFO ../src/mst/axi4_master_driver.sv(55) @ 4955000: uvm_test_top.env.master_agent.drv [axi4_master_driver] Driving AXI4_WRITE  ID=0xb  ADDR=0x7924fda6  LEN=1
# UVM_INFO ../src/mst/axi4_master_driver.sv(106) @ 4955000: uvm_test_top.env.master_agent.drv [axi4_master_driver] Write order: W -> AW (W first)
# UVM_INFO ../src/slv/axi4_slave_driver.sv(165) @ 5005000: uvm_test_top.env.slave_agent.drv [axi4_slave_driver] AW received: ID=0xb ADDR=0x7924fda6 LEN=1 LOCK=AXI4_LOCK_EXCLUSIVE
# UVM_INFO ../src/mst/axi4_master_monitor.sv(124) @ 5005000: uvm_test_top.env.master_agent.mon [axi4_master_monitor] AW observed: ID=0xb ADDR=0x7924fda6 LEN=1
# UVM_INFO ../src/slv/axi4_slave_monitor.sv(116) @ 5005000: uvm_test_top.env.slave_agent.mon [axi4_slave_monitor] AW received: ID=0xb ADDR=0x7924fda6 LEN=1
# UVM_INFO ../src/mst/axi4_master_monitor.sv(184) @ 5005000: uvm_test_top.env.master_agent.mon [axi4_master_monitor] W data assembled: ID=0xb ADDR=0x7924fda6 2 beats
# UVM_INFO ../src/slv/axi4_slave_monitor.sv(167) @ 5005000: uvm_test_top.env.slave_agent.mon [axi4_slave_monitor] W data assembled: ID=0xb ADDR=0x7924fda6 2 beats
# UVM_INFO ../src/mst/axi4_master_driver.sv(197) @ 5025000: uvm_test_top.env.master_agent.drv [axi4_master_driver] Write response: AXI4_RESP_OKAY
# UVM_INFO ../src/slv/axi4_slave_driver.sv(261) @ 5025000: uvm_test_top.env.slave_agent.drv [axi4_slave_driver] Write complete: ID=0xb ADDR=0x7924fda6 RESP=AXI4_RESP_OKAY  2 beats processed
# UVM_INFO ../src/mst/axi4_master_monitor.sv(210) @ 5025000: uvm_test_top.env.master_agent.mon [axi4_master_monitor] Write complete: ID=0xb ADDR=0x7924fda6 RESP=AXI4_RESP_OKAY
# UVM_INFO ../src/env/axi4_scoreboard.sv(82) @ 5025000: uvm_test_top.env.scb [axi4_scoreboard] Master AXI4_WRITE received: ID=0xb ADDR=0x7924fda6 LEN=1
# UVM_INFO ../src/slv/axi4_slave_monitor.sv(189) @ 5025000: uvm_test_top.env.slave_agent.mon [axi4_slave_monitor] Write response sent: ID=0xb ADDR=0x7924fda6 RESP=AXI4_RESP_OKAY
# UVM_INFO ../src/env/axi4_scoreboard.sv(103) @ 5025000: uvm_test_top.env.scb [axi4_scoreboard] Slave AXI4_WRITE received: ID=0xb ADDR=0x7924fda6 LEN=1
# UVM_INFO ../src/env/axi4_scoreboard.sv(154) @ 5025000: uvm_test_top.env.scb [axi4_scoreboard] [WRITE] MATCH #33: ID=0xb ADDR=0x7924fda6 LEN=1
# UVM_INFO ../src/mst/axi4_master_driver.sv(55) @ 5025000: uvm_test_top.env.master_agent.drv [axi4_master_driver] Driving AXI4_READ  ID=0x1  ADDR=0x180b090a  LEN=1
# UVM_INFO ../src/slv/axi4_slave_driver.sv(300) @ 5055000: uvm_test_top.env.slave_agent.drv [axi4_slave_driver] AR received: ID=0x1 ADDR=0x180b090a LEN=1 LOCK=AXI4_LOCK_NORMAL
# UVM_INFO ../src/slv/axi4_slave_monitor.sv(224) @ 5055000: uvm_test_top.env.slave_agent.mon [axi4_slave_monitor] AR received: ID=0x1 ADDR=0x180b090a LEN=1
# UVM_INFO ../src/mst/axi4_master_monitor.sv(246) @ 5055000: uvm_test_top.env.master_agent.mon [axi4_master_monitor] AR observed: ID=0x1 ADDR=0x180b090a LEN=1
# UVM_INFO ../src/mst/axi4_master_driver.sv(254) @ 5095000: uvm_test_top.env.master_agent.drv [axi4_master_driver] Read complete: 2 beats received
# UVM_INFO ../src/slv/axi4_slave_driver.sv(349) @ 5095000: uvm_test_top.env.slave_agent.drv [axi4_slave_driver] Read complete: ID=0x1 ADDR=0x180b090a RESP=AXI4_RESP_OKAY  2 beats sent
# UVM_INFO ../src/slv/axi4_slave_monitor.sv(287) @ 5095000: uvm_test_top.env.slave_agent.mon [axi4_slave_monitor] Read data sent: ID=0x1 ADDR=0x180b090a 2 beats
# UVM_INFO ../src/env/axi4_scoreboard.sv(103) @ 5095000: uvm_test_top.env.scb [axi4_scoreboard] Slave AXI4_READ received: ID=0x1 ADDR=0x180b090a LEN=1
# UVM_INFO ../src/mst/axi4_master_monitor.sv(314) @ 5095000: uvm_test_top.env.master_agent.mon [axi4_master_monitor] Read complete: ID=0x1 ADDR=0x180b090a 2 beats
# UVM_INFO ../src/env/axi4_scoreboard.sv(82) @ 5095000: uvm_test_top.env.scb [axi4_scoreboard] Master AXI4_READ received: ID=0x1 ADDR=0x180b090a LEN=1
# UVM_INFO ../src/env/axi4_scoreboard.sv(154) @ 5095000: uvm_test_top.env.scb [axi4_scoreboard] [READ] MATCH #34: ID=0x1 ADDR=0x180b090a LEN=1
# UVM_INFO ../src/mst/axi4_master_driver.sv(55) @ 5095000: uvm_test_top.env.master_agent.drv [axi4_master_driver] Driving AXI4_WRITE  ID=0x0  ADDR=0xac763210  LEN=1
# UVM_INFO ../src/mst/axi4_master_driver.sv(101) @ 5095000: uvm_test_top.env.master_agent.drv [axi4_master_driver] Write order: AW -> W (sequential)
# UVM_INFO ../src/slv/axi4_slave_driver.sv(165) @ 5125000: uvm_test_top.env.slave_agent.drv [axi4_slave_driver] AW received: ID=0x0 ADDR=0xac763210 LEN=1 LOCK=AXI4_LOCK_NORMAL
# UVM_INFO ../src/mst/axi4_master_monitor.sv(124) @ 5125000: uvm_test_top.env.master_agent.mon [axi4_master_monitor] AW observed: ID=0x0 ADDR=0xac763210 LEN=1
# UVM_INFO ../src/slv/axi4_slave_monitor.sv(116) @ 5125000: uvm_test_top.env.slave_agent.mon [axi4_slave_monitor] AW received: ID=0x0 ADDR=0xac763210 LEN=1
# UVM_INFO ../src/mst/axi4_master_monitor.sv(184) @ 5165000: uvm_test_top.env.master_agent.mon [axi4_master_monitor] W data assembled: ID=0x0 ADDR=0xac763210 2 beats
# UVM_INFO ../src/slv/axi4_slave_monitor.sv(167) @ 5165000: uvm_test_top.env.slave_agent.mon [axi4_slave_monitor] W data assembled: ID=0x0 ADDR=0xac763210 2 beats
# UVM_INFO ../src/mst/axi4_master_driver.sv(197) @ 5195000: uvm_test_top.env.master_agent.drv [axi4_master_driver] Write response: AXI4_RESP_OKAY
# UVM_INFO ../src/slv/axi4_slave_driver.sv(261) @ 5195000: uvm_test_top.env.slave_agent.drv [axi4_slave_driver] Write complete: ID=0x0 ADDR=0xac763210 RESP=AXI4_RESP_OKAY  2 beats processed
# UVM_INFO ../src/slv/axi4_slave_monitor.sv(189) @ 5195000: uvm_test_top.env.slave_agent.mon [axi4_slave_monitor] Write response sent: ID=0x0 ADDR=0xac763210 RESP=AXI4_RESP_OKAY
# UVM_INFO ../src/env/axi4_scoreboard.sv(103) @ 5195000: uvm_test_top.env.scb [axi4_scoreboard] Slave AXI4_WRITE received: ID=0x0 ADDR=0xac763210 LEN=1
# UVM_INFO ../src/mst/axi4_master_monitor.sv(210) @ 5195000: uvm_test_top.env.master_agent.mon [axi4_master_monitor] Write complete: ID=0x0 ADDR=0xac763210 RESP=AXI4_RESP_OKAY
# UVM_INFO ../src/env/axi4_scoreboard.sv(82) @ 5195000: uvm_test_top.env.scb [axi4_scoreboard] Master AXI4_WRITE received: ID=0x0 ADDR=0xac763210 LEN=1
# UVM_INFO ../src/env/axi4_scoreboard.sv(154) @ 5195000: uvm_test_top.env.scb [axi4_scoreboard] [WRITE] MATCH #35: ID=0x0 ADDR=0xac763210 LEN=1
# UVM_INFO ../src/mst/axi4_master_driver.sv(55) @ 5195000: uvm_test_top.env.master_agent.drv [axi4_master_driver] Driving AXI4_READ  ID=0x1  ADDR=0x54f7ae88  LEN=1
# UVM_INFO ../src/slv/axi4_slave_driver.sv(300) @ 5225000: uvm_test_top.env.slave_agent.drv [axi4_slave_driver] AR received: ID=0x1 ADDR=0x54f7ae88 LEN=1 LOCK=AXI4_LOCK_EXCLUSIVE
# UVM_INFO ../src/mst/axi4_master_monitor.sv(246) @ 5225000: uvm_test_top.env.master_agent.mon [axi4_master_monitor] AR observed: ID=0x1 ADDR=0x54f7ae88 LEN=1
# UVM_INFO ../src/slv/axi4_slave_monitor.sv(224) @ 5225000: uvm_test_top.env.slave_agent.mon [axi4_slave_monitor] AR received: ID=0x1 ADDR=0x54f7ae88 LEN=1
# UVM_INFO ../src/mst/axi4_master_driver.sv(254) @ 5265000: uvm_test_top.env.master_agent.drv [axi4_master_driver] Read complete: 2 beats received
# UVM_INFO ../src/slv/axi4_slave_driver.sv(349) @ 5265000: uvm_test_top.env.slave_agent.drv [axi4_slave_driver] Read complete: ID=0x1 ADDR=0x54f7ae88 RESP=AXI4_RESP_EXOKAY  2 beats sent
# UVM_INFO ../src/mst/axi4_master_monitor.sv(314) @ 5265000: uvm_test_top.env.master_agent.mon [axi4_master_monitor] Read complete: ID=0x1 ADDR=0x54f7ae88 2 beats
# UVM_INFO ../src/env/axi4_scoreboard.sv(82) @ 5265000: uvm_test_top.env.scb [axi4_scoreboard] Master AXI4_READ received: ID=0x1 ADDR=0x54f7ae88 LEN=1
# UVM_INFO ../src/slv/axi4_slave_monitor.sv(287) @ 5265000: uvm_test_top.env.slave_agent.mon [axi4_slave_monitor] Read data sent: ID=0x1 ADDR=0x54f7ae88 2 beats
# UVM_INFO ../src/env/axi4_scoreboard.sv(103) @ 5265000: uvm_test_top.env.scb [axi4_scoreboard] Slave AXI4_READ received: ID=0x1 ADDR=0x54f7ae88 LEN=1
# UVM_INFO ../src/env/axi4_scoreboard.sv(154) @ 5265000: uvm_test_top.env.scb [axi4_scoreboard] [READ] MATCH #36: ID=0x1 ADDR=0x54f7ae88 LEN=1
# UVM_INFO ../src/mst/axi4_master_driver.sv(55) @ 5265000: uvm_test_top.env.master_agent.drv [axi4_master_driver] Driving AXI4_WRITE  ID=0x5  ADDR=0x2f614470  LEN=3
# UVM_INFO ../src/mst/axi4_master_driver.sv(101) @ 5265000: uvm_test_top.env.master_agent.drv [axi4_master_driver] Write order: AW -> W (sequential)
# UVM_INFO ../src/slv/axi4_slave_driver.sv(165) @ 5295000: uvm_test_top.env.slave_agent.drv [axi4_slave_driver] AW received: ID=0x5 ADDR=0x2f614470 LEN=3 LOCK=AXI4_LOCK_NORMAL
# UVM_INFO ../src/slv/axi4_slave_monitor.sv(116) @ 5295000: uvm_test_top.env.slave_agent.mon [axi4_slave_monitor] AW received: ID=0x5 ADDR=0x2f614470 LEN=3
# UVM_INFO ../src/mst/axi4_master_monitor.sv(124) @ 5295000: uvm_test_top.env.master_agent.mon [axi4_master_monitor] AW observed: ID=0x5 ADDR=0x2f614470 LEN=3
# UVM_INFO ../src/slv/axi4_slave_monitor.sv(167) @ 5375000: uvm_test_top.env.slave_agent.mon [axi4_slave_monitor] W data assembled: ID=0x5 ADDR=0x2f614470 4 beats
# UVM_INFO ../src/mst/axi4_master_monitor.sv(184) @ 5375000: uvm_test_top.env.master_agent.mon [axi4_master_monitor] W data assembled: ID=0x5 ADDR=0x2f614470 4 beats
# UVM_INFO ../src/mst/axi4_master_driver.sv(197) @ 5405000: uvm_test_top.env.master_agent.drv [axi4_master_driver] Write response: AXI4_RESP_OKAY
# UVM_INFO ../src/slv/axi4_slave_driver.sv(261) @ 5405000: uvm_test_top.env.slave_agent.drv [axi4_slave_driver] Write complete: ID=0x5 ADDR=0x2f614470 RESP=AXI4_RESP_OKAY  4 beats processed
# UVM_INFO ../src/mst/axi4_master_monitor.sv(210) @ 5405000: uvm_test_top.env.master_agent.mon [axi4_master_monitor] Write complete: ID=0x5 ADDR=0x2f614470 RESP=AXI4_RESP_OKAY
# UVM_INFO ../src/env/axi4_scoreboard.sv(82) @ 5405000: uvm_test_top.env.scb [axi4_scoreboard] Master AXI4_WRITE received: ID=0x5 ADDR=0x2f614470 LEN=3
# UVM_INFO ../src/slv/axi4_slave_monitor.sv(189) @ 5405000: uvm_test_top.env.slave_agent.mon [axi4_slave_monitor] Write response sent: ID=0x5 ADDR=0x2f614470 RESP=AXI4_RESP_OKAY
# UVM_INFO ../src/env/axi4_scoreboard.sv(103) @ 5405000: uvm_test_top.env.scb [axi4_scoreboard] Slave AXI4_WRITE received: ID=0x5 ADDR=0x2f614470 LEN=3
# UVM_INFO ../src/env/axi4_scoreboard.sv(154) @ 5405000: uvm_test_top.env.scb [axi4_scoreboard] [WRITE] MATCH #37: ID=0x5 ADDR=0x2f614470 LEN=3
# UVM_INFO ../src/mst/axi4_master_driver.sv(55) @ 5405000: uvm_test_top.env.master_agent.drv [axi4_master_driver] Driving AXI4_READ  ID=0x1  ADDR=0xa8cfb0ba  LEN=3
# UVM_INFO ../src/slv/axi4_slave_driver.sv(300) @ 5435000: uvm_test_top.env.slave_agent.drv [axi4_slave_driver] AR received: ID=0x1 ADDR=0xa8cfb0ba LEN=3 LOCK=AXI4_LOCK_EXCLUSIVE
# UVM_INFO ../src/slv/axi4_slave_monitor.sv(224) @ 5435000: uvm_test_top.env.slave_agent.mon [axi4_slave_monitor] AR received: ID=0x1 ADDR=0xa8cfb0ba LEN=3
# UVM_INFO ../src/mst/axi4_master_monitor.sv(246) @ 5435000: uvm_test_top.env.master_agent.mon [axi4_master_monitor] AR observed: ID=0x1 ADDR=0xa8cfb0ba LEN=3
# UVM_INFO ../src/mst/axi4_master_driver.sv(254) @ 5515000: uvm_test_top.env.master_agent.drv [axi4_master_driver] Read complete: 4 beats received
# UVM_INFO ../src/slv/axi4_slave_driver.sv(349) @ 5515000: uvm_test_top.env.slave_agent.drv [axi4_slave_driver] Read complete: ID=0x1 ADDR=0xa8cfb0ba RESP=AXI4_RESP_EXOKAY  4 beats sent
# UVM_INFO ../src/slv/axi4_slave_monitor.sv(287) @ 5515000: uvm_test_top.env.slave_agent.mon [axi4_slave_monitor] Read data sent: ID=0x1 ADDR=0xa8cfb0ba 4 beats
# UVM_INFO ../src/env/axi4_scoreboard.sv(103) @ 5515000: uvm_test_top.env.scb [axi4_scoreboard] Slave AXI4_READ received: ID=0x1 ADDR=0xa8cfb0ba LEN=3
# UVM_INFO ../src/mst/axi4_master_monitor.sv(314) @ 5515000: uvm_test_top.env.master_agent.mon [axi4_master_monitor] Read complete: ID=0x1 ADDR=0xa8cfb0ba 4 beats
# UVM_INFO ../src/env/axi4_scoreboard.sv(82) @ 5515000: uvm_test_top.env.scb [axi4_scoreboard] Master AXI4_READ received: ID=0x1 ADDR=0xa8cfb0ba LEN=3
# UVM_INFO ../src/env/axi4_scoreboard.sv(154) @ 5515000: uvm_test_top.env.scb [axi4_scoreboard] [READ] MATCH #38: ID=0x1 ADDR=0xa8cfb0ba LEN=3
# UVM_INFO ../src/mst/axi4_master_driver.sv(55) @ 5515000: uvm_test_top.env.master_agent.drv [axi4_master_driver] Driving AXI4_WRITE  ID=0x0  ADDR=0xc5d98b80  LEN=3
# UVM_INFO ../src/mst/axi4_master_driver.sv(94) @ 5515000: uvm_test_top.env.master_agent.drv [axi4_master_driver] Write order: AW || W (parallel)
# UVM_INFO ../src/slv/axi4_slave_driver.sv(165) @ 5545000: uvm_test_top.env.slave_agent.drv [axi4_slave_driver] AW received: ID=0x0 ADDR=0xc5d98b80 LEN=3 LOCK=AXI4_LOCK_EXCLUSIVE
# UVM_INFO ../src/mst/axi4_master_monitor.sv(124) @ 5545000: uvm_test_top.env.master_agent.mon [axi4_master_monitor] AW observed: ID=0x0 ADDR=0xc5d98b80 LEN=3
# UVM_INFO ../src/slv/axi4_slave_monitor.sv(116) @ 5545000: uvm_test_top.env.slave_agent.mon [axi4_slave_monitor] AW received: ID=0x0 ADDR=0xc5d98b80 LEN=3
# UVM_INFO ../src/slv/axi4_slave_monitor.sv(167) @ 5595000: uvm_test_top.env.slave_agent.mon [axi4_slave_monitor] W data assembled: ID=0x0 ADDR=0xc5d98b80 4 beats
# UVM_INFO ../src/mst/axi4_master_monitor.sv(184) @ 5595000: uvm_test_top.env.master_agent.mon [axi4_master_monitor] W data assembled: ID=0x0 ADDR=0xc5d98b80 4 beats
# UVM_INFO ../src/mst/axi4_master_driver.sv(197) @ 5625000: uvm_test_top.env.master_agent.drv [axi4_master_driver] Write response: AXI4_RESP_OKAY
# UVM_INFO ../src/slv/axi4_slave_driver.sv(261) @ 5625000: uvm_test_top.env.slave_agent.drv [axi4_slave_driver] Write complete: ID=0x0 ADDR=0xc5d98b80 RESP=AXI4_RESP_OKAY  4 beats processed
# UVM_INFO ../src/mst/axi4_master_monitor.sv(210) @ 5625000: uvm_test_top.env.master_agent.mon [axi4_master_monitor] Write complete: ID=0x0 ADDR=0xc5d98b80 RESP=AXI4_RESP_OKAY
# UVM_INFO ../src/env/axi4_scoreboard.sv(82) @ 5625000: uvm_test_top.env.scb [axi4_scoreboard] Master AXI4_WRITE received: ID=0x0 ADDR=0xc5d98b80 LEN=3
# UVM_INFO ../src/slv/axi4_slave_monitor.sv(189) @ 5625000: uvm_test_top.env.slave_agent.mon [axi4_slave_monitor] Write response sent: ID=0x0 ADDR=0xc5d98b80 RESP=AXI4_RESP_OKAY
# UVM_INFO ../src/env/axi4_scoreboard.sv(103) @ 5625000: uvm_test_top.env.scb [axi4_scoreboard] Slave AXI4_WRITE received: ID=0x0 ADDR=0xc5d98b80 LEN=3
# UVM_INFO ../src/env/axi4_scoreboard.sv(154) @ 5625000: uvm_test_top.env.scb [axi4_scoreboard] [WRITE] MATCH #39: ID=0x0 ADDR=0xc5d98b80 LEN=3
# UVM_INFO ../src/mst/axi4_master_driver.sv(55) @ 5625000: uvm_test_top.env.master_agent.drv [axi4_master_driver] Driving AXI4_READ  ID=0xb  ADDR=0x3398aab6  LEN=3
# UVM_INFO ../src/slv/axi4_slave_driver.sv(300) @ 5655000: uvm_test_top.env.slave_agent.drv [axi4_slave_driver] AR received: ID=0xb ADDR=0x3398aab6 LEN=3 LOCK=AXI4_LOCK_EXCLUSIVE
# UVM_INFO ../src/slv/axi4_slave_monitor.sv(224) @ 5655000: uvm_test_top.env.slave_agent.mon [axi4_slave_monitor] AR received: ID=0xb ADDR=0x3398aab6 LEN=3
# UVM_INFO ../src/mst/axi4_master_monitor.sv(246) @ 5655000: uvm_test_top.env.master_agent.mon [axi4_master_monitor] AR observed: ID=0xb ADDR=0x3398aab6 LEN=3
# UVM_INFO ../src/mst/axi4_master_driver.sv(254) @ 5735000: uvm_test_top.env.master_agent.drv [axi4_master_driver] Read complete: 4 beats received
# UVM_INFO ../src/slv/axi4_slave_driver.sv(349) @ 5735000: uvm_test_top.env.slave_agent.drv [axi4_slave_driver] Read complete: ID=0xb ADDR=0x3398aab6 RESP=AXI4_RESP_EXOKAY  4 beats sent
# UVM_INFO ../src/slv/axi4_slave_monitor.sv(287) @ 5735000: uvm_test_top.env.slave_agent.mon [axi4_slave_monitor] Read data sent: ID=0xb ADDR=0x3398aab6 4 beats
# UVM_INFO ../src/env/axi4_scoreboard.sv(103) @ 5735000: uvm_test_top.env.scb [axi4_scoreboard] Slave AXI4_READ received: ID=0xb ADDR=0x3398aab6 LEN=3
# UVM_INFO ../src/mst/axi4_master_monitor.sv(314) @ 5735000: uvm_test_top.env.master_agent.mon [axi4_master_monitor] Read complete: ID=0xb ADDR=0x3398aab6 4 beats
# UVM_INFO ../src/env/axi4_scoreboard.sv(82) @ 5735000: uvm_test_top.env.scb [axi4_scoreboard] Master AXI4_READ received: ID=0xb ADDR=0x3398aab6 LEN=3
# UVM_INFO ../src/env/axi4_scoreboard.sv(154) @ 5735000: uvm_test_top.env.scb [axi4_scoreboard] [READ] MATCH #40: ID=0xb ADDR=0x3398aab6 LEN=3
# UVM_INFO ../src/mst/axi4_master_driver.sv(55) @ 5735000: uvm_test_top.env.master_agent.drv [axi4_master_driver] Driving AXI4_WRITE  ID=0xc  ADDR=0xcfb966f8  LEN=3
# UVM_INFO ../src/mst/axi4_master_driver.sv(106) @ 5735000: uvm_test_top.env.master_agent.drv [axi4_master_driver] Write order: W -> AW (W first)
# UVM_INFO ../src/slv/axi4_slave_driver.sv(165) @ 5815000: uvm_test_top.env.slave_agent.drv [axi4_slave_driver] AW received: ID=0xc ADDR=0xcfb966f8 LEN=3 LOCK=AXI4_LOCK_EXCLUSIVE
# UVM_INFO ../src/slv/axi4_slave_monitor.sv(116) @ 5815000: uvm_test_top.env.slave_agent.mon [axi4_slave_monitor] AW received: ID=0xc ADDR=0xcfb966f8 LEN=3
# UVM_INFO ../src/mst/axi4_master_monitor.sv(124) @ 5815000: uvm_test_top.env.master_agent.mon [axi4_master_monitor] AW observed: ID=0xc ADDR=0xcfb966f8 LEN=3
# UVM_INFO ../src/slv/axi4_slave_monitor.sv(167) @ 5815000: uvm_test_top.env.slave_agent.mon [axi4_slave_monitor] W data assembled: ID=0xc ADDR=0xcfb966f8 4 beats
# UVM_INFO ../src/mst/axi4_master_monitor.sv(184) @ 5815000: uvm_test_top.env.master_agent.mon [axi4_master_monitor] W data assembled: ID=0xc ADDR=0xcfb966f8 4 beats
# UVM_INFO ../src/mst/axi4_master_driver.sv(197) @ 5845000: uvm_test_top.env.master_agent.drv [axi4_master_driver] Write response: AXI4_RESP_OKAY
# UVM_INFO ../src/slv/axi4_slave_driver.sv(261) @ 5845000: uvm_test_top.env.slave_agent.drv [axi4_slave_driver] Write complete: ID=0xc ADDR=0xcfb966f8 RESP=AXI4_RESP_OKAY  4 beats processed
# UVM_INFO ../src/mst/axi4_master_monitor.sv(210) @ 5845000: uvm_test_top.env.master_agent.mon [axi4_master_monitor] Write complete: ID=0xc ADDR=0xcfb966f8 RESP=AXI4_RESP_OKAY
# UVM_INFO ../src/env/axi4_scoreboard.sv(82) @ 5845000: uvm_test_top.env.scb [axi4_scoreboard] Master AXI4_WRITE received: ID=0xc ADDR=0xcfb966f8 LEN=3
# UVM_INFO ../src/slv/axi4_slave_monitor.sv(189) @ 5845000: uvm_test_top.env.slave_agent.mon [axi4_slave_monitor] Write response sent: ID=0xc ADDR=0xcfb966f8 RESP=AXI4_RESP_OKAY
# UVM_INFO ../src/env/axi4_scoreboard.sv(103) @ 5845000: uvm_test_top.env.scb [axi4_scoreboard] Slave AXI4_WRITE received: ID=0xc ADDR=0xcfb966f8 LEN=3
# UVM_INFO ../src/env/axi4_scoreboard.sv(154) @ 5845000: uvm_test_top.env.scb [axi4_scoreboard] [WRITE] MATCH #41: ID=0xc ADDR=0xcfb966f8 LEN=3
# UVM_INFO ../src/mst/axi4_master_driver.sv(55) @ 5845000: uvm_test_top.env.master_agent.drv [axi4_master_driver] Driving AXI4_READ  ID=0xf  ADDR=0xba78d384  LEN=3
# UVM_INFO ../src/slv/axi4_slave_driver.sv(300) @ 5875000: uvm_test_top.env.slave_agent.drv [axi4_slave_driver] AR received: ID=0xf ADDR=0xba78d384 LEN=3 LOCK=AXI4_LOCK_EXCLUSIVE
# UVM_INFO ../src/slv/axi4_slave_monitor.sv(224) @ 5875000: uvm_test_top.env.slave_agent.mon [axi4_slave_monitor] AR received: ID=0xf ADDR=0xba78d384 LEN=3
# UVM_INFO ../src/mst/axi4_master_monitor.sv(246) @ 5875000: uvm_test_top.env.master_agent.mon [axi4_master_monitor] AR observed: ID=0xf ADDR=0xba78d384 LEN=3
# UVM_INFO ../src/mst/axi4_master_driver.sv(254) @ 5955000: uvm_test_top.env.master_agent.drv [axi4_master_driver] Read complete: 4 beats received
# UVM_INFO ../src/slv/axi4_slave_driver.sv(349) @ 5955000: uvm_test_top.env.slave_agent.drv [axi4_slave_driver] Read complete: ID=0xf ADDR=0xba78d384 RESP=AXI4_RESP_EXOKAY  4 beats sent
# UVM_INFO ../src/slv/axi4_slave_monitor.sv(287) @ 5955000: uvm_test_top.env.slave_agent.mon [axi4_slave_monitor] Read data sent: ID=0xf ADDR=0xba78d384 4 beats
# UVM_INFO ../src/env/axi4_scoreboard.sv(103) @ 5955000: uvm_test_top.env.scb [axi4_scoreboard] Slave AXI4_READ received: ID=0xf ADDR=0xba78d384 LEN=3
# UVM_INFO ../src/mst/axi4_master_monitor.sv(314) @ 5955000: uvm_test_top.env.master_agent.mon [axi4_master_monitor] Read complete: ID=0xf ADDR=0xba78d384 4 beats
# UVM_INFO ../src/env/axi4_scoreboard.sv(82) @ 5955000: uvm_test_top.env.scb [axi4_scoreboard] Master AXI4_READ received: ID=0xf ADDR=0xba78d384 LEN=3
# UVM_INFO ../src/env/axi4_scoreboard.sv(154) @ 5955000: uvm_test_top.env.scb [axi4_scoreboard] [READ] MATCH #42: ID=0xf ADDR=0xba78d384 LEN=3
# UVM_INFO ../src/mst/axi4_master_driver.sv(55) @ 5955000: uvm_test_top.env.master_agent.drv [axi4_master_driver] Driving AXI4_WRITE  ID=0x7  ADDR=0x8811448d  LEN=7
# UVM_INFO ../src/mst/axi4_master_driver.sv(94) @ 5955000: uvm_test_top.env.master_agent.drv [axi4_master_driver] Write order: AW || W (parallel)
# UVM_INFO ../src/slv/axi4_slave_driver.sv(165) @ 5985000: uvm_test_top.env.slave_agent.drv [axi4_slave_driver] AW received: ID=0x7 ADDR=0x8811448d LEN=7 LOCK=AXI4_LOCK_NORMAL
# UVM_INFO ../src/mst/axi4_master_monitor.sv(124) @ 5985000: uvm_test_top.env.master_agent.mon [axi4_master_monitor] AW observed: ID=0x7 ADDR=0x8811448d LEN=7
# UVM_INFO ../src/slv/axi4_slave_monitor.sv(116) @ 5985000: uvm_test_top.env.slave_agent.mon [axi4_slave_monitor] AW received: ID=0x7 ADDR=0x8811448d LEN=7
# UVM_INFO ../src/slv/axi4_slave_monitor.sv(167) @ 6115000: uvm_test_top.env.slave_agent.mon [axi4_slave_monitor] W data assembled: ID=0x7 ADDR=0x8811448d 8 beats
# UVM_INFO ../src/mst/axi4_master_monitor.sv(184) @ 6115000: uvm_test_top.env.master_agent.mon [axi4_master_monitor] W data assembled: ID=0x7 ADDR=0x8811448d 8 beats
# UVM_INFO ../src/mst/axi4_master_driver.sv(197) @ 6145000: uvm_test_top.env.master_agent.drv [axi4_master_driver] Write response: AXI4_RESP_OKAY
# UVM_INFO ../src/slv/axi4_slave_driver.sv(261) @ 6145000: uvm_test_top.env.slave_agent.drv [axi4_slave_driver] Write complete: ID=0x7 ADDR=0x8811448d RESP=AXI4_RESP_OKAY  8 beats processed
# UVM_INFO ../src/mst/axi4_master_monitor.sv(210) @ 6145000: uvm_test_top.env.master_agent.mon [axi4_master_monitor] Write complete: ID=0x7 ADDR=0x8811448d RESP=AXI4_RESP_OKAY
# UVM_INFO ../src/env/axi4_scoreboard.sv(82) @ 6145000: uvm_test_top.env.scb [axi4_scoreboard] Master AXI4_WRITE received: ID=0x7 ADDR=0x8811448d LEN=7
# UVM_INFO ../src/slv/axi4_slave_monitor.sv(189) @ 6145000: uvm_test_top.env.slave_agent.mon [axi4_slave_monitor] Write response sent: ID=0x7 ADDR=0x8811448d RESP=AXI4_RESP_OKAY
# UVM_INFO ../src/env/axi4_scoreboard.sv(103) @ 6145000: uvm_test_top.env.scb [axi4_scoreboard] Slave AXI4_WRITE received: ID=0x7 ADDR=0x8811448d LEN=7
# UVM_INFO ../src/env/axi4_scoreboard.sv(154) @ 6145000: uvm_test_top.env.scb [axi4_scoreboard] [WRITE] MATCH #43: ID=0x7 ADDR=0x8811448d LEN=7
# UVM_INFO ../src/mst/axi4_master_driver.sv(55) @ 6145000: uvm_test_top.env.master_agent.drv [axi4_master_driver] Driving AXI4_READ  ID=0x4  ADDR=0xbc81f3df  LEN=7
# UVM_INFO ../src/slv/axi4_slave_driver.sv(300) @ 6175000: uvm_test_top.env.slave_agent.drv [axi4_slave_driver] AR received: ID=0x4 ADDR=0xbc81f3df LEN=7 LOCK=AXI4_LOCK_NORMAL
# UVM_INFO ../src/slv/axi4_slave_monitor.sv(224) @ 6175000: uvm_test_top.env.slave_agent.mon [axi4_slave_monitor] AR received: ID=0x4 ADDR=0xbc81f3df LEN=7
# UVM_INFO ../src/mst/axi4_master_monitor.sv(246) @ 6175000: uvm_test_top.env.master_agent.mon [axi4_master_monitor] AR observed: ID=0x4 ADDR=0xbc81f3df LEN=7
# UVM_INFO ../src/mst/axi4_master_driver.sv(254) @ 6335000: uvm_test_top.env.master_agent.drv [axi4_master_driver] Read complete: 8 beats received
# UVM_INFO ../src/slv/axi4_slave_driver.sv(349) @ 6335000: uvm_test_top.env.slave_agent.drv [axi4_slave_driver] Read complete: ID=0x4 ADDR=0xbc81f3df RESP=AXI4_RESP_OKAY  8 beats sent
# UVM_INFO ../src/slv/axi4_slave_monitor.sv(287) @ 6335000: uvm_test_top.env.slave_agent.mon [axi4_slave_monitor] Read data sent: ID=0x4 ADDR=0xbc81f3df 8 beats
# UVM_INFO ../src/env/axi4_scoreboard.sv(103) @ 6335000: uvm_test_top.env.scb [axi4_scoreboard] Slave AXI4_READ received: ID=0x4 ADDR=0xbc81f3df LEN=7
# UVM_INFO ../src/mst/axi4_master_monitor.sv(314) @ 6335000: uvm_test_top.env.master_agent.mon [axi4_master_monitor] Read complete: ID=0x4 ADDR=0xbc81f3df 8 beats
# UVM_INFO ../src/env/axi4_scoreboard.sv(82) @ 6335000: uvm_test_top.env.scb [axi4_scoreboard] Master AXI4_READ received: ID=0x4 ADDR=0xbc81f3df LEN=7
# UVM_INFO ../src/env/axi4_scoreboard.sv(154) @ 6335000: uvm_test_top.env.scb [axi4_scoreboard] [READ] MATCH #44: ID=0x4 ADDR=0xbc81f3df LEN=7
# UVM_INFO ../src/mst/axi4_master_driver.sv(55) @ 6335000: uvm_test_top.env.master_agent.drv [axi4_master_driver] Driving AXI4_WRITE  ID=0xf  ADDR=0xcfaff280  LEN=7
# UVM_INFO ../src/mst/axi4_master_driver.sv(101) @ 6335000: uvm_test_top.env.master_agent.drv [axi4_master_driver] Write order: AW -> W (sequential)
# UVM_INFO ../src/slv/axi4_slave_driver.sv(165) @ 6365000: uvm_test_top.env.slave_agent.drv [axi4_slave_driver] AW received: ID=0xf ADDR=0xcfaff280 LEN=7 LOCK=AXI4_LOCK_NORMAL
# UVM_INFO ../src/mst/axi4_master_monitor.sv(124) @ 6365000: uvm_test_top.env.master_agent.mon [axi4_master_monitor] AW observed: ID=0xf ADDR=0xcfaff280 LEN=7
# UVM_INFO ../src/slv/axi4_slave_monitor.sv(116) @ 6365000: uvm_test_top.env.slave_agent.mon [axi4_slave_monitor] AW received: ID=0xf ADDR=0xcfaff280 LEN=7
# UVM_INFO ../src/mst/axi4_master_monitor.sv(184) @ 6525000: uvm_test_top.env.master_agent.mon [axi4_master_monitor] W data assembled: ID=0xf ADDR=0xcfaff280 8 beats
# UVM_INFO ../src/slv/axi4_slave_monitor.sv(167) @ 6525000: uvm_test_top.env.slave_agent.mon [axi4_slave_monitor] W data assembled: ID=0xf ADDR=0xcfaff280 8 beats
# UVM_INFO ../src/mst/axi4_master_driver.sv(197) @ 6555000: uvm_test_top.env.master_agent.drv [axi4_master_driver] Write response: AXI4_RESP_OKAY
# UVM_INFO ../src/slv/axi4_slave_driver.sv(261) @ 6555000: uvm_test_top.env.slave_agent.drv [axi4_slave_driver] Write complete: ID=0xf ADDR=0xcfaff280 RESP=AXI4_RESP_OKAY  8 beats processed
# UVM_INFO ../src/slv/axi4_slave_monitor.sv(189) @ 6555000: uvm_test_top.env.slave_agent.mon [axi4_slave_monitor] Write response sent: ID=0xf ADDR=0xcfaff280 RESP=AXI4_RESP_OKAY
# UVM_INFO ../src/env/axi4_scoreboard.sv(103) @ 6555000: uvm_test_top.env.scb [axi4_scoreboard] Slave AXI4_WRITE received: ID=0xf ADDR=0xcfaff280 LEN=7
# UVM_INFO ../src/mst/axi4_master_monitor.sv(210) @ 6555000: uvm_test_top.env.master_agent.mon [axi4_master_monitor] Write complete: ID=0xf ADDR=0xcfaff280 RESP=AXI4_RESP_OKAY
# UVM_INFO ../src/env/axi4_scoreboard.sv(82) @ 6555000: uvm_test_top.env.scb [axi4_scoreboard] Master AXI4_WRITE received: ID=0xf ADDR=0xcfaff280 LEN=7
# UVM_INFO ../src/env/axi4_scoreboard.sv(154) @ 6555000: uvm_test_top.env.scb [axi4_scoreboard] [WRITE] MATCH #45: ID=0xf ADDR=0xcfaff280 LEN=7
# UVM_INFO ../src/mst/axi4_master_driver.sv(55) @ 6555000: uvm_test_top.env.master_agent.drv [axi4_master_driver] Driving AXI4_READ  ID=0xc  ADDR=0x856eaf10  LEN=7
# UVM_INFO ../src/slv/axi4_slave_driver.sv(300) @ 6585000: uvm_test_top.env.slave_agent.drv [axi4_slave_driver] AR received: ID=0xc ADDR=0x856eaf10 LEN=7 LOCK=AXI4_LOCK_NORMAL
# UVM_INFO ../src/mst/axi4_master_monitor.sv(246) @ 6585000: uvm_test_top.env.master_agent.mon [axi4_master_monitor] AR observed: ID=0xc ADDR=0x856eaf10 LEN=7
# UVM_INFO ../src/slv/axi4_slave_monitor.sv(224) @ 6585000: uvm_test_top.env.slave_agent.mon [axi4_slave_monitor] AR received: ID=0xc ADDR=0x856eaf10 LEN=7
# UVM_INFO ../src/mst/axi4_master_driver.sv(254) @ 6745000: uvm_test_top.env.master_agent.drv [axi4_master_driver] Read complete: 8 beats received
# UVM_INFO ../src/slv/axi4_slave_driver.sv(349) @ 6745000: uvm_test_top.env.slave_agent.drv [axi4_slave_driver] Read complete: ID=0xc ADDR=0x856eaf10 RESP=AXI4_RESP_OKAY  8 beats sent
# UVM_INFO ../src/mst/axi4_master_monitor.sv(314) @ 6745000: uvm_test_top.env.master_agent.mon [axi4_master_monitor] Read complete: ID=0xc ADDR=0x856eaf10 8 beats
# UVM_INFO ../src/env/axi4_scoreboard.sv(82) @ 6745000: uvm_test_top.env.scb [axi4_scoreboard] Master AXI4_READ received: ID=0xc ADDR=0x856eaf10 LEN=7
# UVM_INFO ../src/slv/axi4_slave_monitor.sv(287) @ 6745000: uvm_test_top.env.slave_agent.mon [axi4_slave_monitor] Read data sent: ID=0xc ADDR=0x856eaf10 8 beats
# UVM_INFO ../src/env/axi4_scoreboard.sv(103) @ 6745000: uvm_test_top.env.scb [axi4_scoreboard] Slave AXI4_READ received: ID=0xc ADDR=0x856eaf10 LEN=7
# UVM_INFO ../src/env/axi4_scoreboard.sv(154) @ 6745000: uvm_test_top.env.scb [axi4_scoreboard] [READ] MATCH #46: ID=0xc ADDR=0x856eaf10 LEN=7
