# vsim -c -coverage -sv_seed 29670945 "+UVM_TESTNAME=axi4_outstanding_test" "+UVM_VERBOSITY=UVM_HIGH" "+DUMP_VCD" -l ./report/logs/axi4_outstanding_test_run_4_seed_29670945.log -do "coverage save -onexit ./report/coverage/axi4_outstanding_test_run_4_seed_29670945.ucdb; run -all; quit -f" opt_tb_top 
# Start time: 13:01:00 on Jun 11,2026
# //  Questa Sim-64
# //  Version 10.6b linux_x86_64 May 25 2017
# //
# //  Copyright 1991-2017 Mentor Graphics Corporation
# //  All Rights Reserved.
# //
# //  QuestaSim and its associated documentation contain trade
# //  secrets and commercial or financial information that are the property of
# //  Mentor Graphics Corporation and are privileged, confidential,
# //  and exempt from disclosure under the Freedom of Information Act,
# //  5 U.S.C. Section 552. Furthermore, this information
# //  is prohibited from disclosure under the Trade Secrets Act,
# //  18 U.S.C. Section 1905.
# //
# Loading sv_std.std
# Loading work.axi4_if(fast)
# Loading mtiUvm.uvm_pkg
# Loading work.axi4_pkg(fast)
# Loading work.axi4_test_pkg(fast)
# Loading work.tb_top(fast)
# Loading work.axi4_if(fast)
# Loading work.axi4_sva(fast)
# Loading mtiUvm.questa_uvm_pkg(fast)
# Loading /cadtools/mentor/Questa_10.6b/questasim/uvm-1.1d/linux_x86_64/uvm_dpi.so
# coverage save -onexit ./report/coverage/axi4_outstanding_test_run_4_seed_29670945.ucdb
#  run -all
# ----------------------------------------------------------------
# UVM-1.1d
# (C) 2007-2013 Mentor Graphics Corporation
# (C) 2007-2013 Cadence Design Systems, Inc.
# (C) 2006-2013 Synopsys, Inc.
# (C) 2011-2013 Cypress Semiconductor Corp.
# ----------------------------------------------------------------
# 
#   ***********       IMPORTANT RELEASE NOTES         ************
# 
#   You are using a version of the UVM library that has been compiled
#   with `UVM_NO_DEPRECATED undefined.
#   See http://www.eda.org/svdb/view.php?id=3313 for more details.
# 
#   You are using a version of the UVM library that has been compiled
#   with `UVM_OBJECT_MUST_HAVE_CONSTRUCTOR undefined.
#   See http://www.eda.org/svdb/view.php?id=3770 for more details.
# 
#       (Specify +UVM_NO_RELNOTES to turn off this notice)
# 
# UVM_INFO verilog_src/questa_uvm_pkg-1.2/src/questa_uvm_pkg.sv(215) @ 0: reporter [Questa UVM] QUESTA_UVM-1.2.3
# UVM_INFO verilog_src/questa_uvm_pkg-1.2/src/questa_uvm_pkg.sv(217) @ 0: reporter [Questa UVM]  questa_uvm::init(+struct)
# UVM_INFO ../src/tb_top.sv(128) @ 0: reporter [TB_TOP] Virtual interface set in config_db
# UVM_INFO @ 0: reporter [RNTST] Running test axi4_outstanding_test...
# UVM_INFO ../src/tb_top.sv(142) @ 0: reporter [TB_TOP] Waveform VCD dumping enabled (axi4_vip.vcd)
# UVM_INFO ../src/env/axi4_vip_env.sv(83) @ 0: uvm_test_top.env [axi4_vip_env] slave_vif not set - reusing master_vif (passthrough mode)
# UVM_INFO ../src/env/axi4_vip_env.sv(93) @ 0: uvm_test_top.env [axi4_vip_env] Scoreboard created
# UVM_INFO ../src/env/axi4_vip_env.sv(100) @ 0: uvm_test_top.env [axi4_vip_env] Coverage collectors created
# UVM_INFO ../src/mst/axi4_master_agent.sv(69) @ 0: uvm_test_top.env.master_agent [axi4_master_agent] ACTIVE mode - driver + sequencer created
# UVM_INFO ../src/slv/axi4_slave_agent.sv(82) @ 0: uvm_test_top.env.slave_agent [axi4_slave_agent] ACTIVE mode — ready_delay=[0:0] resp_delay=[0:0]
# UVM_INFO ../src/env/axi4_vip_env.sv(116) @ 0: uvm_test_top.env [axi4_vip_env] Scoreboard connected: master_mon.ap -> scb, slave_mon.ap -> scb
# UVM_INFO ../src/env/axi4_vip_env.sv(124) @ 0: uvm_test_top.env [axi4_vip_env] Coverage connected: master_mon.ap -> master_cov, slave_mon.ap -> slave_cov
# UVM_INFO @ 0: reporter [UVMTOP] UVM testbench topology:
# ---------------------------------------------------------------
# Name                       Type                     Size  Value
# ---------------------------------------------------------------
# uvm_test_top               axi4_outstanding_test    -     @473 
#   env                      axi4_vip_env             -     @496 
#     master_agent           axi4_master_agent        -     @511 
#       drv                  axi4_master_driver       -     @575 
#         rsp_port           uvm_analysis_port        -     @590 
#         seq_item_port      uvm_seq_item_pull_port   -     @582 
#       mon                  axi4_master_monitor      -     @567 
#         ap                 uvm_analysis_port        -     @708 
#       sqr                  axi4_master_sequencer    -     @598 
#         rsp_export         uvm_analysis_export      -     @605 
#         seq_item_export    uvm_seq_item_pull_imp    -     @699 
#         arbitration_queue  array                    0     -    
#         lock_queue         array                    0     -    
#         num_last_reqs      integral                 32    'd1  
#         num_last_rsps      integral                 32    'd1  
#     master_cov             axi4_coverage            -     @532 
#       analysis_imp         uvm_analysis_imp         -     @539 
#     scb                    axi4_scoreboard          -     @525 
#       master_export        uvm_analysis_imp_master  -     @722 
#       slave_export         uvm_analysis_imp_slave   -     @730 
#     slave_agent            axi4_slave_agent         -     @518 
#       drv                  axi4_slave_driver        -     @760 
#         rsp_port           uvm_analysis_port        -     @775 
#         seq_item_port      uvm_seq_item_pull_port   -     @767 
#       mon                  axi4_slave_monitor       -     @743 
#         ap                 uvm_analysis_port        -     @899 
#       sqr                  axi4_slave_sequencer     -     @783 
#         rsp_export         uvm_analysis_export      -     @790 
#         seq_item_export    uvm_seq_item_pull_imp    -     @884 
#         arbitration_queue  array                    0     -    
#         lock_queue         array                    0     -    
#         num_last_reqs      integral                 32    'd1  
#         num_last_rsps      integral                 32    'd1  
#     slave_cov              axi4_coverage            -     @547 
#       analysis_imp         uvm_analysis_imp         -     @554 
# ---------------------------------------------------------------
# 
# UVM_INFO verilog_src/questa_uvm_pkg-1.2/src/questa_uvm_pkg.sv(277) @ 0: reporter [Questa UVM] End Of Elaboration
# UVM_INFO ../src/test/axi4_outstanding_test.sv(69) @ 0: uvm_test_top [axi4_outstanding_test] Starting outstanding test with 15 writes, 15 reads, depth=4, r_reorder=1
# UVM_INFO ../src/seq/axi4_outstanding_seq.sv(49) @ 0: uvm_test_top.env.master_agent.sqr@@outstanding_seq [axi4_outstanding_seq] Starting outstanding sequence: writes=15, reads=15, depth=4
# UVM_INFO ../src/tb_top.sv(49) @ 95000: reporter [TOP_TB] Reset de-asserted
# UVM_INFO ../src/slv/axi4_slave_driver.sv(122) @ 95000: uvm_test_top.env.slave_agent.drv [axi4_slave_driver] Reset deasserted - slave driver active
# UVM_INFO ../src/mst/axi4_master_driver.sv(64) @ 95000: uvm_test_top.env.master_agent.drv [axi4_master_driver] Reset deasserted - master driver active
# UVM_INFO ../src/mst/axi4_master_monitor.sv(77) @ 95000: uvm_test_top.env.master_agent.mon [axi4_master_monitor] Reset deasserted - monitor active
# UVM_INFO ../src/slv/axi4_slave_monitor.sv(71) @ 95000: uvm_test_top.env.slave_agent.mon [axi4_slave_monitor] Reset deasserted - monitor active
# UVM_INFO ../src/seq/axi4_outstanding_seq.sv(74) @ 95000: uvm_test_top.env.master_agent.sqr@@outstanding_seq [axi4_outstanding_seq] Outstanding Write [#3] started: ID=0x9 ADDR=0x007970a4 LEN=15
# UVM_INFO ../src/mst/axi4_master_driver.sv(73) @ 95000: uvm_test_top.env.master_agent.drv [axi4_master_driver] Driving AXI4_WRITE  ID=0x9  ADDR=0x007970a4  LEN=15
# UVM_INFO ../src/seq/axi4_outstanding_seq.sv(74) @ 95000: uvm_test_top.env.master_agent.sqr@@outstanding_seq [axi4_outstanding_seq] Outstanding Write [#2] started: ID=0x0 ADDR=0xf9c151d9 LEN=67
# UVM_INFO ../src/mst/axi4_master_driver.sv(73) @ 95000: uvm_test_top.env.master_agent.drv [axi4_master_driver] Driving AXI4_WRITE  ID=0x0  ADDR=0xf9c151d9  LEN=67
# UVM_INFO ../src/seq/axi4_outstanding_seq.sv(74) @ 95000: uvm_test_top.env.master_agent.sqr@@outstanding_seq [axi4_outstanding_seq] Outstanding Write [#1] started: ID=0xd ADDR=0x5baa6686 LEN=58
# UVM_INFO ../src/mst/axi4_master_driver.sv(73) @ 95000: uvm_test_top.env.master_agent.drv [axi4_master_driver] Driving AXI4_WRITE  ID=0xd  ADDR=0x5baa6686  LEN=58
# UVM_INFO ../src/seq/axi4_outstanding_seq.sv(74) @ 95000: uvm_test_top.env.master_agent.sqr@@outstanding_seq [axi4_outstanding_seq] Outstanding Write [#0] started: ID=0x5 ADDR=0xbe19532a LEN=232
# UVM_INFO ../src/mst/axi4_master_driver.sv(73) @ 95000: uvm_test_top.env.master_agent.drv [axi4_master_driver] Driving AXI4_WRITE  ID=0x5  ADDR=0xbe19532a  LEN=232
# UVM_INFO ../src/seq/axi4_outstanding_seq.sv(113) @ 95000: uvm_test_top.env.master_agent.sqr@@outstanding_seq [axi4_outstanding_seq] Outstanding Read [#3] started: ID=0xc ADDR=0x6402bc0e LEN=146
# UVM_INFO ../src/mst/axi4_master_driver.sv(73) @ 95000: uvm_test_top.env.master_agent.drv [axi4_master_driver] Driving AXI4_READ  ID=0xc  ADDR=0x6402bc0e  LEN=146
# UVM_INFO ../src/seq/axi4_outstanding_seq.sv(113) @ 95000: uvm_test_top.env.master_agent.sqr@@outstanding_seq [axi4_outstanding_seq] Outstanding Read [#2] started: ID=0x6 ADDR=0xde49d7e8 LEN=15
# UVM_INFO ../src/mst/axi4_master_driver.sv(73) @ 95000: uvm_test_top.env.master_agent.drv [axi4_master_driver] Driving AXI4_READ  ID=0x6  ADDR=0xde49d7e8  LEN=15
# UVM_INFO ../src/seq/axi4_outstanding_seq.sv(113) @ 95000: uvm_test_top.env.master_agent.sqr@@outstanding_seq [axi4_outstanding_seq] Outstanding Read [#1] started: ID=0x6 ADDR=0xc5df9d7c LEN=76
# UVM_INFO ../src/mst/axi4_master_driver.sv(73) @ 95000: uvm_test_top.env.master_agent.drv [axi4_master_driver] Driving AXI4_READ  ID=0x6  ADDR=0xc5df9d7c  LEN=76
# UVM_INFO ../src/seq/axi4_outstanding_seq.sv(113) @ 95000: uvm_test_top.env.master_agent.sqr@@outstanding_seq [axi4_outstanding_seq] Outstanding Read [#0] started: ID=0x2 ADDR=0x4133a6e9 LEN=12
# UVM_INFO ../src/mst/axi4_master_driver.sv(73) @ 95000: uvm_test_top.env.master_agent.drv [axi4_master_driver] Driving AXI4_READ  ID=0x2  ADDR=0x4133a6e9  LEN=12
# UVM_INFO ../src/slv/axi4_slave_driver.sv(358) @ 115000: uvm_test_top.env.slave_agent.drv [axi4_slave_driver] AR received: ID=0xc ADDR=0x6402bc0e LEN=146 LOCK=AXI4_LOCK_NORMAL
# UVM_INFO ../src/slv/axi4_slave_driver.sv(212) @ 115000: uvm_test_top.env.slave_agent.drv [axi4_slave_driver] AW received: ID=0x9 ADDR=0x007970a4 LEN=15 LOCK=AXI4_LOCK_EXCLUSIVE
# UVM_INFO ../src/slv/axi4_slave_monitor.sv(224) @ 115000: uvm_test_top.env.slave_agent.mon [axi4_slave_monitor] AR received: ID=0xc ADDR=0x6402bc0e LEN=146
# UVM_INFO ../src/slv/axi4_slave_monitor.sv(116) @ 115000: uvm_test_top.env.slave_agent.mon [axi4_slave_monitor] AW received: ID=0x9 ADDR=0x007970a4 LEN=15
# UVM_INFO ../src/mst/axi4_master_monitor.sv(246) @ 115000: uvm_test_top.env.master_agent.mon [axi4_master_monitor] AR observed: ID=0xc ADDR=0x6402bc0e LEN=146
# UVM_INFO ../src/mst/axi4_master_monitor.sv(124) @ 115000: uvm_test_top.env.master_agent.mon [axi4_master_monitor] AW observed: ID=0x9 ADDR=0x007970a4 LEN=15
# UVM_INFO ../src/slv/axi4_slave_driver.sv(212) @ 145000: uvm_test_top.env.slave_agent.drv [axi4_slave_driver] AW received: ID=0x0 ADDR=0xf9c151d9 LEN=67 LOCK=AXI4_LOCK_EXCLUSIVE
# UVM_INFO ../src/slv/axi4_slave_driver.sv(358) @ 145000: uvm_test_top.env.slave_agent.drv [axi4_slave_driver] AR received: ID=0x6 ADDR=0xde49d7e8 LEN=15 LOCK=AXI4_LOCK_EXCLUSIVE
# UVM_INFO ../src/mst/axi4_master_monitor.sv(124) @ 145000: uvm_test_top.env.master_agent.mon [axi4_master_monitor] AW observed: ID=0x0 ADDR=0xf9c151d9 LEN=67
# UVM_INFO ../src/mst/axi4_master_monitor.sv(246) @ 145000: uvm_test_top.env.master_agent.mon [axi4_master_monitor] AR observed: ID=0x6 ADDR=0xde49d7e8 LEN=15
# UVM_INFO ../src/slv/axi4_slave_monitor.sv(116) @ 145000: uvm_test_top.env.slave_agent.mon [axi4_slave_monitor] AW received: ID=0x0 ADDR=0xf9c151d9 LEN=67
# UVM_INFO ../src/slv/axi4_slave_monitor.sv(224) @ 145000: uvm_test_top.env.slave_agent.mon [axi4_slave_monitor] AR received: ID=0x6 ADDR=0xde49d7e8 LEN=15
# UVM_INFO ../src/slv/axi4_slave_driver.sv(358) @ 175000: uvm_test_top.env.slave_agent.drv [axi4_slave_driver] AR received: ID=0x6 ADDR=0xc5df9d7c LEN=76 LOCK=AXI4_LOCK_EXCLUSIVE
# UVM_INFO ../src/slv/axi4_slave_monitor.sv(224) @ 175000: uvm_test_top.env.slave_agent.mon [axi4_slave_monitor] AR received: ID=0x6 ADDR=0xc5df9d7c LEN=76
# UVM_INFO ../src/mst/axi4_master_monitor.sv(246) @ 175000: uvm_test_top.env.master_agent.mon [axi4_master_monitor] AR observed: ID=0x6 ADDR=0xc5df9d7c LEN=76
# UVM_INFO ../src/slv/axi4_slave_driver.sv(358) @ 205000: uvm_test_top.env.slave_agent.drv [axi4_slave_driver] AR received: ID=0x2 ADDR=0x4133a6e9 LEN=12 LOCK=AXI4_LOCK_NORMAL
# UVM_INFO ../src/mst/axi4_master_monitor.sv(246) @ 205000: uvm_test_top.env.master_agent.mon [axi4_master_monitor] AR observed: ID=0x2 ADDR=0x4133a6e9 LEN=12
# UVM_INFO ../src/slv/axi4_slave_monitor.sv(224) @ 205000: uvm_test_top.env.slave_agent.mon [axi4_slave_monitor] AR received: ID=0x2 ADDR=0x4133a6e9 LEN=12
# UVM_INFO ../src/slv/axi4_slave_monitor.sv(167) @ 435000: uvm_test_top.env.slave_agent.mon [axi4_slave_monitor] W data assembled: ID=0x9 ADDR=0x007970a4 16 beats
# UVM_INFO ../src/mst/axi4_master_monitor.sv(184) @ 435000: uvm_test_top.env.master_agent.mon [axi4_master_monitor] W data assembled: ID=0x9 ADDR=0x007970a4 16 beats
# UVM_INFO ../src/mst/axi4_master_driver.sv(289) @ 465000: uvm_test_top.env.master_agent.drv [axi4_master_driver] Master driver received B response: ID=0x9 RESP=AXI4_RESP_OKAY
# UVM_INFO ../src/mst/axi4_master_driver.sv(348) @ 465000: uvm_test_top.env.master_agent.drv [axi4_master_driver] Master driver received all R beats for ID=0x6
# UVM_INFO ../src/slv/axi4_slave_driver.sv(464) @ 465000: uvm_test_top.env.slave_agent.drv [axi4_slave_driver] Read complete: ID=0x6 ADDR=0xde49d7e8 RESP=AXI4_RESP_EXOKAY  16 beats sent
# UVM_INFO ../src/slv/axi4_slave_driver.sv(320) @ 465000: uvm_test_top.env.slave_agent.drv [axi4_slave_driver] Write complete: ID=0x9 RESP=AXI4_RESP_OKAY
# UVM_INFO ../src/mst/axi4_master_monitor.sv(210) @ 465000: uvm_test_top.env.master_agent.mon [axi4_master_monitor] Write complete: ID=0x9 ADDR=0x007970a4 RESP=AXI4_RESP_OKAY
# UVM_INFO ../src/env/axi4_scoreboard.sv(87) @ 465000: uvm_test_top.env.scb [axi4_scoreboard] Master AXI4_WRITE received: ID=0x9 ADDR=0x007970a4 LEN=15
# UVM_INFO ../src/mst/axi4_master_monitor.sv(314) @ 465000: uvm_test_top.env.master_agent.mon [axi4_master_monitor] Read complete: ID=0x6 ADDR=0xde49d7e8 16 beats
# UVM_INFO ../src/env/axi4_scoreboard.sv(87) @ 465000: uvm_test_top.env.scb [axi4_scoreboard] Master AXI4_READ received: ID=0x6 ADDR=0xde49d7e8 LEN=15
# UVM_INFO ../src/slv/axi4_slave_monitor.sv(189) @ 465000: uvm_test_top.env.slave_agent.mon [axi4_slave_monitor] Write response sent: ID=0x9 ADDR=0x007970a4 RESP=AXI4_RESP_OKAY
# UVM_INFO ../src/env/axi4_scoreboard.sv(108) @ 465000: uvm_test_top.env.scb [axi4_scoreboard] Slave AXI4_WRITE received: ID=0x9 ADDR=0x007970a4 LEN=15
# UVM_INFO ../src/env/axi4_scoreboard.sv(291) @ 465000: uvm_test_top.env.scb [axi4_scoreboard] [WRITE] MATCH #1: ID=0x9 ADDR=0x007970a4 LEN=15
# UVM_INFO ../src/env/axi4_scoreboard.sv(226) @ 465000: uvm_test_top.env.scb [axi4_scoreboard] [REF_MEM_WRITE_IGNORED] Write ignored for ADDR=0x007970a4 LOCK=AXI4_LOCK_EXCLUSIVE RESP=AXI4_RESP_OKAY
# UVM_INFO ../src/slv/axi4_slave_monitor.sv(287) @ 465000: uvm_test_top.env.slave_agent.mon [axi4_slave_monitor] Read data sent: ID=0x6 ADDR=0xde49d7e8 16 beats
# UVM_INFO ../src/env/axi4_scoreboard.sv(108) @ 465000: uvm_test_top.env.scb [axi4_scoreboard] Slave AXI4_READ received: ID=0x6 ADDR=0xde49d7e8 LEN=15
# UVM_INFO ../src/env/axi4_scoreboard.sv(291) @ 465000: uvm_test_top.env.scb [axi4_scoreboard] [READ] MATCH #2: ID=0x6 ADDR=0xde49d7e8 LEN=15
# UVM_INFO ../src/seq/axi4_outstanding_seq.sv(84) @ 465000: uvm_test_top.env.master_agent.sqr@@outstanding_seq [axi4_outstanding_seq] Outstanding Write [#3] complete: ID=0x9
# UVM_INFO ../src/seq/axi4_outstanding_seq.sv(123) @ 465000: uvm_test_top.env.master_agent.sqr@@outstanding_seq [axi4_outstanding_seq] Outstanding Read [#2] complete: ID=0x6
# UVM_INFO ../src/seq/axi4_outstanding_seq.sv(74) @ 465000: uvm_test_top.env.master_agent.sqr@@outstanding_seq [axi4_outstanding_seq] Outstanding Write [#4] started: ID=0xf ADDR=0x377c1f0c LEN=234
# UVM_INFO ../src/mst/axi4_master_driver.sv(73) @ 465000: uvm_test_top.env.master_agent.drv [axi4_master_driver] Driving AXI4_WRITE  ID=0xf  ADDR=0x377c1f0c  LEN=234
# UVM_INFO ../src/seq/axi4_outstanding_seq.sv(113) @ 465000: uvm_test_top.env.master_agent.sqr@@outstanding_seq [axi4_outstanding_seq] Outstanding Read [#4] started: ID=0x3 ADDR=0x6631536a LEN=37
# UVM_INFO ../src/mst/axi4_master_driver.sv(73) @ 465000: uvm_test_top.env.master_agent.drv [axi4_master_driver] Driving AXI4_READ  ID=0x3  ADDR=0x6631536a  LEN=37
# UVM_INFO ../src/slv/axi4_slave_driver.sv(358) @ 495000: uvm_test_top.env.slave_agent.drv [axi4_slave_driver] AR received: ID=0x3 ADDR=0x6631536a LEN=37 LOCK=AXI4_LOCK_NORMAL
# UVM_INFO ../src/slv/axi4_slave_monitor.sv(224) @ 495000: uvm_test_top.env.slave_agent.mon [axi4_slave_monitor] AR received: ID=0x3 ADDR=0x6631536a LEN=37
# UVM_INFO ../src/mst/axi4_master_monitor.sv(246) @ 495000: uvm_test_top.env.master_agent.mon [axi4_master_monitor] AR observed: ID=0x3 ADDR=0x6631536a LEN=37
# UVM_INFO ../src/slv/axi4_slave_monitor.sv(167) @ 1795000: uvm_test_top.env.slave_agent.mon [axi4_slave_monitor] W data assembled: ID=0x0 ADDR=0xf9c151d9 68 beats
# UVM_INFO ../src/mst/axi4_master_monitor.sv(184) @ 1795000: uvm_test_top.env.master_agent.mon [axi4_master_monitor] W data assembled: ID=0x0 ADDR=0xf9c151d9 68 beats
# UVM_INFO ../src/mst/axi4_master_driver.sv(289) @ 1825000: uvm_test_top.env.master_agent.drv [axi4_master_driver] Master driver received B response: ID=0x0 RESP=AXI4_RESP_DECERR
# UVM_INFO ../src/slv/axi4_slave_driver.sv(320) @ 1825000: uvm_test_top.env.slave_agent.drv [axi4_slave_driver] Write complete: ID=0x0 RESP=AXI4_RESP_DECERR
# UVM_INFO ../src/mst/axi4_master_monitor.sv(210) @ 1825000: uvm_test_top.env.master_agent.mon [axi4_master_monitor] Write complete: ID=0x0 ADDR=0xf9c151d9 RESP=AXI4_RESP_DECERR
# UVM_INFO ../src/env/axi4_scoreboard.sv(87) @ 1825000: uvm_test_top.env.scb [axi4_scoreboard] Master AXI4_WRITE received: ID=0x0 ADDR=0xf9c151d9 LEN=67
# UVM_INFO ../src/slv/axi4_slave_monitor.sv(189) @ 1825000: uvm_test_top.env.slave_agent.mon [axi4_slave_monitor] Write response sent: ID=0x0 ADDR=0xf9c151d9 RESP=AXI4_RESP_DECERR
# UVM_INFO ../src/env/axi4_scoreboard.sv(108) @ 1825000: uvm_test_top.env.scb [axi4_scoreboard] Slave AXI4_WRITE received: ID=0x0 ADDR=0xf9c151d9 LEN=67
# UVM_INFO ../src/env/axi4_scoreboard.sv(291) @ 1825000: uvm_test_top.env.scb [axi4_scoreboard] [WRITE] MATCH #3: ID=0x0 ADDR=0xf9c151d9 LEN=67
# UVM_INFO ../src/env/axi4_scoreboard.sv(226) @ 1825000: uvm_test_top.env.scb [axi4_scoreboard] [REF_MEM_WRITE_IGNORED] Write ignored for ADDR=0xf9c151d9 LOCK=AXI4_LOCK_EXCLUSIVE RESP=AXI4_RESP_DECERR
# UVM_INFO ../src/seq/axi4_outstanding_seq.sv(84) @ 1825000: uvm_test_top.env.master_agent.sqr@@outstanding_seq [axi4_outstanding_seq] Outstanding Write [#2] complete: ID=0x0
# UVM_INFO ../src/seq/axi4_outstanding_seq.sv(74) @ 1825000: uvm_test_top.env.master_agent.sqr@@outstanding_seq [axi4_outstanding_seq] Outstanding Write [#5] started: ID=0xb ADDR=0xbfbb030a LEN=232
# UVM_INFO ../src/mst/axi4_master_driver.sv(73) @ 1825000: uvm_test_top.env.master_agent.drv [axi4_master_driver] Driving AXI4_WRITE  ID=0xb  ADDR=0xbfbb030a  LEN=232
# UVM_INFO ../src/slv/axi4_slave_driver.sv(212) @ 1865000: uvm_test_top.env.slave_agent.drv [axi4_slave_driver] AW received: ID=0xd ADDR=0x5baa6686 LEN=58 LOCK=AXI4_LOCK_NORMAL
# UVM_INFO ../src/mst/axi4_master_monitor.sv(124) @ 1865000: uvm_test_top.env.master_agent.mon [axi4_master_monitor] AW observed: ID=0xd ADDR=0x5baa6686 LEN=58
# UVM_INFO ../src/slv/axi4_slave_monitor.sv(116) @ 1865000: uvm_test_top.env.slave_agent.mon [axi4_slave_monitor] AW received: ID=0xd ADDR=0x5baa6686 LEN=58
# UVM_INFO ../src/slv/axi4_slave_driver.sv(212) @ 1895000: uvm_test_top.env.slave_agent.drv [axi4_slave_driver] AW received: ID=0x5 ADDR=0xbe19532a LEN=232 LOCK=AXI4_LOCK_EXCLUSIVE
# UVM_INFO ../src/slv/axi4_slave_monitor.sv(116) @ 1895000: uvm_test_top.env.slave_agent.mon [axi4_slave_monitor] AW received: ID=0x5 ADDR=0xbe19532a LEN=232
# UVM_INFO ../src/mst/axi4_master_monitor.sv(124) @ 1895000: uvm_test_top.env.master_agent.mon [axi4_master_monitor] AW observed: ID=0x5 ADDR=0xbe19532a LEN=232
# UVM_INFO ../src/slv/axi4_slave_driver.sv(212) @ 1925000: uvm_test_top.env.slave_agent.drv [axi4_slave_driver] AW received: ID=0xf ADDR=0x377c1f0c LEN=234 LOCK=AXI4_LOCK_EXCLUSIVE
# UVM_INFO ../src/mst/axi4_master_monitor.sv(124) @ 1925000: uvm_test_top.env.master_agent.mon [axi4_master_monitor] AW observed: ID=0xf ADDR=0x377c1f0c LEN=234
# UVM_INFO ../src/slv/axi4_slave_monitor.sv(116) @ 1925000: uvm_test_top.env.slave_agent.mon [axi4_slave_monitor] AW received: ID=0xf ADDR=0x377c1f0c LEN=234
# UVM_INFO ../src/slv/axi4_slave_driver.sv(212) @ 1955000: uvm_test_top.env.slave_agent.drv [axi4_slave_driver] AW received: ID=0xb ADDR=0xbfbb030a LEN=232 LOCK=AXI4_LOCK_EXCLUSIVE
# UVM_INFO ../src/slv/axi4_slave_monitor.sv(116) @ 1955000: uvm_test_top.env.slave_agent.mon [axi4_slave_monitor] AW received: ID=0xb ADDR=0xbfbb030a LEN=232
# UVM_INFO ../src/mst/axi4_master_monitor.sv(124) @ 1955000: uvm_test_top.env.master_agent.mon [axi4_master_monitor] AW observed: ID=0xb ADDR=0xbfbb030a LEN=232
# UVM_INFO ../src/slv/axi4_slave_monitor.sv(167) @ 2975000: uvm_test_top.env.slave_agent.mon [axi4_slave_monitor] W data assembled: ID=0xd ADDR=0x5baa6686 59 beats
# UVM_INFO ../src/mst/axi4_master_monitor.sv(184) @ 2975000: uvm_test_top.env.master_agent.mon [axi4_master_monitor] W data assembled: ID=0xd ADDR=0x5baa6686 59 beats
# UVM_INFO ../src/mst/axi4_master_driver.sv(289) @ 3005000: uvm_test_top.env.master_agent.drv [axi4_master_driver] Master driver received B response: ID=0xd RESP=AXI4_RESP_OKAY
# UVM_INFO ../src/slv/axi4_slave_driver.sv(320) @ 3005000: uvm_test_top.env.slave_agent.drv [axi4_slave_driver] Write complete: ID=0xd RESP=AXI4_RESP_OKAY
# UVM_INFO ../src/mst/axi4_master_monitor.sv(210) @ 3005000: uvm_test_top.env.master_agent.mon [axi4_master_monitor] Write complete: ID=0xd ADDR=0x5baa6686 RESP=AXI4_RESP_OKAY
# UVM_INFO ../src/env/axi4_scoreboard.sv(87) @ 3005000: uvm_test_top.env.scb [axi4_scoreboard] Master AXI4_WRITE received: ID=0xd ADDR=0x5baa6686 LEN=58
# UVM_INFO ../src/slv/axi4_slave_monitor.sv(189) @ 3005000: uvm_test_top.env.slave_agent.mon [axi4_slave_monitor] Write response sent: ID=0xd ADDR=0x5baa6686 RESP=AXI4_RESP_OKAY
# UVM_INFO ../src/env/axi4_scoreboard.sv(108) @ 3005000: uvm_test_top.env.scb [axi4_scoreboard] Slave AXI4_WRITE received: ID=0xd ADDR=0x5baa6686 LEN=58
# UVM_INFO ../src/env/axi4_scoreboard.sv(291) @ 3005000: uvm_test_top.env.scb [axi4_scoreboard] [WRITE] MATCH #4: ID=0xd ADDR=0x5baa6686 LEN=58
# UVM_INFO ../src/env/axi4_scoreboard.sv(219) @ 3005000: uvm_test_top.env.scb [axi4_scoreboard] [REF_MEM_WRITE] Addr=0x5baa6684 Data=0x51
# UVM_INFO ../src/env/axi4_scoreboard.sv(219) @ 3005000: uvm_test_top.env.scb [axi4_scoreboard] [REF_MEM_WRITE] Addr=0x5baa6685 Data=0xa6
# UVM_INFO ../src/env/axi4_scoreboard.sv(219) @ 3005000: uvm_test_top.env.scb [axi4_scoreboard] [REF_MEM_WRITE] Addr=0x5baa6686 Data=0x4f
# UVM_INFO ../src/env/axi4_scoreboard.sv(219) @ 3005000: uvm_test_top.env.scb [axi4_scoreboard] [REF_MEM_WRITE] Addr=0x5baa6685 Data=0x7c
# UVM_INFO ../src/env/axi4_scoreboard.sv(219) @ 3005000: uvm_test_top.env.scb [axi4_scoreboard] [REF_MEM_WRITE] Addr=0x5baa6686 Data=0xc0
# UVM_INFO ../src/env/axi4_scoreboard.sv(219) @ 3005000: uvm_test_top.env.scb [axi4_scoreboard] [REF_MEM_WRITE] Addr=0x5baa6688 Data=0x91
# UVM_INFO ../src/env/axi4_scoreboard.sv(219) @ 3005000: uvm_test_top.env.scb [axi4_scoreboard] [REF_MEM_WRITE] Addr=0x5baa668a Data=0x28
# UVM_INFO ../src/env/axi4_scoreboard.sv(219) @ 3005000: uvm_test_top.env.scb [axi4_scoreboard] [REF_MEM_WRITE] Addr=0x5baa668b Data=0xd3
# UVM_INFO ../src/env/axi4_scoreboard.sv(219) @ 3005000: uvm_test_top.env.scb [axi4_scoreboard] [REF_MEM_WRITE] Addr=0x5baa6688 Data=0xee
# UVM_INFO ../src/env/axi4_scoreboard.sv(219) @ 3005000: uvm_test_top.env.scb [axi4_scoreboard] [REF_MEM_WRITE] Addr=0x5baa6689 Data=0x5b
# UVM_INFO ../src/env/axi4_scoreboard.sv(219) @ 3005000: uvm_test_top.env.scb [axi4_scoreboard] [REF_MEM_WRITE] Addr=0x5baa6689 Data=0xcd
# UVM_INFO ../src/env/axi4_scoreboard.sv(219) @ 3005000: uvm_test_top.env.scb [axi4_scoreboard] [REF_MEM_WRITE] Addr=0x5baa668a Data=0x9b
# UVM_INFO ../src/env/axi4_scoreboard.sv(219) @ 3005000: uvm_test_top.env.scb [axi4_scoreboard] [REF_MEM_WRITE] Addr=0x5baa668c Data=0xe7
# UVM_INFO ../src/env/axi4_scoreboard.sv(219) @ 3005000: uvm_test_top.env.scb [axi4_scoreboard] [REF_MEM_WRITE] Addr=0x5baa668e Data=0xd9
# UVM_INFO ../src/env/axi4_scoreboard.sv(219) @ 3005000: uvm_test_top.env.scb [axi4_scoreboard] [REF_MEM_WRITE] Addr=0x5baa668d Data=0xcf
# UVM_INFO ../src/env/axi4_scoreboard.sv(219) @ 3005000: uvm_test_top.env.scb [axi4_scoreboard] [REF_MEM_WRITE] Addr=0x5baa668e Data=0x5b
# UVM_INFO ../src/env/axi4_scoreboard.sv(219) @ 3005000: uvm_test_top.env.scb [axi4_scoreboard] [REF_MEM_WRITE] Addr=0x5baa668f Data=0xd0
# UVM_INFO ../src/env/axi4_scoreboard.sv(219) @ 3005000: uvm_test_top.env.scb [axi4_scoreboard] [REF_MEM_WRITE] Addr=0x5baa668d Data=0x9a
# UVM_INFO ../src/env/axi4_scoreboard.sv(219) @ 3005000: uvm_test_top.env.scb [axi4_scoreboard] [REF_MEM_WRITE] Addr=0x5baa668f Data=0x15
# UVM_INFO ../src/env/axi4_scoreboard.sv(219) @ 3005000: uvm_test_top.env.scb [axi4_scoreboard] [REF_MEM_WRITE] Addr=0x5baa668c Data=0x93
# UVM_INFO ../src/env/axi4_scoreboard.sv(219) @ 3005000: uvm_test_top.env.scb [axi4_scoreboard] [REF_MEM_WRITE] Addr=0x5baa6691 Data=0x3a
# UVM_INFO ../src/env/axi4_scoreboard.sv(219) @ 3005000: uvm_test_top.env.scb [axi4_scoreboard] [REF_MEM_WRITE] Addr=0x5baa6691 Data=0xf7
# UVM_INFO ../src/env/axi4_scoreboard.sv(219) @ 3005000: uvm_test_top.env.scb [axi4_scoreboard] [REF_MEM_WRITE] Addr=0x5baa6693 Data=0x35
# UVM_INFO ../src/env/axi4_scoreboard.sv(219) @ 3005000: uvm_test_top.env.scb [axi4_scoreboard] [REF_MEM_WRITE] Addr=0x5baa6690 Data=0x1f
# UVM_INFO ../src/env/axi4_scoreboard.sv(219) @ 3005000: uvm_test_top.env.scb [axi4_scoreboard] [REF_MEM_WRITE] Addr=0x5baa6692 Data=0x53
# UVM_INFO ../src/env/axi4_scoreboard.sv(219) @ 3005000: uvm_test_top.env.scb [axi4_scoreboard] [REF_MEM_WRITE] Addr=0x5baa6690 Data=0xe3
# UVM_INFO ../src/env/axi4_scoreboard.sv(219) @ 3005000: uvm_test_top.env.scb [axi4_scoreboard] [REF_MEM_WRITE] Addr=0x5baa6691 Data=0xeb
# UVM_INFO ../src/env/axi4_scoreboard.sv(219) @ 3005000: uvm_test_top.env.scb [axi4_scoreboard] [REF_MEM_WRITE] Addr=0x5baa6694 Data=0x28
# UVM_INFO ../src/env/axi4_scoreboard.sv(219) @ 3005000: uvm_test_top.env.scb [axi4_scoreboard] [REF_MEM_WRITE] Addr=0x5baa6696 Data=0x16
# UVM_INFO ../src/env/axi4_scoreboard.sv(219) @ 3005000: uvm_test_top.env.scb [axi4_scoreboard] [REF_MEM_WRITE] Addr=0x5baa6694 Data=0x2a
# UVM_INFO ../src/env/axi4_scoreboard.sv(219) @ 3005000: uvm_test_top.env.scb [axi4_scoreboard] [REF_MEM_WRITE] Addr=0x5baa6695 Data=0x82
# UVM_INFO ../src/env/axi4_scoreboard.sv(219) @ 3005000: uvm_test_top.env.scb [axi4_scoreboard] [REF_MEM_WRITE] Addr=0x5baa6697 Data=0xd4
# UVM_INFO ../src/env/axi4_scoreboard.sv(219) @ 3005000: uvm_test_top.env.scb [axi4_scoreboard] [REF_MEM_WRITE] Addr=0x5baa6695 Data=0x1e
# UVM_INFO ../src/env/axi4_scoreboard.sv(219) @ 3005000: uvm_test_top.env.scb [axi4_scoreboard] [REF_MEM_WRITE] Addr=0x5baa6697 Data=0x4b
# UVM_INFO ../src/env/axi4_scoreboard.sv(219) @ 3005000: uvm_test_top.env.scb [axi4_scoreboard] [REF_MEM_WRITE] Addr=0x5baa669b Data=0xe4
# UVM_INFO ../src/env/axi4_scoreboard.sv(219) @ 3005000: uvm_test_top.env.scb [axi4_scoreboard] [REF_MEM_WRITE] Addr=0x5baa6698 Data=0xc4
# UVM_INFO ../src/env/axi4_scoreboard.sv(219) @ 3005000: uvm_test_top.env.scb [axi4_scoreboard] [REF_MEM_WRITE] Addr=0x5baa6699 Data=0x94
# UVM_INFO ../src/env/axi4_scoreboard.sv(219) @ 3005000: uvm_test_top.env.scb [axi4_scoreboard] [REF_MEM_WRITE] Addr=0x5baa669a Data=0x8d
# UVM_INFO ../src/env/axi4_scoreboard.sv(219) @ 3005000: uvm_test_top.env.scb [axi4_scoreboard] [REF_MEM_WRITE] Addr=0x5baa669b Data=0x8a
# UVM_INFO ../src/env/axi4_scoreboard.sv(219) @ 3005000: uvm_test_top.env.scb [axi4_scoreboard] [REF_MEM_WRITE] Addr=0x5baa6699 Data=0x6e
# UVM_INFO ../src/env/axi4_scoreboard.sv(219) @ 3005000: uvm_test_top.env.scb [axi4_scoreboard] [REF_MEM_WRITE] Addr=0x5baa669b Data=0xda
# UVM_INFO ../src/env/axi4_scoreboard.sv(219) @ 3005000: uvm_test_top.env.scb [axi4_scoreboard] [REF_MEM_WRITE] Addr=0x5baa6698 Data=0x41
# UVM_INFO ../src/env/axi4_scoreboard.sv(219) @ 3005000: uvm_test_top.env.scb [axi4_scoreboard] [REF_MEM_WRITE] Addr=0x5baa6699 Data=0xd0
# UVM_INFO ../src/env/axi4_scoreboard.sv(219) @ 3005000: uvm_test_top.env.scb [axi4_scoreboard] [REF_MEM_WRITE] Addr=0x5baa669a Data=0x49
# UVM_INFO ../src/env/axi4_scoreboard.sv(219) @ 3005000: uvm_test_top.env.scb [axi4_scoreboard] [REF_MEM_WRITE] Addr=0x5baa669d Data=0x4a
# UVM_INFO ../src/env/axi4_scoreboard.sv(219) @ 3005000: uvm_test_top.env.scb [axi4_scoreboard] [REF_MEM_WRITE] Addr=0x5baa669d Data=0x0c
# UVM_INFO ../src/env/axi4_scoreboard.sv(219) @ 3005000: uvm_test_top.env.scb [axi4_scoreboard] [REF_MEM_WRITE] Addr=0x5baa669f Data=0xf1
# UVM_INFO ../src/env/axi4_scoreboard.sv(219) @ 3005000: uvm_test_top.env.scb [axi4_scoreboard] [REF_MEM_WRITE] Addr=0x5baa669c Data=0xe4
# UVM_INFO ../src/env/axi4_scoreboard.sv(219) @ 3005000: uvm_test_top.env.scb [axi4_scoreboard] [REF_MEM_WRITE] Addr=0x5baa669f Data=0xe0
# UVM_INFO ../src/env/axi4_scoreboard.sv(219) @ 3005000: uvm_test_top.env.scb [axi4_scoreboard] [REF_MEM_WRITE] Addr=0x5baa66a1 Data=0x59
# UVM_INFO ../src/env/axi4_scoreboard.sv(219) @ 3005000: uvm_test_top.env.scb [axi4_scoreboard] [REF_MEM_WRITE] Addr=0x5baa66a3 Data=0x91
# UVM_INFO ../src/env/axi4_scoreboard.sv(219) @ 3005000: uvm_test_top.env.scb [axi4_scoreboard] [REF_MEM_WRITE] Addr=0x5baa66a0 Data=0x6f
# UVM_INFO ../src/env/axi4_scoreboard.sv(219) @ 3005000: uvm_test_top.env.scb [axi4_scoreboard] [REF_MEM_WRITE] Addr=0x5baa66a1 Data=0x7f
# UVM_INFO ../src/env/axi4_scoreboard.sv(219) @ 3005000: uvm_test_top.env.scb [axi4_scoreboard] [REF_MEM_WRITE] Addr=0x5baa66a2 Data=0xc2
# UVM_INFO ../src/env/axi4_scoreboard.sv(219) @ 3005000: uvm_test_top.env.scb [axi4_scoreboard] [REF_MEM_WRITE] Addr=0x5baa66a0 Data=0x4f
# UVM_INFO ../src/env/axi4_scoreboard.sv(219) @ 3005000: uvm_test_top.env.scb [axi4_scoreboard] [REF_MEM_WRITE] Addr=0x5baa66a1 Data=0x5e
# UVM_INFO ../src/env/axi4_scoreboard.sv(219) @ 3005000: uvm_test_top.env.scb [axi4_scoreboard] [REF_MEM_WRITE] Addr=0x5baa66a3 Data=0xe2
# UVM_INFO ../src/env/axi4_scoreboard.sv(219) @ 3005000: uvm_test_top.env.scb [axi4_scoreboard] [REF_MEM_WRITE] Addr=0x5baa66a0 Data=0x8f
# UVM_INFO ../src/env/axi4_scoreboard.sv(219) @ 3005000: uvm_test_top.env.scb [axi4_scoreboard] [REF_MEM_WRITE] Addr=0x5baa66a1 Data=0xcc
# UVM_INFO ../src/env/axi4_scoreboard.sv(219) @ 3005000: uvm_test_top.env.scb [axi4_scoreboard] [REF_MEM_WRITE] Addr=0x5baa66a2 Data=0x08
# UVM_INFO ../src/env/axi4_scoreboard.sv(219) @ 3005000: uvm_test_top.env.scb [axi4_scoreboard] [REF_MEM_WRITE] Addr=0x5baa66a6 Data=0x7c
# UVM_INFO ../src/env/axi4_scoreboard.sv(219) @ 3005000: uvm_test_top.env.scb [axi4_scoreboard] [REF_MEM_WRITE] Addr=0x5baa66a7 Data=0x32
# UVM_INFO ../src/env/axi4_scoreboard.sv(219) @ 3005000: uvm_test_top.env.scb [axi4_scoreboard] [REF_MEM_WRITE] Addr=0x5baa66a4 Data=0x5f
# UVM_INFO ../src/env/axi4_scoreboard.sv(219) @ 3005000: uvm_test_top.env.scb [axi4_scoreboard] [REF_MEM_WRITE] Addr=0x5baa66a5 Data=0x74
# UVM_INFO ../src/env/axi4_scoreboard.sv(219) @ 3005000: uvm_test_top.env.scb [axi4_scoreboard] [REF_MEM_WRITE] Addr=0x5baa66a7 Data=0xb6
# UVM_INFO ../src/env/axi4_scoreboard.sv(219) @ 3005000: uvm_test_top.env.scb [axi4_scoreboard] [REF_MEM_WRITE] Addr=0x5baa66a4 Data=0x19
# UVM_INFO ../src/env/axi4_scoreboard.sv(219) @ 3005000: uvm_test_top.env.scb [axi4_scoreboard] [REF_MEM_WRITE] Addr=0x5baa66a5 Data=0xbd
# UVM_INFO ../src/env/axi4_scoreboard.sv(219) @ 3005000: uvm_test_top.env.scb [axi4_scoreboard] [REF_MEM_WRITE] Addr=0x5baa66a6 Data=0xae
# UVM_INFO ../src/env/axi4_scoreboard.sv(219) @ 3005000: uvm_test_top.env.scb [axi4_scoreboard] [REF_MEM_WRITE] Addr=0x5baa66a4 Data=0x3b
# UVM_INFO ../src/env/axi4_scoreboard.sv(219) @ 3005000: uvm_test_top.env.scb [axi4_scoreboard] [REF_MEM_WRITE] Addr=0x5baa66aa Data=0x16
# UVM_INFO ../src/env/axi4_scoreboard.sv(219) @ 3005000: uvm_test_top.env.scb [axi4_scoreboard] [REF_MEM_WRITE] Addr=0x5baa66aa Data=0x2c
# UVM_INFO ../src/env/axi4_scoreboard.sv(219) @ 3005000: uvm_test_top.env.scb [axi4_scoreboard] [REF_MEM_WRITE] Addr=0x5baa66ab Data=0x52
# UVM_INFO ../src/env/axi4_scoreboard.sv(219) @ 3005000: uvm_test_top.env.scb [axi4_scoreboard] [REF_MEM_WRITE] Addr=0x5baa66aa Data=0xe1
# UVM_INFO ../src/env/axi4_scoreboard.sv(219) @ 3005000: uvm_test_top.env.scb [axi4_scoreboard] [REF_MEM_WRITE] Addr=0x5baa66a8 Data=0x89
# UVM_INFO ../src/env/axi4_scoreboard.sv(219) @ 3005000: uvm_test_top.env.scb [axi4_scoreboard] [REF_MEM_WRITE] Addr=0x5baa66aa Data=0x3f
# UVM_INFO ../src/env/axi4_scoreboard.sv(219) @ 3005000: uvm_test_top.env.scb [axi4_scoreboard] [REF_MEM_WRITE] Addr=0x5baa66ac Data=0x1c
# UVM_INFO ../src/env/axi4_scoreboard.sv(219) @ 3005000: uvm_test_top.env.scb [axi4_scoreboard] [REF_MEM_WRITE] Addr=0x5baa66af Data=0xc7
# UVM_INFO ../src/env/axi4_scoreboard.sv(219) @ 3005000: uvm_test_top.env.scb [axi4_scoreboard] [REF_MEM_WRITE] Addr=0x5baa66ae Data=0x50
# UVM_INFO ../src/env/axi4_scoreboard.sv(219) @ 3005000: uvm_test_top.env.scb [axi4_scoreboard] [REF_MEM_WRITE] Addr=0x5baa66af Data=0x9a
# UVM_INFO ../src/env/axi4_scoreboard.sv(219) @ 3005000: uvm_test_top.env.scb [axi4_scoreboard] [REF_MEM_WRITE] Addr=0x5baa66ad Data=0xa0
# UVM_INFO ../src/env/axi4_scoreboard.sv(219) @ 3005000: uvm_test_top.env.scb [axi4_scoreboard] [REF_MEM_WRITE] Addr=0x5baa66ae Data=0x13
# UVM_INFO ../src/env/axi4_scoreboard.sv(219) @ 3005000: uvm_test_top.env.scb [axi4_scoreboard] [REF_MEM_WRITE] Addr=0x5baa66ac Data=0xcd
# UVM_INFO ../src/env/axi4_scoreboard.sv(219) @ 3005000: uvm_test_top.env.scb [axi4_scoreboard] [REF_MEM_WRITE] Addr=0x5baa66ae Data=0xf1
# UVM_INFO ../src/env/axi4_scoreboard.sv(219) @ 3005000: uvm_test_top.env.scb [axi4_scoreboard] [REF_MEM_WRITE] Addr=0x5baa66b0 Data=0xfe
# UVM_INFO ../src/env/axi4_scoreboard.sv(219) @ 3005000: uvm_test_top.env.scb [axi4_scoreboard] [REF_MEM_WRITE] Addr=0x5baa66b1 Data=0x16
# UVM_INFO ../src/env/axi4_scoreboard.sv(219) @ 3005000: uvm_test_top.env.scb [axi4_scoreboard] [REF_MEM_WRITE] Addr=0x5baa66b0 Data=0xbe
# UVM_INFO ../src/env/axi4_scoreboard.sv(219) @ 3005000: uvm_test_top.env.scb [axi4_scoreboard] [REF_MEM_WRITE] Addr=0x5baa66b1 Data=0xfd
# UVM_INFO ../src/env/axi4_scoreboard.sv(219) @ 3005000: uvm_test_top.env.scb [axi4_scoreboard] [REF_MEM_WRITE] Addr=0x5baa66b3 Data=0xe5
# UVM_INFO ../src/env/axi4_scoreboard.sv(219) @ 3005000: uvm_test_top.env.scb [axi4_scoreboard] [REF_MEM_WRITE] Addr=0x5baa66b0 Data=0x53
# UVM_INFO ../src/env/axi4_scoreboard.sv(219) @ 3005000: uvm_test_top.env.scb [axi4_scoreboard] [REF_MEM_WRITE] Addr=0x5baa66b1 Data=0x59
# UVM_INFO ../src/env/axi4_scoreboard.sv(219) @ 3005000: uvm_test_top.env.scb [axi4_scoreboard] [REF_MEM_WRITE] Addr=0x5baa66b3 Data=0xde
# UVM_INFO ../src/env/axi4_scoreboard.sv(219) @ 3005000: uvm_test_top.env.scb [axi4_scoreboard] [REF_MEM_WRITE] Addr=0x5baa66b2 Data=0x51
# UVM_INFO ../src/env/axi4_scoreboard.sv(219) @ 3005000: uvm_test_top.env.scb [axi4_scoreboard] [REF_MEM_WRITE] Addr=0x5baa66b3 Data=0x54
# UVM_INFO ../src/env/axi4_scoreboard.sv(219) @ 3005000: uvm_test_top.env.scb [axi4_scoreboard] [REF_MEM_WRITE] Addr=0x5baa66b5 Data=0xa2
# UVM_INFO ../src/env/axi4_scoreboard.sv(219) @ 3005000: uvm_test_top.env.scb [axi4_scoreboard] [REF_MEM_WRITE] Addr=0x5baa66b7 Data=0xfa
# UVM_INFO ../src/env/axi4_scoreboard.sv(219) @ 3005000: uvm_test_top.env.scb [axi4_scoreboard] [REF_MEM_WRITE] Addr=0x5baa66b5 Data=0x23
# UVM_INFO ../src/env/axi4_scoreboard.sv(219) @ 3005000: uvm_test_top.env.scb [axi4_scoreboard] [REF_MEM_WRITE] Addr=0x5baa66b6 Data=0x7b
# UVM_INFO ../src/env/axi4_scoreboard.sv(219) @ 3005000: uvm_test_top.env.scb [axi4_scoreboard] [REF_MEM_WRITE] Addr=0x5baa66b4 Data=0xa2
# UVM_INFO ../src/env/axi4_scoreboard.sv(219) @ 3005000: uvm_test_top.env.scb [axi4_scoreboard] [REF_MEM_WRITE] Addr=0x5baa66b5 Data=0x76
# UVM_INFO ../src/env/axi4_scoreboard.sv(219) @ 3005000: uvm_test_top.env.scb [axi4_scoreboard] [REF_MEM_WRITE] Addr=0x5baa66b7 Data=0x7f
# UVM_INFO ../src/env/axi4_scoreboard.sv(219) @ 3005000: uvm_test_top.env.scb [axi4_scoreboard] [REF_MEM_WRITE] Addr=0x5baa66b9 Data=0x74
# UVM_INFO ../src/env/axi4_scoreboard.sv(219) @ 3005000: uvm_test_top.env.scb [axi4_scoreboard] [REF_MEM_WRITE] Addr=0x5baa66b9 Data=0x16
# UVM_INFO ../src/env/axi4_scoreboard.sv(219) @ 3005000: uvm_test_top.env.scb [axi4_scoreboard] [REF_MEM_WRITE] Addr=0x5baa66b9 Data=0x0d
# UVM_INFO ../src/env/axi4_scoreboard.sv(219) @ 3005000: uvm_test_top.env.scb [axi4_scoreboard] [REF_MEM_WRITE] Addr=0x5baa66ba Data=0xfa
# UVM_INFO ../src/env/axi4_scoreboard.sv(219) @ 3005000: uvm_test_top.env.scb [axi4_scoreboard] [REF_MEM_WRITE] Addr=0x5baa66b8 Data=0x40
# UVM_INFO ../src/env/axi4_scoreboard.sv(219) @ 3005000: uvm_test_top.env.scb [axi4_scoreboard] [REF_MEM_WRITE] Addr=0x5baa66ba Data=0x1e
# UVM_INFO ../src/env/axi4_scoreboard.sv(219) @ 3005000: uvm_test_top.env.scb [axi4_scoreboard] [REF_MEM_WRITE] Addr=0x5baa66bc Data=0xe1
# UVM_INFO ../src/env/axi4_scoreboard.sv(219) @ 3005000: uvm_test_top.env.scb [axi4_scoreboard] [REF_MEM_WRITE] Addr=0x5baa66be Data=0x2f
# UVM_INFO ../src/env/axi4_scoreboard.sv(219) @ 3005000: uvm_test_top.env.scb [axi4_scoreboard] [REF_MEM_WRITE] Addr=0x5baa66bf Data=0x2b
# UVM_INFO ../src/env/axi4_scoreboard.sv(219) @ 3005000: uvm_test_top.env.scb [axi4_scoreboard] [REF_MEM_WRITE] Addr=0x5baa66be Data=0x8e
# UVM_INFO ../src/env/axi4_scoreboard.sv(219) @ 3005000: uvm_test_top.env.scb [axi4_scoreboard] [REF_MEM_WRITE] Addr=0x5baa66bf Data=0x92
# UVM_INFO ../src/env/axi4_scoreboard.sv(219) @ 3005000: uvm_test_top.env.scb [axi4_scoreboard] [REF_MEM_WRITE] Addr=0x5baa66bd Data=0xb7
# UVM_INFO ../src/env/axi4_scoreboard.sv(219) @ 3005000: uvm_test_top.env.scb [axi4_scoreboard] [REF_MEM_WRITE] Addr=0x5baa66be Data=0x7a
# UVM_INFO ../src/env/axi4_scoreboard.sv(219) @ 3005000: uvm_test_top.env.scb [axi4_scoreboard] [REF_MEM_WRITE] Addr=0x5baa66bf Data=0x4b
# UVM_INFO ../src/env/axi4_scoreboard.sv(219) @ 3005000: uvm_test_top.env.scb [axi4_scoreboard] [REF_MEM_WRITE] Addr=0x5baa66c1 Data=0x29
# UVM_INFO ../src/env/axi4_scoreboard.sv(219) @ 3005000: uvm_test_top.env.scb [axi4_scoreboard] [REF_MEM_WRITE] Addr=0x5baa66c2 Data=0xb7
# UVM_INFO ../src/env/axi4_scoreboard.sv(219) @ 3005000: uvm_test_top.env.scb [axi4_scoreboard] [REF_MEM_WRITE] Addr=0x5baa66c3 Data=0x03
# UVM_INFO ../src/seq/axi4_outstanding_seq.sv(84) @ 3005000: uvm_test_top.env.master_agent.sqr@@outstanding_seq [axi4_outstanding_seq] Outstanding Write [#1] complete: ID=0xd
# UVM_INFO ../src/seq/axi4_outstanding_seq.sv(74) @ 3005000: uvm_test_top.env.master_agent.sqr@@outstanding_seq [axi4_outstanding_seq] Outstanding Write [#6] started: ID=0x6 ADDR=0x1fb34c44 LEN=31
# UVM_INFO ../src/mst/axi4_master_driver.sv(73) @ 3005000: uvm_test_top.env.master_agent.drv [axi4_master_driver] Driving AXI4_WRITE  ID=0x6  ADDR=0x1fb34c44  LEN=31
# UVM_INFO ../src/slv/axi4_slave_driver.sv(212) @ 3035000: uvm_test_top.env.slave_agent.drv [axi4_slave_driver] AW received: ID=0x6 ADDR=0x1fb34c44 LEN=31 LOCK=AXI4_LOCK_EXCLUSIVE
# UVM_INFO ../src/slv/axi4_slave_monitor.sv(116) @ 3035000: uvm_test_top.env.slave_agent.mon [axi4_slave_monitor] AW received: ID=0x6 ADDR=0x1fb34c44 LEN=31
# UVM_INFO ../src/mst/axi4_master_monitor.sv(124) @ 3035000: uvm_test_top.env.master_agent.mon [axi4_master_monitor] AW observed: ID=0x6 ADDR=0x1fb34c44 LEN=31
# UVM_INFO ../src/mst/axi4_master_driver.sv(348) @ 3405000: uvm_test_top.env.master_agent.drv [axi4_master_driver] Master driver received all R beats for ID=0xc
# UVM_INFO ../src/slv/axi4_slave_driver.sv(464) @ 3405000: uvm_test_top.env.slave_agent.drv [axi4_slave_driver] Read complete: ID=0xc ADDR=0x6402bc0e RESP=AXI4_RESP_OKAY  147 beats sent
# UVM_INFO ../src/mst/axi4_master_monitor.sv(314) @ 3405000: uvm_test_top.env.master_agent.mon [axi4_master_monitor] Read complete: ID=0xc ADDR=0x6402bc0e 147 beats
# UVM_INFO ../src/env/axi4_scoreboard.sv(87) @ 3405000: uvm_test_top.env.scb [axi4_scoreboard] Master AXI4_READ received: ID=0xc ADDR=0x6402bc0e LEN=146
# UVM_INFO ../src/slv/axi4_slave_monitor.sv(287) @ 3405000: uvm_test_top.env.slave_agent.mon [axi4_slave_monitor] Read data sent: ID=0xc ADDR=0x6402bc0e 147 beats
# UVM_INFO ../src/env/axi4_scoreboard.sv(108) @ 3405000: uvm_test_top.env.scb [axi4_scoreboard] Slave AXI4_READ received: ID=0xc ADDR=0x6402bc0e LEN=146
# UVM_INFO ../src/env/axi4_scoreboard.sv(291) @ 3405000: uvm_test_top.env.scb [axi4_scoreboard] [READ] MATCH #5: ID=0xc ADDR=0x6402bc0e LEN=146
# UVM_INFO ../src/seq/axi4_outstanding_seq.sv(123) @ 3405000: uvm_test_top.env.master_agent.sqr@@outstanding_seq [axi4_outstanding_seq] Outstanding Read [#3] complete: ID=0xc
# UVM_INFO ../src/seq/axi4_outstanding_seq.sv(113) @ 3405000: uvm_test_top.env.master_agent.sqr@@outstanding_seq [axi4_outstanding_seq] Outstanding Read [#5] started: ID=0xd ADDR=0x5c5773b5 LEN=55
# UVM_INFO ../src/mst/axi4_master_driver.sv(73) @ 3405000: uvm_test_top.env.master_agent.drv [axi4_master_driver] Driving AXI4_READ  ID=0xd  ADDR=0x5c5773b5  LEN=55
# UVM_INFO ../src/slv/axi4_slave_driver.sv(358) @ 3435000: uvm_test_top.env.slave_agent.drv [axi4_slave_driver] AR received: ID=0xd ADDR=0x5c5773b5 LEN=55 LOCK=AXI4_LOCK_EXCLUSIVE
# UVM_INFO ../src/slv/axi4_slave_monitor.sv(224) @ 3435000: uvm_test_top.env.slave_agent.mon [axi4_slave_monitor] AR received: ID=0xd ADDR=0x5c5773b5 LEN=55
# UVM_INFO ../src/mst/axi4_master_monitor.sv(246) @ 3435000: uvm_test_top.env.master_agent.mon [axi4_master_monitor] AR observed: ID=0xd ADDR=0x5c5773b5 LEN=55
# UVM_INFO ../src/mst/axi4_master_driver.sv(348) @ 3665000: uvm_test_top.env.master_agent.drv [axi4_master_driver] Master driver received all R beats for ID=0x2
# UVM_INFO ../src/slv/axi4_slave_driver.sv(464) @ 3665000: uvm_test_top.env.slave_agent.drv [axi4_slave_driver] Read complete: ID=0x2 ADDR=0x4133a6e9 RESP=AXI4_RESP_OKAY  13 beats sent
# UVM_INFO ../src/mst/axi4_master_monitor.sv(314) @ 3665000: uvm_test_top.env.master_agent.mon [axi4_master_monitor] Read complete: ID=0x2 ADDR=0x4133a6e9 13 beats
# UVM_INFO ../src/env/axi4_scoreboard.sv(87) @ 3665000: uvm_test_top.env.scb [axi4_scoreboard] Master AXI4_READ received: ID=0x2 ADDR=0x4133a6e9 LEN=12
# UVM_INFO ../src/slv/axi4_slave_monitor.sv(287) @ 3665000: uvm_test_top.env.slave_agent.mon [axi4_slave_monitor] Read data sent: ID=0x2 ADDR=0x4133a6e9 13 beats
# UVM_INFO ../src/env/axi4_scoreboard.sv(108) @ 3665000: uvm_test_top.env.scb [axi4_scoreboard] Slave AXI4_READ received: ID=0x2 ADDR=0x4133a6e9 LEN=12
# UVM_INFO ../src/env/axi4_scoreboard.sv(291) @ 3665000: uvm_test_top.env.scb [axi4_scoreboard] [READ] MATCH #6: ID=0x2 ADDR=0x4133a6e9 LEN=12
# UVM_INFO ../src/seq/axi4_outstanding_seq.sv(123) @ 3665000: uvm_test_top.env.master_agent.sqr@@outstanding_seq [axi4_outstanding_seq] Outstanding Read [#0] complete: ID=0x2
# UVM_INFO ../src/seq/axi4_outstanding_seq.sv(113) @ 3665000: uvm_test_top.env.master_agent.sqr@@outstanding_seq [axi4_outstanding_seq] Outstanding Read [#6] started: ID=0x4 ADDR=0x0e86774c LEN=0
# UVM_INFO ../src/mst/axi4_master_driver.sv(73) @ 3665000: uvm_test_top.env.master_agent.drv [axi4_master_driver] Driving AXI4_READ  ID=0x4  ADDR=0x0e86774c  LEN=0
# UVM_INFO ../src/slv/axi4_slave_driver.sv(358) @ 3695000: uvm_test_top.env.slave_agent.drv [axi4_slave_driver] AR received: ID=0x4 ADDR=0x0e86774c LEN=0 LOCK=AXI4_LOCK_NORMAL
# UVM_INFO ../src/slv/axi4_slave_monitor.sv(224) @ 3695000: uvm_test_top.env.slave_agent.mon [axi4_slave_monitor] AR received: ID=0x4 ADDR=0x0e86774c LEN=0
# UVM_INFO ../src/mst/axi4_master_monitor.sv(246) @ 3695000: uvm_test_top.env.master_agent.mon [axi4_master_monitor] AR observed: ID=0x4 ADDR=0x0e86774c LEN=0
# UVM_INFO ../src/mst/axi4_master_driver.sv(348) @ 5205000: uvm_test_top.env.master_agent.drv [axi4_master_driver] Master driver received all R beats for ID=0x6
# UVM_INFO ../src/slv/axi4_slave_driver.sv(464) @ 5205000: uvm_test_top.env.slave_agent.drv [axi4_slave_driver] Read complete: ID=0x6 ADDR=0xc5df9d7c RESP=AXI4_RESP_EXOKAY  77 beats sent
# UVM_INFO ../src/mst/axi4_master_monitor.sv(314) @ 5205000: uvm_test_top.env.master_agent.mon [axi4_master_monitor] Read complete: ID=0x6 ADDR=0xc5df9d7c 77 beats
# UVM_INFO ../src/env/axi4_scoreboard.sv(87) @ 5205000: uvm_test_top.env.scb [axi4_scoreboard] Master AXI4_READ received: ID=0x6 ADDR=0xc5df9d7c LEN=76
# UVM_INFO ../src/slv/axi4_slave_monitor.sv(287) @ 5205000: uvm_test_top.env.slave_agent.mon [axi4_slave_monitor] Read data sent: ID=0x6 ADDR=0xc5df9d7c 77 beats
# UVM_INFO ../src/env/axi4_scoreboard.sv(108) @ 5205000: uvm_test_top.env.scb [axi4_scoreboard] Slave AXI4_READ received: ID=0x6 ADDR=0xc5df9d7c LEN=76
# UVM_INFO ../src/env/axi4_scoreboard.sv(291) @ 5205000: uvm_test_top.env.scb [axi4_scoreboard] [READ] MATCH #7: ID=0x6 ADDR=0xc5df9d7c LEN=76
# UVM_INFO ../src/seq/axi4_outstanding_seq.sv(123) @ 5205000: uvm_test_top.env.master_agent.sqr@@outstanding_seq [axi4_outstanding_seq] Outstanding Read [#1] complete: ID=0x6
# UVM_INFO ../src/seq/axi4_outstanding_seq.sv(113) @ 5205000: uvm_test_top.env.master_agent.sqr@@outstanding_seq [axi4_outstanding_seq] Outstanding Read [#7] started: ID=0xf ADDR=0x10211f53 LEN=210
# UVM_INFO ../src/mst/axi4_master_driver.sv(73) @ 5205000: uvm_test_top.env.master_agent.drv [axi4_master_driver] Driving AXI4_READ  ID=0xf  ADDR=0x10211f53  LEN=210
# UVM_INFO ../src/slv/axi4_slave_driver.sv(358) @ 5235000: uvm_test_top.env.slave_agent.drv [axi4_slave_driver] AR received: ID=0xf ADDR=0x10211f53 LEN=210 LOCK=AXI4_LOCK_EXCLUSIVE
# UVM_INFO ../src/slv/axi4_slave_monitor.sv(224) @ 5235000: uvm_test_top.env.slave_agent.mon [axi4_slave_monitor] AR received: ID=0xf ADDR=0x10211f53 LEN=210
# UVM_INFO ../src/mst/axi4_master_monitor.sv(246) @ 5235000: uvm_test_top.env.master_agent.mon [axi4_master_monitor] AR observed: ID=0xf ADDR=0x10211f53 LEN=210
# UVM_INFO ../src/mst/axi4_master_driver.sv(348) @ 5965000: uvm_test_top.env.master_agent.drv [axi4_master_driver] Master driver received all R beats for ID=0x3
# UVM_INFO ../src/slv/axi4_slave_driver.sv(464) @ 5965000: uvm_test_top.env.slave_agent.drv [axi4_slave_driver] Read complete: ID=0x3 ADDR=0x6631536a RESP=AXI4_RESP_OKAY  38 beats sent
# UVM_INFO ../src/mst/axi4_master_monitor.sv(314) @ 5965000: uvm_test_top.env.master_agent.mon [axi4_master_monitor] Read complete: ID=0x3 ADDR=0x6631536a 38 beats
# UVM_INFO ../src/env/axi4_scoreboard.sv(87) @ 5965000: uvm_test_top.env.scb [axi4_scoreboard] Master AXI4_READ received: ID=0x3 ADDR=0x6631536a LEN=37
# UVM_INFO ../src/slv/axi4_slave_monitor.sv(287) @ 5965000: uvm_test_top.env.slave_agent.mon [axi4_slave_monitor] Read data sent: ID=0x3 ADDR=0x6631536a 38 beats
# UVM_INFO ../src/env/axi4_scoreboard.sv(108) @ 5965000: uvm_test_top.env.scb [axi4_scoreboard] Slave AXI4_READ received: ID=0x3 ADDR=0x6631536a LEN=37
# UVM_INFO ../src/env/axi4_scoreboard.sv(291) @ 5965000: uvm_test_top.env.scb [axi4_scoreboard] [READ] MATCH #8: ID=0x3 ADDR=0x6631536a LEN=37
# UVM_INFO ../src/seq/axi4_outstanding_seq.sv(123) @ 5965000: uvm_test_top.env.master_agent.sqr@@outstanding_seq [axi4_outstanding_seq] Outstanding Read [#4] complete: ID=0x3
# UVM_INFO ../src/seq/axi4_outstanding_seq.sv(113) @ 5965000: uvm_test_top.env.master_agent.sqr@@outstanding_seq [axi4_outstanding_seq] Outstanding Read [#8] started: ID=0x7 ADDR=0xa7076011 LEN=12
# UVM_INFO ../src/mst/axi4_master_driver.sv(73) @ 5965000: uvm_test_top.env.master_agent.drv [axi4_master_driver] Driving AXI4_READ  ID=0x7  ADDR=0xa7076011  LEN=12
# UVM_INFO ../src/slv/axi4_slave_driver.sv(358) @ 5995000: uvm_test_top.env.slave_agent.drv [axi4_slave_driver] AR received: ID=0x7 ADDR=0xa7076011 LEN=12 LOCK=AXI4_LOCK_NORMAL
# UVM_INFO ../src/slv/axi4_slave_monitor.sv(224) @ 5995000: uvm_test_top.env.slave_agent.mon [axi4_slave_monitor] AR received: ID=0x7 ADDR=0xa7076011 LEN=12
# UVM_INFO ../src/mst/axi4_master_monitor.sv(246) @ 5995000: uvm_test_top.env.master_agent.mon [axi4_master_monitor] AR observed: ID=0x7 ADDR=0xa7076011 LEN=12
# UVM_INFO ../src/mst/axi4_master_driver.sv(348) @ 7085000: uvm_test_top.env.master_agent.drv [axi4_master_driver] Master driver received all R beats for ID=0xd
# UVM_INFO ../src/slv/axi4_slave_driver.sv(464) @ 7085000: uvm_test_top.env.slave_agent.drv [axi4_slave_driver] Read complete: ID=0xd ADDR=0x5c5773b5 RESP=AXI4_RESP_EXOKAY  56 beats sent
# UVM_INFO ../src/mst/axi4_master_monitor.sv(314) @ 7085000: uvm_test_top.env.master_agent.mon [axi4_master_monitor] Read complete: ID=0xd ADDR=0x5c5773b5 56 beats
# UVM_INFO ../src/env/axi4_scoreboard.sv(87) @ 7085000: uvm_test_top.env.scb [axi4_scoreboard] Master AXI4_READ received: ID=0xd ADDR=0x5c5773b5 LEN=55
# UVM_INFO ../src/slv/axi4_slave_monitor.sv(287) @ 7085000: uvm_test_top.env.slave_agent.mon [axi4_slave_monitor] Read data sent: ID=0xd ADDR=0x5c5773b5 56 beats
# UVM_INFO ../src/env/axi4_scoreboard.sv(108) @ 7085000: uvm_test_top.env.scb [axi4_scoreboard] Slave AXI4_READ received: ID=0xd ADDR=0x5c5773b5 LEN=55
# UVM_INFO ../src/env/axi4_scoreboard.sv(291) @ 7085000: uvm_test_top.env.scb [axi4_scoreboard] [READ] MATCH #9: ID=0xd ADDR=0x5c5773b5 LEN=55
# UVM_INFO ../src/seq/axi4_outstanding_seq.sv(123) @ 7085000: uvm_test_top.env.master_agent.sqr@@outstanding_seq [axi4_outstanding_seq] Outstanding Read [#5] complete: ID=0xd
# UVM_INFO ../src/seq/axi4_outstanding_seq.sv(113) @ 7085000: uvm_test_top.env.master_agent.sqr@@outstanding_seq [axi4_outstanding_seq] Outstanding Read [#9] started: ID=0x5 ADDR=0x494426f7 LEN=66
# UVM_INFO ../src/mst/axi4_master_driver.sv(73) @ 7085000: uvm_test_top.env.master_agent.drv [axi4_master_driver] Driving AXI4_READ  ID=0x5  ADDR=0x494426f7  LEN=66
# UVM_INFO ../src/mst/axi4_master_driver.sv(348) @ 7105000: uvm_test_top.env.master_agent.drv [axi4_master_driver] Master driver received all R beats for ID=0x4
# UVM_INFO ../src/slv/axi4_slave_driver.sv(464) @ 7105000: uvm_test_top.env.slave_agent.drv [axi4_slave_driver] Read complete: ID=0x4 ADDR=0x0e86774c RESP=AXI4_RESP_OKAY  1 beats sent
# UVM_INFO ../src/mst/axi4_master_monitor.sv(314) @ 7105000: uvm_test_top.env.master_agent.mon [axi4_master_monitor] Read complete: ID=0x4 ADDR=0x0e86774c 1 beats
# UVM_INFO ../src/env/axi4_scoreboard.sv(87) @ 7105000: uvm_test_top.env.scb [axi4_scoreboard] Master AXI4_READ received: ID=0x4 ADDR=0x0e86774c LEN=0
# UVM_INFO ../src/slv/axi4_slave_monitor.sv(287) @ 7105000: uvm_test_top.env.slave_agent.mon [axi4_slave_monitor] Read data sent: ID=0x4 ADDR=0x0e86774c 1 beats
# UVM_INFO ../src/env/axi4_scoreboard.sv(108) @ 7105000: uvm_test_top.env.scb [axi4_scoreboard] Slave AXI4_READ received: ID=0x4 ADDR=0x0e86774c LEN=0
# UVM_INFO ../src/env/axi4_scoreboard.sv(291) @ 7105000: uvm_test_top.env.scb [axi4_scoreboard] [READ] MATCH #10: ID=0x4 ADDR=0x0e86774c LEN=0
# UVM_INFO ../src/seq/axi4_outstanding_seq.sv(123) @ 7105000: uvm_test_top.env.master_agent.sqr@@outstanding_seq [axi4_outstanding_seq] Outstanding Read [#6] complete: ID=0x4
# UVM_INFO ../src/seq/axi4_outstanding_seq.sv(113) @ 7105000: uvm_test_top.env.master_agent.sqr@@outstanding_seq [axi4_outstanding_seq] Outstanding Read [#10] started: ID=0xf ADDR=0x9a51aa7f LEN=144
# UVM_INFO ../src/mst/axi4_master_driver.sv(73) @ 7105000: uvm_test_top.env.master_agent.drv [axi4_master_driver] Driving AXI4_READ  ID=0xf  ADDR=0x9a51aa7f  LEN=144
# UVM_INFO ../src/slv/axi4_slave_driver.sv(358) @ 7115000: uvm_test_top.env.slave_agent.drv [axi4_slave_driver] AR received: ID=0x5 ADDR=0x494426f7 LEN=66 LOCK=AXI4_LOCK_NORMAL
# UVM_INFO ../src/slv/axi4_slave_monitor.sv(224) @ 7115000: uvm_test_top.env.slave_agent.mon [axi4_slave_monitor] AR received: ID=0x5 ADDR=0x494426f7 LEN=66
# UVM_INFO ../src/mst/axi4_master_monitor.sv(246) @ 7115000: uvm_test_top.env.master_agent.mon [axi4_master_monitor] AR observed: ID=0x5 ADDR=0x494426f7 LEN=66
# UVM_INFO ../src/slv/axi4_slave_driver.sv(358) @ 7145000: uvm_test_top.env.slave_agent.drv [axi4_slave_driver] AR received: ID=0xf ADDR=0x9a51aa7f LEN=144 LOCK=AXI4_LOCK_NORMAL
# UVM_INFO ../src/mst/axi4_master_monitor.sv(246) @ 7145000: uvm_test_top.env.master_agent.mon [axi4_master_monitor] AR observed: ID=0xf ADDR=0x9a51aa7f LEN=144
# UVM_INFO ../src/slv/axi4_slave_monitor.sv(224) @ 7145000: uvm_test_top.env.slave_agent.mon [axi4_slave_monitor] AR received: ID=0xf ADDR=0x9a51aa7f LEN=144
# UVM_INFO ../src/slv/axi4_slave_monitor.sv(167) @ 7635000: uvm_test_top.env.slave_agent.mon [axi4_slave_monitor] W data assembled: ID=0x5 ADDR=0xbe19532a 233 beats
# UVM_INFO ../src/mst/axi4_master_monitor.sv(184) @ 7635000: uvm_test_top.env.master_agent.mon [axi4_master_monitor] W data assembled: ID=0x5 ADDR=0xbe19532a 233 beats
# UVM_INFO ../src/mst/axi4_master_driver.sv(289) @ 7665000: uvm_test_top.env.master_agent.drv [axi4_master_driver] Master driver received B response: ID=0x5 RESP=AXI4_RESP_OKAY
# UVM_INFO ../src/slv/axi4_slave_driver.sv(320) @ 7665000: uvm_test_top.env.slave_agent.drv [axi4_slave_driver] Write complete: ID=0x5 RESP=AXI4_RESP_OKAY
# UVM_INFO ../src/mst/axi4_master_monitor.sv(210) @ 7665000: uvm_test_top.env.master_agent.mon [axi4_master_monitor] Write complete: ID=0x5 ADDR=0xbe19532a RESP=AXI4_RESP_OKAY
# UVM_INFO ../src/env/axi4_scoreboard.sv(87) @ 7665000: uvm_test_top.env.scb [axi4_scoreboard] Master AXI4_WRITE received: ID=0x5 ADDR=0xbe19532a LEN=232
# UVM_INFO ../src/slv/axi4_slave_monitor.sv(189) @ 7665000: uvm_test_top.env.slave_agent.mon [axi4_slave_monitor] Write response sent: ID=0x5 ADDR=0xbe19532a RESP=AXI4_RESP_OKAY
# UVM_INFO ../src/env/axi4_scoreboard.sv(108) @ 7665000: uvm_test_top.env.scb [axi4_scoreboard] Slave AXI4_WRITE received: ID=0x5 ADDR=0xbe19532a LEN=232
# UVM_INFO ../src/env/axi4_scoreboard.sv(291) @ 7665000: uvm_test_top.env.scb [axi4_scoreboard] [WRITE] MATCH #11: ID=0x5 ADDR=0xbe19532a LEN=232
# UVM_INFO ../src/env/axi4_scoreboard.sv(226) @ 7665000: uvm_test_top.env.scb [axi4_scoreboard] [REF_MEM_WRITE_IGNORED] Write ignored for ADDR=0xbe19532a LOCK=AXI4_LOCK_EXCLUSIVE RESP=AXI4_RESP_OKAY
# UVM_INFO ../src/seq/axi4_outstanding_seq.sv(84) @ 7665000: uvm_test_top.env.master_agent.sqr@@outstanding_seq [axi4_outstanding_seq] Outstanding Write [#0] complete: ID=0x5
# UVM_INFO ../src/seq/axi4_outstanding_seq.sv(74) @ 7665000: uvm_test_top.env.master_agent.sqr@@outstanding_seq [axi4_outstanding_seq] Outstanding Write [#7] started: ID=0x3 ADDR=0x9a7666f1 LEN=101
# UVM_INFO ../src/mst/axi4_master_driver.sv(73) @ 7665000: uvm_test_top.env.master_agent.drv [axi4_master_driver] Driving AXI4_WRITE  ID=0x3  ADDR=0x9a7666f1  LEN=101
# UVM_INFO ../src/slv/axi4_slave_driver.sv(212) @ 7695000: uvm_test_top.env.slave_agent.drv [axi4_slave_driver] AW received: ID=0x3 ADDR=0x9a7666f1 LEN=101 LOCK=AXI4_LOCK_NORMAL
# UVM_INFO ../src/slv/axi4_slave_monitor.sv(116) @ 7695000: uvm_test_top.env.slave_agent.mon [axi4_slave_monitor] AW received: ID=0x3 ADDR=0x9a7666f1 LEN=101
# UVM_INFO ../src/mst/axi4_master_monitor.sv(124) @ 7695000: uvm_test_top.env.master_agent.mon [axi4_master_monitor] AW observed: ID=0x3 ADDR=0x9a7666f1 LEN=101
# UVM_INFO ../src/mst/axi4_master_driver.sv(348) @ 11325000: uvm_test_top.env.master_agent.drv [axi4_master_driver] Master driver received all R beats for ID=0xf
# UVM_INFO ../src/slv/axi4_slave_driver.sv(464) @ 11325000: uvm_test_top.env.slave_agent.drv [axi4_slave_driver] Read complete: ID=0xf ADDR=0x10211f53 RESP=AXI4_RESP_EXOKAY  211 beats sent
# UVM_INFO ../src/mst/axi4_master_monitor.sv(314) @ 11325000: uvm_test_top.env.master_agent.mon [axi4_master_monitor] Read complete: ID=0xf ADDR=0x10211f53 211 beats
# UVM_INFO ../src/env/axi4_scoreboard.sv(87) @ 11325000: uvm_test_top.env.scb [axi4_scoreboard] Master AXI4_READ received: ID=0xf ADDR=0x10211f53 LEN=210
# UVM_INFO ../src/slv/axi4_slave_monitor.sv(287) @ 11325000: uvm_test_top.env.slave_agent.mon [axi4_slave_monitor] Read data sent: ID=0xf ADDR=0x10211f53 211 beats
# UVM_INFO ../src/env/axi4_scoreboard.sv(108) @ 11325000: uvm_test_top.env.scb [axi4_scoreboard] Slave AXI4_READ received: ID=0xf ADDR=0x10211f53 LEN=210
# UVM_INFO ../src/env/axi4_scoreboard.sv(291) @ 11325000: uvm_test_top.env.scb [axi4_scoreboard] [READ] MATCH #12: ID=0xf ADDR=0x10211f53 LEN=210
# UVM_INFO ../src/seq/axi4_outstanding_seq.sv(123) @ 11325000: uvm_test_top.env.master_agent.sqr@@outstanding_seq [axi4_outstanding_seq] Outstanding Read [#7] complete: ID=0xf
# UVM_INFO ../src/seq/axi4_outstanding_seq.sv(113) @ 11325000: uvm_test_top.env.master_agent.sqr@@outstanding_seq [axi4_outstanding_seq] Outstanding Read [#11] started: ID=0xb ADDR=0x88661a34 LEN=253
# UVM_INFO ../src/mst/axi4_master_driver.sv(73) @ 11325000: uvm_test_top.env.master_agent.drv [axi4_master_driver] Driving AXI4_READ  ID=0xb  ADDR=0x88661a34  LEN=253
# UVM_INFO ../src/slv/axi4_slave_driver.sv(358) @ 11355000: uvm_test_top.env.slave_agent.drv [axi4_slave_driver] AR received: ID=0xb ADDR=0x88661a34 LEN=253 LOCK=AXI4_LOCK_NORMAL
# UVM_INFO ../src/slv/axi4_slave_monitor.sv(224) @ 11355000: uvm_test_top.env.slave_agent.mon [axi4_slave_monitor] AR received: ID=0xb ADDR=0x88661a34 LEN=253
# UVM_INFO ../src/mst/axi4_master_monitor.sv(246) @ 11355000: uvm_test_top.env.master_agent.mon [axi4_master_monitor] AR observed: ID=0xb ADDR=0x88661a34 LEN=253
# UVM_INFO ../src/mst/axi4_master_driver.sv(348) @ 11585000: uvm_test_top.env.master_agent.drv [axi4_master_driver] Master driver received all R beats for ID=0x7
# UVM_INFO ../src/slv/axi4_slave_driver.sv(464) @ 11585000: uvm_test_top.env.slave_agent.drv [axi4_slave_driver] Read complete: ID=0x7 ADDR=0xa7076011 RESP=AXI4_RESP_OKAY  13 beats sent
# UVM_INFO ../src/mst/axi4_master_monitor.sv(314) @ 11585000: uvm_test_top.env.master_agent.mon [axi4_master_monitor] Read complete: ID=0x7 ADDR=0xa7076011 13 beats
# UVM_INFO ../src/env/axi4_scoreboard.sv(87) @ 11585000: uvm_test_top.env.scb [axi4_scoreboard] Master AXI4_READ received: ID=0x7 ADDR=0xa7076011 LEN=12
# UVM_INFO ../src/slv/axi4_slave_monitor.sv(287) @ 11585000: uvm_test_top.env.slave_agent.mon [axi4_slave_monitor] Read data sent: ID=0x7 ADDR=0xa7076011 13 beats
# UVM_INFO ../src/env/axi4_scoreboard.sv(108) @ 11585000: uvm_test_top.env.scb [axi4_scoreboard] Slave AXI4_READ received: ID=0x7 ADDR=0xa7076011 LEN=12
# UVM_INFO ../src/env/axi4_scoreboard.sv(291) @ 11585000: uvm_test_top.env.scb [axi4_scoreboard] [READ] MATCH #13: ID=0x7 ADDR=0xa7076011 LEN=12
# UVM_INFO ../src/seq/axi4_outstanding_seq.sv(123) @ 11585000: uvm_test_top.env.master_agent.sqr@@outstanding_seq [axi4_outstanding_seq] Outstanding Read [#8] complete: ID=0x7
# UVM_INFO ../src/seq/axi4_outstanding_seq.sv(113) @ 11585000: uvm_test_top.env.master_agent.sqr@@outstanding_seq [axi4_outstanding_seq] Outstanding Read [#12] started: ID=0x7 ADDR=0x0d7a67cd LEN=62
# UVM_INFO ../src/mst/axi4_master_driver.sv(73) @ 11585000: uvm_test_top.env.master_agent.drv [axi4_master_driver] Driving AXI4_READ  ID=0x7  ADDR=0x0d7a67cd  LEN=62
# UVM_INFO ../src/slv/axi4_slave_driver.sv(358) @ 11615000: uvm_test_top.env.slave_agent.drv [axi4_slave_driver] AR received: ID=0x7 ADDR=0x0d7a67cd LEN=62 LOCK=AXI4_LOCK_NORMAL
# UVM_INFO ../src/slv/axi4_slave_monitor.sv(224) @ 11615000: uvm_test_top.env.slave_agent.mon [axi4_slave_monitor] AR received: ID=0x7 ADDR=0x0d7a67cd LEN=62
# UVM_INFO ../src/mst/axi4_master_monitor.sv(246) @ 11615000: uvm_test_top.env.master_agent.mon [axi4_master_monitor] AR observed: ID=0x7 ADDR=0x0d7a67cd LEN=62
# UVM_INFO ../src/slv/axi4_slave_monitor.sv(167) @ 12335000: uvm_test_top.env.slave_agent.mon [axi4_slave_monitor] W data assembled: ID=0xf ADDR=0x377c1f0c 235 beats
# UVM_INFO ../src/mst/axi4_master_monitor.sv(184) @ 12335000: uvm_test_top.env.master_agent.mon [axi4_master_monitor] W data assembled: ID=0xf ADDR=0x377c1f0c 235 beats
# UVM_INFO ../src/mst/axi4_master_driver.sv(289) @ 12365000: uvm_test_top.env.master_agent.drv [axi4_master_driver] Master driver received B response: ID=0xf RESP=AXI4_RESP_OKAY
# UVM_INFO ../src/slv/axi4_slave_driver.sv(320) @ 12365000: uvm_test_top.env.slave_agent.drv [axi4_slave_driver] Write complete: ID=0xf RESP=AXI4_RESP_OKAY
# UVM_INFO ../src/mst/axi4_master_monitor.sv(210) @ 12365000: uvm_test_top.env.master_agent.mon [axi4_master_monitor] Write complete: ID=0xf ADDR=0x377c1f0c RESP=AXI4_RESP_OKAY
# UVM_INFO ../src/env/axi4_scoreboard.sv(87) @ 12365000: uvm_test_top.env.scb [axi4_scoreboard] Master AXI4_WRITE received: ID=0xf ADDR=0x377c1f0c LEN=234
# UVM_INFO ../src/slv/axi4_slave_monitor.sv(189) @ 12365000: uvm_test_top.env.slave_agent.mon [axi4_slave_monitor] Write response sent: ID=0xf ADDR=0x377c1f0c RESP=AXI4_RESP_OKAY
# UVM_INFO ../src/env/axi4_scoreboard.sv(108) @ 12365000: uvm_test_top.env.scb [axi4_scoreboard] Slave AXI4_WRITE received: ID=0xf ADDR=0x377c1f0c LEN=234
# UVM_INFO ../src/env/axi4_scoreboard.sv(291) @ 12365000: uvm_test_top.env.scb [axi4_scoreboard] [WRITE] MATCH #14: ID=0xf ADDR=0x377c1f0c LEN=234
# UVM_INFO ../src/env/axi4_scoreboard.sv(226) @ 12365000: uvm_test_top.env.scb [axi4_scoreboard] [REF_MEM_WRITE_IGNORED] Write ignored for ADDR=0x377c1f0c LOCK=AXI4_LOCK_EXCLUSIVE RESP=AXI4_RESP_OKAY
# UVM_INFO ../src/seq/axi4_outstanding_seq.sv(84) @ 12365000: uvm_test_top.env.master_agent.sqr@@outstanding_seq [axi4_outstanding_seq] Outstanding Write [#4] complete: ID=0xf
# UVM_INFO ../src/seq/axi4_outstanding_seq.sv(74) @ 12365000: uvm_test_top.env.master_agent.sqr@@outstanding_seq [axi4_outstanding_seq] Outstanding Write [#8] started: ID=0xc ADDR=0x33c1fdd2 LEN=28
# UVM_INFO ../src/mst/axi4_master_driver.sv(73) @ 12365000: uvm_test_top.env.master_agent.drv [axi4_master_driver] Driving AXI4_WRITE  ID=0xc  ADDR=0x33c1fdd2  LEN=28
# UVM_INFO ../src/slv/axi4_slave_driver.sv(212) @ 12395000: uvm_test_top.env.slave_agent.drv [axi4_slave_driver] AW received: ID=0xc ADDR=0x33c1fdd2 LEN=28 LOCK=AXI4_LOCK_NORMAL
# UVM_INFO ../src/slv/axi4_slave_monitor.sv(116) @ 12395000: uvm_test_top.env.slave_agent.mon [axi4_slave_monitor] AW received: ID=0xc ADDR=0x33c1fdd2 LEN=28
# UVM_INFO ../src/mst/axi4_master_monitor.sv(124) @ 12395000: uvm_test_top.env.master_agent.mon [axi4_master_monitor] AW observed: ID=0xc ADDR=0x33c1fdd2 LEN=28
# UVM_INFO ../src/mst/axi4_master_driver.sv(348) @ 12925000: uvm_test_top.env.master_agent.drv [axi4_master_driver] Master driver received all R beats for ID=0x5
# UVM_INFO ../src/slv/axi4_slave_driver.sv(464) @ 12925000: uvm_test_top.env.slave_agent.drv [axi4_slave_driver] Read complete: ID=0x5 ADDR=0x494426f7 RESP=AXI4_RESP_OKAY  67 beats sent
# UVM_INFO ../src/mst/axi4_master_monitor.sv(314) @ 12925000: uvm_test_top.env.master_agent.mon [axi4_master_monitor] Read complete: ID=0x5 ADDR=0x494426f7 67 beats
# UVM_INFO ../src/env/axi4_scoreboard.sv(87) @ 12925000: uvm_test_top.env.scb [axi4_scoreboard] Master AXI4_READ received: ID=0x5 ADDR=0x494426f7 LEN=66
# UVM_INFO ../src/slv/axi4_slave_monitor.sv(287) @ 12925000: uvm_test_top.env.slave_agent.mon [axi4_slave_monitor] Read data sent: ID=0x5 ADDR=0x494426f7 67 beats
# UVM_INFO ../src/env/axi4_scoreboard.sv(108) @ 12925000: uvm_test_top.env.scb [axi4_scoreboard] Slave AXI4_READ received: ID=0x5 ADDR=0x494426f7 LEN=66
# UVM_INFO ../src/env/axi4_scoreboard.sv(291) @ 12925000: uvm_test_top.env.scb [axi4_scoreboard] [READ] MATCH #15: ID=0x5 ADDR=0x494426f7 LEN=66
# UVM_INFO ../src/seq/axi4_outstanding_seq.sv(123) @ 12925000: uvm_test_top.env.master_agent.sqr@@outstanding_seq [axi4_outstanding_seq] Outstanding Read [#9] complete: ID=0x5
# UVM_INFO ../src/seq/axi4_outstanding_seq.sv(113) @ 12925000: uvm_test_top.env.master_agent.sqr@@outstanding_seq [axi4_outstanding_seq] Outstanding Read [#13] started: ID=0x3 ADDR=0xa1b24931 LEN=232
# UVM_INFO ../src/mst/axi4_master_driver.sv(73) @ 12925000: uvm_test_top.env.master_agent.drv [axi4_master_driver] Driving AXI4_READ  ID=0x3  ADDR=0xa1b24931  LEN=232
# UVM_INFO ../src/slv/axi4_slave_driver.sv(358) @ 12955000: uvm_test_top.env.slave_agent.drv [axi4_slave_driver] AR received: ID=0x3 ADDR=0xa1b24931 LEN=232 LOCK=AXI4_LOCK_NORMAL
# UVM_INFO ../src/slv/axi4_slave_monitor.sv(224) @ 12955000: uvm_test_top.env.slave_agent.mon [axi4_slave_monitor] AR received: ID=0x3 ADDR=0xa1b24931 LEN=232
# UVM_INFO ../src/mst/axi4_master_monitor.sv(246) @ 12955000: uvm_test_top.env.master_agent.mon [axi4_master_monitor] AR observed: ID=0x3 ADDR=0xa1b24931 LEN=232
# UVM_INFO ../src/mst/axi4_master_driver.sv(348) @ 15825000: uvm_test_top.env.master_agent.drv [axi4_master_driver] Master driver received all R beats for ID=0xf
# UVM_INFO ../src/slv/axi4_slave_driver.sv(464) @ 15825000: uvm_test_top.env.slave_agent.drv [axi4_slave_driver] Read complete: ID=0xf ADDR=0x9a51aa7f RESP=AXI4_RESP_OKAY  145 beats sent
# UVM_INFO ../src/mst/axi4_master_monitor.sv(314) @ 15825000: uvm_test_top.env.master_agent.mon [axi4_master_monitor] Read complete: ID=0xf ADDR=0x9a51aa7f 145 beats
# UVM_INFO ../src/env/axi4_scoreboard.sv(87) @ 15825000: uvm_test_top.env.scb [axi4_scoreboard] Master AXI4_READ received: ID=0xf ADDR=0x9a51aa7f LEN=144
# UVM_INFO ../src/slv/axi4_slave_monitor.sv(287) @ 15825000: uvm_test_top.env.slave_agent.mon [axi4_slave_monitor] Read data sent: ID=0xf ADDR=0x9a51aa7f 145 beats
# UVM_INFO ../src/env/axi4_scoreboard.sv(108) @ 15825000: uvm_test_top.env.scb [axi4_scoreboard] Slave AXI4_READ received: ID=0xf ADDR=0x9a51aa7f LEN=144
# UVM_INFO ../src/env/axi4_scoreboard.sv(291) @ 15825000: uvm_test_top.env.scb [axi4_scoreboard] [READ] MATCH #16: ID=0xf ADDR=0x9a51aa7f LEN=144
# UVM_INFO ../src/seq/axi4_outstanding_seq.sv(123) @ 15825000: uvm_test_top.env.master_agent.sqr@@outstanding_seq [axi4_outstanding_seq] Outstanding Read [#10] complete: ID=0xf
# UVM_INFO ../src/seq/axi4_outstanding_seq.sv(113) @ 15825000: uvm_test_top.env.master_agent.sqr@@outstanding_seq [axi4_outstanding_seq] Outstanding Read [#14] started: ID=0xc ADDR=0x74079836 LEN=135
# UVM_INFO ../src/mst/axi4_master_driver.sv(73) @ 15825000: uvm_test_top.env.master_agent.drv [axi4_master_driver] Driving AXI4_READ  ID=0xc  ADDR=0x74079836  LEN=135
# UVM_INFO ../src/slv/axi4_slave_driver.sv(358) @ 15855000: uvm_test_top.env.slave_agent.drv [axi4_slave_driver] AR received: ID=0xc ADDR=0x74079836 LEN=135 LOCK=AXI4_LOCK_EXCLUSIVE
# UVM_INFO ../src/slv/axi4_slave_monitor.sv(224) @ 15855000: uvm_test_top.env.slave_agent.mon [axi4_slave_monitor] AR received: ID=0xc ADDR=0x74079836 LEN=135
# UVM_INFO ../src/mst/axi4_master_monitor.sv(246) @ 15855000: uvm_test_top.env.master_agent.mon [axi4_master_monitor] AR observed: ID=0xc ADDR=0x74079836 LEN=135
# UVM_INFO ../src/slv/axi4_slave_monitor.sv(167) @ 16995000: uvm_test_top.env.slave_agent.mon [axi4_slave_monitor] W data assembled: ID=0xb ADDR=0xbfbb030a 233 beats
# UVM_INFO ../src/mst/axi4_master_monitor.sv(184) @ 16995000: uvm_test_top.env.master_agent.mon [axi4_master_monitor] W data assembled: ID=0xb ADDR=0xbfbb030a 233 beats
# UVM_INFO ../src/mst/axi4_master_driver.sv(289) @ 17025000: uvm_test_top.env.master_agent.drv [axi4_master_driver] Master driver received B response: ID=0xb RESP=AXI4_RESP_OKAY
# UVM_INFO ../src/slv/axi4_slave_driver.sv(320) @ 17025000: uvm_test_top.env.slave_agent.drv [axi4_slave_driver] Write complete: ID=0xb RESP=AXI4_RESP_OKAY
# UVM_INFO ../src/mst/axi4_master_monitor.sv(210) @ 17025000: uvm_test_top.env.master_agent.mon [axi4_master_monitor] Write complete: ID=0xb ADDR=0xbfbb030a RESP=AXI4_RESP_OKAY
# UVM_INFO ../src/env/axi4_scoreboard.sv(87) @ 17025000: uvm_test_top.env.scb [axi4_scoreboard] Master AXI4_WRITE received: ID=0xb ADDR=0xbfbb030a LEN=232
# UVM_INFO ../src/slv/axi4_slave_monitor.sv(189) @ 17025000: uvm_test_top.env.slave_agent.mon [axi4_slave_monitor] Write response sent: ID=0xb ADDR=0xbfbb030a RESP=AXI4_RESP_OKAY
# UVM_INFO ../src/env/axi4_scoreboard.sv(108) @ 17025000: uvm_test_top.env.scb [axi4_scoreboard] Slave AXI4_WRITE received: ID=0xb ADDR=0xbfbb030a LEN=232
# UVM_INFO ../src/env/axi4_scoreboard.sv(291) @ 17025000: uvm_test_top.env.scb [axi4_scoreboard] [WRITE] MATCH #17: ID=0xb ADDR=0xbfbb030a LEN=232
# UVM_INFO ../src/env/axi4_scoreboard.sv(226) @ 17025000: uvm_test_top.env.scb [axi4_scoreboard] [REF_MEM_WRITE_IGNORED] Write ignored for ADDR=0xbfbb030a LOCK=AXI4_LOCK_EXCLUSIVE RESP=AXI4_RESP_OKAY
# UVM_INFO ../src/seq/axi4_outstanding_seq.sv(84) @ 17025000: uvm_test_top.env.master_agent.sqr@@outstanding_seq [axi4_outstanding_seq] Outstanding Write [#5] complete: ID=0xb
# UVM_INFO ../src/seq/axi4_outstanding_seq.sv(74) @ 17025000: uvm_test_top.env.master_agent.sqr@@outstanding_seq [axi4_outstanding_seq] Outstanding Write [#9] started: ID=0xf ADDR=0x81c0d38f LEN=7
# UVM_INFO ../src/mst/axi4_master_driver.sv(73) @ 17025000: uvm_test_top.env.master_agent.drv [axi4_master_driver] Driving AXI4_WRITE  ID=0xf  ADDR=0x81c0d38f  LEN=7
# UVM_INFO ../src/slv/axi4_slave_driver.sv(212) @ 17055000: uvm_test_top.env.slave_agent.drv [axi4_slave_driver] AW received: ID=0xf ADDR=0x81c0d38f LEN=7 LOCK=AXI4_LOCK_NORMAL
# UVM_INFO ../src/slv/axi4_slave_monitor.sv(116) @ 17055000: uvm_test_top.env.slave_agent.mon [axi4_slave_monitor] AW received: ID=0xf ADDR=0x81c0d38f LEN=7
# UVM_INFO ../src/mst/axi4_master_monitor.sv(124) @ 17055000: uvm_test_top.env.master_agent.mon [axi4_master_monitor] AW observed: ID=0xf ADDR=0x81c0d38f LEN=7
# UVM_INFO ../src/slv/axi4_slave_monitor.sv(167) @ 17635000: uvm_test_top.env.slave_agent.mon [axi4_slave_monitor] W data assembled: ID=0x6 ADDR=0x1fb34c44 32 beats
# UVM_INFO ../src/mst/axi4_master_monitor.sv(184) @ 17635000: uvm_test_top.env.master_agent.mon [axi4_master_monitor] W data assembled: ID=0x6 ADDR=0x1fb34c44 32 beats
# UVM_INFO ../src/mst/axi4_master_driver.sv(289) @ 17665000: uvm_test_top.env.master_agent.drv [axi4_master_driver] Master driver received B response: ID=0x6 RESP=AXI4_RESP_OKAY
# UVM_INFO ../src/slv/axi4_slave_driver.sv(320) @ 17665000: uvm_test_top.env.slave_agent.drv [axi4_slave_driver] Write complete: ID=0x6 RESP=AXI4_RESP_OKAY
# UVM_INFO ../src/mst/axi4_master_monitor.sv(210) @ 17665000: uvm_test_top.env.master_agent.mon [axi4_master_monitor] Write complete: ID=0x6 ADDR=0x1fb34c44 RESP=AXI4_RESP_OKAY
# UVM_INFO ../src/env/axi4_scoreboard.sv(87) @ 17665000: uvm_test_top.env.scb [axi4_scoreboard] Master AXI4_WRITE received: ID=0x6 ADDR=0x1fb34c44 LEN=31
# UVM_INFO ../src/slv/axi4_slave_monitor.sv(189) @ 17665000: uvm_test_top.env.slave_agent.mon [axi4_slave_monitor] Write response sent: ID=0x6 ADDR=0x1fb34c44 RESP=AXI4_RESP_OKAY
# UVM_INFO ../src/env/axi4_scoreboard.sv(108) @ 17665000: uvm_test_top.env.scb [axi4_scoreboard] Slave AXI4_WRITE received: ID=0x6 ADDR=0x1fb34c44 LEN=31
# UVM_INFO ../src/env/axi4_scoreboard.sv(291) @ 17665000: uvm_test_top.env.scb [axi4_scoreboard] [WRITE] MATCH #18: ID=0x6 ADDR=0x1fb34c44 LEN=31
# UVM_INFO ../src/env/axi4_scoreboard.sv(226) @ 17665000: uvm_test_top.env.scb [axi4_scoreboard] [REF_MEM_WRITE_IGNORED] Write ignored for ADDR=0x1fb34c44 LOCK=AXI4_LOCK_EXCLUSIVE RESP=AXI4_RESP_OKAY
# UVM_INFO ../src/seq/axi4_outstanding_seq.sv(84) @ 17665000: uvm_test_top.env.master_agent.sqr@@outstanding_seq [axi4_outstanding_seq] Outstanding Write [#6] complete: ID=0x6
# UVM_INFO ../src/seq/axi4_outstanding_seq.sv(74) @ 17665000: uvm_test_top.env.master_agent.sqr@@outstanding_seq [axi4_outstanding_seq] Outstanding Write [#10] started: ID=0x8 ADDR=0x1c65a49c LEN=67
# UVM_INFO ../src/mst/axi4_master_driver.sv(73) @ 17665000: uvm_test_top.env.master_agent.drv [axi4_master_driver] Driving AXI4_WRITE  ID=0x8  ADDR=0x1c65a49c  LEN=67
# UVM_INFO ../src/slv/axi4_slave_driver.sv(212) @ 17695000: uvm_test_top.env.slave_agent.drv [axi4_slave_driver] AW received: ID=0x8 ADDR=0x1c65a49c LEN=67 LOCK=AXI4_LOCK_NORMAL
# UVM_INFO ../src/slv/axi4_slave_monitor.sv(116) @ 17695000: uvm_test_top.env.slave_agent.mon [axi4_slave_monitor] AW received: ID=0x8 ADDR=0x1c65a49c LEN=67
# UVM_INFO ../src/mst/axi4_master_monitor.sv(124) @ 17695000: uvm_test_top.env.master_agent.mon [axi4_master_monitor] AW observed: ID=0x8 ADDR=0x1c65a49c LEN=67
# UVM_INFO ../src/slv/axi4_slave_monitor.sv(167) @ 19675000: uvm_test_top.env.slave_agent.mon [axi4_slave_monitor] W data assembled: ID=0x3 ADDR=0x9a7666f1 102 beats
# UVM_INFO ../src/mst/axi4_master_monitor.sv(184) @ 19675000: uvm_test_top.env.master_agent.mon [axi4_master_monitor] W data assembled: ID=0x3 ADDR=0x9a7666f1 102 beats
# UVM_INFO ../src/mst/axi4_master_driver.sv(289) @ 19705000: uvm_test_top.env.master_agent.drv [axi4_master_driver] Master driver received B response: ID=0x3 RESP=AXI4_RESP_OKAY
# UVM_INFO ../src/slv/axi4_slave_driver.sv(320) @ 19705000: uvm_test_top.env.slave_agent.drv [axi4_slave_driver] Write complete: ID=0x3 RESP=AXI4_RESP_OKAY
# UVM_INFO ../src/mst/axi4_master_monitor.sv(210) @ 19705000: uvm_test_top.env.master_agent.mon [axi4_master_monitor] Write complete: ID=0x3 ADDR=0x9a7666f1 RESP=AXI4_RESP_OKAY
# UVM_INFO ../src/env/axi4_scoreboard.sv(87) @ 19705000: uvm_test_top.env.scb [axi4_scoreboard] Master AXI4_WRITE received: ID=0x3 ADDR=0x9a7666f1 LEN=101
# UVM_INFO ../src/slv/axi4_slave_monitor.sv(189) @ 19705000: uvm_test_top.env.slave_agent.mon [axi4_slave_monitor] Write response sent: ID=0x3 ADDR=0x9a7666f1 RESP=AXI4_RESP_OKAY
# UVM_INFO ../src/env/axi4_scoreboard.sv(108) @ 19705000: uvm_test_top.env.scb [axi4_scoreboard] Slave AXI4_WRITE received: ID=0x3 ADDR=0x9a7666f1 LEN=101
# UVM_INFO ../src/env/axi4_scoreboard.sv(291) @ 19705000: uvm_test_top.env.scb [axi4_scoreboard] [WRITE] MATCH #19: ID=0x3 ADDR=0x9a7666f1 LEN=101
# UVM_INFO ../src/env/axi4_scoreboard.sv(219) @ 19705000: uvm_test_top.env.scb [axi4_scoreboard] [REF_MEM_WRITE] Addr=0x9a7666f0 Data=0xe0
# UVM_INFO ../src/env/axi4_scoreboard.sv(219) @ 19705000: uvm_test_top.env.scb [axi4_scoreboard] [REF_MEM_WRITE] Addr=0x9a7666f1 Data=0xe5
# UVM_INFO ../src/env/axi4_scoreboard.sv(219) @ 19705000: uvm_test_top.env.scb [axi4_scoreboard] [REF_MEM_WRITE] Addr=0x9a7666f2 Data=0x82
# UVM_INFO ../src/env/axi4_scoreboard.sv(219) @ 19705000: uvm_test_top.env.scb [axi4_scoreboard] [REF_MEM_WRITE] Addr=0x9a7666f3 Data=0x46
# UVM_INFO ../src/env/axi4_scoreboard.sv(219) @ 19705000: uvm_test_top.env.scb [axi4_scoreboard] [REF_MEM_WRITE] Addr=0x9a7666f4 Data=0xfe
# UVM_INFO ../src/env/axi4_scoreboard.sv(219) @ 19705000: uvm_test_top.env.scb [axi4_scoreboard] [REF_MEM_WRITE] Addr=0x9a7666f5 Data=0x4f
# UVM_INFO ../src/env/axi4_scoreboard.sv(219) @ 19705000: uvm_test_top.env.scb [axi4_scoreboard] [REF_MEM_WRITE] Addr=0x9a7666f7 Data=0x11
# UVM_INFO ../src/env/axi4_scoreboard.sv(219) @ 19705000: uvm_test_top.env.scb [axi4_scoreboard] [REF_MEM_WRITE] Addr=0x9a7666fb Data=0x7b
# UVM_INFO ../src/env/axi4_scoreboard.sv(219) @ 19705000: uvm_test_top.env.scb [axi4_scoreboard] [REF_MEM_WRITE] Addr=0x9a7666fc Data=0x7a
# UVM_INFO ../src/env/axi4_scoreboard.sv(219) @ 19705000: uvm_test_top.env.scb [axi4_scoreboard] [REF_MEM_WRITE] Addr=0x9a7666fd Data=0xf1
# UVM_INFO ../src/env/axi4_scoreboard.sv(219) @ 19705000: uvm_test_top.env.scb [axi4_scoreboard] [REF_MEM_WRITE] Addr=0x9a7666fe Data=0x39
# UVM_INFO ../src/env/axi4_scoreboard.sv(219) @ 19705000: uvm_test_top.env.scb [axi4_scoreboard] [REF_MEM_WRITE] Addr=0x9a766704 Data=0x05
# UVM_INFO ../src/env/axi4_scoreboard.sv(219) @ 19705000: uvm_test_top.env.scb [axi4_scoreboard] [REF_MEM_WRITE] Addr=0x9a766705 Data=0x7d
# UVM_INFO ../src/env/axi4_scoreboard.sv(219) @ 19705000: uvm_test_top.env.scb [axi4_scoreboard] [REF_MEM_WRITE] Addr=0x9a766707 Data=0x9c
# UVM_INFO ../src/env/axi4_scoreboard.sv(219) @ 19705000: uvm_test_top.env.scb [axi4_scoreboard] [REF_MEM_WRITE] Addr=0x9a766708 Data=0x33
# UVM_INFO ../src/env/axi4_scoreboard.sv(219) @ 19705000: uvm_test_top.env.scb [axi4_scoreboard] [REF_MEM_WRITE] Addr=0x9a766709 Data=0x57
# UVM_INFO ../src/env/axi4_scoreboard.sv(219) @ 19705000: uvm_test_top.env.scb [axi4_scoreboard] [REF_MEM_WRITE] Addr=0x9a76670a Data=0x14
# UVM_INFO ../src/env/axi4_scoreboard.sv(219) @ 19705000: uvm_test_top.env.scb [axi4_scoreboard] [REF_MEM_WRITE] Addr=0x9a76670b Data=0x83
# UVM_INFO ../src/env/axi4_scoreboard.sv(219) @ 19705000: uvm_test_top.env.scb [axi4_scoreboard] [REF_MEM_WRITE] Addr=0x9a76670d Data=0xce
# UVM_INFO ../src/env/axi4_scoreboard.sv(219) @ 19705000: uvm_test_top.env.scb [axi4_scoreboard] [REF_MEM_WRITE] Addr=0x9a76670f Data=0x3e
# UVM_INFO ../src/env/axi4_scoreboard.sv(219) @ 19705000: uvm_test_top.env.scb [axi4_scoreboard] [REF_MEM_WRITE] Addr=0x9a766711 Data=0x75
# UVM_INFO ../src/env/axi4_scoreboard.sv(219) @ 19705000: uvm_test_top.env.scb [axi4_scoreboard] [REF_MEM_WRITE] Addr=0x9a766712 Data=0xda
# UVM_INFO ../src/env/axi4_scoreboard.sv(219) @ 19705000: uvm_test_top.env.scb [axi4_scoreboard] [REF_MEM_WRITE] Addr=0x9a766713 Data=0xff
# UVM_INFO ../src/env/axi4_scoreboard.sv(219) @ 19705000: uvm_test_top.env.scb [axi4_scoreboard] [REF_MEM_WRITE] Addr=0x9a766714 Data=0xf9
# UVM_INFO ../src/env/axi4_scoreboard.sv(219) @ 19705000: uvm_test_top.env.scb [axi4_scoreboard] [REF_MEM_WRITE] Addr=0x9a766715 Data=0xd6
# UVM_INFO ../src/env/axi4_scoreboard.sv(219) @ 19705000: uvm_test_top.env.scb [axi4_scoreboard] [REF_MEM_WRITE] Addr=0x9a766716 Data=0x9a
# UVM_INFO ../src/env/axi4_scoreboard.sv(219) @ 19705000: uvm_test_top.env.scb [axi4_scoreboard] [REF_MEM_WRITE] Addr=0x9a766717 Data=0x47
# UVM_INFO ../src/env/axi4_scoreboard.sv(219) @ 19705000: uvm_test_top.env.scb [axi4_scoreboard] [REF_MEM_WRITE] Addr=0x9a766719 Data=0x37
# UVM_INFO ../src/env/axi4_scoreboard.sv(219) @ 19705000: uvm_test_top.env.scb [axi4_scoreboard] [REF_MEM_WRITE] Addr=0x9a76671b Data=0x39
# UVM_INFO ../src/env/axi4_scoreboard.sv(219) @ 19705000: uvm_test_top.env.scb [axi4_scoreboard] [REF_MEM_WRITE] Addr=0x9a76671c Data=0xda
# UVM_INFO ../src/env/axi4_scoreboard.sv(219) @ 19705000: uvm_test_top.env.scb [axi4_scoreboard] [REF_MEM_WRITE] Addr=0x9a76671d Data=0x17
# UVM_INFO ../src/env/axi4_scoreboard.sv(219) @ 19705000: uvm_test_top.env.scb [axi4_scoreboard] [REF_MEM_WRITE] Addr=0x9a76671f Data=0x62
# UVM_INFO ../src/env/axi4_scoreboard.sv(219) @ 19705000: uvm_test_top.env.scb [axi4_scoreboard] [REF_MEM_WRITE] Addr=0x9a766721 Data=0x12
# UVM_INFO ../src/env/axi4_scoreboard.sv(219) @ 19705000: uvm_test_top.env.scb [axi4_scoreboard] [REF_MEM_WRITE] Addr=0x9a766723 Data=0xd7
# UVM_INFO ../src/env/axi4_scoreboard.sv(219) @ 19705000: uvm_test_top.env.scb [axi4_scoreboard] [REF_MEM_WRITE] Addr=0x9a766726 Data=0x34
# UVM_INFO ../src/env/axi4_scoreboard.sv(219) @ 19705000: uvm_test_top.env.scb [axi4_scoreboard] [REF_MEM_WRITE] Addr=0x9a766728 Data=0x39
# UVM_INFO ../src/env/axi4_scoreboard.sv(219) @ 19705000: uvm_test_top.env.scb [axi4_scoreboard] [REF_MEM_WRITE] Addr=0x9a766729 Data=0x1d
# UVM_INFO ../src/env/axi4_scoreboard.sv(219) @ 19705000: uvm_test_top.env.scb [axi4_scoreboard] [REF_MEM_WRITE] Addr=0x9a76672a Data=0xff
# UVM_INFO ../src/env/axi4_scoreboard.sv(219) @ 19705000: uvm_test_top.env.scb [axi4_scoreboard] [REF_MEM_WRITE] Addr=0x9a76672b Data=0x3b
# UVM_INFO ../src/env/axi4_scoreboard.sv(219) @ 19705000: uvm_test_top.env.scb [axi4_scoreboard] [REF_MEM_WRITE] Addr=0x9a76672d Data=0xc6
# UVM_INFO ../src/env/axi4_scoreboard.sv(219) @ 19705000: uvm_test_top.env.scb [axi4_scoreboard] [REF_MEM_WRITE] Addr=0x9a76672e Data=0x85
# UVM_INFO ../src/env/axi4_scoreboard.sv(219) @ 19705000: uvm_test_top.env.scb [axi4_scoreboard] [REF_MEM_WRITE] Addr=0x9a766730 Data=0xab
# UVM_INFO ../src/env/axi4_scoreboard.sv(219) @ 19705000: uvm_test_top.env.scb [axi4_scoreboard] [REF_MEM_WRITE] Addr=0x9a766731 Data=0x9c
# UVM_INFO ../src/env/axi4_scoreboard.sv(219) @ 19705000: uvm_test_top.env.scb [axi4_scoreboard] [REF_MEM_WRITE] Addr=0x9a766733 Data=0x30
# UVM_INFO ../src/env/axi4_scoreboard.sv(219) @ 19705000: uvm_test_top.env.scb [axi4_scoreboard] [REF_MEM_WRITE] Addr=0x9a766734 Data=0x9e
# UVM_INFO ../src/env/axi4_scoreboard.sv(219) @ 19705000: uvm_test_top.env.scb [axi4_scoreboard] [REF_MEM_WRITE] Addr=0x9a766737 Data=0xea
# UVM_INFO ../src/env/axi4_scoreboard.sv(219) @ 19705000: uvm_test_top.env.scb [axi4_scoreboard] [REF_MEM_WRITE] Addr=0x9a76673a Data=0x2a
# UVM_INFO ../src/env/axi4_scoreboard.sv(219) @ 19705000: uvm_test_top.env.scb [axi4_scoreboard] [REF_MEM_WRITE] Addr=0x9a76673b Data=0xd7
# UVM_INFO ../src/env/axi4_scoreboard.sv(219) @ 19705000: uvm_test_top.env.scb [axi4_scoreboard] [REF_MEM_WRITE] Addr=0x9a76673d Data=0xb3
# UVM_INFO ../src/env/axi4_scoreboard.sv(219) @ 19705000: uvm_test_top.env.scb [axi4_scoreboard] [REF_MEM_WRITE] Addr=0x9a766740 Data=0x15
# UVM_INFO ../src/env/axi4_scoreboard.sv(219) @ 19705000: uvm_test_top.env.scb [axi4_scoreboard] [REF_MEM_WRITE] Addr=0x9a766741 Data=0x93
# UVM_INFO ../src/env/axi4_scoreboard.sv(219) @ 19705000: uvm_test_top.env.scb [axi4_scoreboard] [REF_MEM_WRITE] Addr=0x9a766743 Data=0xab
# UVM_INFO ../src/env/axi4_scoreboard.sv(219) @ 19705000: uvm_test_top.env.scb [axi4_scoreboard] [REF_MEM_WRITE] Addr=0x9a766744 Data=0xae
# UVM_INFO ../src/env/axi4_scoreboard.sv(219) @ 19705000: uvm_test_top.env.scb [axi4_scoreboard] [REF_MEM_WRITE] Addr=0x9a766746 Data=0x0b
# UVM_INFO ../src/env/axi4_scoreboard.sv(219) @ 19705000: uvm_test_top.env.scb [axi4_scoreboard] [REF_MEM_WRITE] Addr=0x9a766748 Data=0xd5
# UVM_INFO ../src/env/axi4_scoreboard.sv(219) @ 19705000: uvm_test_top.env.scb [axi4_scoreboard] [REF_MEM_WRITE] Addr=0x9a766749 Data=0x5a
# UVM_INFO ../src/env/axi4_scoreboard.sv(219) @ 19705000: uvm_test_top.env.scb [axi4_scoreboard] [REF_MEM_WRITE] Addr=0x9a76674c Data=0xe3
# UVM_INFO ../src/env/axi4_scoreboard.sv(219) @ 19705000: uvm_test_top.env.scb [axi4_scoreboard] [REF_MEM_WRITE] Addr=0x9a76674d Data=0xa2
# UVM_INFO ../src/env/axi4_scoreboard.sv(219) @ 19705000: uvm_test_top.env.scb [axi4_scoreboard] [REF_MEM_WRITE] Addr=0x9a76674e Data=0x73
# UVM_INFO ../src/env/axi4_scoreboard.sv(219) @ 19705000: uvm_test_top.env.scb [axi4_scoreboard] [REF_MEM_WRITE] Addr=0x9a76674f Data=0x22
# UVM_INFO ../src/env/axi4_scoreboard.sv(219) @ 19705000: uvm_test_top.env.scb [axi4_scoreboard] [REF_MEM_WRITE] Addr=0x9a766752 Data=0x09
# UVM_INFO ../src/env/axi4_scoreboard.sv(219) @ 19705000: uvm_test_top.env.scb [axi4_scoreboard] [REF_MEM_WRITE] Addr=0x9a766755 Data=0xa9
# UVM_INFO ../src/env/axi4_scoreboard.sv(219) @ 19705000: uvm_test_top.env.scb [axi4_scoreboard] [REF_MEM_WRITE] Addr=0x9a766758 Data=0x67
# UVM_INFO ../src/env/axi4_scoreboard.sv(219) @ 19705000: uvm_test_top.env.scb [axi4_scoreboard] [REF_MEM_WRITE] Addr=0x9a76675c Data=0xf3
# UVM_INFO ../src/env/axi4_scoreboard.sv(219) @ 19705000: uvm_test_top.env.scb [axi4_scoreboard] [REF_MEM_WRITE] Addr=0x9a76675d Data=0xb3
# UVM_INFO ../src/env/axi4_scoreboard.sv(219) @ 19705000: uvm_test_top.env.scb [axi4_scoreboard] [REF_MEM_WRITE] Addr=0x9a76675e Data=0xd6
# UVM_INFO ../src/env/axi4_scoreboard.sv(219) @ 19705000: uvm_test_top.env.scb [axi4_scoreboard] [REF_MEM_WRITE] Addr=0x9a76675f Data=0x6b
# UVM_INFO ../src/env/axi4_scoreboard.sv(219) @ 19705000: uvm_test_top.env.scb [axi4_scoreboard] [REF_MEM_WRITE] Addr=0x9a766762 Data=0xe6
# UVM_INFO ../src/env/axi4_scoreboard.sv(219) @ 19705000: uvm_test_top.env.scb [axi4_scoreboard] [REF_MEM_WRITE] Addr=0x9a766763 Data=0x83
# UVM_INFO ../src/env/axi4_scoreboard.sv(219) @ 19705000: uvm_test_top.env.scb [axi4_scoreboard] [REF_MEM_WRITE] Addr=0x9a766764 Data=0xa3
# UVM_INFO ../src/env/axi4_scoreboard.sv(219) @ 19705000: uvm_test_top.env.scb [axi4_scoreboard] [REF_MEM_WRITE] Addr=0x9a766766 Data=0xa8
# UVM_INFO ../src/env/axi4_scoreboard.sv(219) @ 19705000: uvm_test_top.env.scb [axi4_scoreboard] [REF_MEM_WRITE] Addr=0x9a766767 Data=0x19
# UVM_INFO ../src/env/axi4_scoreboard.sv(219) @ 19705000: uvm_test_top.env.scb [axi4_scoreboard] [REF_MEM_WRITE] Addr=0x9a76676c Data=0x1a
# UVM_INFO ../src/env/axi4_scoreboard.sv(219) @ 19705000: uvm_test_top.env.scb [axi4_scoreboard] [REF_MEM_WRITE] Addr=0x9a76676d Data=0xd5
# UVM_INFO ../src/env/axi4_scoreboard.sv(219) @ 19705000: uvm_test_top.env.scb [axi4_scoreboard] [REF_MEM_WRITE] Addr=0x9a766772 Data=0x5d
# UVM_INFO ../src/env/axi4_scoreboard.sv(219) @ 19705000: uvm_test_top.env.scb [axi4_scoreboard] [REF_MEM_WRITE] Addr=0x9a766773 Data=0xd5
# UVM_INFO ../src/env/axi4_scoreboard.sv(219) @ 19705000: uvm_test_top.env.scb [axi4_scoreboard] [REF_MEM_WRITE] Addr=0x9a766774 Data=0xe5
# UVM_INFO ../src/env/axi4_scoreboard.sv(219) @ 19705000: uvm_test_top.env.scb [axi4_scoreboard] [REF_MEM_WRITE] Addr=0x9a766775 Data=0xcb
# UVM_INFO ../src/env/axi4_scoreboard.sv(219) @ 19705000: uvm_test_top.env.scb [axi4_scoreboard] [REF_MEM_WRITE] Addr=0x9a766777 Data=0xb7
# UVM_INFO ../src/env/axi4_scoreboard.sv(219) @ 19705000: uvm_test_top.env.scb [axi4_scoreboard] [REF_MEM_WRITE] Addr=0x9a76677c Data=0xec
# UVM_INFO ../src/env/axi4_scoreboard.sv(219) @ 19705000: uvm_test_top.env.scb [axi4_scoreboard] [REF_MEM_WRITE] Addr=0x9a76677e Data=0x70
# UVM_INFO ../src/env/axi4_scoreboard.sv(219) @ 19705000: uvm_test_top.env.scb [axi4_scoreboard] [REF_MEM_WRITE] Addr=0x9a76677f Data=0xfd
# UVM_INFO ../src/env/axi4_scoreboard.sv(219) @ 19705000: uvm_test_top.env.scb [axi4_scoreboard] [REF_MEM_WRITE] Addr=0x9a766781 Data=0xd1
# UVM_INFO ../src/env/axi4_scoreboard.sv(219) @ 19705000: uvm_test_top.env.scb [axi4_scoreboard] [REF_MEM_WRITE] Addr=0x9a766783 Data=0xee
# UVM_INFO ../src/env/axi4_scoreboard.sv(219) @ 19705000: uvm_test_top.env.scb [axi4_scoreboard] [REF_MEM_WRITE] Addr=0x9a766784 Data=0x93
# UVM_INFO ../src/env/axi4_scoreboard.sv(219) @ 19705000: uvm_test_top.env.scb [axi4_scoreboard] [REF_MEM_WRITE] Addr=0x9a766785 Data=0xe2
# UVM_INFO ../src/env/axi4_scoreboard.sv(219) @ 19705000: uvm_test_top.env.scb [axi4_scoreboard] [REF_MEM_WRITE] Addr=0x9a766786 Data=0xfc
# UVM_INFO ../src/env/axi4_scoreboard.sv(219) @ 19705000: uvm_test_top.env.scb [axi4_scoreboard] [REF_MEM_WRITE] Addr=0x9a766787 Data=0xf9
# UVM_INFO ../src/env/axi4_scoreboard.sv(219) @ 19705000: uvm_test_top.env.scb [axi4_scoreboard] [REF_MEM_WRITE] Addr=0x9a76678a Data=0x3d
# UVM_INFO ../src/env/axi4_scoreboard.sv(219) @ 19705000: uvm_test_top.env.scb [axi4_scoreboard] [REF_MEM_WRITE] Addr=0x9a76678c Data=0xaf
# UVM_INFO ../src/env/axi4_scoreboard.sv(219) @ 19705000: uvm_test_top.env.scb [axi4_scoreboard] [REF_MEM_WRITE] Addr=0x9a76678d Data=0x8c
# UVM_INFO ../src/env/axi4_scoreboard.sv(219) @ 19705000: uvm_test_top.env.scb [axi4_scoreboard] [REF_MEM_WRITE] Addr=0x9a76678f Data=0x42
# UVM_INFO ../src/env/axi4_scoreboard.sv(219) @ 19705000: uvm_test_top.env.scb [axi4_scoreboard] [REF_MEM_WRITE] Addr=0x9a766791 Data=0xaf
# UVM_INFO ../src/env/axi4_scoreboard.sv(219) @ 19705000: uvm_test_top.env.scb [axi4_scoreboard] [REF_MEM_WRITE] Addr=0x9a766792 Data=0xca
# UVM_INFO ../src/env/axi4_scoreboard.sv(219) @ 19705000: uvm_test_top.env.scb [axi4_scoreboard] [REF_MEM_WRITE] Addr=0x9a766793 Data=0xcb
# UVM_INFO ../src/env/axi4_scoreboard.sv(219) @ 19705000: uvm_test_top.env.scb [axi4_scoreboard] [REF_MEM_WRITE] Addr=0x9a766794 Data=0xa9
# UVM_INFO ../src/env/axi4_scoreboard.sv(219) @ 19705000: uvm_test_top.env.scb [axi4_scoreboard] [REF_MEM_WRITE] Addr=0x9a766795 Data=0x8d
# UVM_INFO ../src/env/axi4_scoreboard.sv(219) @ 19705000: uvm_test_top.env.scb [axi4_scoreboard] [REF_MEM_WRITE] Addr=0x9a766799 Data=0xe0
# UVM_INFO ../src/env/axi4_scoreboard.sv(219) @ 19705000: uvm_test_top.env.scb [axi4_scoreboard] [REF_MEM_WRITE] Addr=0x9a76679c Data=0x59
# UVM_INFO ../src/env/axi4_scoreboard.sv(219) @ 19705000: uvm_test_top.env.scb [axi4_scoreboard] [REF_MEM_WRITE] Addr=0x9a76679d Data=0x66
# UVM_INFO ../src/env/axi4_scoreboard.sv(219) @ 19705000: uvm_test_top.env.scb [axi4_scoreboard] [REF_MEM_WRITE] Addr=0x9a76679e Data=0x33
# UVM_INFO ../src/env/axi4_scoreboard.sv(219) @ 19705000: uvm_test_top.env.scb [axi4_scoreboard] [REF_MEM_WRITE] Addr=0x9a7667a1 Data=0x23
# UVM_INFO ../src/env/axi4_scoreboard.sv(219) @ 19705000: uvm_test_top.env.scb [axi4_scoreboard] [REF_MEM_WRITE] Addr=0x9a7667a2 Data=0xd2
# UVM_INFO ../src/env/axi4_scoreboard.sv(219) @ 19705000: uvm_test_top.env.scb [axi4_scoreboard] [REF_MEM_WRITE] Addr=0x9a7667a4 Data=0xfb
# UVM_INFO ../src/env/axi4_scoreboard.sv(219) @ 19705000: uvm_test_top.env.scb [axi4_scoreboard] [REF_MEM_WRITE] Addr=0x9a7667a5 Data=0x5e
# UVM_INFO ../src/env/axi4_scoreboard.sv(219) @ 19705000: uvm_test_top.env.scb [axi4_scoreboard] [REF_MEM_WRITE] Addr=0x9a7667a6 Data=0x93
# UVM_INFO ../src/env/axi4_scoreboard.sv(219) @ 19705000: uvm_test_top.env.scb [axi4_scoreboard] [REF_MEM_WRITE] Addr=0x9a7667a7 Data=0x25
# UVM_INFO ../src/env/axi4_scoreboard.sv(219) @ 19705000: uvm_test_top.env.scb [axi4_scoreboard] [REF_MEM_WRITE] Addr=0x9a7667a8 Data=0x54
# UVM_INFO ../src/env/axi4_scoreboard.sv(219) @ 19705000: uvm_test_top.env.scb [axi4_scoreboard] [REF_MEM_WRITE] Addr=0x9a7667aa Data=0xba
# UVM_INFO ../src/env/axi4_scoreboard.sv(219) @ 19705000: uvm_test_top.env.scb [axi4_scoreboard] [REF_MEM_WRITE] Addr=0x9a7667ac Data=0x17
# UVM_INFO ../src/env/axi4_scoreboard.sv(219) @ 19705000: uvm_test_top.env.scb [axi4_scoreboard] [REF_MEM_WRITE] Addr=0x9a7667af Data=0x98
# UVM_INFO ../src/env/axi4_scoreboard.sv(219) @ 19705000: uvm_test_top.env.scb [axi4_scoreboard] [REF_MEM_WRITE] Addr=0x9a7667b0 Data=0xd6
# UVM_INFO ../src/env/axi4_scoreboard.sv(219) @ 19705000: uvm_test_top.env.scb [axi4_scoreboard] [REF_MEM_WRITE] Addr=0x9a7667b2 Data=0x56
# UVM_INFO ../src/env/axi4_scoreboard.sv(219) @ 19705000: uvm_test_top.env.scb [axi4_scoreboard] [REF_MEM_WRITE] Addr=0x9a7667b5 Data=0x5e
# UVM_INFO ../src/env/axi4_scoreboard.sv(219) @ 19705000: uvm_test_top.env.scb [axi4_scoreboard] [REF_MEM_WRITE] Addr=0x9a7667b7 Data=0xde
# UVM_INFO ../src/env/axi4_scoreboard.sv(219) @ 19705000: uvm_test_top.env.scb [axi4_scoreboard] [REF_MEM_WRITE] Addr=0x9a7667ba Data=0xc3
# UVM_INFO ../src/env/axi4_scoreboard.sv(219) @ 19705000: uvm_test_top.env.scb [axi4_scoreboard] [REF_MEM_WRITE] Addr=0x9a7667bb Data=0xad
# UVM_INFO ../src/env/axi4_scoreboard.sv(219) @ 19705000: uvm_test_top.env.scb [axi4_scoreboard] [REF_MEM_WRITE] Addr=0x9a7667bd Data=0x69
# UVM_INFO ../src/env/axi4_scoreboard.sv(219) @ 19705000: uvm_test_top.env.scb [axi4_scoreboard] [REF_MEM_WRITE] Addr=0x9a7667be Data=0xa0
# UVM_INFO ../src/env/axi4_scoreboard.sv(219) @ 19705000: uvm_test_top.env.scb [axi4_scoreboard] [REF_MEM_WRITE] Addr=0x9a7667bf Data=0xcb
# UVM_INFO ../src/env/axi4_scoreboard.sv(219) @ 19705000: uvm_test_top.env.scb [axi4_scoreboard] [REF_MEM_WRITE] Addr=0x9a7667c1 Data=0x1e
# UVM_INFO ../src/env/axi4_scoreboard.sv(219) @ 19705000: uvm_test_top.env.scb [axi4_scoreboard] [REF_MEM_WRITE] Addr=0x9a7667c2 Data=0x5e
# UVM_INFO ../src/env/axi4_scoreboard.sv(219) @ 19705000: uvm_test_top.env.scb [axi4_scoreboard] [REF_MEM_WRITE] Addr=0x9a7667c3 Data=0x63
# UVM_INFO ../src/env/axi4_scoreboard.sv(219) @ 19705000: uvm_test_top.env.scb [axi4_scoreboard] [REF_MEM_WRITE] Addr=0x9a7667c7 Data=0x0c
# UVM_INFO ../src/env/axi4_scoreboard.sv(219) @ 19705000: uvm_test_top.env.scb [axi4_scoreboard] [REF_MEM_WRITE] Addr=0x9a7667c8 Data=0x2c
# UVM_INFO ../src/env/axi4_scoreboard.sv(219) @ 19705000: uvm_test_top.env.scb [axi4_scoreboard] [REF_MEM_WRITE] Addr=0x9a7667ca Data=0xcc
# UVM_INFO ../src/env/axi4_scoreboard.sv(219) @ 19705000: uvm_test_top.env.scb [axi4_scoreboard] [REF_MEM_WRITE] Addr=0x9a7667cb Data=0x64
# UVM_INFO ../src/env/axi4_scoreboard.sv(219) @ 19705000: uvm_test_top.env.scb [axi4_scoreboard] [REF_MEM_WRITE] Addr=0x9a7667cc Data=0x43
# UVM_INFO ../src/env/axi4_scoreboard.sv(219) @ 19705000: uvm_test_top.env.scb [axi4_scoreboard] [REF_MEM_WRITE] Addr=0x9a7667cd Data=0x8d
# UVM_INFO ../src/env/axi4_scoreboard.sv(219) @ 19705000: uvm_test_top.env.scb [axi4_scoreboard] [REF_MEM_WRITE] Addr=0x9a7667ce Data=0x89
# UVM_INFO ../src/env/axi4_scoreboard.sv(219) @ 19705000: uvm_test_top.env.scb [axi4_scoreboard] [REF_MEM_WRITE] Addr=0x9a7667d3 Data=0x12
# UVM_INFO ../src/env/axi4_scoreboard.sv(219) @ 19705000: uvm_test_top.env.scb [axi4_scoreboard] [REF_MEM_WRITE] Addr=0x9a7667d7 Data=0x45
# UVM_INFO ../src/env/axi4_scoreboard.sv(219) @ 19705000: uvm_test_top.env.scb [axi4_scoreboard] [REF_MEM_WRITE] Addr=0x9a7667d9 Data=0x72
# UVM_INFO ../src/env/axi4_scoreboard.sv(219) @ 19705000: uvm_test_top.env.scb [axi4_scoreboard] [REF_MEM_WRITE] Addr=0x9a7667db Data=0xf6
# UVM_INFO ../src/env/axi4_scoreboard.sv(219) @ 19705000: uvm_test_top.env.scb [axi4_scoreboard] [REF_MEM_WRITE] Addr=0x9a7667dc Data=0xc2
# UVM_INFO ../src/env/axi4_scoreboard.sv(219) @ 19705000: uvm_test_top.env.scb [axi4_scoreboard] [REF_MEM_WRITE] Addr=0x9a7667dd Data=0xb2
# UVM_INFO ../src/env/axi4_scoreboard.sv(219) @ 19705000: uvm_test_top.env.scb [axi4_scoreboard] [REF_MEM_WRITE] Addr=0x9a7667de Data=0xc5
# UVM_INFO ../src/env/axi4_scoreboard.sv(219) @ 19705000: uvm_test_top.env.scb [axi4_scoreboard] [REF_MEM_WRITE] Addr=0x9a7667df Data=0x4f
# UVM_INFO ../src/env/axi4_scoreboard.sv(219) @ 19705000: uvm_test_top.env.scb [axi4_scoreboard] [REF_MEM_WRITE] Addr=0x9a7667e0 Data=0xd0
# UVM_INFO ../src/env/axi4_scoreboard.sv(219) @ 19705000: uvm_test_top.env.scb [axi4_scoreboard] [REF_MEM_WRITE] Addr=0x9a7667e3 Data=0x02
# UVM_INFO ../src/env/axi4_scoreboard.sv(219) @ 19705000: uvm_test_top.env.scb [axi4_scoreboard] [REF_MEM_WRITE] Addr=0x9a7667e4 Data=0x00
# UVM_INFO ../src/env/axi4_scoreboard.sv(219) @ 19705000: uvm_test_top.env.scb [axi4_scoreboard] [REF_MEM_WRITE] Addr=0x9a7667e8 Data=0x7c
# UVM_INFO ../src/env/axi4_scoreboard.sv(219) @ 19705000: uvm_test_top.env.scb [axi4_scoreboard] [REF_MEM_WRITE] Addr=0x9a7667e9 Data=0x8f
# UVM_INFO ../src/env/axi4_scoreboard.sv(219) @ 19705000: uvm_test_top.env.scb [axi4_scoreboard] [REF_MEM_WRITE] Addr=0x9a7667eb Data=0x76
# UVM_INFO ../src/env/axi4_scoreboard.sv(219) @ 19705000: uvm_test_top.env.scb [axi4_scoreboard] [REF_MEM_WRITE] Addr=0x9a7667ef Data=0x59
# UVM_INFO ../src/env/axi4_scoreboard.sv(219) @ 19705000: uvm_test_top.env.scb [axi4_scoreboard] [REF_MEM_WRITE] Addr=0x9a7667f4 Data=0x5f
# UVM_INFO ../src/env/axi4_scoreboard.sv(219) @ 19705000: uvm_test_top.env.scb [axi4_scoreboard] [REF_MEM_WRITE] Addr=0x9a7667f5 Data=0x60
# UVM_INFO ../src/env/axi4_scoreboard.sv(219) @ 19705000: uvm_test_top.env.scb [axi4_scoreboard] [REF_MEM_WRITE] Addr=0x9a7667f6 Data=0x22
# UVM_INFO ../src/env/axi4_scoreboard.sv(219) @ 19705000: uvm_test_top.env.scb [axi4_scoreboard] [REF_MEM_WRITE] Addr=0x9a7667f7 Data=0x23
# UVM_INFO ../src/env/axi4_scoreboard.sv(219) @ 19705000: uvm_test_top.env.scb [axi4_scoreboard] [REF_MEM_WRITE] Addr=0x9a7667f8 Data=0x25
# UVM_INFO ../src/env/axi4_scoreboard.sv(219) @ 19705000: uvm_test_top.env.scb [axi4_scoreboard] [REF_MEM_WRITE] Addr=0x9a7667fc Data=0x77
# UVM_INFO ../src/env/axi4_scoreboard.sv(219) @ 19705000: uvm_test_top.env.scb [axi4_scoreboard] [REF_MEM_WRITE] Addr=0x9a7667ff Data=0x62
# UVM_INFO ../src/env/axi4_scoreboard.sv(219) @ 19705000: uvm_test_top.env.scb [axi4_scoreboard] [REF_MEM_WRITE] Addr=0x9a766802 Data=0x25
# UVM_INFO ../src/env/axi4_scoreboard.sv(219) @ 19705000: uvm_test_top.env.scb [axi4_scoreboard] [REF_MEM_WRITE] Addr=0x9a766803 Data=0x54
# UVM_INFO ../src/env/axi4_scoreboard.sv(219) @ 19705000: uvm_test_top.env.scb [axi4_scoreboard] [REF_MEM_WRITE] Addr=0x9a766804 Data=0x7d
# UVM_INFO ../src/env/axi4_scoreboard.sv(219) @ 19705000: uvm_test_top.env.scb [axi4_scoreboard] [REF_MEM_WRITE] Addr=0x9a766805 Data=0x66
# UVM_INFO ../src/env/axi4_scoreboard.sv(219) @ 19705000: uvm_test_top.env.scb [axi4_scoreboard] [REF_MEM_WRITE] Addr=0x9a766808 Data=0xdf
# UVM_INFO ../src/env/axi4_scoreboard.sv(219) @ 19705000: uvm_test_top.env.scb [axi4_scoreboard] [REF_MEM_WRITE] Addr=0x9a766809 Data=0x1a
# UVM_INFO ../src/env/axi4_scoreboard.sv(219) @ 19705000: uvm_test_top.env.scb [axi4_scoreboard] [REF_MEM_WRITE] Addr=0x9a76680a Data=0xb5
# UVM_INFO ../src/env/axi4_scoreboard.sv(219) @ 19705000: uvm_test_top.env.scb [axi4_scoreboard] [REF_MEM_WRITE] Addr=0x9a76680c Data=0x54
# UVM_INFO ../src/env/axi4_scoreboard.sv(219) @ 19705000: uvm_test_top.env.scb [axi4_scoreboard] [REF_MEM_WRITE] Addr=0x9a76680e Data=0xe0
# UVM_INFO ../src/env/axi4_scoreboard.sv(219) @ 19705000: uvm_test_top.env.scb [axi4_scoreboard] [REF_MEM_WRITE] Addr=0x9a766812 Data=0xaf
# UVM_INFO ../src/env/axi4_scoreboard.sv(219) @ 19705000: uvm_test_top.env.scb [axi4_scoreboard] [REF_MEM_WRITE] Addr=0x9a766814 Data=0x41
# UVM_INFO ../src/env/axi4_scoreboard.sv(219) @ 19705000: uvm_test_top.env.scb [axi4_scoreboard] [REF_MEM_WRITE] Addr=0x9a766818 Data=0x4e
# UVM_INFO ../src/env/axi4_scoreboard.sv(219) @ 19705000: uvm_test_top.env.scb [axi4_scoreboard] [REF_MEM_WRITE] Addr=0x9a76681a Data=0x92
# UVM_INFO ../src/env/axi4_scoreboard.sv(219) @ 19705000: uvm_test_top.env.scb [axi4_scoreboard] [REF_MEM_WRITE] Addr=0x9a76681b Data=0x8c
# UVM_INFO ../src/env/axi4_scoreboard.sv(219) @ 19705000: uvm_test_top.env.scb [axi4_scoreboard] [REF_MEM_WRITE] Addr=0x9a76681c Data=0x12
# UVM_INFO ../src/env/axi4_scoreboard.sv(219) @ 19705000: uvm_test_top.env.scb [axi4_scoreboard] [REF_MEM_WRITE] Addr=0x9a76681d Data=0xb7
# UVM_INFO ../src/env/axi4_scoreboard.sv(219) @ 19705000: uvm_test_top.env.scb [axi4_scoreboard] [REF_MEM_WRITE] Addr=0x9a766823 Data=0x5a
# UVM_INFO ../src/env/axi4_scoreboard.sv(219) @ 19705000: uvm_test_top.env.scb [axi4_scoreboard] [REF_MEM_WRITE] Addr=0x9a766826 Data=0xe8
# UVM_INFO ../src/env/axi4_scoreboard.sv(219) @ 19705000: uvm_test_top.env.scb [axi4_scoreboard] [REF_MEM_WRITE] Addr=0x9a766829 Data=0xbe
# UVM_INFO ../src/env/axi4_scoreboard.sv(219) @ 19705000: uvm_test_top.env.scb [axi4_scoreboard] [REF_MEM_WRITE] Addr=0x9a76682c Data=0xf2
# UVM_INFO ../src/env/axi4_scoreboard.sv(219) @ 19705000: uvm_test_top.env.scb [axi4_scoreboard] [REF_MEM_WRITE] Addr=0x9a76682d Data=0x91
# UVM_INFO ../src/env/axi4_scoreboard.sv(219) @ 19705000: uvm_test_top.env.scb [axi4_scoreboard] [REF_MEM_WRITE] Addr=0x9a76682e Data=0xde
# UVM_INFO ../src/env/axi4_scoreboard.sv(219) @ 19705000: uvm_test_top.env.scb [axi4_scoreboard] [REF_MEM_WRITE] Addr=0x9a766831 Data=0xf1
# UVM_INFO ../src/env/axi4_scoreboard.sv(219) @ 19705000: uvm_test_top.env.scb [axi4_scoreboard] [REF_MEM_WRITE] Addr=0x9a76683a Data=0xae
# UVM_INFO ../src/env/axi4_scoreboard.sv(219) @ 19705000: uvm_test_top.env.scb [axi4_scoreboard] [REF_MEM_WRITE] Addr=0x9a76683b Data=0xf5
# UVM_INFO ../src/env/axi4_scoreboard.sv(219) @ 19705000: uvm_test_top.env.scb [axi4_scoreboard] [REF_MEM_WRITE] Addr=0x9a76683f Data=0x63
# UVM_INFO ../src/env/axi4_scoreboard.sv(219) @ 19705000: uvm_test_top.env.scb [axi4_scoreboard] [REF_MEM_WRITE] Addr=0x9a766841 Data=0x4a
# UVM_INFO ../src/env/axi4_scoreboard.sv(219) @ 19705000: uvm_test_top.env.scb [axi4_scoreboard] [REF_MEM_WRITE] Addr=0x9a766845 Data=0x97
# UVM_INFO ../src/env/axi4_scoreboard.sv(219) @ 19705000: uvm_test_top.env.scb [axi4_scoreboard] [REF_MEM_WRITE] Addr=0x9a766848 Data=0x18
# UVM_INFO ../src/env/axi4_scoreboard.sv(219) @ 19705000: uvm_test_top.env.scb [axi4_scoreboard] [REF_MEM_WRITE] Addr=0x9a766849 Data=0xb6
# UVM_INFO ../src/env/axi4_scoreboard.sv(219) @ 19705000: uvm_test_top.env.scb [axi4_scoreboard] [REF_MEM_WRITE] Addr=0x9a76684a Data=0xb3
# UVM_INFO ../src/env/axi4_scoreboard.sv(219) @ 19705000: uvm_test_top.env.scb [axi4_scoreboard] [REF_MEM_WRITE] Addr=0x9a76684b Data=0x63
