# vsim -c -coverage -sv_seed 20438478 "+UVM_TESTNAME=axi4_outstanding_test" "+UVM_VERBOSITY=UVM_HIGH" "+DUMP_VCD" -l ./report/logs/axi4_outstanding_test_run_10_seed_20438478.log -do "coverage save -onexit ./report/coverage/axi4_outstanding_test_run_10_seed_20438478.ucdb; run -all; quit -f" opt_tb_top 
# Start time: 11:24:37 on Jun 05,2026
# //  Questa Sim-64
# //  Version 10.6b linux_x86_64 May 25 2017
# //
# //  Copyright 1991-2017 Mentor Graphics Corporation
# //  All Rights Reserved.
# //
# //  QuestaSim and its associated documentation contain trade
# //  secrets and commercial or financial information that are the property of
# //  Mentor Graphics Corporation and are privileged, confidential,
# //  and exempt from disclosure under the Freedom of Information Act,
# //  5 U.S.C. Section 552. Furthermore, this information
# //  is prohibited from disclosure under the Trade Secrets Act,
# //  18 U.S.C. Section 1905.
# //
# Loading sv_std.std
# Loading work.axi4_if(fast)
# Loading mtiUvm.uvm_pkg
# Loading work.axi4_pkg(fast)
# Loading work.axi4_test_pkg(fast)
# Loading work.tb_top(fast)
# Loading work.axi4_if(fast)
# Loading work.axi4_sva(fast)
# Loading mtiUvm.questa_uvm_pkg(fast)
# Loading /cadtools/mentor/Questa_10.6b/questasim/uvm-1.1d/linux_x86_64/uvm_dpi.so
# coverage save -onexit ./report/coverage/axi4_outstanding_test_run_10_seed_20438478.ucdb
#  run -all
# ----------------------------------------------------------------
# UVM-1.1d
# (C) 2007-2013 Mentor Graphics Corporation
# (C) 2007-2013 Cadence Design Systems, Inc.
# (C) 2006-2013 Synopsys, Inc.
# (C) 2011-2013 Cypress Semiconductor Corp.
# ----------------------------------------------------------------
# 
#   ***********       IMPORTANT RELEASE NOTES         ************
# 
#   You are using a version of the UVM library that has been compiled
#   with `UVM_NO_DEPRECATED undefined.
#   See http://www.eda.org/svdb/view.php?id=3313 for more details.
# 
#   You are using a version of the UVM library that has been compiled
#   with `UVM_OBJECT_MUST_HAVE_CONSTRUCTOR undefined.
#   See http://www.eda.org/svdb/view.php?id=3770 for more details.
# 
#       (Specify +UVM_NO_RELNOTES to turn off this notice)
# 
# UVM_INFO verilog_src/questa_uvm_pkg-1.2/src/questa_uvm_pkg.sv(215) @ 0: reporter [Questa UVM] QUESTA_UVM-1.2.3
# UVM_INFO verilog_src/questa_uvm_pkg-1.2/src/questa_uvm_pkg.sv(217) @ 0: reporter [Questa UVM]  questa_uvm::init(+struct)
# UVM_INFO ../src/tb_top.sv(128) @ 0: reporter [TB_TOP] Virtual interface set in config_db
# UVM_INFO @ 0: reporter [RNTST] Running test axi4_outstanding_test...
# UVM_INFO ../src/tb_top.sv(142) @ 0: reporter [TB_TOP] Waveform VCD dumping enabled (axi4_vip.vcd)
# UVM_INFO ../src/env/axi4_vip_env.sv(83) @ 0: uvm_test_top.env [axi4_vip_env] slave_vif not set - reusing master_vif (passthrough mode)
# UVM_INFO ../src/env/axi4_vip_env.sv(93) @ 0: uvm_test_top.env [axi4_vip_env] Scoreboard created
# UVM_INFO ../src/env/axi4_vip_env.sv(100) @ 0: uvm_test_top.env [axi4_vip_env] Coverage collectors created
# UVM_INFO ../src/mst/axi4_master_agent.sv(69) @ 0: uvm_test_top.env.master_agent [axi4_master_agent] ACTIVE mode - driver + sequencer created
# UVM_INFO ../src/slv/axi4_slave_agent.sv(82) @ 0: uvm_test_top.env.slave_agent [axi4_slave_agent] ACTIVE mode — ready_delay=[0:0] resp_delay=[0:0]
# UVM_INFO ../src/env/axi4_vip_env.sv(116) @ 0: uvm_test_top.env [axi4_vip_env] Scoreboard connected: master_mon.ap -> scb, slave_mon.ap -> scb
# UVM_INFO ../src/env/axi4_vip_env.sv(124) @ 0: uvm_test_top.env [axi4_vip_env] Coverage connected: master_mon.ap -> master_cov, slave_mon.ap -> slave_cov
# UVM_INFO @ 0: reporter [UVMTOP] UVM testbench topology:
# ---------------------------------------------------------------
# Name                       Type                     Size  Value
# ---------------------------------------------------------------
# uvm_test_top               axi4_outstanding_test    -     @473 
#   env                      axi4_vip_env             -     @488 
#     master_agent           axi4_master_agent        -     @503 
#       drv                  axi4_master_driver       -     @567 
#         rsp_port           uvm_analysis_port        -     @582 
#         seq_item_port      uvm_seq_item_pull_port   -     @574 
#       mon                  axi4_master_monitor      -     @559 
#         ap                 uvm_analysis_port        -     @700 
#       sqr                  axi4_master_sequencer    -     @590 
#         rsp_export         uvm_analysis_export      -     @597 
#         seq_item_export    uvm_seq_item_pull_imp    -     @691 
#         arbitration_queue  array                    0     -    
#         lock_queue         array                    0     -    
#         num_last_reqs      integral                 32    'd1  
#         num_last_rsps      integral                 32    'd1  
#     master_cov             axi4_coverage            -     @524 
#       analysis_imp         uvm_analysis_imp         -     @531 
#     scb                    axi4_scoreboard          -     @517 
#       master_export        uvm_analysis_imp_master  -     @714 
#       slave_export         uvm_analysis_imp_slave   -     @722 
#     slave_agent            axi4_slave_agent         -     @510 
#       drv                  axi4_slave_driver        -     @753 
#         rsp_port           uvm_analysis_port        -     @768 
#         seq_item_port      uvm_seq_item_pull_port   -     @760 
#       mon                  axi4_slave_monitor       -     @735 
#         ap                 uvm_analysis_port        -     @890 
#       sqr                  axi4_slave_sequencer     -     @776 
#         rsp_export         uvm_analysis_export      -     @783 
#         seq_item_export    uvm_seq_item_pull_imp    -     @877 
#         arbitration_queue  array                    0     -    
#         lock_queue         array                    0     -    
#         num_last_reqs      integral                 32    'd1  
#         num_last_rsps      integral                 32    'd1  
#     slave_cov              axi4_coverage            -     @539 
#       analysis_imp         uvm_analysis_imp         -     @546 
# ---------------------------------------------------------------
# 
# UVM_INFO verilog_src/questa_uvm_pkg-1.2/src/questa_uvm_pkg.sv(277) @ 0: reporter [Questa UVM] End Of Elaboration
# UVM_INFO ../src/test/axi4_outstanding_test.sv(45) @ 0: uvm_test_top [axi4_outstanding_test] Starting outstanding test with 15 writes, 15 reads, depth=4
# UVM_INFO ../src/seq/axi4_outstanding_seq.sv(40) @ 0: uvm_test_top.env.master_agent.sqr@@outstanding_seq [axi4_outstanding_seq] Starting outstanding sequence: writes=15, reads=15, depth=4
# UVM_INFO ../src/tb_top.sv(49) @ 95000: reporter [TOP_TB] Reset de-asserted
# UVM_INFO ../src/slv/axi4_slave_driver.sv(70) @ 95000: uvm_test_top.env.slave_agent.drv [axi4_slave_driver] Reset deasserted - slave driver active
# UVM_INFO ../src/mst/axi4_master_driver.sv(46) @ 95000: uvm_test_top.env.master_agent.drv [axi4_master_driver] Reset deasserted - master driver active
# UVM_INFO ../src/mst/axi4_master_monitor.sv(77) @ 95000: uvm_test_top.env.master_agent.mon [axi4_master_monitor] Reset deasserted — monitor active
# UVM_INFO ../src/slv/axi4_slave_monitor.sv(71) @ 95000: uvm_test_top.env.slave_agent.mon [axi4_slave_monitor] Reset deasserted — monitor active
# UVM_INFO ../src/seq/axi4_outstanding_seq.sv(65) @ 95000: uvm_test_top.env.master_agent.sqr@@outstanding_seq [axi4_outstanding_seq] Outstanding Write [#3] started: ID=0x4 ADDR=0x93db4cc6 LEN=7
# UVM_INFO ../src/mst/axi4_master_driver.sv(55) @ 95000: uvm_test_top.env.master_agent.drv [axi4_master_driver] Driving AXI4_WRITE  ID=0x4  ADDR=0x93db4cc6  LEN=7
# UVM_INFO ../src/mst/axi4_master_driver.sv(94) @ 95000: uvm_test_top.env.master_agent.drv [axi4_master_driver] Write order: AW || W (parallel)
# UVM_INFO ../src/slv/axi4_slave_driver.sv(165) @ 115000: uvm_test_top.env.slave_agent.drv [axi4_slave_driver] AW received: ID=0x4 ADDR=0x93db4cc6 LEN=7 LOCK=AXI4_LOCK_EXCLUSIVE
# UVM_INFO ../src/slv/axi4_slave_monitor.sv(116) @ 115000: uvm_test_top.env.slave_agent.mon [axi4_slave_monitor] AW received: ID=0x4 ADDR=0x93db4cc6 LEN=7
# UVM_INFO ../src/mst/axi4_master_monitor.sv(124) @ 115000: uvm_test_top.env.master_agent.mon [axi4_master_monitor] AW observed: ID=0x4 ADDR=0x93db4cc6 LEN=7
# UVM_INFO ../src/mst/axi4_master_monitor.sv(184) @ 245000: uvm_test_top.env.master_agent.mon [axi4_master_monitor] W data assembled: ID=0x4 ADDR=0x93db4cc6 8 beats
# UVM_INFO ../src/slv/axi4_slave_monitor.sv(167) @ 245000: uvm_test_top.env.slave_agent.mon [axi4_slave_monitor] W data assembled: ID=0x4 ADDR=0x93db4cc6 8 beats
# UVM_INFO ../src/mst/axi4_master_driver.sv(197) @ 275000: uvm_test_top.env.master_agent.drv [axi4_master_driver] Write response: AXI4_RESP_OKAY
# UVM_INFO ../src/slv/axi4_slave_driver.sv(261) @ 275000: uvm_test_top.env.slave_agent.drv [axi4_slave_driver] Write complete: ID=0x4 ADDR=0x93db4cc6 RESP=AXI4_RESP_OKAY  8 beats processed
# UVM_INFO ../src/slv/axi4_slave_monitor.sv(189) @ 275000: uvm_test_top.env.slave_agent.mon [axi4_slave_monitor] Write response sent: ID=0x4 ADDR=0x93db4cc6 RESP=AXI4_RESP_OKAY
# UVM_INFO ../src/env/axi4_scoreboard.sv(103) @ 275000: uvm_test_top.env.scb [axi4_scoreboard] Slave AXI4_WRITE received: ID=0x4 ADDR=0x93db4cc6 LEN=7
# UVM_INFO ../src/mst/axi4_master_monitor.sv(210) @ 275000: uvm_test_top.env.master_agent.mon [axi4_master_monitor] Write complete: ID=0x4 ADDR=0x93db4cc6 RESP=AXI4_RESP_OKAY
# UVM_INFO ../src/env/axi4_scoreboard.sv(82) @ 275000: uvm_test_top.env.scb [axi4_scoreboard] Master AXI4_WRITE received: ID=0x4 ADDR=0x93db4cc6 LEN=7
# UVM_INFO ../src/env/axi4_scoreboard.sv(154) @ 275000: uvm_test_top.env.scb [axi4_scoreboard] [WRITE] MATCH #1: ID=0x4 ADDR=0x93db4cc6 LEN=7
# UVM_INFO ../src/seq/axi4_outstanding_seq.sv(71) @ 275000: uvm_test_top.env.master_agent.sqr@@outstanding_seq [axi4_outstanding_seq] Outstanding Write [#3] complete: ID=0x4
# UVM_INFO ../src/seq/axi4_outstanding_seq.sv(65) @ 275000: uvm_test_top.env.master_agent.sqr@@outstanding_seq [axi4_outstanding_seq] Outstanding Write [#2] started: ID=0xe ADDR=0xd8000a2c LEN=23
# UVM_INFO ../src/mst/axi4_master_driver.sv(55) @ 275000: uvm_test_top.env.master_agent.drv [axi4_master_driver] Driving AXI4_WRITE  ID=0xe  ADDR=0xd8000a2c  LEN=23
# UVM_INFO ../src/mst/axi4_master_driver.sv(94) @ 275000: uvm_test_top.env.master_agent.drv [axi4_master_driver] Write order: AW || W (parallel)
# UVM_INFO ../src/slv/axi4_slave_driver.sv(165) @ 305000: uvm_test_top.env.slave_agent.drv [axi4_slave_driver] AW received: ID=0xe ADDR=0xd8000a2c LEN=23 LOCK=AXI4_LOCK_NORMAL
# UVM_INFO ../src/mst/axi4_master_monitor.sv(124) @ 305000: uvm_test_top.env.master_agent.mon [axi4_master_monitor] AW observed: ID=0xe ADDR=0xd8000a2c LEN=23
# UVM_INFO ../src/slv/axi4_slave_monitor.sv(116) @ 305000: uvm_test_top.env.slave_agent.mon [axi4_slave_monitor] AW received: ID=0xe ADDR=0xd8000a2c LEN=23
# UVM_INFO ../src/slv/axi4_slave_monitor.sv(167) @ 755000: uvm_test_top.env.slave_agent.mon [axi4_slave_monitor] W data assembled: ID=0xe ADDR=0xd8000a2c 24 beats
# UVM_INFO ../src/mst/axi4_master_monitor.sv(184) @ 755000: uvm_test_top.env.master_agent.mon [axi4_master_monitor] W data assembled: ID=0xe ADDR=0xd8000a2c 24 beats
# UVM_INFO ../src/mst/axi4_master_driver.sv(197) @ 785000: uvm_test_top.env.master_agent.drv [axi4_master_driver] Write response: AXI4_RESP_OKAY
# UVM_INFO ../src/slv/axi4_slave_driver.sv(261) @ 785000: uvm_test_top.env.slave_agent.drv [axi4_slave_driver] Write complete: ID=0xe ADDR=0xd8000a2c RESP=AXI4_RESP_OKAY  24 beats processed
# UVM_INFO ../src/mst/axi4_master_monitor.sv(210) @ 785000: uvm_test_top.env.master_agent.mon [axi4_master_monitor] Write complete: ID=0xe ADDR=0xd8000a2c RESP=AXI4_RESP_OKAY
# UVM_INFO ../src/env/axi4_scoreboard.sv(82) @ 785000: uvm_test_top.env.scb [axi4_scoreboard] Master AXI4_WRITE received: ID=0xe ADDR=0xd8000a2c LEN=23
# UVM_INFO ../src/slv/axi4_slave_monitor.sv(189) @ 785000: uvm_test_top.env.slave_agent.mon [axi4_slave_monitor] Write response sent: ID=0xe ADDR=0xd8000a2c RESP=AXI4_RESP_OKAY
# UVM_INFO ../src/env/axi4_scoreboard.sv(103) @ 785000: uvm_test_top.env.scb [axi4_scoreboard] Slave AXI4_WRITE received: ID=0xe ADDR=0xd8000a2c LEN=23
# UVM_INFO ../src/env/axi4_scoreboard.sv(154) @ 785000: uvm_test_top.env.scb [axi4_scoreboard] [WRITE] MATCH #2: ID=0xe ADDR=0xd8000a2c LEN=23
# UVM_INFO ../src/seq/axi4_outstanding_seq.sv(71) @ 785000: uvm_test_top.env.master_agent.sqr@@outstanding_seq [axi4_outstanding_seq] Outstanding Write [#2] complete: ID=0xe
# UVM_INFO ../src/seq/axi4_outstanding_seq.sv(65) @ 785000: uvm_test_top.env.master_agent.sqr@@outstanding_seq [axi4_outstanding_seq] Outstanding Write [#1] started: ID=0x2 ADDR=0xe221e2f2 LEN=67
# UVM_INFO ../src/mst/axi4_master_driver.sv(55) @ 785000: uvm_test_top.env.master_agent.drv [axi4_master_driver] Driving AXI4_WRITE  ID=0x2  ADDR=0xe221e2f2  LEN=67
# UVM_INFO ../src/mst/axi4_master_driver.sv(94) @ 785000: uvm_test_top.env.master_agent.drv [axi4_master_driver] Write order: AW || W (parallel)
# UVM_INFO ../src/slv/axi4_slave_driver.sv(165) @ 815000: uvm_test_top.env.slave_agent.drv [axi4_slave_driver] AW received: ID=0x2 ADDR=0xe221e2f2 LEN=67 LOCK=AXI4_LOCK_NORMAL
# UVM_INFO ../src/slv/axi4_slave_monitor.sv(116) @ 815000: uvm_test_top.env.slave_agent.mon [axi4_slave_monitor] AW received: ID=0x2 ADDR=0xe221e2f2 LEN=67
# UVM_INFO ../src/mst/axi4_master_monitor.sv(124) @ 815000: uvm_test_top.env.master_agent.mon [axi4_master_monitor] AW observed: ID=0x2 ADDR=0xe221e2f2 LEN=67
# UVM_INFO ../src/mst/axi4_master_monitor.sv(184) @ 2145000: uvm_test_top.env.master_agent.mon [axi4_master_monitor] W data assembled: ID=0x2 ADDR=0xe221e2f2 68 beats
# UVM_INFO ../src/slv/axi4_slave_monitor.sv(167) @ 2145000: uvm_test_top.env.slave_agent.mon [axi4_slave_monitor] W data assembled: ID=0x2 ADDR=0xe221e2f2 68 beats
# UVM_INFO ../src/mst/axi4_master_driver.sv(197) @ 2175000: uvm_test_top.env.master_agent.drv [axi4_master_driver] Write response: AXI4_RESP_SLVERR
# UVM_INFO ../src/slv/axi4_slave_driver.sv(261) @ 2175000: uvm_test_top.env.slave_agent.drv [axi4_slave_driver] Write complete: ID=0x2 ADDR=0xe221e2f2 RESP=AXI4_RESP_SLVERR  68 beats processed
# UVM_INFO ../src/slv/axi4_slave_monitor.sv(189) @ 2175000: uvm_test_top.env.slave_agent.mon [axi4_slave_monitor] Write response sent: ID=0x2 ADDR=0xe221e2f2 RESP=AXI4_RESP_SLVERR
# UVM_INFO ../src/env/axi4_scoreboard.sv(103) @ 2175000: uvm_test_top.env.scb [axi4_scoreboard] Slave AXI4_WRITE received: ID=0x2 ADDR=0xe221e2f2 LEN=67
# UVM_INFO ../src/mst/axi4_master_monitor.sv(210) @ 2175000: uvm_test_top.env.master_agent.mon [axi4_master_monitor] Write complete: ID=0x2 ADDR=0xe221e2f2 RESP=AXI4_RESP_SLVERR
# UVM_INFO ../src/env/axi4_scoreboard.sv(82) @ 2175000: uvm_test_top.env.scb [axi4_scoreboard] Master AXI4_WRITE received: ID=0x2 ADDR=0xe221e2f2 LEN=67
# UVM_INFO ../src/env/axi4_scoreboard.sv(154) @ 2175000: uvm_test_top.env.scb [axi4_scoreboard] [WRITE] MATCH #3: ID=0x2 ADDR=0xe221e2f2 LEN=67
# UVM_INFO ../src/seq/axi4_outstanding_seq.sv(71) @ 2175000: uvm_test_top.env.master_agent.sqr@@outstanding_seq [axi4_outstanding_seq] Outstanding Write [#1] complete: ID=0x2
# UVM_INFO ../src/seq/axi4_outstanding_seq.sv(65) @ 2175000: uvm_test_top.env.master_agent.sqr@@outstanding_seq [axi4_outstanding_seq] Outstanding Write [#0] started: ID=0xf ADDR=0x935f3658 LEN=196
# UVM_INFO ../src/mst/axi4_master_driver.sv(55) @ 2175000: uvm_test_top.env.master_agent.drv [axi4_master_driver] Driving AXI4_WRITE  ID=0xf  ADDR=0x935f3658  LEN=196
# UVM_INFO ../src/mst/axi4_master_driver.sv(106) @ 2175000: uvm_test_top.env.master_agent.drv [axi4_master_driver] Write order: W -> AW (W first)
# UVM_INFO ../src/slv/axi4_slave_driver.sv(165) @ 2225000: uvm_test_top.env.slave_agent.drv [axi4_slave_driver] AW received: ID=0xf ADDR=0x935f3658 LEN=196 LOCK=AXI4_LOCK_NORMAL
# UVM_INFO ../src/mst/axi4_master_monitor.sv(124) @ 2225000: uvm_test_top.env.master_agent.mon [axi4_master_monitor] AW observed: ID=0xf ADDR=0x935f3658 LEN=196
# UVM_INFO ../src/slv/axi4_slave_monitor.sv(116) @ 2225000: uvm_test_top.env.slave_agent.mon [axi4_slave_monitor] AW received: ID=0xf ADDR=0x935f3658 LEN=196
# UVM_INFO ../src/slv/axi4_slave_monitor.sv(167) @ 6115000: uvm_test_top.env.slave_agent.mon [axi4_slave_monitor] W data assembled: ID=0xf ADDR=0x935f3658 197 beats
# UVM_INFO ../src/mst/axi4_master_monitor.sv(184) @ 6115000: uvm_test_top.env.master_agent.mon [axi4_master_monitor] W data assembled: ID=0xf ADDR=0x935f3658 197 beats
# UVM_INFO ../src/mst/axi4_master_driver.sv(197) @ 6145000: uvm_test_top.env.master_agent.drv [axi4_master_driver] Write response: AXI4_RESP_OKAY
# UVM_INFO ../src/slv/axi4_slave_driver.sv(261) @ 6145000: uvm_test_top.env.slave_agent.drv [axi4_slave_driver] Write complete: ID=0xf ADDR=0x935f3658 RESP=AXI4_RESP_OKAY  197 beats processed
# UVM_INFO ../src/mst/axi4_master_monitor.sv(210) @ 6145000: uvm_test_top.env.master_agent.mon [axi4_master_monitor] Write complete: ID=0xf ADDR=0x935f3658 RESP=AXI4_RESP_OKAY
# UVM_INFO ../src/env/axi4_scoreboard.sv(82) @ 6145000: uvm_test_top.env.scb [axi4_scoreboard] Master AXI4_WRITE received: ID=0xf ADDR=0x935f3658 LEN=196
# UVM_INFO ../src/slv/axi4_slave_monitor.sv(189) @ 6145000: uvm_test_top.env.slave_agent.mon [axi4_slave_monitor] Write response sent: ID=0xf ADDR=0x935f3658 RESP=AXI4_RESP_OKAY
# UVM_INFO ../src/env/axi4_scoreboard.sv(103) @ 6145000: uvm_test_top.env.scb [axi4_scoreboard] Slave AXI4_WRITE received: ID=0xf ADDR=0x935f3658 LEN=196
# UVM_INFO ../src/env/axi4_scoreboard.sv(154) @ 6145000: uvm_test_top.env.scb [axi4_scoreboard] [WRITE] MATCH #4: ID=0xf ADDR=0x935f3658 LEN=196
# UVM_INFO ../src/seq/axi4_outstanding_seq.sv(71) @ 6145000: uvm_test_top.env.master_agent.sqr@@outstanding_seq [axi4_outstanding_seq] Outstanding Write [#0] complete: ID=0xf
# UVM_INFO ../src/seq/axi4_outstanding_seq.sv(100) @ 6145000: uvm_test_top.env.master_agent.sqr@@outstanding_seq [axi4_outstanding_seq] Outstanding Read [#3] started: ID=0xa ADDR=0x3debe61e LEN=73
# UVM_INFO ../src/mst/axi4_master_driver.sv(55) @ 6145000: uvm_test_top.env.master_agent.drv [axi4_master_driver] Driving AXI4_READ  ID=0xa  ADDR=0x3debe61e  LEN=73
# UVM_INFO ../src/slv/axi4_slave_driver.sv(300) @ 6175000: uvm_test_top.env.slave_agent.drv [axi4_slave_driver] AR received: ID=0xa ADDR=0x3debe61e LEN=73 LOCK=AXI4_LOCK_EXCLUSIVE
# UVM_INFO ../src/slv/axi4_slave_monitor.sv(224) @ 6175000: uvm_test_top.env.slave_agent.mon [axi4_slave_monitor] AR received: ID=0xa ADDR=0x3debe61e LEN=73
# UVM_INFO ../src/mst/axi4_master_monitor.sv(246) @ 6175000: uvm_test_top.env.master_agent.mon [axi4_master_monitor] AR observed: ID=0xa ADDR=0x3debe61e LEN=73
# UVM_INFO ../src/mst/axi4_master_driver.sv(254) @ 7655000: uvm_test_top.env.master_agent.drv [axi4_master_driver] Read complete: 74 beats received
# UVM_INFO ../src/slv/axi4_slave_driver.sv(349) @ 7655000: uvm_test_top.env.slave_agent.drv [axi4_slave_driver] Read complete: ID=0xa ADDR=0x3debe61e RESP=AXI4_RESP_EXOKAY  74 beats sent
# UVM_INFO ../src/slv/axi4_slave_monitor.sv(287) @ 7655000: uvm_test_top.env.slave_agent.mon [axi4_slave_monitor] Read data sent: ID=0xa ADDR=0x3debe61e 74 beats
# UVM_INFO ../src/env/axi4_scoreboard.sv(103) @ 7655000: uvm_test_top.env.scb [axi4_scoreboard] Slave AXI4_READ received: ID=0xa ADDR=0x3debe61e LEN=73
# UVM_INFO ../src/mst/axi4_master_monitor.sv(314) @ 7655000: uvm_test_top.env.master_agent.mon [axi4_master_monitor] Read complete: ID=0xa ADDR=0x3debe61e 74 beats
# UVM_INFO ../src/env/axi4_scoreboard.sv(82) @ 7655000: uvm_test_top.env.scb [axi4_scoreboard] Master AXI4_READ received: ID=0xa ADDR=0x3debe61e LEN=73
# UVM_INFO ../src/env/axi4_scoreboard.sv(154) @ 7655000: uvm_test_top.env.scb [axi4_scoreboard] [READ] MATCH #5: ID=0xa ADDR=0x3debe61e LEN=73
# UVM_INFO ../src/seq/axi4_outstanding_seq.sv(106) @ 7655000: uvm_test_top.env.master_agent.sqr@@outstanding_seq [axi4_outstanding_seq] Outstanding Read [#3] complete: ID=0xa
# UVM_INFO ../src/seq/axi4_outstanding_seq.sv(100) @ 7655000: uvm_test_top.env.master_agent.sqr@@outstanding_seq [axi4_outstanding_seq] Outstanding Read [#2] started: ID=0x5 ADDR=0xff8021c8 LEN=24
# UVM_INFO ../src/mst/axi4_master_driver.sv(55) @ 7655000: uvm_test_top.env.master_agent.drv [axi4_master_driver] Driving AXI4_READ  ID=0x5  ADDR=0xff8021c8  LEN=24
# UVM_INFO ../src/slv/axi4_slave_driver.sv(300) @ 7685000: uvm_test_top.env.slave_agent.drv [axi4_slave_driver] AR received: ID=0x5 ADDR=0xff8021c8 LEN=24 LOCK=AXI4_LOCK_EXCLUSIVE
# UVM_INFO ../src/mst/axi4_master_monitor.sv(246) @ 7685000: uvm_test_top.env.master_agent.mon [axi4_master_monitor] AR observed: ID=0x5 ADDR=0xff8021c8 LEN=24
# UVM_INFO ../src/slv/axi4_slave_monitor.sv(224) @ 7685000: uvm_test_top.env.slave_agent.mon [axi4_slave_monitor] AR received: ID=0x5 ADDR=0xff8021c8 LEN=24
# UVM_INFO ../src/mst/axi4_master_driver.sv(254) @ 8185000: uvm_test_top.env.master_agent.drv [axi4_master_driver] Read complete: 25 beats received
# UVM_INFO ../src/slv/axi4_slave_driver.sv(349) @ 8185000: uvm_test_top.env.slave_agent.drv [axi4_slave_driver] Read complete: ID=0x5 ADDR=0xff8021c8 RESP=AXI4_RESP_DECERR  25 beats sent
# UVM_INFO ../src/mst/axi4_master_monitor.sv(314) @ 8185000: uvm_test_top.env.master_agent.mon [axi4_master_monitor] Read complete: ID=0x5 ADDR=0xff8021c8 25 beats
# UVM_INFO ../src/env/axi4_scoreboard.sv(82) @ 8185000: uvm_test_top.env.scb [axi4_scoreboard] Master AXI4_READ received: ID=0x5 ADDR=0xff8021c8 LEN=24
# UVM_INFO ../src/slv/axi4_slave_monitor.sv(287) @ 8185000: uvm_test_top.env.slave_agent.mon [axi4_slave_monitor] Read data sent: ID=0x5 ADDR=0xff8021c8 25 beats
# UVM_INFO ../src/env/axi4_scoreboard.sv(103) @ 8185000: uvm_test_top.env.scb [axi4_scoreboard] Slave AXI4_READ received: ID=0x5 ADDR=0xff8021c8 LEN=24
# UVM_INFO ../src/env/axi4_scoreboard.sv(154) @ 8185000: uvm_test_top.env.scb [axi4_scoreboard] [READ] MATCH #6: ID=0x5 ADDR=0xff8021c8 LEN=24
# UVM_INFO ../src/seq/axi4_outstanding_seq.sv(106) @ 8185000: uvm_test_top.env.master_agent.sqr@@outstanding_seq [axi4_outstanding_seq] Outstanding Read [#2] complete: ID=0x5
# UVM_INFO ../src/seq/axi4_outstanding_seq.sv(100) @ 8185000: uvm_test_top.env.master_agent.sqr@@outstanding_seq [axi4_outstanding_seq] Outstanding Read [#1] started: ID=0x1 ADDR=0x0eac1e19 LEN=154
# UVM_INFO ../src/mst/axi4_master_driver.sv(55) @ 8185000: uvm_test_top.env.master_agent.drv [axi4_master_driver] Driving AXI4_READ  ID=0x1  ADDR=0x0eac1e19  LEN=154
# UVM_INFO ../src/slv/axi4_slave_driver.sv(300) @ 8215000: uvm_test_top.env.slave_agent.drv [axi4_slave_driver] AR received: ID=0x1 ADDR=0x0eac1e19 LEN=154 LOCK=AXI4_LOCK_EXCLUSIVE
# UVM_INFO ../src/slv/axi4_slave_monitor.sv(224) @ 8215000: uvm_test_top.env.slave_agent.mon [axi4_slave_monitor] AR received: ID=0x1 ADDR=0x0eac1e19 LEN=154
# UVM_INFO ../src/mst/axi4_master_monitor.sv(246) @ 8215000: uvm_test_top.env.master_agent.mon [axi4_master_monitor] AR observed: ID=0x1 ADDR=0x0eac1e19 LEN=154
# UVM_INFO ../src/mst/axi4_master_driver.sv(254) @ 11315000: uvm_test_top.env.master_agent.drv [axi4_master_driver] Read complete: 155 beats received
# UVM_INFO ../src/slv/axi4_slave_driver.sv(349) @ 11315000: uvm_test_top.env.slave_agent.drv [axi4_slave_driver] Read complete: ID=0x1 ADDR=0x0eac1e19 RESP=AXI4_RESP_EXOKAY  155 beats sent
# UVM_INFO ../src/slv/axi4_slave_monitor.sv(287) @ 11315000: uvm_test_top.env.slave_agent.mon [axi4_slave_monitor] Read data sent: ID=0x1 ADDR=0x0eac1e19 155 beats
# UVM_INFO ../src/env/axi4_scoreboard.sv(103) @ 11315000: uvm_test_top.env.scb [axi4_scoreboard] Slave AXI4_READ received: ID=0x1 ADDR=0x0eac1e19 LEN=154
# UVM_INFO ../src/mst/axi4_master_monitor.sv(314) @ 11315000: uvm_test_top.env.master_agent.mon [axi4_master_monitor] Read complete: ID=0x1 ADDR=0x0eac1e19 155 beats
# UVM_INFO ../src/env/axi4_scoreboard.sv(82) @ 11315000: uvm_test_top.env.scb [axi4_scoreboard] Master AXI4_READ received: ID=0x1 ADDR=0x0eac1e19 LEN=154
# UVM_INFO ../src/env/axi4_scoreboard.sv(154) @ 11315000: uvm_test_top.env.scb [axi4_scoreboard] [READ] MATCH #7: ID=0x1 ADDR=0x0eac1e19 LEN=154
# UVM_INFO ../src/seq/axi4_outstanding_seq.sv(106) @ 11315000: uvm_test_top.env.master_agent.sqr@@outstanding_seq [axi4_outstanding_seq] Outstanding Read [#1] complete: ID=0x1
# UVM_INFO ../src/seq/axi4_outstanding_seq.sv(100) @ 11315000: uvm_test_top.env.master_agent.sqr@@outstanding_seq [axi4_outstanding_seq] Outstanding Read [#0] started: ID=0xb ADDR=0x26b63802 LEN=215
# UVM_INFO ../src/mst/axi4_master_driver.sv(55) @ 11315000: uvm_test_top.env.master_agent.drv [axi4_master_driver] Driving AXI4_READ  ID=0xb  ADDR=0x26b63802  LEN=215
# UVM_INFO ../src/slv/axi4_slave_driver.sv(300) @ 11345000: uvm_test_top.env.slave_agent.drv [axi4_slave_driver] AR received: ID=0xb ADDR=0x26b63802 LEN=215 LOCK=AXI4_LOCK_NORMAL
# UVM_INFO ../src/mst/axi4_master_monitor.sv(246) @ 11345000: uvm_test_top.env.master_agent.mon [axi4_master_monitor] AR observed: ID=0xb ADDR=0x26b63802 LEN=215
# UVM_INFO ../src/slv/axi4_slave_monitor.sv(224) @ 11345000: uvm_test_top.env.slave_agent.mon [axi4_slave_monitor] AR received: ID=0xb ADDR=0x26b63802 LEN=215
# UVM_INFO ../src/mst/axi4_master_driver.sv(254) @ 15665000: uvm_test_top.env.master_agent.drv [axi4_master_driver] Read complete: 216 beats received
# UVM_INFO ../src/slv/axi4_slave_driver.sv(349) @ 15665000: uvm_test_top.env.slave_agent.drv [axi4_slave_driver] Read complete: ID=0xb ADDR=0x26b63802 RESP=AXI4_RESP_OKAY  216 beats sent
# UVM_INFO ../src/mst/axi4_master_monitor.sv(314) @ 15665000: uvm_test_top.env.master_agent.mon [axi4_master_monitor] Read complete: ID=0xb ADDR=0x26b63802 216 beats
# UVM_INFO ../src/env/axi4_scoreboard.sv(82) @ 15665000: uvm_test_top.env.scb [axi4_scoreboard] Master AXI4_READ received: ID=0xb ADDR=0x26b63802 LEN=215
# UVM_INFO ../src/slv/axi4_slave_monitor.sv(287) @ 15665000: uvm_test_top.env.slave_agent.mon [axi4_slave_monitor] Read data sent: ID=0xb ADDR=0x26b63802 216 beats
# UVM_INFO ../src/env/axi4_scoreboard.sv(103) @ 15665000: uvm_test_top.env.scb [axi4_scoreboard] Slave AXI4_READ received: ID=0xb ADDR=0x26b63802 LEN=215
# UVM_INFO ../src/env/axi4_scoreboard.sv(154) @ 15665000: uvm_test_top.env.scb [axi4_scoreboard] [READ] MATCH #8: ID=0xb ADDR=0x26b63802 LEN=215
# UVM_INFO ../src/seq/axi4_outstanding_seq.sv(106) @ 15665000: uvm_test_top.env.master_agent.sqr@@outstanding_seq [axi4_outstanding_seq] Outstanding Read [#0] complete: ID=0xb
# UVM_INFO ../src/seq/axi4_outstanding_seq.sv(65) @ 15665000: uvm_test_top.env.master_agent.sqr@@outstanding_seq [axi4_outstanding_seq] Outstanding Write [#4] started: ID=0xb ADDR=0x283135eb LEN=80
# UVM_INFO ../src/mst/axi4_master_driver.sv(55) @ 15665000: uvm_test_top.env.master_agent.drv [axi4_master_driver] Driving AXI4_WRITE  ID=0xb  ADDR=0x283135eb  LEN=80
# UVM_INFO ../src/mst/axi4_master_driver.sv(101) @ 15665000: uvm_test_top.env.master_agent.drv [axi4_master_driver] Write order: AW -> W (sequential)
# UVM_INFO ../src/slv/axi4_slave_driver.sv(165) @ 15695000: uvm_test_top.env.slave_agent.drv [axi4_slave_driver] AW received: ID=0xb ADDR=0x283135eb LEN=80 LOCK=AXI4_LOCK_EXCLUSIVE
# UVM_INFO ../src/slv/axi4_slave_monitor.sv(116) @ 15695000: uvm_test_top.env.slave_agent.mon [axi4_slave_monitor] AW received: ID=0xb ADDR=0x283135eb LEN=80
# UVM_INFO ../src/mst/axi4_master_monitor.sv(124) @ 15695000: uvm_test_top.env.master_agent.mon [axi4_master_monitor] AW observed: ID=0xb ADDR=0x283135eb LEN=80
# UVM_INFO ../src/slv/axi4_slave_monitor.sv(167) @ 17315000: uvm_test_top.env.slave_agent.mon [axi4_slave_monitor] W data assembled: ID=0xb ADDR=0x283135eb 81 beats
# UVM_INFO ../src/mst/axi4_master_monitor.sv(184) @ 17315000: uvm_test_top.env.master_agent.mon [axi4_master_monitor] W data assembled: ID=0xb ADDR=0x283135eb 81 beats
# UVM_INFO ../src/mst/axi4_master_driver.sv(197) @ 17345000: uvm_test_top.env.master_agent.drv [axi4_master_driver] Write response: AXI4_RESP_OKAY
# UVM_INFO ../src/slv/axi4_slave_driver.sv(261) @ 17345000: uvm_test_top.env.slave_agent.drv [axi4_slave_driver] Write complete: ID=0xb ADDR=0x283135eb RESP=AXI4_RESP_OKAY  81 beats processed
# UVM_INFO ../src/mst/axi4_master_monitor.sv(210) @ 17345000: uvm_test_top.env.master_agent.mon [axi4_master_monitor] Write complete: ID=0xb ADDR=0x283135eb RESP=AXI4_RESP_OKAY
# UVM_INFO ../src/env/axi4_scoreboard.sv(82) @ 17345000: uvm_test_top.env.scb [axi4_scoreboard] Master AXI4_WRITE received: ID=0xb ADDR=0x283135eb LEN=80
# UVM_INFO ../src/slv/axi4_slave_monitor.sv(189) @ 17345000: uvm_test_top.env.slave_agent.mon [axi4_slave_monitor] Write response sent: ID=0xb ADDR=0x283135eb RESP=AXI4_RESP_OKAY
# UVM_INFO ../src/env/axi4_scoreboard.sv(103) @ 17345000: uvm_test_top.env.scb [axi4_scoreboard] Slave AXI4_WRITE received: ID=0xb ADDR=0x283135eb LEN=80
# UVM_INFO ../src/env/axi4_scoreboard.sv(154) @ 17345000: uvm_test_top.env.scb [axi4_scoreboard] [WRITE] MATCH #9: ID=0xb ADDR=0x283135eb LEN=80
# UVM_INFO ../src/seq/axi4_outstanding_seq.sv(71) @ 17345000: uvm_test_top.env.master_agent.sqr@@outstanding_seq [axi4_outstanding_seq] Outstanding Write [#4] complete: ID=0xb
# UVM_INFO ../src/seq/axi4_outstanding_seq.sv(65) @ 17345000: uvm_test_top.env.master_agent.sqr@@outstanding_seq [axi4_outstanding_seq] Outstanding Write [#5] started: ID=0x2 ADDR=0xb95f11a4 LEN=14
# UVM_INFO ../src/mst/axi4_master_driver.sv(55) @ 17345000: uvm_test_top.env.master_agent.drv [axi4_master_driver] Driving AXI4_WRITE  ID=0x2  ADDR=0xb95f11a4  LEN=14
# UVM_INFO ../src/mst/axi4_master_driver.sv(106) @ 17345000: uvm_test_top.env.master_agent.drv [axi4_master_driver] Write order: W -> AW (W first)
# UVM_INFO ../src/slv/axi4_slave_driver.sv(165) @ 17415000: uvm_test_top.env.slave_agent.drv [axi4_slave_driver] AW received: ID=0x2 ADDR=0xb95f11a4 LEN=14 LOCK=AXI4_LOCK_EXCLUSIVE
# UVM_INFO ../src/slv/axi4_slave_monitor.sv(116) @ 17415000: uvm_test_top.env.slave_agent.mon [axi4_slave_monitor] AW received: ID=0x2 ADDR=0xb95f11a4 LEN=14
# UVM_INFO ../src/mst/axi4_master_monitor.sv(124) @ 17415000: uvm_test_top.env.master_agent.mon [axi4_master_monitor] AW observed: ID=0x2 ADDR=0xb95f11a4 LEN=14
# UVM_INFO ../src/mst/axi4_master_monitor.sv(184) @ 17645000: uvm_test_top.env.master_agent.mon [axi4_master_monitor] W data assembled: ID=0x2 ADDR=0xb95f11a4 15 beats
# UVM_INFO ../src/slv/axi4_slave_monitor.sv(167) @ 17645000: uvm_test_top.env.slave_agent.mon [axi4_slave_monitor] W data assembled: ID=0x2 ADDR=0xb95f11a4 15 beats
# UVM_INFO ../src/mst/axi4_master_driver.sv(197) @ 17675000: uvm_test_top.env.master_agent.drv [axi4_master_driver] Write response: AXI4_RESP_OKAY
# UVM_INFO ../src/slv/axi4_slave_driver.sv(261) @ 17675000: uvm_test_top.env.slave_agent.drv [axi4_slave_driver] Write complete: ID=0x2 ADDR=0xb95f11a4 RESP=AXI4_RESP_OKAY  15 beats processed
# UVM_INFO ../src/slv/axi4_slave_monitor.sv(189) @ 17675000: uvm_test_top.env.slave_agent.mon [axi4_slave_monitor] Write response sent: ID=0x2 ADDR=0xb95f11a4 RESP=AXI4_RESP_OKAY
# UVM_INFO ../src/env/axi4_scoreboard.sv(103) @ 17675000: uvm_test_top.env.scb [axi4_scoreboard] Slave AXI4_WRITE received: ID=0x2 ADDR=0xb95f11a4 LEN=14
# UVM_INFO ../src/mst/axi4_master_monitor.sv(210) @ 17675000: uvm_test_top.env.master_agent.mon [axi4_master_monitor] Write complete: ID=0x2 ADDR=0xb95f11a4 RESP=AXI4_RESP_OKAY
# UVM_INFO ../src/env/axi4_scoreboard.sv(82) @ 17675000: uvm_test_top.env.scb [axi4_scoreboard] Master AXI4_WRITE received: ID=0x2 ADDR=0xb95f11a4 LEN=14
# UVM_INFO ../src/env/axi4_scoreboard.sv(154) @ 17675000: uvm_test_top.env.scb [axi4_scoreboard] [WRITE] MATCH #10: ID=0x2 ADDR=0xb95f11a4 LEN=14
# UVM_INFO ../src/seq/axi4_outstanding_seq.sv(71) @ 17675000: uvm_test_top.env.master_agent.sqr@@outstanding_seq [axi4_outstanding_seq] Outstanding Write [#5] complete: ID=0x2
# UVM_INFO ../src/seq/axi4_outstanding_seq.sv(65) @ 17675000: uvm_test_top.env.master_agent.sqr@@outstanding_seq [axi4_outstanding_seq] Outstanding Write [#6] started: ID=0x0 ADDR=0xb3654f84 LEN=5
# UVM_INFO ../src/mst/axi4_master_driver.sv(55) @ 17675000: uvm_test_top.env.master_agent.drv [axi4_master_driver] Driving AXI4_WRITE  ID=0x0  ADDR=0xb3654f84  LEN=5
# UVM_INFO ../src/mst/axi4_master_driver.sv(94) @ 17675000: uvm_test_top.env.master_agent.drv [axi4_master_driver] Write order: AW || W (parallel)
# UVM_INFO ../src/slv/axi4_slave_driver.sv(165) @ 17705000: uvm_test_top.env.slave_agent.drv [axi4_slave_driver] AW received: ID=0x0 ADDR=0xb3654f84 LEN=5 LOCK=AXI4_LOCK_NORMAL
# UVM_INFO ../src/mst/axi4_master_monitor.sv(124) @ 17705000: uvm_test_top.env.master_agent.mon [axi4_master_monitor] AW observed: ID=0x0 ADDR=0xb3654f84 LEN=5
# UVM_INFO ../src/slv/axi4_slave_monitor.sv(116) @ 17705000: uvm_test_top.env.slave_agent.mon [axi4_slave_monitor] AW received: ID=0x0 ADDR=0xb3654f84 LEN=5
# UVM_INFO ../src/slv/axi4_slave_monitor.sv(167) @ 17795000: uvm_test_top.env.slave_agent.mon [axi4_slave_monitor] W data assembled: ID=0x0 ADDR=0xb3654f84 6 beats
# UVM_INFO ../src/mst/axi4_master_monitor.sv(184) @ 17795000: uvm_test_top.env.master_agent.mon [axi4_master_monitor] W data assembled: ID=0x0 ADDR=0xb3654f84 6 beats
# UVM_INFO ../src/mst/axi4_master_driver.sv(197) @ 17825000: uvm_test_top.env.master_agent.drv [axi4_master_driver] Write response: AXI4_RESP_OKAY
# UVM_INFO ../src/slv/axi4_slave_driver.sv(261) @ 17825000: uvm_test_top.env.slave_agent.drv [axi4_slave_driver] Write complete: ID=0x0 ADDR=0xb3654f84 RESP=AXI4_RESP_OKAY  6 beats processed
# UVM_INFO ../src/mst/axi4_master_monitor.sv(210) @ 17825000: uvm_test_top.env.master_agent.mon [axi4_master_monitor] Write complete: ID=0x0 ADDR=0xb3654f84 RESP=AXI4_RESP_OKAY
# UVM_INFO ../src/env/axi4_scoreboard.sv(82) @ 17825000: uvm_test_top.env.scb [axi4_scoreboard] Master AXI4_WRITE received: ID=0x0 ADDR=0xb3654f84 LEN=5
# UVM_INFO ../src/slv/axi4_slave_monitor.sv(189) @ 17825000: uvm_test_top.env.slave_agent.mon [axi4_slave_monitor] Write response sent: ID=0x0 ADDR=0xb3654f84 RESP=AXI4_RESP_OKAY
# UVM_INFO ../src/env/axi4_scoreboard.sv(103) @ 17825000: uvm_test_top.env.scb [axi4_scoreboard] Slave AXI4_WRITE received: ID=0x0 ADDR=0xb3654f84 LEN=5
# UVM_INFO ../src/env/axi4_scoreboard.sv(154) @ 17825000: uvm_test_top.env.scb [axi4_scoreboard] [WRITE] MATCH #11: ID=0x0 ADDR=0xb3654f84 LEN=5
# UVM_INFO ../src/seq/axi4_outstanding_seq.sv(71) @ 17825000: uvm_test_top.env.master_agent.sqr@@outstanding_seq [axi4_outstanding_seq] Outstanding Write [#6] complete: ID=0x0
# UVM_INFO ../src/seq/axi4_outstanding_seq.sv(65) @ 17825000: uvm_test_top.env.master_agent.sqr@@outstanding_seq [axi4_outstanding_seq] Outstanding Write [#7] started: ID=0x1 ADDR=0xb50ccd58 LEN=0
# UVM_INFO ../src/mst/axi4_master_driver.sv(55) @ 17825000: uvm_test_top.env.master_agent.drv [axi4_master_driver] Driving AXI4_WRITE  ID=0x1  ADDR=0xb50ccd58  LEN=0
# UVM_INFO ../src/mst/axi4_master_driver.sv(101) @ 17825000: uvm_test_top.env.master_agent.drv [axi4_master_driver] Write order: AW -> W (sequential)
# UVM_INFO ../src/slv/axi4_slave_driver.sv(165) @ 17855000: uvm_test_top.env.slave_agent.drv [axi4_slave_driver] AW received: ID=0x1 ADDR=0xb50ccd58 LEN=0 LOCK=AXI4_LOCK_NORMAL
# UVM_INFO ../src/slv/axi4_slave_monitor.sv(116) @ 17855000: uvm_test_top.env.slave_agent.mon [axi4_slave_monitor] AW received: ID=0x1 ADDR=0xb50ccd58 LEN=0
# UVM_INFO ../src/mst/axi4_master_monitor.sv(124) @ 17855000: uvm_test_top.env.master_agent.mon [axi4_master_monitor] AW observed: ID=0x1 ADDR=0xb50ccd58 LEN=0
# UVM_INFO ../src/slv/axi4_slave_monitor.sv(167) @ 17875000: uvm_test_top.env.slave_agent.mon [axi4_slave_monitor] W data assembled: ID=0x1 ADDR=0xb50ccd58 1 beats
# UVM_INFO ../src/mst/axi4_master_monitor.sv(184) @ 17875000: uvm_test_top.env.master_agent.mon [axi4_master_monitor] W data assembled: ID=0x1 ADDR=0xb50ccd58 1 beats
# UVM_INFO ../src/mst/axi4_master_driver.sv(197) @ 17905000: uvm_test_top.env.master_agent.drv [axi4_master_driver] Write response: AXI4_RESP_OKAY
# UVM_INFO ../src/slv/axi4_slave_driver.sv(261) @ 17905000: uvm_test_top.env.slave_agent.drv [axi4_slave_driver] Write complete: ID=0x1 ADDR=0xb50ccd58 RESP=AXI4_RESP_OKAY  1 beats processed
# UVM_INFO ../src/mst/axi4_master_monitor.sv(210) @ 17905000: uvm_test_top.env.master_agent.mon [axi4_master_monitor] Write complete: ID=0x1 ADDR=0xb50ccd58 RESP=AXI4_RESP_OKAY
# UVM_INFO ../src/env/axi4_scoreboard.sv(82) @ 17905000: uvm_test_top.env.scb [axi4_scoreboard] Master AXI4_WRITE received: ID=0x1 ADDR=0xb50ccd58 LEN=0
# UVM_INFO ../src/slv/axi4_slave_monitor.sv(189) @ 17905000: uvm_test_top.env.slave_agent.mon [axi4_slave_monitor] Write response sent: ID=0x1 ADDR=0xb50ccd58 RESP=AXI4_RESP_OKAY
# UVM_INFO ../src/env/axi4_scoreboard.sv(103) @ 17905000: uvm_test_top.env.scb [axi4_scoreboard] Slave AXI4_WRITE received: ID=0x1 ADDR=0xb50ccd58 LEN=0
# UVM_INFO ../src/env/axi4_scoreboard.sv(154) @ 17905000: uvm_test_top.env.scb [axi4_scoreboard] [WRITE] MATCH #12: ID=0x1 ADDR=0xb50ccd58 LEN=0
# UVM_INFO ../src/seq/axi4_outstanding_seq.sv(71) @ 17905000: uvm_test_top.env.master_agent.sqr@@outstanding_seq [axi4_outstanding_seq] Outstanding Write [#7] complete: ID=0x1
# UVM_INFO ../src/seq/axi4_outstanding_seq.sv(100) @ 17905000: uvm_test_top.env.master_agent.sqr@@outstanding_seq [axi4_outstanding_seq] Outstanding Read [#4] started: ID=0x0 ADDR=0x671482dc LEN=223
# UVM_INFO ../src/mst/axi4_master_driver.sv(55) @ 17905000: uvm_test_top.env.master_agent.drv [axi4_master_driver] Driving AXI4_READ  ID=0x0  ADDR=0x671482dc  LEN=223
# UVM_INFO ../src/slv/axi4_slave_driver.sv(300) @ 17935000: uvm_test_top.env.slave_agent.drv [axi4_slave_driver] AR received: ID=0x0 ADDR=0x671482dc LEN=223 LOCK=AXI4_LOCK_NORMAL
# UVM_INFO ../src/slv/axi4_slave_monitor.sv(224) @ 17935000: uvm_test_top.env.slave_agent.mon [axi4_slave_monitor] AR received: ID=0x0 ADDR=0x671482dc LEN=223
# UVM_INFO ../src/mst/axi4_master_monitor.sv(246) @ 17935000: uvm_test_top.env.master_agent.mon [axi4_master_monitor] AR observed: ID=0x0 ADDR=0x671482dc LEN=223
# UVM_INFO ../src/mst/axi4_master_driver.sv(254) @ 22415000: uvm_test_top.env.master_agent.drv [axi4_master_driver] Read complete: 224 beats received
# UVM_INFO ../src/slv/axi4_slave_driver.sv(349) @ 22415000: uvm_test_top.env.slave_agent.drv [axi4_slave_driver] Read complete: ID=0x0 ADDR=0x671482dc RESP=AXI4_RESP_OKAY  224 beats sent
# UVM_INFO ../src/slv/axi4_slave_monitor.sv(287) @ 22415000: uvm_test_top.env.slave_agent.mon [axi4_slave_monitor] Read data sent: ID=0x0 ADDR=0x671482dc 224 beats
# UVM_INFO ../src/env/axi4_scoreboard.sv(103) @ 22415000: uvm_test_top.env.scb [axi4_scoreboard] Slave AXI4_READ received: ID=0x0 ADDR=0x671482dc LEN=223
# UVM_INFO ../src/mst/axi4_master_monitor.sv(314) @ 22415000: uvm_test_top.env.master_agent.mon [axi4_master_monitor] Read complete: ID=0x0 ADDR=0x671482dc 224 beats
# UVM_INFO ../src/env/axi4_scoreboard.sv(82) @ 22415000: uvm_test_top.env.scb [axi4_scoreboard] Master AXI4_READ received: ID=0x0 ADDR=0x671482dc LEN=223
# UVM_INFO ../src/env/axi4_scoreboard.sv(154) @ 22415000: uvm_test_top.env.scb [axi4_scoreboard] [READ] MATCH #13: ID=0x0 ADDR=0x671482dc LEN=223
# UVM_INFO ../src/seq/axi4_outstanding_seq.sv(106) @ 22415000: uvm_test_top.env.master_agent.sqr@@outstanding_seq [axi4_outstanding_seq] Outstanding Read [#4] complete: ID=0x0
# UVM_INFO ../src/seq/axi4_outstanding_seq.sv(100) @ 22415000: uvm_test_top.env.master_agent.sqr@@outstanding_seq [axi4_outstanding_seq] Outstanding Read [#5] started: ID=0x2 ADDR=0xa78a9b73 LEN=189
# UVM_INFO ../src/mst/axi4_master_driver.sv(55) @ 22415000: uvm_test_top.env.master_agent.drv [axi4_master_driver] Driving AXI4_READ  ID=0x2  ADDR=0xa78a9b73  LEN=189
# UVM_INFO ../src/slv/axi4_slave_driver.sv(300) @ 22445000: uvm_test_top.env.slave_agent.drv [axi4_slave_driver] AR received: ID=0x2 ADDR=0xa78a9b73 LEN=189 LOCK=AXI4_LOCK_NORMAL
# UVM_INFO ../src/mst/axi4_master_monitor.sv(246) @ 22445000: uvm_test_top.env.master_agent.mon [axi4_master_monitor] AR observed: ID=0x2 ADDR=0xa78a9b73 LEN=189
# UVM_INFO ../src/slv/axi4_slave_monitor.sv(224) @ 22445000: uvm_test_top.env.slave_agent.mon [axi4_slave_monitor] AR received: ID=0x2 ADDR=0xa78a9b73 LEN=189
# UVM_INFO ../src/mst/axi4_master_driver.sv(254) @ 26245000: uvm_test_top.env.master_agent.drv [axi4_master_driver] Read complete: 190 beats received
# UVM_INFO ../src/slv/axi4_slave_driver.sv(349) @ 26245000: uvm_test_top.env.slave_agent.drv [axi4_slave_driver] Read complete: ID=0x2 ADDR=0xa78a9b73 RESP=AXI4_RESP_OKAY  190 beats sent
# UVM_INFO ../src/mst/axi4_master_monitor.sv(314) @ 26245000: uvm_test_top.env.master_agent.mon [axi4_master_monitor] Read complete: ID=0x2 ADDR=0xa78a9b73 190 beats
# UVM_INFO ../src/env/axi4_scoreboard.sv(82) @ 26245000: uvm_test_top.env.scb [axi4_scoreboard] Master AXI4_READ received: ID=0x2 ADDR=0xa78a9b73 LEN=189
# UVM_INFO ../src/slv/axi4_slave_monitor.sv(287) @ 26245000: uvm_test_top.env.slave_agent.mon [axi4_slave_monitor] Read data sent: ID=0x2 ADDR=0xa78a9b73 190 beats
# UVM_INFO ../src/env/axi4_scoreboard.sv(103) @ 26245000: uvm_test_top.env.scb [axi4_scoreboard] Slave AXI4_READ received: ID=0x2 ADDR=0xa78a9b73 LEN=189
# UVM_INFO ../src/env/axi4_scoreboard.sv(154) @ 26245000: uvm_test_top.env.scb [axi4_scoreboard] [READ] MATCH #14: ID=0x2 ADDR=0xa78a9b73 LEN=189
# UVM_INFO ../src/seq/axi4_outstanding_seq.sv(106) @ 26245000: uvm_test_top.env.master_agent.sqr@@outstanding_seq [axi4_outstanding_seq] Outstanding Read [#5] complete: ID=0x2
# UVM_INFO ../src/seq/axi4_outstanding_seq.sv(100) @ 26245000: uvm_test_top.env.master_agent.sqr@@outstanding_seq [axi4_outstanding_seq] Outstanding Read [#6] started: ID=0x8 ADDR=0xe58d43b1 LEN=64
# UVM_INFO ../src/mst/axi4_master_driver.sv(55) @ 26245000: uvm_test_top.env.master_agent.drv [axi4_master_driver] Driving AXI4_READ  ID=0x8  ADDR=0xe58d43b1  LEN=64
# UVM_INFO ../src/slv/axi4_slave_driver.sv(300) @ 26275000: uvm_test_top.env.slave_agent.drv [axi4_slave_driver] AR received: ID=0x8 ADDR=0xe58d43b1 LEN=64 LOCK=AXI4_LOCK_NORMAL
# UVM_INFO ../src/slv/axi4_slave_monitor.sv(224) @ 26275000: uvm_test_top.env.slave_agent.mon [axi4_slave_monitor] AR received: ID=0x8 ADDR=0xe58d43b1 LEN=64
# UVM_INFO ../src/mst/axi4_master_monitor.sv(246) @ 26275000: uvm_test_top.env.master_agent.mon [axi4_master_monitor] AR observed: ID=0x8 ADDR=0xe58d43b1 LEN=64
# UVM_INFO ../src/mst/axi4_master_driver.sv(254) @ 27575000: uvm_test_top.env.master_agent.drv [axi4_master_driver] Read complete: 65 beats received
# UVM_INFO ../src/slv/axi4_slave_driver.sv(349) @ 27575000: uvm_test_top.env.slave_agent.drv [axi4_slave_driver] Read complete: ID=0x8 ADDR=0xe58d43b1 RESP=AXI4_RESP_SLVERR  65 beats sent
# UVM_INFO ../src/slv/axi4_slave_monitor.sv(287) @ 27575000: uvm_test_top.env.slave_agent.mon [axi4_slave_monitor] Read data sent: ID=0x8 ADDR=0xe58d43b1 65 beats
# UVM_INFO ../src/env/axi4_scoreboard.sv(103) @ 27575000: uvm_test_top.env.scb [axi4_scoreboard] Slave AXI4_READ received: ID=0x8 ADDR=0xe58d43b1 LEN=64
# UVM_INFO ../src/mst/axi4_master_monitor.sv(314) @ 27575000: uvm_test_top.env.master_agent.mon [axi4_master_monitor] Read complete: ID=0x8 ADDR=0xe58d43b1 65 beats
# UVM_INFO ../src/env/axi4_scoreboard.sv(82) @ 27575000: uvm_test_top.env.scb [axi4_scoreboard] Master AXI4_READ received: ID=0x8 ADDR=0xe58d43b1 LEN=64
# UVM_INFO ../src/env/axi4_scoreboard.sv(154) @ 27575000: uvm_test_top.env.scb [axi4_scoreboard] [READ] MATCH #15: ID=0x8 ADDR=0xe58d43b1 LEN=64
# UVM_INFO ../src/seq/axi4_outstanding_seq.sv(106) @ 27575000: uvm_test_top.env.master_agent.sqr@@outstanding_seq [axi4_outstanding_seq] Outstanding Read [#6] complete: ID=0x8
# UVM_INFO ../src/seq/axi4_outstanding_seq.sv(100) @ 27575000: uvm_test_top.env.master_agent.sqr@@outstanding_seq [axi4_outstanding_seq] Outstanding Read [#7] started: ID=0xf ADDR=0x081e8612 LEN=145
# UVM_INFO ../src/mst/axi4_master_driver.sv(55) @ 27575000: uvm_test_top.env.master_agent.drv [axi4_master_driver] Driving AXI4_READ  ID=0xf  ADDR=0x081e8612  LEN=145
# UVM_INFO ../src/slv/axi4_slave_driver.sv(300) @ 27605000: uvm_test_top.env.slave_agent.drv [axi4_slave_driver] AR received: ID=0xf ADDR=0x081e8612 LEN=145 LOCK=AXI4_LOCK_NORMAL
# UVM_INFO ../src/mst/axi4_master_monitor.sv(246) @ 27605000: uvm_test_top.env.master_agent.mon [axi4_master_monitor] AR observed: ID=0xf ADDR=0x081e8612 LEN=145
# UVM_INFO ../src/slv/axi4_slave_monitor.sv(224) @ 27605000: uvm_test_top.env.slave_agent.mon [axi4_slave_monitor] AR received: ID=0xf ADDR=0x081e8612 LEN=145
# UVM_INFO ../src/mst/axi4_master_driver.sv(254) @ 30525000: uvm_test_top.env.master_agent.drv [axi4_master_driver] Read complete: 146 beats received
# UVM_INFO ../src/slv/axi4_slave_driver.sv(349) @ 30525000: uvm_test_top.env.slave_agent.drv [axi4_slave_driver] Read complete: ID=0xf ADDR=0x081e8612 RESP=AXI4_RESP_OKAY  146 beats sent
# UVM_INFO ../src/mst/axi4_master_monitor.sv(314) @ 30525000: uvm_test_top.env.master_agent.mon [axi4_master_monitor] Read complete: ID=0xf ADDR=0x081e8612 146 beats
# UVM_INFO ../src/env/axi4_scoreboard.sv(82) @ 30525000: uvm_test_top.env.scb [axi4_scoreboard] Master AXI4_READ received: ID=0xf ADDR=0x081e8612 LEN=145
# UVM_INFO ../src/slv/axi4_slave_monitor.sv(287) @ 30525000: uvm_test_top.env.slave_agent.mon [axi4_slave_monitor] Read data sent: ID=0xf ADDR=0x081e8612 146 beats
# UVM_INFO ../src/env/axi4_scoreboard.sv(103) @ 30525000: uvm_test_top.env.scb [axi4_scoreboard] Slave AXI4_READ received: ID=0xf ADDR=0x081e8612 LEN=145
# UVM_INFO ../src/env/axi4_scoreboard.sv(154) @ 30525000: uvm_test_top.env.scb [axi4_scoreboard] [READ] MATCH #16: ID=0xf ADDR=0x081e8612 LEN=145
# UVM_INFO ../src/seq/axi4_outstanding_seq.sv(106) @ 30525000: uvm_test_top.env.master_agent.sqr@@outstanding_seq [axi4_outstanding_seq] Outstanding Read [#7] complete: ID=0xf
# UVM_INFO ../src/seq/axi4_outstanding_seq.sv(65) @ 30525000: uvm_test_top.env.master_agent.sqr@@outstanding_seq [axi4_outstanding_seq] Outstanding Write [#8] started: ID=0x8 ADDR=0x5b714bb1 LEN=163
# UVM_INFO ../src/mst/axi4_master_driver.sv(55) @ 30525000: uvm_test_top.env.master_agent.drv [axi4_master_driver] Driving AXI4_WRITE  ID=0x8  ADDR=0x5b714bb1  LEN=163
# UVM_INFO ../src/mst/axi4_master_driver.sv(101) @ 30525000: uvm_test_top.env.master_agent.drv [axi4_master_driver] Write order: AW -> W (sequential)
# UVM_INFO ../src/slv/axi4_slave_driver.sv(165) @ 30555000: uvm_test_top.env.slave_agent.drv [axi4_slave_driver] AW received: ID=0x8 ADDR=0x5b714bb1 LEN=163 LOCK=AXI4_LOCK_NORMAL
# UVM_INFO ../src/slv/axi4_slave_monitor.sv(116) @ 30555000: uvm_test_top.env.slave_agent.mon [axi4_slave_monitor] AW received: ID=0x8 ADDR=0x5b714bb1 LEN=163
# UVM_INFO ../src/mst/axi4_master_monitor.sv(124) @ 30555000: uvm_test_top.env.master_agent.mon [axi4_master_monitor] AW observed: ID=0x8 ADDR=0x5b714bb1 LEN=163
# UVM_INFO ../src/slv/axi4_slave_monitor.sv(167) @ 33835000: uvm_test_top.env.slave_agent.mon [axi4_slave_monitor] W data assembled: ID=0x8 ADDR=0x5b714bb1 164 beats
# UVM_INFO ../src/mst/axi4_master_monitor.sv(184) @ 33835000: uvm_test_top.env.master_agent.mon [axi4_master_monitor] W data assembled: ID=0x8 ADDR=0x5b714bb1 164 beats
# UVM_INFO ../src/mst/axi4_master_driver.sv(197) @ 33865000: uvm_test_top.env.master_agent.drv [axi4_master_driver] Write response: AXI4_RESP_OKAY
# UVM_INFO ../src/slv/axi4_slave_driver.sv(261) @ 33865000: uvm_test_top.env.slave_agent.drv [axi4_slave_driver] Write complete: ID=0x8 ADDR=0x5b714bb1 RESP=AXI4_RESP_OKAY  164 beats processed
# UVM_INFO ../src/mst/axi4_master_monitor.sv(210) @ 33865000: uvm_test_top.env.master_agent.mon [axi4_master_monitor] Write complete: ID=0x8 ADDR=0x5b714bb1 RESP=AXI4_RESP_OKAY
# UVM_INFO ../src/env/axi4_scoreboard.sv(82) @ 33865000: uvm_test_top.env.scb [axi4_scoreboard] Master AXI4_WRITE received: ID=0x8 ADDR=0x5b714bb1 LEN=163
# UVM_INFO ../src/slv/axi4_slave_monitor.sv(189) @ 33865000: uvm_test_top.env.slave_agent.mon [axi4_slave_monitor] Write response sent: ID=0x8 ADDR=0x5b714bb1 RESP=AXI4_RESP_OKAY
# UVM_INFO ../src/env/axi4_scoreboard.sv(103) @ 33865000: uvm_test_top.env.scb [axi4_scoreboard] Slave AXI4_WRITE received: ID=0x8 ADDR=0x5b714bb1 LEN=163
# UVM_INFO ../src/env/axi4_scoreboard.sv(154) @ 33865000: uvm_test_top.env.scb [axi4_scoreboard] [WRITE] MATCH #17: ID=0x8 ADDR=0x5b714bb1 LEN=163
# UVM_INFO ../src/seq/axi4_outstanding_seq.sv(71) @ 33865000: uvm_test_top.env.master_agent.sqr@@outstanding_seq [axi4_outstanding_seq] Outstanding Write [#8] complete: ID=0x8
# UVM_INFO ../src/seq/axi4_outstanding_seq.sv(65) @ 33865000: uvm_test_top.env.master_agent.sqr@@outstanding_seq [axi4_outstanding_seq] Outstanding Write [#9] started: ID=0xb ADDR=0x43b6aefd LEN=1
# UVM_INFO ../src/mst/axi4_master_driver.sv(55) @ 33865000: uvm_test_top.env.master_agent.drv [axi4_master_driver] Driving AXI4_WRITE  ID=0xb  ADDR=0x43b6aefd  LEN=1
# UVM_INFO ../src/mst/axi4_master_driver.sv(94) @ 33865000: uvm_test_top.env.master_agent.drv [axi4_master_driver] Write order: AW || W (parallel)
# UVM_INFO ../src/slv/axi4_slave_driver.sv(165) @ 33895000: uvm_test_top.env.slave_agent.drv [axi4_slave_driver] AW received: ID=0xb ADDR=0x43b6aefd LEN=1 LOCK=AXI4_LOCK_EXCLUSIVE
# UVM_INFO ../src/slv/axi4_slave_monitor.sv(116) @ 33895000: uvm_test_top.env.slave_agent.mon [axi4_slave_monitor] AW received: ID=0xb ADDR=0x43b6aefd LEN=1
# UVM_INFO ../src/mst/axi4_master_monitor.sv(124) @ 33895000: uvm_test_top.env.master_agent.mon [axi4_master_monitor] AW observed: ID=0xb ADDR=0x43b6aefd LEN=1
# UVM_INFO ../src/mst/axi4_master_monitor.sv(184) @ 33905000: uvm_test_top.env.master_agent.mon [axi4_master_monitor] W data assembled: ID=0xb ADDR=0x43b6aefd 2 beats
# UVM_INFO ../src/slv/axi4_slave_monitor.sv(167) @ 33905000: uvm_test_top.env.slave_agent.mon [axi4_slave_monitor] W data assembled: ID=0xb ADDR=0x43b6aefd 2 beats
# UVM_INFO ../src/mst/axi4_master_driver.sv(197) @ 33935000: uvm_test_top.env.master_agent.drv [axi4_master_driver] Write response: AXI4_RESP_OKAY
# UVM_INFO ../src/slv/axi4_slave_driver.sv(261) @ 33935000: uvm_test_top.env.slave_agent.drv [axi4_slave_driver] Write complete: ID=0xb ADDR=0x43b6aefd RESP=AXI4_RESP_OKAY  2 beats processed
# UVM_INFO ../src/slv/axi4_slave_monitor.sv(189) @ 33935000: uvm_test_top.env.slave_agent.mon [axi4_slave_monitor] Write response sent: ID=0xb ADDR=0x43b6aefd RESP=AXI4_RESP_OKAY
# UVM_INFO ../src/env/axi4_scoreboard.sv(103) @ 33935000: uvm_test_top.env.scb [axi4_scoreboard] Slave AXI4_WRITE received: ID=0xb ADDR=0x43b6aefd LEN=1
# UVM_INFO ../src/mst/axi4_master_monitor.sv(210) @ 33935000: uvm_test_top.env.master_agent.mon [axi4_master_monitor] Write complete: ID=0xb ADDR=0x43b6aefd RESP=AXI4_RESP_OKAY
# UVM_INFO ../src/env/axi4_scoreboard.sv(82) @ 33935000: uvm_test_top.env.scb [axi4_scoreboard] Master AXI4_WRITE received: ID=0xb ADDR=0x43b6aefd LEN=1
# UVM_INFO ../src/env/axi4_scoreboard.sv(154) @ 33935000: uvm_test_top.env.scb [axi4_scoreboard] [WRITE] MATCH #18: ID=0xb ADDR=0x43b6aefd LEN=1
# UVM_INFO ../src/seq/axi4_outstanding_seq.sv(71) @ 33935000: uvm_test_top.env.master_agent.sqr@@outstanding_seq [axi4_outstanding_seq] Outstanding Write [#9] complete: ID=0xb
# UVM_INFO ../src/seq/axi4_outstanding_seq.sv(65) @ 33935000: uvm_test_top.env.master_agent.sqr@@outstanding_seq [axi4_outstanding_seq] Outstanding Write [#10] started: ID=0xc ADDR=0xf97799de LEN=79
# UVM_INFO ../src/mst/axi4_master_driver.sv(55) @ 33935000: uvm_test_top.env.master_agent.drv [axi4_master_driver] Driving AXI4_WRITE  ID=0xc  ADDR=0xf97799de  LEN=79
# UVM_INFO ../src/mst/axi4_master_driver.sv(101) @ 33935000: uvm_test_top.env.master_agent.drv [axi4_master_driver] Write order: AW -> W (sequential)
# UVM_INFO ../src/slv/axi4_slave_driver.sv(165) @ 33965000: uvm_test_top.env.slave_agent.drv [axi4_slave_driver] AW received: ID=0xc ADDR=0xf97799de LEN=79 LOCK=AXI4_LOCK_NORMAL
# UVM_INFO ../src/mst/axi4_master_monitor.sv(124) @ 33965000: uvm_test_top.env.master_agent.mon [axi4_master_monitor] AW observed: ID=0xc ADDR=0xf97799de LEN=79
# UVM_INFO ../src/slv/axi4_slave_monitor.sv(116) @ 33965000: uvm_test_top.env.slave_agent.mon [axi4_slave_monitor] AW received: ID=0xc ADDR=0xf97799de LEN=79
# UVM_INFO ../src/mst/axi4_master_monitor.sv(184) @ 35565000: uvm_test_top.env.master_agent.mon [axi4_master_monitor] W data assembled: ID=0xc ADDR=0xf97799de 80 beats
# UVM_INFO ../src/slv/axi4_slave_monitor.sv(167) @ 35565000: uvm_test_top.env.slave_agent.mon [axi4_slave_monitor] W data assembled: ID=0xc ADDR=0xf97799de 80 beats
# UVM_INFO ../src/mst/axi4_master_driver.sv(197) @ 35595000: uvm_test_top.env.master_agent.drv [axi4_master_driver] Write response: AXI4_RESP_DECERR
# UVM_INFO ../src/slv/axi4_slave_driver.sv(261) @ 35595000: uvm_test_top.env.slave_agent.drv [axi4_slave_driver] Write complete: ID=0xc ADDR=0xf97799de RESP=AXI4_RESP_DECERR  80 beats processed
# UVM_INFO ../src/slv/axi4_slave_monitor.sv(189) @ 35595000: uvm_test_top.env.slave_agent.mon [axi4_slave_monitor] Write response sent: ID=0xc ADDR=0xf97799de RESP=AXI4_RESP_DECERR
# UVM_INFO ../src/env/axi4_scoreboard.sv(103) @ 35595000: uvm_test_top.env.scb [axi4_scoreboard] Slave AXI4_WRITE received: ID=0xc ADDR=0xf97799de LEN=79
# UVM_INFO ../src/mst/axi4_master_monitor.sv(210) @ 35595000: uvm_test_top.env.master_agent.mon [axi4_master_monitor] Write complete: ID=0xc ADDR=0xf97799de RESP=AXI4_RESP_DECERR
# UVM_INFO ../src/env/axi4_scoreboard.sv(82) @ 35595000: uvm_test_top.env.scb [axi4_scoreboard] Master AXI4_WRITE received: ID=0xc ADDR=0xf97799de LEN=79
# UVM_INFO ../src/env/axi4_scoreboard.sv(154) @ 35595000: uvm_test_top.env.scb [axi4_scoreboard] [WRITE] MATCH #19: ID=0xc ADDR=0xf97799de LEN=79
# UVM_INFO ../src/seq/axi4_outstanding_seq.sv(71) @ 35595000: uvm_test_top.env.master_agent.sqr@@outstanding_seq [axi4_outstanding_seq] Outstanding Write [#10] complete: ID=0xc
# UVM_INFO ../src/seq/axi4_outstanding_seq.sv(65) @ 35595000: uvm_test_top.env.master_agent.sqr@@outstanding_seq [axi4_outstanding_seq] Outstanding Write [#11] started: ID=0x9 ADDR=0x1b827398 LEN=141
# UVM_INFO ../src/mst/axi4_master_driver.sv(55) @ 35595000: uvm_test_top.env.master_agent.drv [axi4_master_driver] Driving AXI4_WRITE  ID=0x9  ADDR=0x1b827398  LEN=141
# UVM_INFO ../src/mst/axi4_master_driver.sv(94) @ 35595000: uvm_test_top.env.master_agent.drv [axi4_master_driver] Write order: AW || W (parallel)
# UVM_INFO ../src/slv/axi4_slave_driver.sv(165) @ 35625000: uvm_test_top.env.slave_agent.drv [axi4_slave_driver] AW received: ID=0x9 ADDR=0x1b827398 LEN=141 LOCK=AXI4_LOCK_NORMAL
# UVM_INFO ../src/mst/axi4_master_monitor.sv(124) @ 35625000: uvm_test_top.env.master_agent.mon [axi4_master_monitor] AW observed: ID=0x9 ADDR=0x1b827398 LEN=141
# UVM_INFO ../src/slv/axi4_slave_monitor.sv(116) @ 35625000: uvm_test_top.env.slave_agent.mon [axi4_slave_monitor] AW received: ID=0x9 ADDR=0x1b827398 LEN=141
# UVM_INFO ../src/slv/axi4_slave_monitor.sv(167) @ 38435000: uvm_test_top.env.slave_agent.mon [axi4_slave_monitor] W data assembled: ID=0x9 ADDR=0x1b827398 142 beats
# UVM_INFO ../src/mst/axi4_master_monitor.sv(184) @ 38435000: uvm_test_top.env.master_agent.mon [axi4_master_monitor] W data assembled: ID=0x9 ADDR=0x1b827398 142 beats
# UVM_INFO ../src/mst/axi4_master_driver.sv(197) @ 38465000: uvm_test_top.env.master_agent.drv [axi4_master_driver] Write response: AXI4_RESP_OKAY
# UVM_INFO ../src/slv/axi4_slave_driver.sv(261) @ 38465000: uvm_test_top.env.slave_agent.drv [axi4_slave_driver] Write complete: ID=0x9 ADDR=0x1b827398 RESP=AXI4_RESP_OKAY  142 beats processed
# UVM_INFO ../src/mst/axi4_master_monitor.sv(210) @ 38465000: uvm_test_top.env.master_agent.mon [axi4_master_monitor] Write complete: ID=0x9 ADDR=0x1b827398 RESP=AXI4_RESP_OKAY
# UVM_INFO ../src/env/axi4_scoreboard.sv(82) @ 38465000: uvm_test_top.env.scb [axi4_scoreboard] Master AXI4_WRITE received: ID=0x9 ADDR=0x1b827398 LEN=141
# UVM_INFO ../src/slv/axi4_slave_monitor.sv(189) @ 38465000: uvm_test_top.env.slave_agent.mon [axi4_slave_monitor] Write response sent: ID=0x9 ADDR=0x1b827398 RESP=AXI4_RESP_OKAY
# UVM_INFO ../src/env/axi4_scoreboard.sv(103) @ 38465000: uvm_test_top.env.scb [axi4_scoreboard] Slave AXI4_WRITE received: ID=0x9 ADDR=0x1b827398 LEN=141
# UVM_INFO ../src/env/axi4_scoreboard.sv(154) @ 38465000: uvm_test_top.env.scb [axi4_scoreboard] [WRITE] MATCH #20: ID=0x9 ADDR=0x1b827398 LEN=141
# UVM_INFO ../src/seq/axi4_outstanding_seq.sv(71) @ 38465000: uvm_test_top.env.master_agent.sqr@@outstanding_seq [axi4_outstanding_seq] Outstanding Write [#11] complete: ID=0x9
# UVM_INFO ../src/seq/axi4_outstanding_seq.sv(100) @ 38465000: uvm_test_top.env.master_agent.sqr@@outstanding_seq [axi4_outstanding_seq] Outstanding Read [#8] started: ID=0xf ADDR=0x333e2bf8 LEN=27
# UVM_INFO ../src/mst/axi4_master_driver.sv(55) @ 38465000: uvm_test_top.env.master_agent.drv [axi4_master_driver] Driving AXI4_READ  ID=0xf  ADDR=0x333e2bf8  LEN=27
# UVM_INFO ../src/slv/axi4_slave_driver.sv(300) @ 38495000: uvm_test_top.env.slave_agent.drv [axi4_slave_driver] AR received: ID=0xf ADDR=0x333e2bf8 LEN=27 LOCK=AXI4_LOCK_EXCLUSIVE
# UVM_INFO ../src/slv/axi4_slave_monitor.sv(224) @ 38495000: uvm_test_top.env.slave_agent.mon [axi4_slave_monitor] AR received: ID=0xf ADDR=0x333e2bf8 LEN=27
# UVM_INFO ../src/mst/axi4_master_monitor.sv(246) @ 38495000: uvm_test_top.env.master_agent.mon [axi4_master_monitor] AR observed: ID=0xf ADDR=0x333e2bf8 LEN=27
# UVM_INFO ../src/mst/axi4_master_driver.sv(254) @ 39055000: uvm_test_top.env.master_agent.drv [axi4_master_driver] Read complete: 28 beats received
# UVM_INFO ../src/slv/axi4_slave_driver.sv(349) @ 39055000: uvm_test_top.env.slave_agent.drv [axi4_slave_driver] Read complete: ID=0xf ADDR=0x333e2bf8 RESP=AXI4_RESP_EXOKAY  28 beats sent
# UVM_INFO ../src/slv/axi4_slave_monitor.sv(287) @ 39055000: uvm_test_top.env.slave_agent.mon [axi4_slave_monitor] Read data sent: ID=0xf ADDR=0x333e2bf8 28 beats
# UVM_INFO ../src/env/axi4_scoreboard.sv(103) @ 39055000: uvm_test_top.env.scb [axi4_scoreboard] Slave AXI4_READ received: ID=0xf ADDR=0x333e2bf8 LEN=27
# UVM_INFO ../src/mst/axi4_master_monitor.sv(314) @ 39055000: uvm_test_top.env.master_agent.mon [axi4_master_monitor] Read complete: ID=0xf ADDR=0x333e2bf8 28 beats
# UVM_INFO ../src/env/axi4_scoreboard.sv(82) @ 39055000: uvm_test_top.env.scb [axi4_scoreboard] Master AXI4_READ received: ID=0xf ADDR=0x333e2bf8 LEN=27
# UVM_INFO ../src/env/axi4_scoreboard.sv(154) @ 39055000: uvm_test_top.env.scb [axi4_scoreboard] [READ] MATCH #21: ID=0xf ADDR=0x333e2bf8 LEN=27
# UVM_INFO ../src/seq/axi4_outstanding_seq.sv(106) @ 39055000: uvm_test_top.env.master_agent.sqr@@outstanding_seq [axi4_outstanding_seq] Outstanding Read [#8] complete: ID=0xf
# UVM_INFO ../src/seq/axi4_outstanding_seq.sv(100) @ 39055000: uvm_test_top.env.master_agent.sqr@@outstanding_seq [axi4_outstanding_seq] Outstanding Read [#9] started: ID=0x7 ADDR=0xf2d6aa31 LEN=15
# UVM_INFO ../src/mst/axi4_master_driver.sv(55) @ 39055000: uvm_test_top.env.master_agent.drv [axi4_master_driver] Driving AXI4_READ  ID=0x7  ADDR=0xf2d6aa31  LEN=15
# UVM_INFO ../src/slv/axi4_slave_driver.sv(300) @ 39085000: uvm_test_top.env.slave_agent.drv [axi4_slave_driver] AR received: ID=0x7 ADDR=0xf2d6aa31 LEN=15 LOCK=AXI4_LOCK_EXCLUSIVE
# UVM_INFO ../src/mst/axi4_master_monitor.sv(246) @ 39085000: uvm_test_top.env.master_agent.mon [axi4_master_monitor] AR observed: ID=0x7 ADDR=0xf2d6aa31 LEN=15
# UVM_INFO ../src/slv/axi4_slave_monitor.sv(224) @ 39085000: uvm_test_top.env.slave_agent.mon [axi4_slave_monitor] AR received: ID=0x7 ADDR=0xf2d6aa31 LEN=15
# UVM_INFO ../src/mst/axi4_master_driver.sv(254) @ 39405000: uvm_test_top.env.master_agent.drv [axi4_master_driver] Read complete: 16 beats received
# UVM_INFO ../src/slv/axi4_slave_driver.sv(349) @ 39405000: uvm_test_top.env.slave_agent.drv [axi4_slave_driver] Read complete: ID=0x7 ADDR=0xf2d6aa31 RESP=AXI4_RESP_DECERR  16 beats sent
# UVM_INFO ../src/mst/axi4_master_monitor.sv(314) @ 39405000: uvm_test_top.env.master_agent.mon [axi4_master_monitor] Read complete: ID=0x7 ADDR=0xf2d6aa31 16 beats
# UVM_INFO ../src/env/axi4_scoreboard.sv(82) @ 39405000: uvm_test_top.env.scb [axi4_scoreboard] Master AXI4_READ received: ID=0x7 ADDR=0xf2d6aa31 LEN=15
# UVM_INFO ../src/slv/axi4_slave_monitor.sv(287) @ 39405000: uvm_test_top.env.slave_agent.mon [axi4_slave_monitor] Read data sent: ID=0x7 ADDR=0xf2d6aa31 16 beats
# UVM_INFO ../src/env/axi4_scoreboard.sv(103) @ 39405000: uvm_test_top.env.scb [axi4_scoreboard] Slave AXI4_READ received: ID=0x7 ADDR=0xf2d6aa31 LEN=15
# UVM_INFO ../src/env/axi4_scoreboard.sv(154) @ 39405000: uvm_test_top.env.scb [axi4_scoreboard] [READ] MATCH #22: ID=0x7 ADDR=0xf2d6aa31 LEN=15
# UVM_INFO ../src/seq/axi4_outstanding_seq.sv(106) @ 39405000: uvm_test_top.env.master_agent.sqr@@outstanding_seq [axi4_outstanding_seq] Outstanding Read [#9] complete: ID=0x7
# UVM_INFO ../src/seq/axi4_outstanding_seq.sv(100) @ 39405000: uvm_test_top.env.master_agent.sqr@@outstanding_seq [axi4_outstanding_seq] Outstanding Read [#10] started: ID=0xd ADDR=0x55432ccd LEN=53
# UVM_INFO ../src/mst/axi4_master_driver.sv(55) @ 39405000: uvm_test_top.env.master_agent.drv [axi4_master_driver] Driving AXI4_READ  ID=0xd  ADDR=0x55432ccd  LEN=53
# UVM_INFO ../src/slv/axi4_slave_driver.sv(300) @ 39435000: uvm_test_top.env.slave_agent.drv [axi4_slave_driver] AR received: ID=0xd ADDR=0x55432ccd LEN=53 LOCK=AXI4_LOCK_NORMAL
# UVM_INFO ../src/slv/axi4_slave_monitor.sv(224) @ 39435000: uvm_test_top.env.slave_agent.mon [axi4_slave_monitor] AR received: ID=0xd ADDR=0x55432ccd LEN=53
# UVM_INFO ../src/mst/axi4_master_monitor.sv(246) @ 39435000: uvm_test_top.env.master_agent.mon [axi4_master_monitor] AR observed: ID=0xd ADDR=0x55432ccd LEN=53
# UVM_INFO ../src/mst/axi4_master_driver.sv(254) @ 40515000: uvm_test_top.env.master_agent.drv [axi4_master_driver] Read complete: 54 beats received
# UVM_INFO ../src/slv/axi4_slave_driver.sv(349) @ 40515000: uvm_test_top.env.slave_agent.drv [axi4_slave_driver] Read complete: ID=0xd ADDR=0x55432ccd RESP=AXI4_RESP_OKAY  54 beats sent
# UVM_INFO ../src/slv/axi4_slave_monitor.sv(287) @ 40515000: uvm_test_top.env.slave_agent.mon [axi4_slave_monitor] Read data sent: ID=0xd ADDR=0x55432ccd 54 beats
# UVM_INFO ../src/env/axi4_scoreboard.sv(103) @ 40515000: uvm_test_top.env.scb [axi4_scoreboard] Slave AXI4_READ received: ID=0xd ADDR=0x55432ccd LEN=53
# UVM_INFO ../src/mst/axi4_master_monitor.sv(314) @ 40515000: uvm_test_top.env.master_agent.mon [axi4_master_monitor] Read complete: ID=0xd ADDR=0x55432ccd 54 beats
# UVM_INFO ../src/env/axi4_scoreboard.sv(82) @ 40515000: uvm_test_top.env.scb [axi4_scoreboard] Master AXI4_READ received: ID=0xd ADDR=0x55432ccd LEN=53
# UVM_INFO ../src/env/axi4_scoreboard.sv(154) @ 40515000: uvm_test_top.env.scb [axi4_scoreboard] [READ] MATCH #23: ID=0xd ADDR=0x55432ccd LEN=53
# UVM_INFO ../src/seq/axi4_outstanding_seq.sv(106) @ 40515000: uvm_test_top.env.master_agent.sqr@@outstanding_seq [axi4_outstanding_seq] Outstanding Read [#10] complete: ID=0xd
# UVM_INFO ../src/seq/axi4_outstanding_seq.sv(100) @ 40515000: uvm_test_top.env.master_agent.sqr@@outstanding_seq [axi4_outstanding_seq] Outstanding Read [#11] started: ID=0x6 ADDR=0x7da5766f LEN=10
# UVM_INFO ../src/mst/axi4_master_driver.sv(55) @ 40515000: uvm_test_top.env.master_agent.drv [axi4_master_driver] Driving AXI4_READ  ID=0x6  ADDR=0x7da5766f  LEN=10
# UVM_INFO ../src/slv/axi4_slave_driver.sv(300) @ 40545000: uvm_test_top.env.slave_agent.drv [axi4_slave_driver] AR received: ID=0x6 ADDR=0x7da5766f LEN=10 LOCK=AXI4_LOCK_NORMAL
# UVM_INFO ../src/mst/axi4_master_monitor.sv(246) @ 40545000: uvm_test_top.env.master_agent.mon [axi4_master_monitor] AR observed: ID=0x6 ADDR=0x7da5766f LEN=10
# UVM_INFO ../src/slv/axi4_slave_monitor.sv(224) @ 40545000: uvm_test_top.env.slave_agent.mon [axi4_slave_monitor] AR received: ID=0x6 ADDR=0x7da5766f LEN=10
# UVM_INFO ../src/mst/axi4_master_driver.sv(254) @ 40765000: uvm_test_top.env.master_agent.drv [axi4_master_driver] Read complete: 11 beats received
# UVM_INFO ../src/slv/axi4_slave_driver.sv(349) @ 40765000: uvm_test_top.env.slave_agent.drv [axi4_slave_driver] Read complete: ID=0x6 ADDR=0x7da5766f RESP=AXI4_RESP_OKAY  11 beats sent
# UVM_INFO ../src/mst/axi4_master_monitor.sv(314) @ 40765000: uvm_test_top.env.master_agent.mon [axi4_master_monitor] Read complete: ID=0x6 ADDR=0x7da5766f 11 beats
# UVM_INFO ../src/env/axi4_scoreboard.sv(82) @ 40765000: uvm_test_top.env.scb [axi4_scoreboard] Master AXI4_READ received: ID=0x6 ADDR=0x7da5766f LEN=10
# UVM_INFO ../src/slv/axi4_slave_monitor.sv(287) @ 40765000: uvm_test_top.env.slave_agent.mon [axi4_slave_monitor] Read data sent: ID=0x6 ADDR=0x7da5766f 11 beats
# UVM_INFO ../src/env/axi4_scoreboard.sv(103) @ 40765000: uvm_test_top.env.scb [axi4_scoreboard] Slave AXI4_READ received: ID=0x6 ADDR=0x7da5766f LEN=10
# UVM_INFO ../src/env/axi4_scoreboard.sv(154) @ 40765000: uvm_test_top.env.scb [axi4_scoreboard] [READ] MATCH #24: ID=0x6 ADDR=0x7da5766f LEN=10
# UVM_INFO ../src/seq/axi4_outstanding_seq.sv(106) @ 40765000: uvm_test_top.env.master_agent.sqr@@outstanding_seq [axi4_outstanding_seq] Outstanding Read [#11] complete: ID=0x6
# UVM_INFO ../src/seq/axi4_outstanding_seq.sv(65) @ 40765000: uvm_test_top.env.master_agent.sqr@@outstanding_seq [axi4_outstanding_seq] Outstanding Write [#12] started: ID=0x3 ADDR=0x549cba48 LEN=203
# UVM_INFO ../src/mst/axi4_master_driver.sv(55) @ 40765000: uvm_test_top.env.master_agent.drv [axi4_master_driver] Driving AXI4_WRITE  ID=0x3  ADDR=0x549cba48  LEN=203
# UVM_INFO ../src/mst/axi4_master_driver.sv(94) @ 40765000: uvm_test_top.env.master_agent.drv [axi4_master_driver] Write order: AW || W (parallel)
# UVM_INFO ../src/slv/axi4_slave_driver.sv(165) @ 40795000: uvm_test_top.env.slave_agent.drv [axi4_slave_driver] AW received: ID=0x3 ADDR=0x549cba48 LEN=203 LOCK=AXI4_LOCK_NORMAL
# UVM_INFO ../src/slv/axi4_slave_monitor.sv(116) @ 40795000: uvm_test_top.env.slave_agent.mon [axi4_slave_monitor] AW received: ID=0x3 ADDR=0x549cba48 LEN=203
# UVM_INFO ../src/mst/axi4_master_monitor.sv(124) @ 40795000: uvm_test_top.env.master_agent.mon [axi4_master_monitor] AW observed: ID=0x3 ADDR=0x549cba48 LEN=203
# UVM_INFO ../src/mst/axi4_master_monitor.sv(184) @ 44845000: uvm_test_top.env.master_agent.mon [axi4_master_monitor] W data assembled: ID=0x3 ADDR=0x549cba48 204 beats
# UVM_INFO ../src/slv/axi4_slave_monitor.sv(167) @ 44845000: uvm_test_top.env.slave_agent.mon [axi4_slave_monitor] W data assembled: ID=0x3 ADDR=0x549cba48 204 beats
# UVM_INFO ../src/mst/axi4_master_driver.sv(197) @ 44875000: uvm_test_top.env.master_agent.drv [axi4_master_driver] Write response: AXI4_RESP_OKAY
# UVM_INFO ../src/slv/axi4_slave_driver.sv(261) @ 44875000: uvm_test_top.env.slave_agent.drv [axi4_slave_driver] Write complete: ID=0x3 ADDR=0x549cba48 RESP=AXI4_RESP_OKAY  204 beats processed
# UVM_INFO ../src/slv/axi4_slave_monitor.sv(189) @ 44875000: uvm_test_top.env.slave_agent.mon [axi4_slave_monitor] Write response sent: ID=0x3 ADDR=0x549cba48 RESP=AXI4_RESP_OKAY
# UVM_INFO ../src/env/axi4_scoreboard.sv(103) @ 44875000: uvm_test_top.env.scb [axi4_scoreboard] Slave AXI4_WRITE received: ID=0x3 ADDR=0x549cba48 LEN=203
# UVM_INFO ../src/mst/axi4_master_monitor.sv(210) @ 44875000: uvm_test_top.env.master_agent.mon [axi4_master_monitor] Write complete: ID=0x3 ADDR=0x549cba48 RESP=AXI4_RESP_OKAY
# UVM_INFO ../src/env/axi4_scoreboard.sv(82) @ 44875000: uvm_test_top.env.scb [axi4_scoreboard] Master AXI4_WRITE received: ID=0x3 ADDR=0x549cba48 LEN=203
# UVM_INFO ../src/env/axi4_scoreboard.sv(154) @ 44875000: uvm_test_top.env.scb [axi4_scoreboard] [WRITE] MATCH #25: ID=0x3 ADDR=0x549cba48 LEN=203
# UVM_INFO ../src/seq/axi4_outstanding_seq.sv(71) @ 44875000: uvm_test_top.env.master_agent.sqr@@outstanding_seq [axi4_outstanding_seq] Outstanding Write [#12] complete: ID=0x3
# UVM_INFO ../src/seq/axi4_outstanding_seq.sv(65) @ 44875000: uvm_test_top.env.master_agent.sqr@@outstanding_seq [axi4_outstanding_seq] Outstanding Write [#13] started: ID=0x1 ADDR=0x28ae7aec LEN=152
# UVM_INFO ../src/mst/axi4_master_driver.sv(55) @ 44875000: uvm_test_top.env.master_agent.drv [axi4_master_driver] Driving AXI4_WRITE  ID=0x1  ADDR=0x28ae7aec  LEN=152
# UVM_INFO ../src/mst/axi4_master_driver.sv(101) @ 44875000: uvm_test_top.env.master_agent.drv [axi4_master_driver] Write order: AW -> W (sequential)
# UVM_INFO ../src/slv/axi4_slave_driver.sv(165) @ 44905000: uvm_test_top.env.slave_agent.drv [axi4_slave_driver] AW received: ID=0x1 ADDR=0x28ae7aec LEN=152 LOCK=AXI4_LOCK_NORMAL
# UVM_INFO ../src/mst/axi4_master_monitor.sv(124) @ 44905000: uvm_test_top.env.master_agent.mon [axi4_master_monitor] AW observed: ID=0x1 ADDR=0x28ae7aec LEN=152
# UVM_INFO ../src/slv/axi4_slave_monitor.sv(116) @ 44905000: uvm_test_top.env.slave_agent.mon [axi4_slave_monitor] AW received: ID=0x1 ADDR=0x28ae7aec LEN=152
# UVM_INFO ../src/mst/axi4_master_monitor.sv(184) @ 47965000: uvm_test_top.env.master_agent.mon [axi4_master_monitor] W data assembled: ID=0x1 ADDR=0x28ae7aec 153 beats
# UVM_INFO ../src/slv/axi4_slave_monitor.sv(167) @ 47965000: uvm_test_top.env.slave_agent.mon [axi4_slave_monitor] W data assembled: ID=0x1 ADDR=0x28ae7aec 153 beats
# UVM_INFO ../src/mst/axi4_master_driver.sv(197) @ 47995000: uvm_test_top.env.master_agent.drv [axi4_master_driver] Write response: AXI4_RESP_OKAY
# UVM_INFO ../src/slv/axi4_slave_driver.sv(261) @ 47995000: uvm_test_top.env.slave_agent.drv [axi4_slave_driver] Write complete: ID=0x1 ADDR=0x28ae7aec RESP=AXI4_RESP_OKAY  153 beats processed
# UVM_INFO ../src/slv/axi4_slave_monitor.sv(189) @ 47995000: uvm_test_top.env.slave_agent.mon [axi4_slave_monitor] Write response sent: ID=0x1 ADDR=0x28ae7aec RESP=AXI4_RESP_OKAY
# UVM_INFO ../src/env/axi4_scoreboard.sv(103) @ 47995000: uvm_test_top.env.scb [axi4_scoreboard] Slave AXI4_WRITE received: ID=0x1 ADDR=0x28ae7aec LEN=152
# UVM_INFO ../src/mst/axi4_master_monitor.sv(210) @ 47995000: uvm_test_top.env.master_agent.mon [axi4_master_monitor] Write complete: ID=0x1 ADDR=0x28ae7aec RESP=AXI4_RESP_OKAY
# UVM_INFO ../src/env/axi4_scoreboard.sv(82) @ 47995000: uvm_test_top.env.scb [axi4_scoreboard] Master AXI4_WRITE received: ID=0x1 ADDR=0x28ae7aec LEN=152
# UVM_INFO ../src/env/axi4_scoreboard.sv(154) @ 47995000: uvm_test_top.env.scb [axi4_scoreboard] [WRITE] MATCH #26: ID=0x1 ADDR=0x28ae7aec LEN=152
# UVM_INFO ../src/seq/axi4_outstanding_seq.sv(71) @ 47995000: uvm_test_top.env.master_agent.sqr@@outstanding_seq [axi4_outstanding_seq] Outstanding Write [#13] complete: ID=0x1
# UVM_INFO ../src/seq/axi4_outstanding_seq.sv(65) @ 47995000: uvm_test_top.env.master_agent.sqr@@outstanding_seq [axi4_outstanding_seq] Outstanding Write [#14] started: ID=0x5 ADDR=0x1710cefd LEN=20
# UVM_INFO ../src/mst/axi4_master_driver.sv(55) @ 47995000: uvm_test_top.env.master_agent.drv [axi4_master_driver] Driving AXI4_WRITE  ID=0x5  ADDR=0x1710cefd  LEN=20
# UVM_INFO ../src/mst/axi4_master_driver.sv(106) @ 47995000: uvm_test_top.env.master_agent.drv [axi4_master_driver] Write order: W -> AW (W first)
# UVM_INFO ../src/slv/axi4_slave_driver.sv(165) @ 48045000: uvm_test_top.env.slave_agent.drv [axi4_slave_driver] AW received: ID=0x5 ADDR=0x1710cefd LEN=20 LOCK=AXI4_LOCK_NORMAL
# UVM_INFO ../src/mst/axi4_master_monitor.sv(124) @ 48045000: uvm_test_top.env.master_agent.mon [axi4_master_monitor] AW observed: ID=0x5 ADDR=0x1710cefd LEN=20
# UVM_INFO ../src/slv/axi4_slave_monitor.sv(116) @ 48045000: uvm_test_top.env.slave_agent.mon [axi4_slave_monitor] AW received: ID=0x5 ADDR=0x1710cefd LEN=20
# UVM_INFO ../src/slv/axi4_slave_monitor.sv(167) @ 48415000: uvm_test_top.env.slave_agent.mon [axi4_slave_monitor] W data assembled: ID=0x5 ADDR=0x1710cefd 21 beats
# UVM_INFO ../src/mst/axi4_master_monitor.sv(184) @ 48415000: uvm_test_top.env.master_agent.mon [axi4_master_monitor] W data assembled: ID=0x5 ADDR=0x1710cefd 21 beats
# UVM_INFO ../src/mst/axi4_master_driver.sv(197) @ 48445000: uvm_test_top.env.master_agent.drv [axi4_master_driver] Write response: AXI4_RESP_OKAY
# UVM_INFO ../src/slv/axi4_slave_driver.sv(261) @ 48445000: uvm_test_top.env.slave_agent.drv [axi4_slave_driver] Write complete: ID=0x5 ADDR=0x1710cefd RESP=AXI4_RESP_OKAY  21 beats processed
# UVM_INFO ../src/mst/axi4_master_monitor.sv(210) @ 48445000: uvm_test_top.env.master_agent.mon [axi4_master_monitor] Write complete: ID=0x5 ADDR=0x1710cefd RESP=AXI4_RESP_OKAY
# UVM_INFO ../src/env/axi4_scoreboard.sv(82) @ 48445000: uvm_test_top.env.scb [axi4_scoreboard] Master AXI4_WRITE received: ID=0x5 ADDR=0x1710cefd LEN=20
# UVM_INFO ../src/slv/axi4_slave_monitor.sv(189) @ 48445000: uvm_test_top.env.slave_agent.mon [axi4_slave_monitor] Write response sent: ID=0x5 ADDR=0x1710cefd RESP=AXI4_RESP_OKAY
# UVM_INFO ../src/env/axi4_scoreboard.sv(103) @ 48445000: uvm_test_top.env.scb [axi4_scoreboard] Slave AXI4_WRITE received: ID=0x5 ADDR=0x1710cefd LEN=20
# UVM_INFO ../src/env/axi4_scoreboard.sv(154) @ 48445000: uvm_test_top.env.scb [axi4_scoreboard] [WRITE] MATCH #27: ID=0x5 ADDR=0x1710cefd LEN=20
# UVM_INFO ../src/seq/axi4_outstanding_seq.sv(71) @ 48445000: uvm_test_top.env.master_agent.sqr@@outstanding_seq [axi4_outstanding_seq] Outstanding Write [#14] complete: ID=0x5
# UVM_INFO ../src/seq/axi4_outstanding_seq.sv(78) @ 48445000: uvm_test_top.env.master_agent.sqr@@outstanding_seq [axi4_outstanding_seq] All outstanding write transactions finished
# UVM_INFO ../src/seq/axi4_outstanding_seq.sv(100) @ 48445000: uvm_test_top.env.master_agent.sqr@@outstanding_seq [axi4_outstanding_seq] Outstanding Read [#12] started: ID=0x1 ADDR=0x75a80ef5 LEN=205
# UVM_INFO ../src/mst/axi4_master_driver.sv(55) @ 48445000: uvm_test_top.env.master_agent.drv [axi4_master_driver] Driving AXI4_READ  ID=0x1  ADDR=0x75a80ef5  LEN=205
# UVM_INFO ../src/slv/axi4_slave_driver.sv(300) @ 48475000: uvm_test_top.env.slave_agent.drv [axi4_slave_driver] AR received: ID=0x1 ADDR=0x75a80ef5 LEN=205 LOCK=AXI4_LOCK_EXCLUSIVE
# UVM_INFO ../src/slv/axi4_slave_monitor.sv(224) @ 48475000: uvm_test_top.env.slave_agent.mon [axi4_slave_monitor] AR received: ID=0x1 ADDR=0x75a80ef5 LEN=205
# UVM_INFO ../src/mst/axi4_master_monitor.sv(246) @ 48475000: uvm_test_top.env.master_agent.mon [axi4_master_monitor] AR observed: ID=0x1 ADDR=0x75a80ef5 LEN=205
# UVM_INFO ../src/mst/axi4_master_driver.sv(254) @ 52595000: uvm_test_top.env.master_agent.drv [axi4_master_driver] Read complete: 206 beats received
# UVM_INFO ../src/slv/axi4_slave_driver.sv(349) @ 52595000: uvm_test_top.env.slave_agent.drv [axi4_slave_driver] Read complete: ID=0x1 ADDR=0x75a80ef5 RESP=AXI4_RESP_EXOKAY  206 beats sent
# UVM_INFO ../src/slv/axi4_slave_monitor.sv(287) @ 52595000: uvm_test_top.env.slave_agent.mon [axi4_slave_monitor] Read data sent: ID=0x1 ADDR=0x75a80ef5 206 beats
# UVM_INFO ../src/env/axi4_scoreboard.sv(103) @ 52595000: uvm_test_top.env.scb [axi4_scoreboard] Slave AXI4_READ received: ID=0x1 ADDR=0x75a80ef5 LEN=205
# UVM_INFO ../src/mst/axi4_master_monitor.sv(314) @ 52595000: uvm_test_top.env.master_agent.mon [axi4_master_monitor] Read complete: ID=0x1 ADDR=0x75a80ef5 206 beats
# UVM_INFO ../src/env/axi4_scoreboard.sv(82) @ 52595000: uvm_test_top.env.scb [axi4_scoreboard] Master AXI4_READ received: ID=0x1 ADDR=0x75a80ef5 LEN=205
# UVM_INFO ../src/env/axi4_scoreboard.sv(154) @ 52595000: uvm_test_top.env.scb [axi4_scoreboard] [READ] MATCH #28: ID=0x1 ADDR=0x75a80ef5 LEN=205
# UVM_INFO ../src/seq/axi4_outstanding_seq.sv(106) @ 52595000: uvm_test_top.env.master_agent.sqr@@outstanding_seq [axi4_outstanding_seq] Outstanding Read [#12] complete: ID=0x1
# UVM_INFO ../src/seq/axi4_outstanding_seq.sv(100) @ 52595000: uvm_test_top.env.master_agent.sqr@@outstanding_seq [axi4_outstanding_seq] Outstanding Read [#13] started: ID=0x9 ADDR=0x9da242b1 LEN=5
# UVM_INFO ../src/mst/axi4_master_driver.sv(55) @ 52595000: uvm_test_top.env.master_agent.drv [axi4_master_driver] Driving AXI4_READ  ID=0x9  ADDR=0x9da242b1  LEN=5
# UVM_INFO ../src/slv/axi4_slave_driver.sv(300) @ 52625000: uvm_test_top.env.slave_agent.drv [axi4_slave_driver] AR received: ID=0x9 ADDR=0x9da242b1 LEN=5 LOCK=AXI4_LOCK_NORMAL
# UVM_INFO ../src/mst/axi4_master_monitor.sv(246) @ 52625000: uvm_test_top.env.master_agent.mon [axi4_master_monitor] AR observed: ID=0x9 ADDR=0x9da242b1 LEN=5
# UVM_INFO ../src/slv/axi4_slave_monitor.sv(224) @ 52625000: uvm_test_top.env.slave_agent.mon [axi4_slave_monitor] AR received: ID=0x9 ADDR=0x9da242b1 LEN=5
# UVM_INFO ../src/mst/axi4_master_driver.sv(254) @ 52745000: uvm_test_top.env.master_agent.drv [axi4_master_driver] Read complete: 6 beats received
# UVM_INFO ../src/slv/axi4_slave_driver.sv(349) @ 52745000: uvm_test_top.env.slave_agent.drv [axi4_slave_driver] Read complete: ID=0x9 ADDR=0x9da242b1 RESP=AXI4_RESP_OKAY  6 beats sent
# UVM_INFO ../src/mst/axi4_master_monitor.sv(314) @ 52745000: uvm_test_top.env.master_agent.mon [axi4_master_monitor] Read complete: ID=0x9 ADDR=0x9da242b1 6 beats
# UVM_INFO ../src/env/axi4_scoreboard.sv(82) @ 52745000: uvm_test_top.env.scb [axi4_scoreboard] Master AXI4_READ received: ID=0x9 ADDR=0x9da242b1 LEN=5
# UVM_INFO ../src/slv/axi4_slave_monitor.sv(287) @ 52745000: uvm_test_top.env.slave_agent.mon [axi4_slave_monitor] Read data sent: ID=0x9 ADDR=0x9da242b1 6 beats
# UVM_INFO ../src/env/axi4_scoreboard.sv(103) @ 52745000: uvm_test_top.env.scb [axi4_scoreboard] Slave AXI4_READ received: ID=0x9 ADDR=0x9da242b1 LEN=5
# UVM_INFO ../src/env/axi4_scoreboard.sv(154) @ 52745000: uvm_test_top.env.scb [axi4_scoreboard] [READ] MATCH #29: ID=0x9 ADDR=0x9da242b1 LEN=5
# UVM_INFO ../src/seq/axi4_outstanding_seq.sv(106) @ 52745000: uvm_test_top.env.master_agent.sqr@@outstanding_seq [axi4_outstanding_seq] Outstanding Read [#13] complete: ID=0x9
# UVM_INFO ../src/seq/axi4_outstanding_seq.sv(100) @ 52745000: uvm_test_top.env.master_agent.sqr@@outstanding_seq [axi4_outstanding_seq] Outstanding Read [#14] started: ID=0x5 ADDR=0x647e5292 LEN=246
# UVM_INFO ../src/mst/axi4_master_driver.sv(55) @ 52745000: uvm_test_top.env.master_agent.drv [axi4_master_driver] Driving AXI4_READ  ID=0x5  ADDR=0x647e5292  LEN=246
# UVM_INFO ../src/slv/axi4_slave_driver.sv(300) @ 52775000: uvm_test_top.env.slave_agent.drv [axi4_slave_driver] AR received: ID=0x5 ADDR=0x647e5292 LEN=246 LOCK=AXI4_LOCK_NORMAL
# UVM_INFO ../src/slv/axi4_slave_monitor.sv(224) @ 52775000: uvm_test_top.env.slave_agent.mon [axi4_slave_monitor] AR received: ID=0x5 ADDR=0x647e5292 LEN=246
# UVM_INFO ../src/mst/axi4_master_monitor.sv(246) @ 52775000: uvm_test_top.env.master_agent.mon [axi4_master_monitor] AR observed: ID=0x5 ADDR=0x647e5292 LEN=246
# UVM_INFO ../src/mst/axi4_master_driver.sv(254) @ 57715000: uvm_test_top.env.master_agent.drv [axi4_master_driver] Read complete: 247 beats received
# UVM_INFO ../src/slv/axi4_slave_driver.sv(349) @ 57715000: uvm_test_top.env.slave_agent.drv [axi4_slave_driver] Read complete: ID=0x5 ADDR=0x647e5292 RESP=AXI4_RESP_OKAY  247 beats sent
# UVM_INFO ../src/slv/axi4_slave_monitor.sv(287) @ 57715000: uvm_test_top.env.slave_agent.mon [axi4_slave_monitor] Read data sent: ID=0x5 ADDR=0x647e5292 247 beats
# UVM_INFO ../src/env/axi4_scoreboard.sv(103) @ 57715000: uvm_test_top.env.scb [axi4_scoreboard] Slave AXI4_READ received: ID=0x5 ADDR=0x647e5292 LEN=246
# UVM_INFO ../src/mst/axi4_master_monitor.sv(314) @ 57715000: uvm_test_top.env.master_agent.mon [axi4_master_monitor] Read complete: ID=0x5 ADDR=0x647e5292 247 beats
# UVM_INFO ../src/env/axi4_scoreboard.sv(82) @ 57715000: uvm_test_top.env.scb [axi4_scoreboard] Master AXI4_READ received: ID=0x5 ADDR=0x647e5292 LEN=246
# UVM_INFO ../src/env/axi4_scoreboard.sv(154) @ 57715000: uvm_test_top.env.scb [axi4_scoreboard] [READ] MATCH #30: ID=0x5 ADDR=0x647e5292 LEN=246
# UVM_INFO ../src/seq/axi4_outstanding_seq.sv(106) @ 57715000: uvm_test_top.env.master_agent.sqr@@outstanding_seq [axi4_outstanding_seq] Outstanding Read [#14] complete: ID=0x5
# UVM_INFO ../src/seq/axi4_outstanding_seq.sv(113) @ 57715000: uvm_test_top.env.master_agent.sqr@@outstanding_seq [axi4_outstanding_seq] All outstanding read transactions finished
# UVM_INFO ../src/seq/axi4_outstanding_seq.sv(117) @ 57715000: uvm_test_top.env.master_agent.sqr@@outstanding_seq [axi4_outstanding_seq] Outstanding sequence complete
# UVM_INFO ../src/test/axi4_outstanding_test.sv(59) @ 58715000: uvm_test_top [axi4_outstanding_test] Outstanding test completed successfully
# UVM_INFO verilog_src/uvm-1.1d/src/base/uvm_objection.svh(1268) @ 58715000: reporter [TEST_DONE] 'run' phase is ready to proceed to the 'extract' phase
# UVM_INFO ../src/env/axi4_scoreboard.sv(218) @ 58715000: uvm_test_top.env.scb [axi4_scoreboard] 
# ========================================
#          SCOREBOARD SUMMARY
# ========================================
#   Master transactions : 30
#   Slave transactions  : 30
#   Matches             : 30
#   Mismatches          : 0
#   Unmatched master WR : 0
#   Unmatched master RD : 0
#   Unmatched slave  WR : 0
#   Unmatched slave  RD : 0
# ========================================
#   RESULT : PASS
# ========================================
# UVM_INFO ../src/test/axi4_base_test.sv(91) @ 58715000: uvm_test_top [axi4_outstanding_test] 
# === TEST PASSED ===
# 
# 
# --- UVM Report Summary ---
# 
# ** Report counts by severity
# UVM_INFO :  463
# UVM_WARNING :    0
# UVM_ERROR :    0
# UVM_FATAL :    0
# ** Report counts by id
# [Questa UVM]     3
# [RNTST]     1
# [TB_TOP]     2
# [TEST_DONE]     1
# [TOP_TB]     1
# [UVMTOP]     1
# [axi4_master_agent]     1
# [axi4_master_driver]    76
# [axi4_master_monitor]    76
# [axi4_outstanding_seq]    64
# [axi4_outstanding_test]     3
# [axi4_scoreboard]    91
# [axi4_slave_agent]     1
# [axi4_slave_driver]    61
# [axi4_slave_monitor]    76
# [axi4_vip_env]     5
# ** Note: $finish    : /cadtools/mentor/Questa_10.6b/questasim/linux_x86_64/../verilog_src/uvm-1.1d/src/base/uvm_root.svh(430)
#    Time: 58715 ns  Iteration: 55  Instance: /tb_top
# Saving coverage database on exit...
# End time: 11:25:20 on Jun 05,2026, Elapsed time: 0:00:43
# Errors: 0, Warnings: 0
