# vsim -c -coverage -sv_seed 60481861 "+UVM_TESTNAME=axi4_outstanding_test" "+UVM_VERBOSITY=UVM_HIGH" "+DUMP_VCD" -l ./report/logs/axi4_outstanding_test_run_6_seed_60481861.log -do "coverage save -onexit ./report/coverage/axi4_outstanding_test_run_6_seed_60481861.ucdb; run -all; quit -f" opt_tb_top 
# Start time: 11:24:37 on Jun 05,2026
# //  Questa Sim-64
# //  Version 10.6b linux_x86_64 May 25 2017
# //
# //  Copyright 1991-2017 Mentor Graphics Corporation
# //  All Rights Reserved.
# //
# //  QuestaSim and its associated documentation contain trade
# //  secrets and commercial or financial information that are the property of
# //  Mentor Graphics Corporation and are privileged, confidential,
# //  and exempt from disclosure under the Freedom of Information Act,
# //  5 U.S.C. Section 552. Furthermore, this information
# //  is prohibited from disclosure under the Trade Secrets Act,
# //  18 U.S.C. Section 1905.
# //
# Loading sv_std.std
# Loading work.axi4_if(fast)
# Loading mtiUvm.uvm_pkg
# Loading work.axi4_pkg(fast)
# Loading work.axi4_test_pkg(fast)
# Loading work.tb_top(fast)
# Loading work.axi4_if(fast)
# Loading work.axi4_sva(fast)
# Loading mtiUvm.questa_uvm_pkg(fast)
# Loading /cadtools/mentor/Questa_10.6b/questasim/uvm-1.1d/linux_x86_64/uvm_dpi.so
# coverage save -onexit ./report/coverage/axi4_outstanding_test_run_6_seed_60481861.ucdb
#  run -all
# ----------------------------------------------------------------
# UVM-1.1d
# (C) 2007-2013 Mentor Graphics Corporation
# (C) 2007-2013 Cadence Design Systems, Inc.
# (C) 2006-2013 Synopsys, Inc.
# (C) 2011-2013 Cypress Semiconductor Corp.
# ----------------------------------------------------------------
# 
#   ***********       IMPORTANT RELEASE NOTES         ************
# 
#   You are using a version of the UVM library that has been compiled
#   with `UVM_NO_DEPRECATED undefined.
#   See http://www.eda.org/svdb/view.php?id=3313 for more details.
# 
#   You are using a version of the UVM library that has been compiled
#   with `UVM_OBJECT_MUST_HAVE_CONSTRUCTOR undefined.
#   See http://www.eda.org/svdb/view.php?id=3770 for more details.
# 
#       (Specify +UVM_NO_RELNOTES to turn off this notice)
# 
# UVM_INFO verilog_src/questa_uvm_pkg-1.2/src/questa_uvm_pkg.sv(215) @ 0: reporter [Questa UVM] QUESTA_UVM-1.2.3
# UVM_INFO verilog_src/questa_uvm_pkg-1.2/src/questa_uvm_pkg.sv(217) @ 0: reporter [Questa UVM]  questa_uvm::init(+struct)
# UVM_INFO ../src/tb_top.sv(128) @ 0: reporter [TB_TOP] Virtual interface set in config_db
# UVM_INFO @ 0: reporter [RNTST] Running test axi4_outstanding_test...
# UVM_INFO ../src/tb_top.sv(142) @ 0: reporter [TB_TOP] Waveform VCD dumping enabled (axi4_vip.vcd)
# UVM_INFO ../src/env/axi4_vip_env.sv(83) @ 0: uvm_test_top.env [axi4_vip_env] slave_vif not set - reusing master_vif (passthrough mode)
# UVM_INFO ../src/env/axi4_vip_env.sv(93) @ 0: uvm_test_top.env [axi4_vip_env] Scoreboard created
# UVM_INFO ../src/env/axi4_vip_env.sv(100) @ 0: uvm_test_top.env [axi4_vip_env] Coverage collectors created
# UVM_INFO ../src/mst/axi4_master_agent.sv(69) @ 0: uvm_test_top.env.master_agent [axi4_master_agent] ACTIVE mode - driver + sequencer created
# UVM_INFO ../src/slv/axi4_slave_agent.sv(82) @ 0: uvm_test_top.env.slave_agent [axi4_slave_agent] ACTIVE mode — ready_delay=[0:0] resp_delay=[0:0]
# UVM_INFO ../src/env/axi4_vip_env.sv(116) @ 0: uvm_test_top.env [axi4_vip_env] Scoreboard connected: master_mon.ap -> scb, slave_mon.ap -> scb
# UVM_INFO ../src/env/axi4_vip_env.sv(124) @ 0: uvm_test_top.env [axi4_vip_env] Coverage connected: master_mon.ap -> master_cov, slave_mon.ap -> slave_cov
# UVM_INFO @ 0: reporter [UVMTOP] UVM testbench topology:
# ---------------------------------------------------------------
# Name                       Type                     Size  Value
# ---------------------------------------------------------------
# uvm_test_top               axi4_outstanding_test    -     @473 
#   env                      axi4_vip_env             -     @488 
#     master_agent           axi4_master_agent        -     @503 
#       drv                  axi4_master_driver       -     @567 
#         rsp_port           uvm_analysis_port        -     @582 
#         seq_item_port      uvm_seq_item_pull_port   -     @574 
#       mon                  axi4_master_monitor      -     @559 
#         ap                 uvm_analysis_port        -     @700 
#       sqr                  axi4_master_sequencer    -     @590 
#         rsp_export         uvm_analysis_export      -     @597 
#         seq_item_export    uvm_seq_item_pull_imp    -     @691 
#         arbitration_queue  array                    0     -    
#         lock_queue         array                    0     -    
#         num_last_reqs      integral                 32    'd1  
#         num_last_rsps      integral                 32    'd1  
#     master_cov             axi4_coverage            -     @524 
#       analysis_imp         uvm_analysis_imp         -     @531 
#     scb                    axi4_scoreboard          -     @517 
#       master_export        uvm_analysis_imp_master  -     @714 
#       slave_export         uvm_analysis_imp_slave   -     @722 
#     slave_agent            axi4_slave_agent         -     @510 
#       drv                  axi4_slave_driver        -     @753 
#         rsp_port           uvm_analysis_port        -     @768 
#         seq_item_port      uvm_seq_item_pull_port   -     @760 
#       mon                  axi4_slave_monitor       -     @735 
#         ap                 uvm_analysis_port        -     @890 
#       sqr                  axi4_slave_sequencer     -     @776 
#         rsp_export         uvm_analysis_export      -     @783 
#         seq_item_export    uvm_seq_item_pull_imp    -     @877 
#         arbitration_queue  array                    0     -    
#         lock_queue         array                    0     -    
#         num_last_reqs      integral                 32    'd1  
#         num_last_rsps      integral                 32    'd1  
#     slave_cov              axi4_coverage            -     @539 
#       analysis_imp         uvm_analysis_imp         -     @546 
# ---------------------------------------------------------------
# 
# UVM_INFO verilog_src/questa_uvm_pkg-1.2/src/questa_uvm_pkg.sv(277) @ 0: reporter [Questa UVM] End Of Elaboration
# UVM_INFO ../src/test/axi4_outstanding_test.sv(45) @ 0: uvm_test_top [axi4_outstanding_test] Starting outstanding test with 15 writes, 15 reads, depth=4
# UVM_INFO ../src/seq/axi4_outstanding_seq.sv(40) @ 0: uvm_test_top.env.master_agent.sqr@@outstanding_seq [axi4_outstanding_seq] Starting outstanding sequence: writes=15, reads=15, depth=4
# UVM_INFO ../src/tb_top.sv(49) @ 95000: reporter [TOP_TB] Reset de-asserted
# UVM_INFO ../src/slv/axi4_slave_driver.sv(70) @ 95000: uvm_test_top.env.slave_agent.drv [axi4_slave_driver] Reset deasserted - slave driver active
# UVM_INFO ../src/mst/axi4_master_driver.sv(46) @ 95000: uvm_test_top.env.master_agent.drv [axi4_master_driver] Reset deasserted - master driver active
# UVM_INFO ../src/mst/axi4_master_monitor.sv(77) @ 95000: uvm_test_top.env.master_agent.mon [axi4_master_monitor] Reset deasserted — monitor active
# UVM_INFO ../src/slv/axi4_slave_monitor.sv(71) @ 95000: uvm_test_top.env.slave_agent.mon [axi4_slave_monitor] Reset deasserted — monitor active
# UVM_INFO ../src/seq/axi4_outstanding_seq.sv(65) @ 95000: uvm_test_top.env.master_agent.sqr@@outstanding_seq [axi4_outstanding_seq] Outstanding Write [#3] started: ID=0x7 ADDR=0xf4fb9eba LEN=96
# UVM_INFO ../src/mst/axi4_master_driver.sv(55) @ 95000: uvm_test_top.env.master_agent.drv [axi4_master_driver] Driving AXI4_WRITE  ID=0x7  ADDR=0xf4fb9eba  LEN=96
# UVM_INFO ../src/mst/axi4_master_driver.sv(94) @ 95000: uvm_test_top.env.master_agent.drv [axi4_master_driver] Write order: AW || W (parallel)
# UVM_INFO ../src/slv/axi4_slave_driver.sv(165) @ 115000: uvm_test_top.env.slave_agent.drv [axi4_slave_driver] AW received: ID=0x7 ADDR=0xf4fb9eba LEN=96 LOCK=AXI4_LOCK_NORMAL
# UVM_INFO ../src/slv/axi4_slave_monitor.sv(116) @ 115000: uvm_test_top.env.slave_agent.mon [axi4_slave_monitor] AW received: ID=0x7 ADDR=0xf4fb9eba LEN=96
# UVM_INFO ../src/mst/axi4_master_monitor.sv(124) @ 115000: uvm_test_top.env.master_agent.mon [axi4_master_monitor] AW observed: ID=0x7 ADDR=0xf4fb9eba LEN=96
# UVM_INFO ../src/mst/axi4_master_monitor.sv(184) @ 2025000: uvm_test_top.env.master_agent.mon [axi4_master_monitor] W data assembled: ID=0x7 ADDR=0xf4fb9eba 97 beats
# UVM_INFO ../src/slv/axi4_slave_monitor.sv(167) @ 2025000: uvm_test_top.env.slave_agent.mon [axi4_slave_monitor] W data assembled: ID=0x7 ADDR=0xf4fb9eba 97 beats
# UVM_INFO ../src/mst/axi4_master_driver.sv(197) @ 2055000: uvm_test_top.env.master_agent.drv [axi4_master_driver] Write response: AXI4_RESP_DECERR
# UVM_INFO ../src/slv/axi4_slave_driver.sv(261) @ 2055000: uvm_test_top.env.slave_agent.drv [axi4_slave_driver] Write complete: ID=0x7 ADDR=0xf4fb9eba RESP=AXI4_RESP_DECERR  97 beats processed
# UVM_INFO ../src/slv/axi4_slave_monitor.sv(189) @ 2055000: uvm_test_top.env.slave_agent.mon [axi4_slave_monitor] Write response sent: ID=0x7 ADDR=0xf4fb9eba RESP=AXI4_RESP_DECERR
# UVM_INFO ../src/env/axi4_scoreboard.sv(103) @ 2055000: uvm_test_top.env.scb [axi4_scoreboard] Slave AXI4_WRITE received: ID=0x7 ADDR=0xf4fb9eba LEN=96
# UVM_INFO ../src/mst/axi4_master_monitor.sv(210) @ 2055000: uvm_test_top.env.master_agent.mon [axi4_master_monitor] Write complete: ID=0x7 ADDR=0xf4fb9eba RESP=AXI4_RESP_DECERR
# UVM_INFO ../src/env/axi4_scoreboard.sv(82) @ 2055000: uvm_test_top.env.scb [axi4_scoreboard] Master AXI4_WRITE received: ID=0x7 ADDR=0xf4fb9eba LEN=96
# UVM_INFO ../src/env/axi4_scoreboard.sv(154) @ 2055000: uvm_test_top.env.scb [axi4_scoreboard] [WRITE] MATCH #1: ID=0x7 ADDR=0xf4fb9eba LEN=96
# UVM_INFO ../src/seq/axi4_outstanding_seq.sv(71) @ 2055000: uvm_test_top.env.master_agent.sqr@@outstanding_seq [axi4_outstanding_seq] Outstanding Write [#3] complete: ID=0x7
# UVM_INFO ../src/seq/axi4_outstanding_seq.sv(65) @ 2055000: uvm_test_top.env.master_agent.sqr@@outstanding_seq [axi4_outstanding_seq] Outstanding Write [#2] started: ID=0x4 ADDR=0x036603b8 LEN=98
# UVM_INFO ../src/mst/axi4_master_driver.sv(55) @ 2055000: uvm_test_top.env.master_agent.drv [axi4_master_driver] Driving AXI4_WRITE  ID=0x4  ADDR=0x036603b8  LEN=98
# UVM_INFO ../src/mst/axi4_master_driver.sv(101) @ 2055000: uvm_test_top.env.master_agent.drv [axi4_master_driver] Write order: AW -> W (sequential)
# UVM_INFO ../src/slv/axi4_slave_driver.sv(165) @ 2085000: uvm_test_top.env.slave_agent.drv [axi4_slave_driver] AW received: ID=0x4 ADDR=0x036603b8 LEN=98 LOCK=AXI4_LOCK_EXCLUSIVE
# UVM_INFO ../src/mst/axi4_master_monitor.sv(124) @ 2085000: uvm_test_top.env.master_agent.mon [axi4_master_monitor] AW observed: ID=0x4 ADDR=0x036603b8 LEN=98
# UVM_INFO ../src/slv/axi4_slave_monitor.sv(116) @ 2085000: uvm_test_top.env.slave_agent.mon [axi4_slave_monitor] AW received: ID=0x4 ADDR=0x036603b8 LEN=98
# UVM_INFO ../src/mst/axi4_master_monitor.sv(184) @ 4065000: uvm_test_top.env.master_agent.mon [axi4_master_monitor] W data assembled: ID=0x4 ADDR=0x036603b8 99 beats
# UVM_INFO ../src/slv/axi4_slave_monitor.sv(167) @ 4065000: uvm_test_top.env.slave_agent.mon [axi4_slave_monitor] W data assembled: ID=0x4 ADDR=0x036603b8 99 beats
# UVM_INFO ../src/mst/axi4_master_driver.sv(197) @ 4095000: uvm_test_top.env.master_agent.drv [axi4_master_driver] Write response: AXI4_RESP_OKAY
# UVM_INFO ../src/slv/axi4_slave_driver.sv(261) @ 4095000: uvm_test_top.env.slave_agent.drv [axi4_slave_driver] Write complete: ID=0x4 ADDR=0x036603b8 RESP=AXI4_RESP_OKAY  99 beats processed
# UVM_INFO ../src/slv/axi4_slave_monitor.sv(189) @ 4095000: uvm_test_top.env.slave_agent.mon [axi4_slave_monitor] Write response sent: ID=0x4 ADDR=0x036603b8 RESP=AXI4_RESP_OKAY
# UVM_INFO ../src/env/axi4_scoreboard.sv(103) @ 4095000: uvm_test_top.env.scb [axi4_scoreboard] Slave AXI4_WRITE received: ID=0x4 ADDR=0x036603b8 LEN=98
# UVM_INFO ../src/mst/axi4_master_monitor.sv(210) @ 4095000: uvm_test_top.env.master_agent.mon [axi4_master_monitor] Write complete: ID=0x4 ADDR=0x036603b8 RESP=AXI4_RESP_OKAY
# UVM_INFO ../src/env/axi4_scoreboard.sv(82) @ 4095000: uvm_test_top.env.scb [axi4_scoreboard] Master AXI4_WRITE received: ID=0x4 ADDR=0x036603b8 LEN=98
# UVM_INFO ../src/env/axi4_scoreboard.sv(154) @ 4095000: uvm_test_top.env.scb [axi4_scoreboard] [WRITE] MATCH #2: ID=0x4 ADDR=0x036603b8 LEN=98
# UVM_INFO ../src/seq/axi4_outstanding_seq.sv(71) @ 4095000: uvm_test_top.env.master_agent.sqr@@outstanding_seq [axi4_outstanding_seq] Outstanding Write [#2] complete: ID=0x4
# UVM_INFO ../src/seq/axi4_outstanding_seq.sv(65) @ 4095000: uvm_test_top.env.master_agent.sqr@@outstanding_seq [axi4_outstanding_seq] Outstanding Write [#1] started: ID=0x9 ADDR=0x4dab1fd9 LEN=101
# UVM_INFO ../src/mst/axi4_master_driver.sv(55) @ 4095000: uvm_test_top.env.master_agent.drv [axi4_master_driver] Driving AXI4_WRITE  ID=0x9  ADDR=0x4dab1fd9  LEN=101
# UVM_INFO ../src/mst/axi4_master_driver.sv(94) @ 4095000: uvm_test_top.env.master_agent.drv [axi4_master_driver] Write order: AW || W (parallel)
# UVM_INFO ../src/slv/axi4_slave_driver.sv(165) @ 4125000: uvm_test_top.env.slave_agent.drv [axi4_slave_driver] AW received: ID=0x9 ADDR=0x4dab1fd9 LEN=101 LOCK=AXI4_LOCK_NORMAL
# UVM_INFO ../src/mst/axi4_master_monitor.sv(124) @ 4125000: uvm_test_top.env.master_agent.mon [axi4_master_monitor] AW observed: ID=0x9 ADDR=0x4dab1fd9 LEN=101
# UVM_INFO ../src/slv/axi4_slave_monitor.sv(116) @ 4125000: uvm_test_top.env.slave_agent.mon [axi4_slave_monitor] AW received: ID=0x9 ADDR=0x4dab1fd9 LEN=101
# UVM_INFO ../src/slv/axi4_slave_monitor.sv(167) @ 6135000: uvm_test_top.env.slave_agent.mon [axi4_slave_monitor] W data assembled: ID=0x9 ADDR=0x4dab1fd9 102 beats
# UVM_INFO ../src/mst/axi4_master_monitor.sv(184) @ 6135000: uvm_test_top.env.master_agent.mon [axi4_master_monitor] W data assembled: ID=0x9 ADDR=0x4dab1fd9 102 beats
# UVM_INFO ../src/mst/axi4_master_driver.sv(197) @ 6165000: uvm_test_top.env.master_agent.drv [axi4_master_driver] Write response: AXI4_RESP_OKAY
# UVM_INFO ../src/slv/axi4_slave_driver.sv(261) @ 6165000: uvm_test_top.env.slave_agent.drv [axi4_slave_driver] Write complete: ID=0x9 ADDR=0x4dab1fd9 RESP=AXI4_RESP_OKAY  102 beats processed
# UVM_INFO ../src/mst/axi4_master_monitor.sv(210) @ 6165000: uvm_test_top.env.master_agent.mon [axi4_master_monitor] Write complete: ID=0x9 ADDR=0x4dab1fd9 RESP=AXI4_RESP_OKAY
# UVM_INFO ../src/env/axi4_scoreboard.sv(82) @ 6165000: uvm_test_top.env.scb [axi4_scoreboard] Master AXI4_WRITE received: ID=0x9 ADDR=0x4dab1fd9 LEN=101
# UVM_INFO ../src/slv/axi4_slave_monitor.sv(189) @ 6165000: uvm_test_top.env.slave_agent.mon [axi4_slave_monitor] Write response sent: ID=0x9 ADDR=0x4dab1fd9 RESP=AXI4_RESP_OKAY
# UVM_INFO ../src/env/axi4_scoreboard.sv(103) @ 6165000: uvm_test_top.env.scb [axi4_scoreboard] Slave AXI4_WRITE received: ID=0x9 ADDR=0x4dab1fd9 LEN=101
# UVM_INFO ../src/env/axi4_scoreboard.sv(154) @ 6165000: uvm_test_top.env.scb [axi4_scoreboard] [WRITE] MATCH #3: ID=0x9 ADDR=0x4dab1fd9 LEN=101
# UVM_INFO ../src/seq/axi4_outstanding_seq.sv(71) @ 6165000: uvm_test_top.env.master_agent.sqr@@outstanding_seq [axi4_outstanding_seq] Outstanding Write [#1] complete: ID=0x9
# UVM_INFO ../src/seq/axi4_outstanding_seq.sv(65) @ 6165000: uvm_test_top.env.master_agent.sqr@@outstanding_seq [axi4_outstanding_seq] Outstanding Write [#0] started: ID=0xc ADDR=0x4e5ca3a5 LEN=230
# UVM_INFO ../src/mst/axi4_master_driver.sv(55) @ 6165000: uvm_test_top.env.master_agent.drv [axi4_master_driver] Driving AXI4_WRITE  ID=0xc  ADDR=0x4e5ca3a5  LEN=230
# UVM_INFO ../src/mst/axi4_master_driver.sv(101) @ 6165000: uvm_test_top.env.master_agent.drv [axi4_master_driver] Write order: AW -> W (sequential)
# UVM_INFO ../src/slv/axi4_slave_driver.sv(165) @ 6195000: uvm_test_top.env.slave_agent.drv [axi4_slave_driver] AW received: ID=0xc ADDR=0x4e5ca3a5 LEN=230 LOCK=AXI4_LOCK_NORMAL
# UVM_INFO ../src/slv/axi4_slave_monitor.sv(116) @ 6195000: uvm_test_top.env.slave_agent.mon [axi4_slave_monitor] AW received: ID=0xc ADDR=0x4e5ca3a5 LEN=230
# UVM_INFO ../src/mst/axi4_master_monitor.sv(124) @ 6195000: uvm_test_top.env.master_agent.mon [axi4_master_monitor] AW observed: ID=0xc ADDR=0x4e5ca3a5 LEN=230
# UVM_INFO ../src/slv/axi4_slave_monitor.sv(167) @ 10815000: uvm_test_top.env.slave_agent.mon [axi4_slave_monitor] W data assembled: ID=0xc ADDR=0x4e5ca3a5 231 beats
# UVM_INFO ../src/mst/axi4_master_monitor.sv(184) @ 10815000: uvm_test_top.env.master_agent.mon [axi4_master_monitor] W data assembled: ID=0xc ADDR=0x4e5ca3a5 231 beats
# UVM_INFO ../src/mst/axi4_master_driver.sv(197) @ 10845000: uvm_test_top.env.master_agent.drv [axi4_master_driver] Write response: AXI4_RESP_OKAY
# UVM_INFO ../src/slv/axi4_slave_driver.sv(261) @ 10845000: uvm_test_top.env.slave_agent.drv [axi4_slave_driver] Write complete: ID=0xc ADDR=0x4e5ca3a5 RESP=AXI4_RESP_OKAY  231 beats processed
# UVM_INFO ../src/mst/axi4_master_monitor.sv(210) @ 10845000: uvm_test_top.env.master_agent.mon [axi4_master_monitor] Write complete: ID=0xc ADDR=0x4e5ca3a5 RESP=AXI4_RESP_OKAY
# UVM_INFO ../src/env/axi4_scoreboard.sv(82) @ 10845000: uvm_test_top.env.scb [axi4_scoreboard] Master AXI4_WRITE received: ID=0xc ADDR=0x4e5ca3a5 LEN=230
# UVM_INFO ../src/slv/axi4_slave_monitor.sv(189) @ 10845000: uvm_test_top.env.slave_agent.mon [axi4_slave_monitor] Write response sent: ID=0xc ADDR=0x4e5ca3a5 RESP=AXI4_RESP_OKAY
# UVM_INFO ../src/env/axi4_scoreboard.sv(103) @ 10845000: uvm_test_top.env.scb [axi4_scoreboard] Slave AXI4_WRITE received: ID=0xc ADDR=0x4e5ca3a5 LEN=230
# UVM_INFO ../src/env/axi4_scoreboard.sv(154) @ 10845000: uvm_test_top.env.scb [axi4_scoreboard] [WRITE] MATCH #4: ID=0xc ADDR=0x4e5ca3a5 LEN=230
# UVM_INFO ../src/seq/axi4_outstanding_seq.sv(71) @ 10845000: uvm_test_top.env.master_agent.sqr@@outstanding_seq [axi4_outstanding_seq] Outstanding Write [#0] complete: ID=0xc
# UVM_INFO ../src/seq/axi4_outstanding_seq.sv(100) @ 10845000: uvm_test_top.env.master_agent.sqr@@outstanding_seq [axi4_outstanding_seq] Outstanding Read [#3] started: ID=0xc ADDR=0xf4312e9b LEN=117
# UVM_INFO ../src/mst/axi4_master_driver.sv(55) @ 10845000: uvm_test_top.env.master_agent.drv [axi4_master_driver] Driving AXI4_READ  ID=0xc  ADDR=0xf4312e9b  LEN=117
# UVM_INFO ../src/slv/axi4_slave_driver.sv(300) @ 10875000: uvm_test_top.env.slave_agent.drv [axi4_slave_driver] AR received: ID=0xc ADDR=0xf4312e9b LEN=117 LOCK=AXI4_LOCK_NORMAL
# UVM_INFO ../src/slv/axi4_slave_monitor.sv(224) @ 10875000: uvm_test_top.env.slave_agent.mon [axi4_slave_monitor] AR received: ID=0xc ADDR=0xf4312e9b LEN=117
# UVM_INFO ../src/mst/axi4_master_monitor.sv(246) @ 10875000: uvm_test_top.env.master_agent.mon [axi4_master_monitor] AR observed: ID=0xc ADDR=0xf4312e9b LEN=117
# UVM_INFO ../src/mst/axi4_master_driver.sv(254) @ 13235000: uvm_test_top.env.master_agent.drv [axi4_master_driver] Read complete: 118 beats received
# UVM_INFO ../src/slv/axi4_slave_driver.sv(349) @ 13235000: uvm_test_top.env.slave_agent.drv [axi4_slave_driver] Read complete: ID=0xc ADDR=0xf4312e9b RESP=AXI4_RESP_DECERR  118 beats sent
# UVM_INFO ../src/slv/axi4_slave_monitor.sv(287) @ 13235000: uvm_test_top.env.slave_agent.mon [axi4_slave_monitor] Read data sent: ID=0xc ADDR=0xf4312e9b 118 beats
# UVM_INFO ../src/env/axi4_scoreboard.sv(103) @ 13235000: uvm_test_top.env.scb [axi4_scoreboard] Slave AXI4_READ received: ID=0xc ADDR=0xf4312e9b LEN=117
# UVM_INFO ../src/mst/axi4_master_monitor.sv(314) @ 13235000: uvm_test_top.env.master_agent.mon [axi4_master_monitor] Read complete: ID=0xc ADDR=0xf4312e9b 118 beats
# UVM_INFO ../src/env/axi4_scoreboard.sv(82) @ 13235000: uvm_test_top.env.scb [axi4_scoreboard] Master AXI4_READ received: ID=0xc ADDR=0xf4312e9b LEN=117
# UVM_INFO ../src/env/axi4_scoreboard.sv(154) @ 13235000: uvm_test_top.env.scb [axi4_scoreboard] [READ] MATCH #5: ID=0xc ADDR=0xf4312e9b LEN=117
# UVM_INFO ../src/seq/axi4_outstanding_seq.sv(106) @ 13235000: uvm_test_top.env.master_agent.sqr@@outstanding_seq [axi4_outstanding_seq] Outstanding Read [#3] complete: ID=0xc
# UVM_INFO ../src/seq/axi4_outstanding_seq.sv(100) @ 13235000: uvm_test_top.env.master_agent.sqr@@outstanding_seq [axi4_outstanding_seq] Outstanding Read [#2] started: ID=0x3 ADDR=0x9dd27d89 LEN=14
# UVM_INFO ../src/mst/axi4_master_driver.sv(55) @ 13235000: uvm_test_top.env.master_agent.drv [axi4_master_driver] Driving AXI4_READ  ID=0x3  ADDR=0x9dd27d89  LEN=14
# UVM_INFO ../src/slv/axi4_slave_driver.sv(300) @ 13265000: uvm_test_top.env.slave_agent.drv [axi4_slave_driver] AR received: ID=0x3 ADDR=0x9dd27d89 LEN=14 LOCK=AXI4_LOCK_NORMAL
# UVM_INFO ../src/mst/axi4_master_monitor.sv(246) @ 13265000: uvm_test_top.env.master_agent.mon [axi4_master_monitor] AR observed: ID=0x3 ADDR=0x9dd27d89 LEN=14
# UVM_INFO ../src/slv/axi4_slave_monitor.sv(224) @ 13265000: uvm_test_top.env.slave_agent.mon [axi4_slave_monitor] AR received: ID=0x3 ADDR=0x9dd27d89 LEN=14
# UVM_INFO ../src/mst/axi4_master_driver.sv(254) @ 13565000: uvm_test_top.env.master_agent.drv [axi4_master_driver] Read complete: 15 beats received
# UVM_INFO ../src/slv/axi4_slave_driver.sv(349) @ 13565000: uvm_test_top.env.slave_agent.drv [axi4_slave_driver] Read complete: ID=0x3 ADDR=0x9dd27d89 RESP=AXI4_RESP_OKAY  15 beats sent
# UVM_INFO ../src/mst/axi4_master_monitor.sv(314) @ 13565000: uvm_test_top.env.master_agent.mon [axi4_master_monitor] Read complete: ID=0x3 ADDR=0x9dd27d89 15 beats
# UVM_INFO ../src/env/axi4_scoreboard.sv(82) @ 13565000: uvm_test_top.env.scb [axi4_scoreboard] Master AXI4_READ received: ID=0x3 ADDR=0x9dd27d89 LEN=14
# UVM_INFO ../src/slv/axi4_slave_monitor.sv(287) @ 13565000: uvm_test_top.env.slave_agent.mon [axi4_slave_monitor] Read data sent: ID=0x3 ADDR=0x9dd27d89 15 beats
# UVM_INFO ../src/env/axi4_scoreboard.sv(103) @ 13565000: uvm_test_top.env.scb [axi4_scoreboard] Slave AXI4_READ received: ID=0x3 ADDR=0x9dd27d89 LEN=14
# UVM_INFO ../src/env/axi4_scoreboard.sv(154) @ 13565000: uvm_test_top.env.scb [axi4_scoreboard] [READ] MATCH #6: ID=0x3 ADDR=0x9dd27d89 LEN=14
# UVM_INFO ../src/seq/axi4_outstanding_seq.sv(106) @ 13565000: uvm_test_top.env.master_agent.sqr@@outstanding_seq [axi4_outstanding_seq] Outstanding Read [#2] complete: ID=0x3
# UVM_INFO ../src/seq/axi4_outstanding_seq.sv(100) @ 13565000: uvm_test_top.env.master_agent.sqr@@outstanding_seq [axi4_outstanding_seq] Outstanding Read [#1] started: ID=0x0 ADDR=0x0b7b89a7 LEN=242
# UVM_INFO ../src/mst/axi4_master_driver.sv(55) @ 13565000: uvm_test_top.env.master_agent.drv [axi4_master_driver] Driving AXI4_READ  ID=0x0  ADDR=0x0b7b89a7  LEN=242
# UVM_INFO ../src/slv/axi4_slave_driver.sv(300) @ 13595000: uvm_test_top.env.slave_agent.drv [axi4_slave_driver] AR received: ID=0x0 ADDR=0x0b7b89a7 LEN=242 LOCK=AXI4_LOCK_EXCLUSIVE
# UVM_INFO ../src/slv/axi4_slave_monitor.sv(224) @ 13595000: uvm_test_top.env.slave_agent.mon [axi4_slave_monitor] AR received: ID=0x0 ADDR=0x0b7b89a7 LEN=242
# UVM_INFO ../src/mst/axi4_master_monitor.sv(246) @ 13595000: uvm_test_top.env.master_agent.mon [axi4_master_monitor] AR observed: ID=0x0 ADDR=0x0b7b89a7 LEN=242
# UVM_INFO ../src/mst/axi4_master_driver.sv(254) @ 18455000: uvm_test_top.env.master_agent.drv [axi4_master_driver] Read complete: 243 beats received
# UVM_INFO ../src/slv/axi4_slave_driver.sv(349) @ 18455000: uvm_test_top.env.slave_agent.drv [axi4_slave_driver] Read complete: ID=0x0 ADDR=0x0b7b89a7 RESP=AXI4_RESP_EXOKAY  243 beats sent
# UVM_INFO ../src/slv/axi4_slave_monitor.sv(287) @ 18455000: uvm_test_top.env.slave_agent.mon [axi4_slave_monitor] Read data sent: ID=0x0 ADDR=0x0b7b89a7 243 beats
# UVM_INFO ../src/env/axi4_scoreboard.sv(103) @ 18455000: uvm_test_top.env.scb [axi4_scoreboard] Slave AXI4_READ received: ID=0x0 ADDR=0x0b7b89a7 LEN=242
# UVM_INFO ../src/mst/axi4_master_monitor.sv(314) @ 18455000: uvm_test_top.env.master_agent.mon [axi4_master_monitor] Read complete: ID=0x0 ADDR=0x0b7b89a7 243 beats
# UVM_INFO ../src/env/axi4_scoreboard.sv(82) @ 18455000: uvm_test_top.env.scb [axi4_scoreboard] Master AXI4_READ received: ID=0x0 ADDR=0x0b7b89a7 LEN=242
# UVM_INFO ../src/env/axi4_scoreboard.sv(154) @ 18455000: uvm_test_top.env.scb [axi4_scoreboard] [READ] MATCH #7: ID=0x0 ADDR=0x0b7b89a7 LEN=242
# UVM_INFO ../src/seq/axi4_outstanding_seq.sv(106) @ 18455000: uvm_test_top.env.master_agent.sqr@@outstanding_seq [axi4_outstanding_seq] Outstanding Read [#1] complete: ID=0x0
# UVM_INFO ../src/seq/axi4_outstanding_seq.sv(100) @ 18455000: uvm_test_top.env.master_agent.sqr@@outstanding_seq [axi4_outstanding_seq] Outstanding Read [#0] started: ID=0x7 ADDR=0xb37f7b5d LEN=23
# UVM_INFO ../src/mst/axi4_master_driver.sv(55) @ 18455000: uvm_test_top.env.master_agent.drv [axi4_master_driver] Driving AXI4_READ  ID=0x7  ADDR=0xb37f7b5d  LEN=23
# UVM_INFO ../src/slv/axi4_slave_driver.sv(300) @ 18485000: uvm_test_top.env.slave_agent.drv [axi4_slave_driver] AR received: ID=0x7 ADDR=0xb37f7b5d LEN=23 LOCK=AXI4_LOCK_EXCLUSIVE
# UVM_INFO ../src/mst/axi4_master_monitor.sv(246) @ 18485000: uvm_test_top.env.master_agent.mon [axi4_master_monitor] AR observed: ID=0x7 ADDR=0xb37f7b5d LEN=23
# UVM_INFO ../src/slv/axi4_slave_monitor.sv(224) @ 18485000: uvm_test_top.env.slave_agent.mon [axi4_slave_monitor] AR received: ID=0x7 ADDR=0xb37f7b5d LEN=23
# UVM_INFO ../src/mst/axi4_master_driver.sv(254) @ 18965000: uvm_test_top.env.master_agent.drv [axi4_master_driver] Read complete: 24 beats received
# UVM_INFO ../src/slv/axi4_slave_driver.sv(349) @ 18965000: uvm_test_top.env.slave_agent.drv [axi4_slave_driver] Read complete: ID=0x7 ADDR=0xb37f7b5d RESP=AXI4_RESP_EXOKAY  24 beats sent
# UVM_INFO ../src/mst/axi4_master_monitor.sv(314) @ 18965000: uvm_test_top.env.master_agent.mon [axi4_master_monitor] Read complete: ID=0x7 ADDR=0xb37f7b5d 24 beats
# UVM_INFO ../src/env/axi4_scoreboard.sv(82) @ 18965000: uvm_test_top.env.scb [axi4_scoreboard] Master AXI4_READ received: ID=0x7 ADDR=0xb37f7b5d LEN=23
# UVM_INFO ../src/slv/axi4_slave_monitor.sv(287) @ 18965000: uvm_test_top.env.slave_agent.mon [axi4_slave_monitor] Read data sent: ID=0x7 ADDR=0xb37f7b5d 24 beats
# UVM_INFO ../src/env/axi4_scoreboard.sv(103) @ 18965000: uvm_test_top.env.scb [axi4_scoreboard] Slave AXI4_READ received: ID=0x7 ADDR=0xb37f7b5d LEN=23
# UVM_INFO ../src/env/axi4_scoreboard.sv(154) @ 18965000: uvm_test_top.env.scb [axi4_scoreboard] [READ] MATCH #8: ID=0x7 ADDR=0xb37f7b5d LEN=23
# UVM_INFO ../src/seq/axi4_outstanding_seq.sv(106) @ 18965000: uvm_test_top.env.master_agent.sqr@@outstanding_seq [axi4_outstanding_seq] Outstanding Read [#0] complete: ID=0x7
# UVM_INFO ../src/seq/axi4_outstanding_seq.sv(65) @ 18965000: uvm_test_top.env.master_agent.sqr@@outstanding_seq [axi4_outstanding_seq] Outstanding Write [#4] started: ID=0x6 ADDR=0xc9d3bcc1 LEN=140
# UVM_INFO ../src/mst/axi4_master_driver.sv(55) @ 18965000: uvm_test_top.env.master_agent.drv [axi4_master_driver] Driving AXI4_WRITE  ID=0x6  ADDR=0xc9d3bcc1  LEN=140
# UVM_INFO ../src/mst/axi4_master_driver.sv(94) @ 18965000: uvm_test_top.env.master_agent.drv [axi4_master_driver] Write order: AW || W (parallel)
# UVM_INFO ../src/slv/axi4_slave_driver.sv(165) @ 18995000: uvm_test_top.env.slave_agent.drv [axi4_slave_driver] AW received: ID=0x6 ADDR=0xc9d3bcc1 LEN=140 LOCK=AXI4_LOCK_NORMAL
# UVM_INFO ../src/slv/axi4_slave_monitor.sv(116) @ 18995000: uvm_test_top.env.slave_agent.mon [axi4_slave_monitor] AW received: ID=0x6 ADDR=0xc9d3bcc1 LEN=140
# UVM_INFO ../src/mst/axi4_master_monitor.sv(124) @ 18995000: uvm_test_top.env.master_agent.mon [axi4_master_monitor] AW observed: ID=0x6 ADDR=0xc9d3bcc1 LEN=140
# UVM_INFO ../src/mst/axi4_master_monitor.sv(184) @ 21785000: uvm_test_top.env.master_agent.mon [axi4_master_monitor] W data assembled: ID=0x6 ADDR=0xc9d3bcc1 141 beats
# UVM_INFO ../src/slv/axi4_slave_monitor.sv(167) @ 21785000: uvm_test_top.env.slave_agent.mon [axi4_slave_monitor] W data assembled: ID=0x6 ADDR=0xc9d3bcc1 141 beats
# UVM_INFO ../src/mst/axi4_master_driver.sv(197) @ 21815000: uvm_test_top.env.master_agent.drv [axi4_master_driver] Write response: AXI4_RESP_OKAY
# UVM_INFO ../src/slv/axi4_slave_driver.sv(261) @ 21815000: uvm_test_top.env.slave_agent.drv [axi4_slave_driver] Write complete: ID=0x6 ADDR=0xc9d3bcc1 RESP=AXI4_RESP_OKAY  141 beats processed
# UVM_INFO ../src/slv/axi4_slave_monitor.sv(189) @ 21815000: uvm_test_top.env.slave_agent.mon [axi4_slave_monitor] Write response sent: ID=0x6 ADDR=0xc9d3bcc1 RESP=AXI4_RESP_OKAY
# UVM_INFO ../src/env/axi4_scoreboard.sv(103) @ 21815000: uvm_test_top.env.scb [axi4_scoreboard] Slave AXI4_WRITE received: ID=0x6 ADDR=0xc9d3bcc1 LEN=140
# UVM_INFO ../src/mst/axi4_master_monitor.sv(210) @ 21815000: uvm_test_top.env.master_agent.mon [axi4_master_monitor] Write complete: ID=0x6 ADDR=0xc9d3bcc1 RESP=AXI4_RESP_OKAY
# UVM_INFO ../src/env/axi4_scoreboard.sv(82) @ 21815000: uvm_test_top.env.scb [axi4_scoreboard] Master AXI4_WRITE received: ID=0x6 ADDR=0xc9d3bcc1 LEN=140
# UVM_INFO ../src/env/axi4_scoreboard.sv(154) @ 21815000: uvm_test_top.env.scb [axi4_scoreboard] [WRITE] MATCH #9: ID=0x6 ADDR=0xc9d3bcc1 LEN=140
# UVM_INFO ../src/seq/axi4_outstanding_seq.sv(71) @ 21815000: uvm_test_top.env.master_agent.sqr@@outstanding_seq [axi4_outstanding_seq] Outstanding Write [#4] complete: ID=0x6
# UVM_INFO ../src/seq/axi4_outstanding_seq.sv(65) @ 21815000: uvm_test_top.env.master_agent.sqr@@outstanding_seq [axi4_outstanding_seq] Outstanding Write [#5] started: ID=0x8 ADDR=0xe7fa4242 LEN=104
# UVM_INFO ../src/mst/axi4_master_driver.sv(55) @ 21815000: uvm_test_top.env.master_agent.drv [axi4_master_driver] Driving AXI4_WRITE  ID=0x8  ADDR=0xe7fa4242  LEN=104
# UVM_INFO ../src/mst/axi4_master_driver.sv(94) @ 21815000: uvm_test_top.env.master_agent.drv [axi4_master_driver] Write order: AW || W (parallel)
# UVM_INFO ../src/slv/axi4_slave_driver.sv(165) @ 21845000: uvm_test_top.env.slave_agent.drv [axi4_slave_driver] AW received: ID=0x8 ADDR=0xe7fa4242 LEN=104 LOCK=AXI4_LOCK_EXCLUSIVE
# UVM_INFO ../src/mst/axi4_master_monitor.sv(124) @ 21845000: uvm_test_top.env.master_agent.mon [axi4_master_monitor] AW observed: ID=0x8 ADDR=0xe7fa4242 LEN=104
# UVM_INFO ../src/slv/axi4_slave_monitor.sv(116) @ 21845000: uvm_test_top.env.slave_agent.mon [axi4_slave_monitor] AW received: ID=0x8 ADDR=0xe7fa4242 LEN=104
# UVM_INFO ../src/slv/axi4_slave_monitor.sv(167) @ 23915000: uvm_test_top.env.slave_agent.mon [axi4_slave_monitor] W data assembled: ID=0x8 ADDR=0xe7fa4242 105 beats
# UVM_INFO ../src/mst/axi4_master_monitor.sv(184) @ 23915000: uvm_test_top.env.master_agent.mon [axi4_master_monitor] W data assembled: ID=0x8 ADDR=0xe7fa4242 105 beats
# UVM_INFO ../src/mst/axi4_master_driver.sv(197) @ 23945000: uvm_test_top.env.master_agent.drv [axi4_master_driver] Write response: AXI4_RESP_SLVERR
# UVM_INFO ../src/slv/axi4_slave_driver.sv(261) @ 23945000: uvm_test_top.env.slave_agent.drv [axi4_slave_driver] Write complete: ID=0x8 ADDR=0xe7fa4242 RESP=AXI4_RESP_SLVERR  105 beats processed
# UVM_INFO ../src/mst/axi4_master_monitor.sv(210) @ 23945000: uvm_test_top.env.master_agent.mon [axi4_master_monitor] Write complete: ID=0x8 ADDR=0xe7fa4242 RESP=AXI4_RESP_SLVERR
# UVM_INFO ../src/env/axi4_scoreboard.sv(82) @ 23945000: uvm_test_top.env.scb [axi4_scoreboard] Master AXI4_WRITE received: ID=0x8 ADDR=0xe7fa4242 LEN=104
# UVM_INFO ../src/slv/axi4_slave_monitor.sv(189) @ 23945000: uvm_test_top.env.slave_agent.mon [axi4_slave_monitor] Write response sent: ID=0x8 ADDR=0xe7fa4242 RESP=AXI4_RESP_SLVERR
# UVM_INFO ../src/env/axi4_scoreboard.sv(103) @ 23945000: uvm_test_top.env.scb [axi4_scoreboard] Slave AXI4_WRITE received: ID=0x8 ADDR=0xe7fa4242 LEN=104
# UVM_INFO ../src/env/axi4_scoreboard.sv(154) @ 23945000: uvm_test_top.env.scb [axi4_scoreboard] [WRITE] MATCH #10: ID=0x8 ADDR=0xe7fa4242 LEN=104
# UVM_INFO ../src/seq/axi4_outstanding_seq.sv(71) @ 23945000: uvm_test_top.env.master_agent.sqr@@outstanding_seq [axi4_outstanding_seq] Outstanding Write [#5] complete: ID=0x8
# UVM_INFO ../src/seq/axi4_outstanding_seq.sv(65) @ 23945000: uvm_test_top.env.master_agent.sqr@@outstanding_seq [axi4_outstanding_seq] Outstanding Write [#6] started: ID=0x2 ADDR=0x9d812eb7 LEN=176
# UVM_INFO ../src/mst/axi4_master_driver.sv(55) @ 23945000: uvm_test_top.env.master_agent.drv [axi4_master_driver] Driving AXI4_WRITE  ID=0x2  ADDR=0x9d812eb7  LEN=176
# UVM_INFO ../src/mst/axi4_master_driver.sv(101) @ 23945000: uvm_test_top.env.master_agent.drv [axi4_master_driver] Write order: AW -> W (sequential)
# UVM_INFO ../src/slv/axi4_slave_driver.sv(165) @ 23975000: uvm_test_top.env.slave_agent.drv [axi4_slave_driver] AW received: ID=0x2 ADDR=0x9d812eb7 LEN=176 LOCK=AXI4_LOCK_EXCLUSIVE
# UVM_INFO ../src/slv/axi4_slave_monitor.sv(116) @ 23975000: uvm_test_top.env.slave_agent.mon [axi4_slave_monitor] AW received: ID=0x2 ADDR=0x9d812eb7 LEN=176
# UVM_INFO ../src/mst/axi4_master_monitor.sv(124) @ 23975000: uvm_test_top.env.master_agent.mon [axi4_master_monitor] AW observed: ID=0x2 ADDR=0x9d812eb7 LEN=176
# UVM_INFO ../src/slv/axi4_slave_monitor.sv(167) @ 27515000: uvm_test_top.env.slave_agent.mon [axi4_slave_monitor] W data assembled: ID=0x2 ADDR=0x9d812eb7 177 beats
# UVM_INFO ../src/mst/axi4_master_monitor.sv(184) @ 27515000: uvm_test_top.env.master_agent.mon [axi4_master_monitor] W data assembled: ID=0x2 ADDR=0x9d812eb7 177 beats
# UVM_INFO ../src/mst/axi4_master_driver.sv(197) @ 27545000: uvm_test_top.env.master_agent.drv [axi4_master_driver] Write response: AXI4_RESP_OKAY
# UVM_INFO ../src/slv/axi4_slave_driver.sv(261) @ 27545000: uvm_test_top.env.slave_agent.drv [axi4_slave_driver] Write complete: ID=0x2 ADDR=0x9d812eb7 RESP=AXI4_RESP_OKAY  177 beats processed
# UVM_INFO ../src/mst/axi4_master_monitor.sv(210) @ 27545000: uvm_test_top.env.master_agent.mon [axi4_master_monitor] Write complete: ID=0x2 ADDR=0x9d812eb7 RESP=AXI4_RESP_OKAY
# UVM_INFO ../src/env/axi4_scoreboard.sv(82) @ 27545000: uvm_test_top.env.scb [axi4_scoreboard] Master AXI4_WRITE received: ID=0x2 ADDR=0x9d812eb7 LEN=176
# UVM_INFO ../src/slv/axi4_slave_monitor.sv(189) @ 27545000: uvm_test_top.env.slave_agent.mon [axi4_slave_monitor] Write response sent: ID=0x2 ADDR=0x9d812eb7 RESP=AXI4_RESP_OKAY
# UVM_INFO ../src/env/axi4_scoreboard.sv(103) @ 27545000: uvm_test_top.env.scb [axi4_scoreboard] Slave AXI4_WRITE received: ID=0x2 ADDR=0x9d812eb7 LEN=176
# UVM_INFO ../src/env/axi4_scoreboard.sv(154) @ 27545000: uvm_test_top.env.scb [axi4_scoreboard] [WRITE] MATCH #11: ID=0x2 ADDR=0x9d812eb7 LEN=176
# UVM_INFO ../src/seq/axi4_outstanding_seq.sv(71) @ 27545000: uvm_test_top.env.master_agent.sqr@@outstanding_seq [axi4_outstanding_seq] Outstanding Write [#6] complete: ID=0x2
# UVM_INFO ../src/seq/axi4_outstanding_seq.sv(65) @ 27545000: uvm_test_top.env.master_agent.sqr@@outstanding_seq [axi4_outstanding_seq] Outstanding Write [#7] started: ID=0x8 ADDR=0x7b3d9676 LEN=209
# UVM_INFO ../src/mst/axi4_master_driver.sv(55) @ 27545000: uvm_test_top.env.master_agent.drv [axi4_master_driver] Driving AXI4_WRITE  ID=0x8  ADDR=0x7b3d9676  LEN=209
# UVM_INFO ../src/mst/axi4_master_driver.sv(94) @ 27545000: uvm_test_top.env.master_agent.drv [axi4_master_driver] Write order: AW || W (parallel)
# UVM_INFO ../src/slv/axi4_slave_driver.sv(165) @ 27575000: uvm_test_top.env.slave_agent.drv [axi4_slave_driver] AW received: ID=0x8 ADDR=0x7b3d9676 LEN=209 LOCK=AXI4_LOCK_EXCLUSIVE
# UVM_INFO ../src/slv/axi4_slave_monitor.sv(116) @ 27575000: uvm_test_top.env.slave_agent.mon [axi4_slave_monitor] AW received: ID=0x8 ADDR=0x7b3d9676 LEN=209
# UVM_INFO ../src/mst/axi4_master_monitor.sv(124) @ 27575000: uvm_test_top.env.master_agent.mon [axi4_master_monitor] AW observed: ID=0x8 ADDR=0x7b3d9676 LEN=209
# UVM_INFO ../src/mst/axi4_master_monitor.sv(184) @ 31745000: uvm_test_top.env.master_agent.mon [axi4_master_monitor] W data assembled: ID=0x8 ADDR=0x7b3d9676 210 beats
# UVM_INFO ../src/slv/axi4_slave_monitor.sv(167) @ 31745000: uvm_test_top.env.slave_agent.mon [axi4_slave_monitor] W data assembled: ID=0x8 ADDR=0x7b3d9676 210 beats
# UVM_INFO ../src/mst/axi4_master_driver.sv(197) @ 31775000: uvm_test_top.env.master_agent.drv [axi4_master_driver] Write response: AXI4_RESP_OKAY
# UVM_INFO ../src/slv/axi4_slave_driver.sv(261) @ 31775000: uvm_test_top.env.slave_agent.drv [axi4_slave_driver] Write complete: ID=0x8 ADDR=0x7b3d9676 RESP=AXI4_RESP_OKAY  210 beats processed
# UVM_INFO ../src/slv/axi4_slave_monitor.sv(189) @ 31775000: uvm_test_top.env.slave_agent.mon [axi4_slave_monitor] Write response sent: ID=0x8 ADDR=0x7b3d9676 RESP=AXI4_RESP_OKAY
# UVM_INFO ../src/env/axi4_scoreboard.sv(103) @ 31775000: uvm_test_top.env.scb [axi4_scoreboard] Slave AXI4_WRITE received: ID=0x8 ADDR=0x7b3d9676 LEN=209
# UVM_INFO ../src/mst/axi4_master_monitor.sv(210) @ 31775000: uvm_test_top.env.master_agent.mon [axi4_master_monitor] Write complete: ID=0x8 ADDR=0x7b3d9676 RESP=AXI4_RESP_OKAY
# UVM_INFO ../src/env/axi4_scoreboard.sv(82) @ 31775000: uvm_test_top.env.scb [axi4_scoreboard] Master AXI4_WRITE received: ID=0x8 ADDR=0x7b3d9676 LEN=209
# UVM_INFO ../src/env/axi4_scoreboard.sv(154) @ 31775000: uvm_test_top.env.scb [axi4_scoreboard] [WRITE] MATCH #12: ID=0x8 ADDR=0x7b3d9676 LEN=209
# UVM_INFO ../src/seq/axi4_outstanding_seq.sv(71) @ 31775000: uvm_test_top.env.master_agent.sqr@@outstanding_seq [axi4_outstanding_seq] Outstanding Write [#7] complete: ID=0x8
# UVM_INFO ../src/seq/axi4_outstanding_seq.sv(100) @ 31775000: uvm_test_top.env.master_agent.sqr@@outstanding_seq [axi4_outstanding_seq] Outstanding Read [#4] started: ID=0x6 ADDR=0xb5d2e510 LEN=44
# UVM_INFO ../src/mst/axi4_master_driver.sv(55) @ 31775000: uvm_test_top.env.master_agent.drv [axi4_master_driver] Driving AXI4_READ  ID=0x6  ADDR=0xb5d2e510  LEN=44
# UVM_INFO ../src/slv/axi4_slave_driver.sv(300) @ 31805000: uvm_test_top.env.slave_agent.drv [axi4_slave_driver] AR received: ID=0x6 ADDR=0xb5d2e510 LEN=44 LOCK=AXI4_LOCK_NORMAL
# UVM_INFO ../src/mst/axi4_master_monitor.sv(246) @ 31805000: uvm_test_top.env.master_agent.mon [axi4_master_monitor] AR observed: ID=0x6 ADDR=0xb5d2e510 LEN=44
# UVM_INFO ../src/slv/axi4_slave_monitor.sv(224) @ 31805000: uvm_test_top.env.slave_agent.mon [axi4_slave_monitor] AR received: ID=0x6 ADDR=0xb5d2e510 LEN=44
# UVM_INFO ../src/mst/axi4_master_driver.sv(254) @ 32705000: uvm_test_top.env.master_agent.drv [axi4_master_driver] Read complete: 45 beats received
# UVM_INFO ../src/slv/axi4_slave_driver.sv(349) @ 32705000: uvm_test_top.env.slave_agent.drv [axi4_slave_driver] Read complete: ID=0x6 ADDR=0xb5d2e510 RESP=AXI4_RESP_OKAY  45 beats sent
# UVM_INFO ../src/mst/axi4_master_monitor.sv(314) @ 32705000: uvm_test_top.env.master_agent.mon [axi4_master_monitor] Read complete: ID=0x6 ADDR=0xb5d2e510 45 beats
# UVM_INFO ../src/env/axi4_scoreboard.sv(82) @ 32705000: uvm_test_top.env.scb [axi4_scoreboard] Master AXI4_READ received: ID=0x6 ADDR=0xb5d2e510 LEN=44
# UVM_INFO ../src/slv/axi4_slave_monitor.sv(287) @ 32705000: uvm_test_top.env.slave_agent.mon [axi4_slave_monitor] Read data sent: ID=0x6 ADDR=0xb5d2e510 45 beats
# UVM_INFO ../src/env/axi4_scoreboard.sv(103) @ 32705000: uvm_test_top.env.scb [axi4_scoreboard] Slave AXI4_READ received: ID=0x6 ADDR=0xb5d2e510 LEN=44
# UVM_INFO ../src/env/axi4_scoreboard.sv(154) @ 32705000: uvm_test_top.env.scb [axi4_scoreboard] [READ] MATCH #13: ID=0x6 ADDR=0xb5d2e510 LEN=44
# UVM_INFO ../src/seq/axi4_outstanding_seq.sv(106) @ 32705000: uvm_test_top.env.master_agent.sqr@@outstanding_seq [axi4_outstanding_seq] Outstanding Read [#4] complete: ID=0x6
# UVM_INFO ../src/seq/axi4_outstanding_seq.sv(100) @ 32705000: uvm_test_top.env.master_agent.sqr@@outstanding_seq [axi4_outstanding_seq] Outstanding Read [#5] started: ID=0xd ADDR=0xf7f4c0e3 LEN=76
# UVM_INFO ../src/mst/axi4_master_driver.sv(55) @ 32705000: uvm_test_top.env.master_agent.drv [axi4_master_driver] Driving AXI4_READ  ID=0xd  ADDR=0xf7f4c0e3  LEN=76
# UVM_INFO ../src/slv/axi4_slave_driver.sv(300) @ 32735000: uvm_test_top.env.slave_agent.drv [axi4_slave_driver] AR received: ID=0xd ADDR=0xf7f4c0e3 LEN=76 LOCK=AXI4_LOCK_EXCLUSIVE
# UVM_INFO ../src/slv/axi4_slave_monitor.sv(224) @ 32735000: uvm_test_top.env.slave_agent.mon [axi4_slave_monitor] AR received: ID=0xd ADDR=0xf7f4c0e3 LEN=76
# UVM_INFO ../src/mst/axi4_master_monitor.sv(246) @ 32735000: uvm_test_top.env.master_agent.mon [axi4_master_monitor] AR observed: ID=0xd ADDR=0xf7f4c0e3 LEN=76
# UVM_INFO ../src/mst/axi4_master_driver.sv(254) @ 34275000: uvm_test_top.env.master_agent.drv [axi4_master_driver] Read complete: 77 beats received
# UVM_INFO ../src/slv/axi4_slave_driver.sv(349) @ 34275000: uvm_test_top.env.slave_agent.drv [axi4_slave_driver] Read complete: ID=0xd ADDR=0xf7f4c0e3 RESP=AXI4_RESP_DECERR  77 beats sent
# UVM_INFO ../src/slv/axi4_slave_monitor.sv(287) @ 34275000: uvm_test_top.env.slave_agent.mon [axi4_slave_monitor] Read data sent: ID=0xd ADDR=0xf7f4c0e3 77 beats
# UVM_INFO ../src/env/axi4_scoreboard.sv(103) @ 34275000: uvm_test_top.env.scb [axi4_scoreboard] Slave AXI4_READ received: ID=0xd ADDR=0xf7f4c0e3 LEN=76
# UVM_INFO ../src/mst/axi4_master_monitor.sv(314) @ 34275000: uvm_test_top.env.master_agent.mon [axi4_master_monitor] Read complete: ID=0xd ADDR=0xf7f4c0e3 77 beats
# UVM_INFO ../src/env/axi4_scoreboard.sv(82) @ 34275000: uvm_test_top.env.scb [axi4_scoreboard] Master AXI4_READ received: ID=0xd ADDR=0xf7f4c0e3 LEN=76
# UVM_INFO ../src/env/axi4_scoreboard.sv(154) @ 34275000: uvm_test_top.env.scb [axi4_scoreboard] [READ] MATCH #14: ID=0xd ADDR=0xf7f4c0e3 LEN=76
# UVM_INFO ../src/seq/axi4_outstanding_seq.sv(106) @ 34275000: uvm_test_top.env.master_agent.sqr@@outstanding_seq [axi4_outstanding_seq] Outstanding Read [#5] complete: ID=0xd
# UVM_INFO ../src/seq/axi4_outstanding_seq.sv(100) @ 34275000: uvm_test_top.env.master_agent.sqr@@outstanding_seq [axi4_outstanding_seq] Outstanding Read [#6] started: ID=0x0 ADDR=0x01208dfe LEN=7
# UVM_INFO ../src/mst/axi4_master_driver.sv(55) @ 34275000: uvm_test_top.env.master_agent.drv [axi4_master_driver] Driving AXI4_READ  ID=0x0  ADDR=0x01208dfe  LEN=7
# UVM_INFO ../src/slv/axi4_slave_driver.sv(300) @ 34305000: uvm_test_top.env.slave_agent.drv [axi4_slave_driver] AR received: ID=0x0 ADDR=0x01208dfe LEN=7 LOCK=AXI4_LOCK_NORMAL
# UVM_INFO ../src/mst/axi4_master_monitor.sv(246) @ 34305000: uvm_test_top.env.master_agent.mon [axi4_master_monitor] AR observed: ID=0x0 ADDR=0x01208dfe LEN=7
# UVM_INFO ../src/slv/axi4_slave_monitor.sv(224) @ 34305000: uvm_test_top.env.slave_agent.mon [axi4_slave_monitor] AR received: ID=0x0 ADDR=0x01208dfe LEN=7
# UVM_INFO ../src/mst/axi4_master_driver.sv(254) @ 34465000: uvm_test_top.env.master_agent.drv [axi4_master_driver] Read complete: 8 beats received
# UVM_INFO ../src/slv/axi4_slave_driver.sv(349) @ 34465000: uvm_test_top.env.slave_agent.drv [axi4_slave_driver] Read complete: ID=0x0 ADDR=0x01208dfe RESP=AXI4_RESP_OKAY  8 beats sent
# UVM_INFO ../src/mst/axi4_master_monitor.sv(314) @ 34465000: uvm_test_top.env.master_agent.mon [axi4_master_monitor] Read complete: ID=0x0 ADDR=0x01208dfe 8 beats
# UVM_INFO ../src/env/axi4_scoreboard.sv(82) @ 34465000: uvm_test_top.env.scb [axi4_scoreboard] Master AXI4_READ received: ID=0x0 ADDR=0x01208dfe LEN=7
# UVM_INFO ../src/slv/axi4_slave_monitor.sv(287) @ 34465000: uvm_test_top.env.slave_agent.mon [axi4_slave_monitor] Read data sent: ID=0x0 ADDR=0x01208dfe 8 beats
# UVM_INFO ../src/env/axi4_scoreboard.sv(103) @ 34465000: uvm_test_top.env.scb [axi4_scoreboard] Slave AXI4_READ received: ID=0x0 ADDR=0x01208dfe LEN=7
# UVM_INFO ../src/env/axi4_scoreboard.sv(154) @ 34465000: uvm_test_top.env.scb [axi4_scoreboard] [READ] MATCH #15: ID=0x0 ADDR=0x01208dfe LEN=7
# UVM_INFO ../src/seq/axi4_outstanding_seq.sv(106) @ 34465000: uvm_test_top.env.master_agent.sqr@@outstanding_seq [axi4_outstanding_seq] Outstanding Read [#6] complete: ID=0x0
# UVM_INFO ../src/seq/axi4_outstanding_seq.sv(100) @ 34465000: uvm_test_top.env.master_agent.sqr@@outstanding_seq [axi4_outstanding_seq] Outstanding Read [#7] started: ID=0x0 ADDR=0x4044be2c LEN=184
# UVM_INFO ../src/mst/axi4_master_driver.sv(55) @ 34465000: uvm_test_top.env.master_agent.drv [axi4_master_driver] Driving AXI4_READ  ID=0x0  ADDR=0x4044be2c  LEN=184
# UVM_INFO ../src/slv/axi4_slave_driver.sv(300) @ 34495000: uvm_test_top.env.slave_agent.drv [axi4_slave_driver] AR received: ID=0x0 ADDR=0x4044be2c LEN=184 LOCK=AXI4_LOCK_NORMAL
# UVM_INFO ../src/slv/axi4_slave_monitor.sv(224) @ 34495000: uvm_test_top.env.slave_agent.mon [axi4_slave_monitor] AR received: ID=0x0 ADDR=0x4044be2c LEN=184
# UVM_INFO ../src/mst/axi4_master_monitor.sv(246) @ 34495000: uvm_test_top.env.master_agent.mon [axi4_master_monitor] AR observed: ID=0x0 ADDR=0x4044be2c LEN=184
# UVM_INFO ../src/mst/axi4_master_driver.sv(254) @ 38195000: uvm_test_top.env.master_agent.drv [axi4_master_driver] Read complete: 185 beats received
# UVM_INFO ../src/slv/axi4_slave_driver.sv(349) @ 38195000: uvm_test_top.env.slave_agent.drv [axi4_slave_driver] Read complete: ID=0x0 ADDR=0x4044be2c RESP=AXI4_RESP_OKAY  185 beats sent
# UVM_INFO ../src/slv/axi4_slave_monitor.sv(287) @ 38195000: uvm_test_top.env.slave_agent.mon [axi4_slave_monitor] Read data sent: ID=0x0 ADDR=0x4044be2c 185 beats
# UVM_INFO ../src/env/axi4_scoreboard.sv(103) @ 38195000: uvm_test_top.env.scb [axi4_scoreboard] Slave AXI4_READ received: ID=0x0 ADDR=0x4044be2c LEN=184
# UVM_INFO ../src/mst/axi4_master_monitor.sv(314) @ 38195000: uvm_test_top.env.master_agent.mon [axi4_master_monitor] Read complete: ID=0x0 ADDR=0x4044be2c 185 beats
# UVM_INFO ../src/env/axi4_scoreboard.sv(82) @ 38195000: uvm_test_top.env.scb [axi4_scoreboard] Master AXI4_READ received: ID=0x0 ADDR=0x4044be2c LEN=184
# UVM_INFO ../src/env/axi4_scoreboard.sv(154) @ 38195000: uvm_test_top.env.scb [axi4_scoreboard] [READ] MATCH #16: ID=0x0 ADDR=0x4044be2c LEN=184
# UVM_INFO ../src/seq/axi4_outstanding_seq.sv(106) @ 38195000: uvm_test_top.env.master_agent.sqr@@outstanding_seq [axi4_outstanding_seq] Outstanding Read [#7] complete: ID=0x0
# UVM_INFO ../src/seq/axi4_outstanding_seq.sv(65) @ 38195000: uvm_test_top.env.master_agent.sqr@@outstanding_seq [axi4_outstanding_seq] Outstanding Write [#8] started: ID=0xf ADDR=0xf3060e76 LEN=230
# UVM_INFO ../src/mst/axi4_master_driver.sv(55) @ 38195000: uvm_test_top.env.master_agent.drv [axi4_master_driver] Driving AXI4_WRITE  ID=0xf  ADDR=0xf3060e76  LEN=230
# UVM_INFO ../src/mst/axi4_master_driver.sv(106) @ 38195000: uvm_test_top.env.master_agent.drv [axi4_master_driver] Write order: W -> AW (W first)
# UVM_INFO ../src/slv/axi4_slave_driver.sv(165) @ 38265000: uvm_test_top.env.slave_agent.drv [axi4_slave_driver] AW received: ID=0xf ADDR=0xf3060e76 LEN=230 LOCK=AXI4_LOCK_EXCLUSIVE
# UVM_INFO ../src/mst/axi4_master_monitor.sv(124) @ 38265000: uvm_test_top.env.master_agent.mon [axi4_master_monitor] AW observed: ID=0xf ADDR=0xf3060e76 LEN=230
# UVM_INFO ../src/slv/axi4_slave_monitor.sv(116) @ 38265000: uvm_test_top.env.slave_agent.mon [axi4_slave_monitor] AW received: ID=0xf ADDR=0xf3060e76 LEN=230
# UVM_INFO ../src/slv/axi4_slave_monitor.sv(167) @ 42815000: uvm_test_top.env.slave_agent.mon [axi4_slave_monitor] W data assembled: ID=0xf ADDR=0xf3060e76 231 beats
# UVM_INFO ../src/mst/axi4_master_monitor.sv(184) @ 42815000: uvm_test_top.env.master_agent.mon [axi4_master_monitor] W data assembled: ID=0xf ADDR=0xf3060e76 231 beats
# UVM_INFO ../src/mst/axi4_master_driver.sv(197) @ 42845000: uvm_test_top.env.master_agent.drv [axi4_master_driver] Write response: AXI4_RESP_DECERR
# UVM_INFO ../src/slv/axi4_slave_driver.sv(261) @ 42845000: uvm_test_top.env.slave_agent.drv [axi4_slave_driver] Write complete: ID=0xf ADDR=0xf3060e76 RESP=AXI4_RESP_DECERR  231 beats processed
# UVM_INFO ../src/mst/axi4_master_monitor.sv(210) @ 42845000: uvm_test_top.env.master_agent.mon [axi4_master_monitor] Write complete: ID=0xf ADDR=0xf3060e76 RESP=AXI4_RESP_DECERR
# UVM_INFO ../src/env/axi4_scoreboard.sv(82) @ 42845000: uvm_test_top.env.scb [axi4_scoreboard] Master AXI4_WRITE received: ID=0xf ADDR=0xf3060e76 LEN=230
# UVM_INFO ../src/slv/axi4_slave_monitor.sv(189) @ 42845000: uvm_test_top.env.slave_agent.mon [axi4_slave_monitor] Write response sent: ID=0xf ADDR=0xf3060e76 RESP=AXI4_RESP_DECERR
# UVM_INFO ../src/env/axi4_scoreboard.sv(103) @ 42845000: uvm_test_top.env.scb [axi4_scoreboard] Slave AXI4_WRITE received: ID=0xf ADDR=0xf3060e76 LEN=230
# UVM_INFO ../src/env/axi4_scoreboard.sv(154) @ 42845000: uvm_test_top.env.scb [axi4_scoreboard] [WRITE] MATCH #17: ID=0xf ADDR=0xf3060e76 LEN=230
# UVM_INFO ../src/seq/axi4_outstanding_seq.sv(71) @ 42845000: uvm_test_top.env.master_agent.sqr@@outstanding_seq [axi4_outstanding_seq] Outstanding Write [#8] complete: ID=0xf
# UVM_INFO ../src/seq/axi4_outstanding_seq.sv(65) @ 42845000: uvm_test_top.env.master_agent.sqr@@outstanding_seq [axi4_outstanding_seq] Outstanding Write [#9] started: ID=0x5 ADDR=0xe9c6f90b LEN=154
# UVM_INFO ../src/mst/axi4_master_driver.sv(55) @ 42845000: uvm_test_top.env.master_agent.drv [axi4_master_driver] Driving AXI4_WRITE  ID=0x5  ADDR=0xe9c6f90b  LEN=154
# UVM_INFO ../src/mst/axi4_master_driver.sv(106) @ 42845000: uvm_test_top.env.master_agent.drv [axi4_master_driver] Write order: W -> AW (W first)
# UVM_INFO ../src/slv/axi4_slave_driver.sv(165) @ 42895000: uvm_test_top.env.slave_agent.drv [axi4_slave_driver] AW received: ID=0x5 ADDR=0xe9c6f90b LEN=154 LOCK=AXI4_LOCK_EXCLUSIVE
# UVM_INFO ../src/slv/axi4_slave_monitor.sv(116) @ 42895000: uvm_test_top.env.slave_agent.mon [axi4_slave_monitor] AW received: ID=0x5 ADDR=0xe9c6f90b LEN=154
# UVM_INFO ../src/mst/axi4_master_monitor.sv(124) @ 42895000: uvm_test_top.env.master_agent.mon [axi4_master_monitor] AW observed: ID=0x5 ADDR=0xe9c6f90b LEN=154
# UVM_INFO ../src/mst/axi4_master_monitor.sv(184) @ 45945000: uvm_test_top.env.master_agent.mon [axi4_master_monitor] W data assembled: ID=0x5 ADDR=0xe9c6f90b 155 beats
# UVM_INFO ../src/slv/axi4_slave_monitor.sv(167) @ 45945000: uvm_test_top.env.slave_agent.mon [axi4_slave_monitor] W data assembled: ID=0x5 ADDR=0xe9c6f90b 155 beats
# UVM_INFO ../src/mst/axi4_master_driver.sv(197) @ 45975000: uvm_test_top.env.master_agent.drv [axi4_master_driver] Write response: AXI4_RESP_SLVERR
# UVM_INFO ../src/slv/axi4_slave_driver.sv(261) @ 45975000: uvm_test_top.env.slave_agent.drv [axi4_slave_driver] Write complete: ID=0x5 ADDR=0xe9c6f90b RESP=AXI4_RESP_SLVERR  155 beats processed
# UVM_INFO ../src/slv/axi4_slave_monitor.sv(189) @ 45975000: uvm_test_top.env.slave_agent.mon [axi4_slave_monitor] Write response sent: ID=0x5 ADDR=0xe9c6f90b RESP=AXI4_RESP_SLVERR
# UVM_INFO ../src/env/axi4_scoreboard.sv(103) @ 45975000: uvm_test_top.env.scb [axi4_scoreboard] Slave AXI4_WRITE received: ID=0x5 ADDR=0xe9c6f90b LEN=154
# UVM_INFO ../src/mst/axi4_master_monitor.sv(210) @ 45975000: uvm_test_top.env.master_agent.mon [axi4_master_monitor] Write complete: ID=0x5 ADDR=0xe9c6f90b RESP=AXI4_RESP_SLVERR
# UVM_INFO ../src/env/axi4_scoreboard.sv(82) @ 45975000: uvm_test_top.env.scb [axi4_scoreboard] Master AXI4_WRITE received: ID=0x5 ADDR=0xe9c6f90b LEN=154
# UVM_INFO ../src/env/axi4_scoreboard.sv(154) @ 45975000: uvm_test_top.env.scb [axi4_scoreboard] [WRITE] MATCH #18: ID=0x5 ADDR=0xe9c6f90b LEN=154
# UVM_INFO ../src/seq/axi4_outstanding_seq.sv(71) @ 45975000: uvm_test_top.env.master_agent.sqr@@outstanding_seq [axi4_outstanding_seq] Outstanding Write [#9] complete: ID=0x5
# UVM_INFO ../src/seq/axi4_outstanding_seq.sv(65) @ 45975000: uvm_test_top.env.master_agent.sqr@@outstanding_seq [axi4_outstanding_seq] Outstanding Write [#10] started: ID=0xf ADDR=0x7a4174ae LEN=63
# UVM_INFO ../src/mst/axi4_master_driver.sv(55) @ 45975000: uvm_test_top.env.master_agent.drv [axi4_master_driver] Driving AXI4_WRITE  ID=0xf  ADDR=0x7a4174ae  LEN=63
# UVM_INFO ../src/mst/axi4_master_driver.sv(101) @ 45975000: uvm_test_top.env.master_agent.drv [axi4_master_driver] Write order: AW -> W (sequential)
# UVM_INFO ../src/slv/axi4_slave_driver.sv(165) @ 46005000: uvm_test_top.env.slave_agent.drv [axi4_slave_driver] AW received: ID=0xf ADDR=0x7a4174ae LEN=63 LOCK=AXI4_LOCK_NORMAL
# UVM_INFO ../src/mst/axi4_master_monitor.sv(124) @ 46005000: uvm_test_top.env.master_agent.mon [axi4_master_monitor] AW observed: ID=0xf ADDR=0x7a4174ae LEN=63
# UVM_INFO ../src/slv/axi4_slave_monitor.sv(116) @ 46005000: uvm_test_top.env.slave_agent.mon [axi4_slave_monitor] AW received: ID=0xf ADDR=0x7a4174ae LEN=63
# UVM_INFO ../src/mst/axi4_master_monitor.sv(184) @ 47285000: uvm_test_top.env.master_agent.mon [axi4_master_monitor] W data assembled: ID=0xf ADDR=0x7a4174ae 64 beats
# UVM_INFO ../src/slv/axi4_slave_monitor.sv(167) @ 47285000: uvm_test_top.env.slave_agent.mon [axi4_slave_monitor] W data assembled: ID=0xf ADDR=0x7a4174ae 64 beats
# UVM_INFO ../src/mst/axi4_master_driver.sv(197) @ 47315000: uvm_test_top.env.master_agent.drv [axi4_master_driver] Write response: AXI4_RESP_OKAY
# UVM_INFO ../src/slv/axi4_slave_driver.sv(261) @ 47315000: uvm_test_top.env.slave_agent.drv [axi4_slave_driver] Write complete: ID=0xf ADDR=0x7a4174ae RESP=AXI4_RESP_OKAY  64 beats processed
# UVM_INFO ../src/slv/axi4_slave_monitor.sv(189) @ 47315000: uvm_test_top.env.slave_agent.mon [axi4_slave_monitor] Write response sent: ID=0xf ADDR=0x7a4174ae RESP=AXI4_RESP_OKAY
# UVM_INFO ../src/env/axi4_scoreboard.sv(103) @ 47315000: uvm_test_top.env.scb [axi4_scoreboard] Slave AXI4_WRITE received: ID=0xf ADDR=0x7a4174ae LEN=63
# UVM_INFO ../src/mst/axi4_master_monitor.sv(210) @ 47315000: uvm_test_top.env.master_agent.mon [axi4_master_monitor] Write complete: ID=0xf ADDR=0x7a4174ae RESP=AXI4_RESP_OKAY
# UVM_INFO ../src/env/axi4_scoreboard.sv(82) @ 47315000: uvm_test_top.env.scb [axi4_scoreboard] Master AXI4_WRITE received: ID=0xf ADDR=0x7a4174ae LEN=63
# UVM_INFO ../src/env/axi4_scoreboard.sv(154) @ 47315000: uvm_test_top.env.scb [axi4_scoreboard] [WRITE] MATCH #19: ID=0xf ADDR=0x7a4174ae LEN=63
# UVM_INFO ../src/seq/axi4_outstanding_seq.sv(71) @ 47315000: uvm_test_top.env.master_agent.sqr@@outstanding_seq [axi4_outstanding_seq] Outstanding Write [#10] complete: ID=0xf
# UVM_INFO ../src/seq/axi4_outstanding_seq.sv(65) @ 47315000: uvm_test_top.env.master_agent.sqr@@outstanding_seq [axi4_outstanding_seq] Outstanding Write [#11] started: ID=0x7 ADDR=0x45aaa176 LEN=100
# UVM_INFO ../src/mst/axi4_master_driver.sv(55) @ 47315000: uvm_test_top.env.master_agent.drv [axi4_master_driver] Driving AXI4_WRITE  ID=0x7  ADDR=0x45aaa176  LEN=100
# UVM_INFO ../src/mst/axi4_master_driver.sv(106) @ 47315000: uvm_test_top.env.master_agent.drv [axi4_master_driver] Write order: W -> AW (W first)
# UVM_INFO ../src/slv/axi4_slave_driver.sv(165) @ 47365000: uvm_test_top.env.slave_agent.drv [axi4_slave_driver] AW received: ID=0x7 ADDR=0x45aaa176 LEN=100 LOCK=AXI4_LOCK_EXCLUSIVE
# UVM_INFO ../src/mst/axi4_master_monitor.sv(124) @ 47365000: uvm_test_top.env.master_agent.mon [axi4_master_monitor] AW observed: ID=0x7 ADDR=0x45aaa176 LEN=100
# UVM_INFO ../src/slv/axi4_slave_monitor.sv(116) @ 47365000: uvm_test_top.env.slave_agent.mon [axi4_slave_monitor] AW received: ID=0x7 ADDR=0x45aaa176 LEN=100
# UVM_INFO ../src/slv/axi4_slave_monitor.sv(167) @ 49335000: uvm_test_top.env.slave_agent.mon [axi4_slave_monitor] W data assembled: ID=0x7 ADDR=0x45aaa176 101 beats
# UVM_INFO ../src/mst/axi4_master_monitor.sv(184) @ 49335000: uvm_test_top.env.master_agent.mon [axi4_master_monitor] W data assembled: ID=0x7 ADDR=0x45aaa176 101 beats
# UVM_INFO ../src/mst/axi4_master_driver.sv(197) @ 49365000: uvm_test_top.env.master_agent.drv [axi4_master_driver] Write response: AXI4_RESP_OKAY
# UVM_INFO ../src/slv/axi4_slave_driver.sv(261) @ 49365000: uvm_test_top.env.slave_agent.drv [axi4_slave_driver] Write complete: ID=0x7 ADDR=0x45aaa176 RESP=AXI4_RESP_OKAY  101 beats processed
# UVM_INFO ../src/mst/axi4_master_monitor.sv(210) @ 49365000: uvm_test_top.env.master_agent.mon [axi4_master_monitor] Write complete: ID=0x7 ADDR=0x45aaa176 RESP=AXI4_RESP_OKAY
# UVM_INFO ../src/env/axi4_scoreboard.sv(82) @ 49365000: uvm_test_top.env.scb [axi4_scoreboard] Master AXI4_WRITE received: ID=0x7 ADDR=0x45aaa176 LEN=100
# UVM_INFO ../src/slv/axi4_slave_monitor.sv(189) @ 49365000: uvm_test_top.env.slave_agent.mon [axi4_slave_monitor] Write response sent: ID=0x7 ADDR=0x45aaa176 RESP=AXI4_RESP_OKAY
# UVM_INFO ../src/env/axi4_scoreboard.sv(103) @ 49365000: uvm_test_top.env.scb [axi4_scoreboard] Slave AXI4_WRITE received: ID=0x7 ADDR=0x45aaa176 LEN=100
# UVM_INFO ../src/env/axi4_scoreboard.sv(154) @ 49365000: uvm_test_top.env.scb [axi4_scoreboard] [WRITE] MATCH #20: ID=0x7 ADDR=0x45aaa176 LEN=100
# UVM_INFO ../src/seq/axi4_outstanding_seq.sv(71) @ 49365000: uvm_test_top.env.master_agent.sqr@@outstanding_seq [axi4_outstanding_seq] Outstanding Write [#11] complete: ID=0x7
# UVM_INFO ../src/seq/axi4_outstanding_seq.sv(100) @ 49365000: uvm_test_top.env.master_agent.sqr@@outstanding_seq [axi4_outstanding_seq] Outstanding Read [#8] started: ID=0xa ADDR=0xd6dafd2e LEN=125
# UVM_INFO ../src/mst/axi4_master_driver.sv(55) @ 49365000: uvm_test_top.env.master_agent.drv [axi4_master_driver] Driving AXI4_READ  ID=0xa  ADDR=0xd6dafd2e  LEN=125
# UVM_INFO ../src/slv/axi4_slave_driver.sv(300) @ 49395000: uvm_test_top.env.slave_agent.drv [axi4_slave_driver] AR received: ID=0xa ADDR=0xd6dafd2e LEN=125 LOCK=AXI4_LOCK_NORMAL
# UVM_INFO ../src/slv/axi4_slave_monitor.sv(224) @ 49395000: uvm_test_top.env.slave_agent.mon [axi4_slave_monitor] AR received: ID=0xa ADDR=0xd6dafd2e LEN=125
# UVM_INFO ../src/mst/axi4_master_monitor.sv(246) @ 49395000: uvm_test_top.env.master_agent.mon [axi4_master_monitor] AR observed: ID=0xa ADDR=0xd6dafd2e LEN=125
# UVM_INFO ../src/mst/axi4_master_driver.sv(254) @ 51915000: uvm_test_top.env.master_agent.drv [axi4_master_driver] Read complete: 126 beats received
# UVM_INFO ../src/slv/axi4_slave_driver.sv(349) @ 51915000: uvm_test_top.env.slave_agent.drv [axi4_slave_driver] Read complete: ID=0xa ADDR=0xd6dafd2e RESP=AXI4_RESP_OKAY  126 beats sent
# UVM_INFO ../src/slv/axi4_slave_monitor.sv(287) @ 51915000: uvm_test_top.env.slave_agent.mon [axi4_slave_monitor] Read data sent: ID=0xa ADDR=0xd6dafd2e 126 beats
# UVM_INFO ../src/env/axi4_scoreboard.sv(103) @ 51915000: uvm_test_top.env.scb [axi4_scoreboard] Slave AXI4_READ received: ID=0xa ADDR=0xd6dafd2e LEN=125
# UVM_INFO ../src/mst/axi4_master_monitor.sv(314) @ 51915000: uvm_test_top.env.master_agent.mon [axi4_master_monitor] Read complete: ID=0xa ADDR=0xd6dafd2e 126 beats
# UVM_INFO ../src/env/axi4_scoreboard.sv(82) @ 51915000: uvm_test_top.env.scb [axi4_scoreboard] Master AXI4_READ received: ID=0xa ADDR=0xd6dafd2e LEN=125
# UVM_INFO ../src/env/axi4_scoreboard.sv(154) @ 51915000: uvm_test_top.env.scb [axi4_scoreboard] [READ] MATCH #21: ID=0xa ADDR=0xd6dafd2e LEN=125
# UVM_INFO ../src/seq/axi4_outstanding_seq.sv(106) @ 51915000: uvm_test_top.env.master_agent.sqr@@outstanding_seq [axi4_outstanding_seq] Outstanding Read [#8] complete: ID=0xa
# UVM_INFO ../src/seq/axi4_outstanding_seq.sv(100) @ 51915000: uvm_test_top.env.master_agent.sqr@@outstanding_seq [axi4_outstanding_seq] Outstanding Read [#9] started: ID=0xe ADDR=0x48f6c177 LEN=7
# UVM_INFO ../src/mst/axi4_master_driver.sv(55) @ 51915000: uvm_test_top.env.master_agent.drv [axi4_master_driver] Driving AXI4_READ  ID=0xe  ADDR=0x48f6c177  LEN=7
# UVM_INFO ../src/slv/axi4_slave_driver.sv(300) @ 51945000: uvm_test_top.env.slave_agent.drv [axi4_slave_driver] AR received: ID=0xe ADDR=0x48f6c177 LEN=7 LOCK=AXI4_LOCK_EXCLUSIVE
# UVM_INFO ../src/mst/axi4_master_monitor.sv(246) @ 51945000: uvm_test_top.env.master_agent.mon [axi4_master_monitor] AR observed: ID=0xe ADDR=0x48f6c177 LEN=7
# UVM_INFO ../src/slv/axi4_slave_monitor.sv(224) @ 51945000: uvm_test_top.env.slave_agent.mon [axi4_slave_monitor] AR received: ID=0xe ADDR=0x48f6c177 LEN=7
# UVM_INFO ../src/mst/axi4_master_driver.sv(254) @ 52105000: uvm_test_top.env.master_agent.drv [axi4_master_driver] Read complete: 8 beats received
# UVM_INFO ../src/slv/axi4_slave_driver.sv(349) @ 52105000: uvm_test_top.env.slave_agent.drv [axi4_slave_driver] Read complete: ID=0xe ADDR=0x48f6c177 RESP=AXI4_RESP_EXOKAY  8 beats sent
# UVM_INFO ../src/mst/axi4_master_monitor.sv(314) @ 52105000: uvm_test_top.env.master_agent.mon [axi4_master_monitor] Read complete: ID=0xe ADDR=0x48f6c177 8 beats
# UVM_INFO ../src/env/axi4_scoreboard.sv(82) @ 52105000: uvm_test_top.env.scb [axi4_scoreboard] Master AXI4_READ received: ID=0xe ADDR=0x48f6c177 LEN=7
# UVM_INFO ../src/slv/axi4_slave_monitor.sv(287) @ 52105000: uvm_test_top.env.slave_agent.mon [axi4_slave_monitor] Read data sent: ID=0xe ADDR=0x48f6c177 8 beats
# UVM_INFO ../src/env/axi4_scoreboard.sv(103) @ 52105000: uvm_test_top.env.scb [axi4_scoreboard] Slave AXI4_READ received: ID=0xe ADDR=0x48f6c177 LEN=7
# UVM_INFO ../src/env/axi4_scoreboard.sv(154) @ 52105000: uvm_test_top.env.scb [axi4_scoreboard] [READ] MATCH #22: ID=0xe ADDR=0x48f6c177 LEN=7
# UVM_INFO ../src/seq/axi4_outstanding_seq.sv(106) @ 52105000: uvm_test_top.env.master_agent.sqr@@outstanding_seq [axi4_outstanding_seq] Outstanding Read [#9] complete: ID=0xe
# UVM_INFO ../src/seq/axi4_outstanding_seq.sv(100) @ 52105000: uvm_test_top.env.master_agent.sqr@@outstanding_seq [axi4_outstanding_seq] Outstanding Read [#10] started: ID=0xa ADDR=0x0dc060f3 LEN=149
# UVM_INFO ../src/mst/axi4_master_driver.sv(55) @ 52105000: uvm_test_top.env.master_agent.drv [axi4_master_driver] Driving AXI4_READ  ID=0xa  ADDR=0x0dc060f3  LEN=149
# UVM_INFO ../src/slv/axi4_slave_driver.sv(300) @ 52135000: uvm_test_top.env.slave_agent.drv [axi4_slave_driver] AR received: ID=0xa ADDR=0x0dc060f3 LEN=149 LOCK=AXI4_LOCK_EXCLUSIVE
# UVM_INFO ../src/slv/axi4_slave_monitor.sv(224) @ 52135000: uvm_test_top.env.slave_agent.mon [axi4_slave_monitor] AR received: ID=0xa ADDR=0x0dc060f3 LEN=149
# UVM_INFO ../src/mst/axi4_master_monitor.sv(246) @ 52135000: uvm_test_top.env.master_agent.mon [axi4_master_monitor] AR observed: ID=0xa ADDR=0x0dc060f3 LEN=149
# UVM_INFO ../src/mst/axi4_master_driver.sv(254) @ 55135000: uvm_test_top.env.master_agent.drv [axi4_master_driver] Read complete: 150 beats received
# UVM_INFO ../src/slv/axi4_slave_driver.sv(349) @ 55135000: uvm_test_top.env.slave_agent.drv [axi4_slave_driver] Read complete: ID=0xa ADDR=0x0dc060f3 RESP=AXI4_RESP_EXOKAY  150 beats sent
# UVM_INFO ../src/slv/axi4_slave_monitor.sv(287) @ 55135000: uvm_test_top.env.slave_agent.mon [axi4_slave_monitor] Read data sent: ID=0xa ADDR=0x0dc060f3 150 beats
# UVM_INFO ../src/env/axi4_scoreboard.sv(103) @ 55135000: uvm_test_top.env.scb [axi4_scoreboard] Slave AXI4_READ received: ID=0xa ADDR=0x0dc060f3 LEN=149
# UVM_INFO ../src/mst/axi4_master_monitor.sv(314) @ 55135000: uvm_test_top.env.master_agent.mon [axi4_master_monitor] Read complete: ID=0xa ADDR=0x0dc060f3 150 beats
# UVM_INFO ../src/env/axi4_scoreboard.sv(82) @ 55135000: uvm_test_top.env.scb [axi4_scoreboard] Master AXI4_READ received: ID=0xa ADDR=0x0dc060f3 LEN=149
# UVM_INFO ../src/env/axi4_scoreboard.sv(154) @ 55135000: uvm_test_top.env.scb [axi4_scoreboard] [READ] MATCH #23: ID=0xa ADDR=0x0dc060f3 LEN=149
# UVM_INFO ../src/seq/axi4_outstanding_seq.sv(106) @ 55135000: uvm_test_top.env.master_agent.sqr@@outstanding_seq [axi4_outstanding_seq] Outstanding Read [#10] complete: ID=0xa
# UVM_INFO ../src/seq/axi4_outstanding_seq.sv(100) @ 55135000: uvm_test_top.env.master_agent.sqr@@outstanding_seq [axi4_outstanding_seq] Outstanding Read [#11] started: ID=0x8 ADDR=0x136abee1 LEN=212
# UVM_INFO ../src/mst/axi4_master_driver.sv(55) @ 55135000: uvm_test_top.env.master_agent.drv [axi4_master_driver] Driving AXI4_READ  ID=0x8  ADDR=0x136abee1  LEN=212
# UVM_INFO ../src/slv/axi4_slave_driver.sv(300) @ 55165000: uvm_test_top.env.slave_agent.drv [axi4_slave_driver] AR received: ID=0x8 ADDR=0x136abee1 LEN=212 LOCK=AXI4_LOCK_EXCLUSIVE
# UVM_INFO ../src/mst/axi4_master_monitor.sv(246) @ 55165000: uvm_test_top.env.master_agent.mon [axi4_master_monitor] AR observed: ID=0x8 ADDR=0x136abee1 LEN=212
# UVM_INFO ../src/slv/axi4_slave_monitor.sv(224) @ 55165000: uvm_test_top.env.slave_agent.mon [axi4_slave_monitor] AR received: ID=0x8 ADDR=0x136abee1 LEN=212
# UVM_INFO ../src/mst/axi4_master_driver.sv(254) @ 59425000: uvm_test_top.env.master_agent.drv [axi4_master_driver] Read complete: 213 beats received
# UVM_INFO ../src/slv/axi4_slave_driver.sv(349) @ 59425000: uvm_test_top.env.slave_agent.drv [axi4_slave_driver] Read complete: ID=0x8 ADDR=0x136abee1 RESP=AXI4_RESP_EXOKAY  213 beats sent
# UVM_INFO ../src/mst/axi4_master_monitor.sv(314) @ 59425000: uvm_test_top.env.master_agent.mon [axi4_master_monitor] Read complete: ID=0x8 ADDR=0x136abee1 213 beats
# UVM_INFO ../src/env/axi4_scoreboard.sv(82) @ 59425000: uvm_test_top.env.scb [axi4_scoreboard] Master AXI4_READ received: ID=0x8 ADDR=0x136abee1 LEN=212
# UVM_INFO ../src/slv/axi4_slave_monitor.sv(287) @ 59425000: uvm_test_top.env.slave_agent.mon [axi4_slave_monitor] Read data sent: ID=0x8 ADDR=0x136abee1 213 beats
# UVM_INFO ../src/env/axi4_scoreboard.sv(103) @ 59425000: uvm_test_top.env.scb [axi4_scoreboard] Slave AXI4_READ received: ID=0x8 ADDR=0x136abee1 LEN=212
# UVM_INFO ../src/env/axi4_scoreboard.sv(154) @ 59425000: uvm_test_top.env.scb [axi4_scoreboard] [READ] MATCH #24: ID=0x8 ADDR=0x136abee1 LEN=212
# UVM_INFO ../src/seq/axi4_outstanding_seq.sv(106) @ 59425000: uvm_test_top.env.master_agent.sqr@@outstanding_seq [axi4_outstanding_seq] Outstanding Read [#11] complete: ID=0x8
# UVM_INFO ../src/seq/axi4_outstanding_seq.sv(65) @ 59425000: uvm_test_top.env.master_agent.sqr@@outstanding_seq [axi4_outstanding_seq] Outstanding Write [#12] started: ID=0x9 ADDR=0x0f3e0d7e LEN=71
# UVM_INFO ../src/mst/axi4_master_driver.sv(55) @ 59425000: uvm_test_top.env.master_agent.drv [axi4_master_driver] Driving AXI4_WRITE  ID=0x9  ADDR=0x0f3e0d7e  LEN=71
# UVM_INFO ../src/mst/axi4_master_driver.sv(94) @ 59425000: uvm_test_top.env.master_agent.drv [axi4_master_driver] Write order: AW || W (parallel)
# UVM_INFO ../src/slv/axi4_slave_driver.sv(165) @ 59455000: uvm_test_top.env.slave_agent.drv [axi4_slave_driver] AW received: ID=0x9 ADDR=0x0f3e0d7e LEN=71 LOCK=AXI4_LOCK_NORMAL
# UVM_INFO ../src/slv/axi4_slave_monitor.sv(116) @ 59455000: uvm_test_top.env.slave_agent.mon [axi4_slave_monitor] AW received: ID=0x9 ADDR=0x0f3e0d7e LEN=71
# UVM_INFO ../src/mst/axi4_master_monitor.sv(124) @ 59455000: uvm_test_top.env.master_agent.mon [axi4_master_monitor] AW observed: ID=0x9 ADDR=0x0f3e0d7e LEN=71
# UVM_INFO ../src/mst/axi4_master_monitor.sv(184) @ 60865000: uvm_test_top.env.master_agent.mon [axi4_master_monitor] W data assembled: ID=0x9 ADDR=0x0f3e0d7e 72 beats
# UVM_INFO ../src/slv/axi4_slave_monitor.sv(167) @ 60865000: uvm_test_top.env.slave_agent.mon [axi4_slave_monitor] W data assembled: ID=0x9 ADDR=0x0f3e0d7e 72 beats
# UVM_INFO ../src/mst/axi4_master_driver.sv(197) @ 60895000: uvm_test_top.env.master_agent.drv [axi4_master_driver] Write response: AXI4_RESP_OKAY
# UVM_INFO ../src/slv/axi4_slave_driver.sv(261) @ 60895000: uvm_test_top.env.slave_agent.drv [axi4_slave_driver] Write complete: ID=0x9 ADDR=0x0f3e0d7e RESP=AXI4_RESP_OKAY  72 beats processed
# UVM_INFO ../src/slv/axi4_slave_monitor.sv(189) @ 60895000: uvm_test_top.env.slave_agent.mon [axi4_slave_monitor] Write response sent: ID=0x9 ADDR=0x0f3e0d7e RESP=AXI4_RESP_OKAY
# UVM_INFO ../src/env/axi4_scoreboard.sv(103) @ 60895000: uvm_test_top.env.scb [axi4_scoreboard] Slave AXI4_WRITE received: ID=0x9 ADDR=0x0f3e0d7e LEN=71
# UVM_INFO ../src/mst/axi4_master_monitor.sv(210) @ 60895000: uvm_test_top.env.master_agent.mon [axi4_master_monitor] Write complete: ID=0x9 ADDR=0x0f3e0d7e RESP=AXI4_RESP_OKAY
# UVM_INFO ../src/env/axi4_scoreboard.sv(82) @ 60895000: uvm_test_top.env.scb [axi4_scoreboard] Master AXI4_WRITE received: ID=0x9 ADDR=0x0f3e0d7e LEN=71
# UVM_INFO ../src/env/axi4_scoreboard.sv(154) @ 60895000: uvm_test_top.env.scb [axi4_scoreboard] [WRITE] MATCH #25: ID=0x9 ADDR=0x0f3e0d7e LEN=71
# UVM_INFO ../src/seq/axi4_outstanding_seq.sv(71) @ 60895000: uvm_test_top.env.master_agent.sqr@@outstanding_seq [axi4_outstanding_seq] Outstanding Write [#12] complete: ID=0x9
# UVM_INFO ../src/seq/axi4_outstanding_seq.sv(65) @ 60895000: uvm_test_top.env.master_agent.sqr@@outstanding_seq [axi4_outstanding_seq] Outstanding Write [#13] started: ID=0x5 ADDR=0x4b7150a6 LEN=213
# UVM_INFO ../src/mst/axi4_master_driver.sv(55) @ 60895000: uvm_test_top.env.master_agent.drv [axi4_master_driver] Driving AXI4_WRITE  ID=0x5  ADDR=0x4b7150a6  LEN=213
# UVM_INFO ../src/mst/axi4_master_driver.sv(101) @ 60895000: uvm_test_top.env.master_agent.drv [axi4_master_driver] Write order: AW -> W (sequential)
# UVM_INFO ../src/slv/axi4_slave_driver.sv(165) @ 60925000: uvm_test_top.env.slave_agent.drv [axi4_slave_driver] AW received: ID=0x5 ADDR=0x4b7150a6 LEN=213 LOCK=AXI4_LOCK_NORMAL
# UVM_INFO ../src/mst/axi4_master_monitor.sv(124) @ 60925000: uvm_test_top.env.master_agent.mon [axi4_master_monitor] AW observed: ID=0x5 ADDR=0x4b7150a6 LEN=213
# UVM_INFO ../src/slv/axi4_slave_monitor.sv(116) @ 60925000: uvm_test_top.env.slave_agent.mon [axi4_slave_monitor] AW received: ID=0x5 ADDR=0x4b7150a6 LEN=213
# UVM_INFO ../src/mst/axi4_master_monitor.sv(184) @ 65205000: uvm_test_top.env.master_agent.mon [axi4_master_monitor] W data assembled: ID=0x5 ADDR=0x4b7150a6 214 beats
# UVM_INFO ../src/slv/axi4_slave_monitor.sv(167) @ 65205000: uvm_test_top.env.slave_agent.mon [axi4_slave_monitor] W data assembled: ID=0x5 ADDR=0x4b7150a6 214 beats
# UVM_INFO ../src/mst/axi4_master_driver.sv(197) @ 65235000: uvm_test_top.env.master_agent.drv [axi4_master_driver] Write response: AXI4_RESP_OKAY
# UVM_INFO ../src/slv/axi4_slave_driver.sv(261) @ 65235000: uvm_test_top.env.slave_agent.drv [axi4_slave_driver] Write complete: ID=0x5 ADDR=0x4b7150a6 RESP=AXI4_RESP_OKAY  214 beats processed
# UVM_INFO ../src/slv/axi4_slave_monitor.sv(189) @ 65235000: uvm_test_top.env.slave_agent.mon [axi4_slave_monitor] Write response sent: ID=0x5 ADDR=0x4b7150a6 RESP=AXI4_RESP_OKAY
# UVM_INFO ../src/env/axi4_scoreboard.sv(103) @ 65235000: uvm_test_top.env.scb [axi4_scoreboard] Slave AXI4_WRITE received: ID=0x5 ADDR=0x4b7150a6 LEN=213
# UVM_INFO ../src/mst/axi4_master_monitor.sv(210) @ 65235000: uvm_test_top.env.master_agent.mon [axi4_master_monitor] Write complete: ID=0x5 ADDR=0x4b7150a6 RESP=AXI4_RESP_OKAY
# UVM_INFO ../src/env/axi4_scoreboard.sv(82) @ 65235000: uvm_test_top.env.scb [axi4_scoreboard] Master AXI4_WRITE received: ID=0x5 ADDR=0x4b7150a6 LEN=213
# UVM_INFO ../src/env/axi4_scoreboard.sv(154) @ 65235000: uvm_test_top.env.scb [axi4_scoreboard] [WRITE] MATCH #26: ID=0x5 ADDR=0x4b7150a6 LEN=213
# UVM_INFO ../src/seq/axi4_outstanding_seq.sv(71) @ 65235000: uvm_test_top.env.master_agent.sqr@@outstanding_seq [axi4_outstanding_seq] Outstanding Write [#13] complete: ID=0x5
# UVM_INFO ../src/seq/axi4_outstanding_seq.sv(65) @ 65235000: uvm_test_top.env.master_agent.sqr@@outstanding_seq [axi4_outstanding_seq] Outstanding Write [#14] started: ID=0xf ADDR=0x0d331d05 LEN=159
# UVM_INFO ../src/mst/axi4_master_driver.sv(55) @ 65235000: uvm_test_top.env.master_agent.drv [axi4_master_driver] Driving AXI4_WRITE  ID=0xf  ADDR=0x0d331d05  LEN=159
# UVM_INFO ../src/mst/axi4_master_driver.sv(101) @ 65235000: uvm_test_top.env.master_agent.drv [axi4_master_driver] Write order: AW -> W (sequential)
# UVM_INFO ../src/slv/axi4_slave_driver.sv(165) @ 65265000: uvm_test_top.env.slave_agent.drv [axi4_slave_driver] AW received: ID=0xf ADDR=0x0d331d05 LEN=159 LOCK=AXI4_LOCK_NORMAL
# UVM_INFO ../src/mst/axi4_master_monitor.sv(124) @ 65265000: uvm_test_top.env.master_agent.mon [axi4_master_monitor] AW observed: ID=0xf ADDR=0x0d331d05 LEN=159
# UVM_INFO ../src/slv/axi4_slave_monitor.sv(116) @ 65265000: uvm_test_top.env.slave_agent.mon [axi4_slave_monitor] AW received: ID=0xf ADDR=0x0d331d05 LEN=159
# UVM_INFO ../src/mst/axi4_master_monitor.sv(184) @ 68465000: uvm_test_top.env.master_agent.mon [axi4_master_monitor] W data assembled: ID=0xf ADDR=0x0d331d05 160 beats
# UVM_INFO ../src/slv/axi4_slave_monitor.sv(167) @ 68465000: uvm_test_top.env.slave_agent.mon [axi4_slave_monitor] W data assembled: ID=0xf ADDR=0x0d331d05 160 beats
# UVM_INFO ../src/mst/axi4_master_driver.sv(197) @ 68495000: uvm_test_top.env.master_agent.drv [axi4_master_driver] Write response: AXI4_RESP_OKAY
# UVM_INFO ../src/slv/axi4_slave_driver.sv(261) @ 68495000: uvm_test_top.env.slave_agent.drv [axi4_slave_driver] Write complete: ID=0xf ADDR=0x0d331d05 RESP=AXI4_RESP_OKAY  160 beats processed
# UVM_INFO ../src/slv/axi4_slave_monitor.sv(189) @ 68495000: uvm_test_top.env.slave_agent.mon [axi4_slave_monitor] Write response sent: ID=0xf ADDR=0x0d331d05 RESP=AXI4_RESP_OKAY
# UVM_INFO ../src/env/axi4_scoreboard.sv(103) @ 68495000: uvm_test_top.env.scb [axi4_scoreboard] Slave AXI4_WRITE received: ID=0xf ADDR=0x0d331d05 LEN=159
# UVM_INFO ../src/mst/axi4_master_monitor.sv(210) @ 68495000: uvm_test_top.env.master_agent.mon [axi4_master_monitor] Write complete: ID=0xf ADDR=0x0d331d05 RESP=AXI4_RESP_OKAY
# UVM_INFO ../src/env/axi4_scoreboard.sv(82) @ 68495000: uvm_test_top.env.scb [axi4_scoreboard] Master AXI4_WRITE received: ID=0xf ADDR=0x0d331d05 LEN=159
# UVM_INFO ../src/env/axi4_scoreboard.sv(154) @ 68495000: uvm_test_top.env.scb [axi4_scoreboard] [WRITE] MATCH #27: ID=0xf ADDR=0x0d331d05 LEN=159
# UVM_INFO ../src/seq/axi4_outstanding_seq.sv(71) @ 68495000: uvm_test_top.env.master_agent.sqr@@outstanding_seq [axi4_outstanding_seq] Outstanding Write [#14] complete: ID=0xf
# UVM_INFO ../src/seq/axi4_outstanding_seq.sv(78) @ 68495000: uvm_test_top.env.master_agent.sqr@@outstanding_seq [axi4_outstanding_seq] All outstanding write transactions finished
# UVM_INFO ../src/seq/axi4_outstanding_seq.sv(100) @ 68495000: uvm_test_top.env.master_agent.sqr@@outstanding_seq [axi4_outstanding_seq] Outstanding Read [#12] started: ID=0xb ADDR=0xa173f662 LEN=208
# UVM_INFO ../src/mst/axi4_master_driver.sv(55) @ 68495000: uvm_test_top.env.master_agent.drv [axi4_master_driver] Driving AXI4_READ  ID=0xb  ADDR=0xa173f662  LEN=208
# UVM_INFO ../src/slv/axi4_slave_driver.sv(300) @ 68525000: uvm_test_top.env.slave_agent.drv [axi4_slave_driver] AR received: ID=0xb ADDR=0xa173f662 LEN=208 LOCK=AXI4_LOCK_EXCLUSIVE
# UVM_INFO ../src/mst/axi4_master_monitor.sv(246) @ 68525000: uvm_test_top.env.master_agent.mon [axi4_master_monitor] AR observed: ID=0xb ADDR=0xa173f662 LEN=208
# UVM_INFO ../src/slv/axi4_slave_monitor.sv(224) @ 68525000: uvm_test_top.env.slave_agent.mon [axi4_slave_monitor] AR received: ID=0xb ADDR=0xa173f662 LEN=208
# UVM_INFO ../src/mst/axi4_master_driver.sv(254) @ 72705000: uvm_test_top.env.master_agent.drv [axi4_master_driver] Read complete: 209 beats received
# UVM_INFO ../src/slv/axi4_slave_driver.sv(349) @ 72705000: uvm_test_top.env.slave_agent.drv [axi4_slave_driver] Read complete: ID=0xb ADDR=0xa173f662 RESP=AXI4_RESP_EXOKAY  209 beats sent
# UVM_INFO ../src/mst/axi4_master_monitor.sv(314) @ 72705000: uvm_test_top.env.master_agent.mon [axi4_master_monitor] Read complete: ID=0xb ADDR=0xa173f662 209 beats
# UVM_INFO ../src/env/axi4_scoreboard.sv(82) @ 72705000: uvm_test_top.env.scb [axi4_scoreboard] Master AXI4_READ received: ID=0xb ADDR=0xa173f662 LEN=208
# UVM_INFO ../src/slv/axi4_slave_monitor.sv(287) @ 72705000: uvm_test_top.env.slave_agent.mon [axi4_slave_monitor] Read data sent: ID=0xb ADDR=0xa173f662 209 beats
# UVM_INFO ../src/env/axi4_scoreboard.sv(103) @ 72705000: uvm_test_top.env.scb [axi4_scoreboard] Slave AXI4_READ received: ID=0xb ADDR=0xa173f662 LEN=208
# UVM_INFO ../src/env/axi4_scoreboard.sv(154) @ 72705000: uvm_test_top.env.scb [axi4_scoreboard] [READ] MATCH #28: ID=0xb ADDR=0xa173f662 LEN=208
# UVM_INFO ../src/seq/axi4_outstanding_seq.sv(106) @ 72705000: uvm_test_top.env.master_agent.sqr@@outstanding_seq [axi4_outstanding_seq] Outstanding Read [#12] complete: ID=0xb
# UVM_INFO ../src/seq/axi4_outstanding_seq.sv(100) @ 72705000: uvm_test_top.env.master_agent.sqr@@outstanding_seq [axi4_outstanding_seq] Outstanding Read [#13] started: ID=0x2 ADDR=0x0e6ab461 LEN=220
# UVM_INFO ../src/mst/axi4_master_driver.sv(55) @ 72705000: uvm_test_top.env.master_agent.drv [axi4_master_driver] Driving AXI4_READ  ID=0x2  ADDR=0x0e6ab461  LEN=220
# UVM_INFO ../src/slv/axi4_slave_driver.sv(300) @ 72735000: uvm_test_top.env.slave_agent.drv [axi4_slave_driver] AR received: ID=0x2 ADDR=0x0e6ab461 LEN=220 LOCK=AXI4_LOCK_NORMAL
# UVM_INFO ../src/slv/axi4_slave_monitor.sv(224) @ 72735000: uvm_test_top.env.slave_agent.mon [axi4_slave_monitor] AR received: ID=0x2 ADDR=0x0e6ab461 LEN=220
# UVM_INFO ../src/mst/axi4_master_monitor.sv(246) @ 72735000: uvm_test_top.env.master_agent.mon [axi4_master_monitor] AR observed: ID=0x2 ADDR=0x0e6ab461 LEN=220
# UVM_INFO ../src/mst/axi4_master_driver.sv(254) @ 77155000: uvm_test_top.env.master_agent.drv [axi4_master_driver] Read complete: 221 beats received
# UVM_INFO ../src/slv/axi4_slave_driver.sv(349) @ 77155000: uvm_test_top.env.slave_agent.drv [axi4_slave_driver] Read complete: ID=0x2 ADDR=0x0e6ab461 RESP=AXI4_RESP_OKAY  221 beats sent
# UVM_INFO ../src/slv/axi4_slave_monitor.sv(287) @ 77155000: uvm_test_top.env.slave_agent.mon [axi4_slave_monitor] Read data sent: ID=0x2 ADDR=0x0e6ab461 221 beats
# UVM_INFO ../src/env/axi4_scoreboard.sv(103) @ 77155000: uvm_test_top.env.scb [axi4_scoreboard] Slave AXI4_READ received: ID=0x2 ADDR=0x0e6ab461 LEN=220
# UVM_INFO ../src/mst/axi4_master_monitor.sv(314) @ 77155000: uvm_test_top.env.master_agent.mon [axi4_master_monitor] Read complete: ID=0x2 ADDR=0x0e6ab461 221 beats
# UVM_INFO ../src/env/axi4_scoreboard.sv(82) @ 77155000: uvm_test_top.env.scb [axi4_scoreboard] Master AXI4_READ received: ID=0x2 ADDR=0x0e6ab461 LEN=220
# UVM_INFO ../src/env/axi4_scoreboard.sv(154) @ 77155000: uvm_test_top.env.scb [axi4_scoreboard] [READ] MATCH #29: ID=0x2 ADDR=0x0e6ab461 LEN=220
# UVM_INFO ../src/seq/axi4_outstanding_seq.sv(106) @ 77155000: uvm_test_top.env.master_agent.sqr@@outstanding_seq [axi4_outstanding_seq] Outstanding Read [#13] complete: ID=0x2
# UVM_INFO ../src/seq/axi4_outstanding_seq.sv(100) @ 77155000: uvm_test_top.env.master_agent.sqr@@outstanding_seq [axi4_outstanding_seq] Outstanding Read [#14] started: ID=0xa ADDR=0x57bae410 LEN=64
# UVM_INFO ../src/mst/axi4_master_driver.sv(55) @ 77155000: uvm_test_top.env.master_agent.drv [axi4_master_driver] Driving AXI4_READ  ID=0xa  ADDR=0x57bae410  LEN=64
# UVM_INFO ../src/slv/axi4_slave_driver.sv(300) @ 77185000: uvm_test_top.env.slave_agent.drv [axi4_slave_driver] AR received: ID=0xa ADDR=0x57bae410 LEN=64 LOCK=AXI4_LOCK_EXCLUSIVE
# UVM_INFO ../src/mst/axi4_master_monitor.sv(246) @ 77185000: uvm_test_top.env.master_agent.mon [axi4_master_monitor] AR observed: ID=0xa ADDR=0x57bae410 LEN=64
# UVM_INFO ../src/slv/axi4_slave_monitor.sv(224) @ 77185000: uvm_test_top.env.slave_agent.mon [axi4_slave_monitor] AR received: ID=0xa ADDR=0x57bae410 LEN=64
# UVM_INFO ../src/mst/axi4_master_driver.sv(254) @ 78485000: uvm_test_top.env.master_agent.drv [axi4_master_driver] Read complete: 65 beats received
# UVM_INFO ../src/slv/axi4_slave_driver.sv(349) @ 78485000: uvm_test_top.env.slave_agent.drv [axi4_slave_driver] Read complete: ID=0xa ADDR=0x57bae410 RESP=AXI4_RESP_EXOKAY  65 beats sent
# UVM_INFO ../src/mst/axi4_master_monitor.sv(314) @ 78485000: uvm_test_top.env.master_agent.mon [axi4_master_monitor] Read complete: ID=0xa ADDR=0x57bae410 65 beats
# UVM_INFO ../src/env/axi4_scoreboard.sv(82) @ 78485000: uvm_test_top.env.scb [axi4_scoreboard] Master AXI4_READ received: ID=0xa ADDR=0x57bae410 LEN=64
# UVM_INFO ../src/slv/axi4_slave_monitor.sv(287) @ 78485000: uvm_test_top.env.slave_agent.mon [axi4_slave_monitor] Read data sent: ID=0xa ADDR=0x57bae410 65 beats
# UVM_INFO ../src/env/axi4_scoreboard.sv(103) @ 78485000: uvm_test_top.env.scb [axi4_scoreboard] Slave AXI4_READ received: ID=0xa ADDR=0x57bae410 LEN=64
# UVM_INFO ../src/env/axi4_scoreboard.sv(154) @ 78485000: uvm_test_top.env.scb [axi4_scoreboard] [READ] MATCH #30: ID=0xa ADDR=0x57bae410 LEN=64
# UVM_INFO ../src/seq/axi4_outstanding_seq.sv(106) @ 78485000: uvm_test_top.env.master_agent.sqr@@outstanding_seq [axi4_outstanding_seq] Outstanding Read [#14] complete: ID=0xa
# UVM_INFO ../src/seq/axi4_outstanding_seq.sv(113) @ 78485000: uvm_test_top.env.master_agent.sqr@@outstanding_seq [axi4_outstanding_seq] All outstanding read transactions finished
# UVM_INFO ../src/seq/axi4_outstanding_seq.sv(117) @ 78485000: uvm_test_top.env.master_agent.sqr@@outstanding_seq [axi4_outstanding_seq] Outstanding sequence complete
# UVM_INFO ../src/test/axi4_outstanding_test.sv(59) @ 79485000: uvm_test_top [axi4_outstanding_test] Outstanding test completed successfully
# UVM_INFO verilog_src/uvm-1.1d/src/base/uvm_objection.svh(1268) @ 79485000: reporter [TEST_DONE] 'run' phase is ready to proceed to the 'extract' phase
# UVM_INFO ../src/env/axi4_scoreboard.sv(218) @ 79485000: uvm_test_top.env.scb [axi4_scoreboard] 
# ========================================
#          SCOREBOARD SUMMARY
# ========================================
#   Master transactions : 30
#   Slave transactions  : 30
#   Matches             : 30
#   Mismatches          : 0
#   Unmatched master WR : 0
#   Unmatched master RD : 0
#   Unmatched slave  WR : 0
#   Unmatched slave  RD : 0
# ========================================
#   RESULT : PASS
# ========================================
# UVM_INFO ../src/test/axi4_base_test.sv(91) @ 79485000: uvm_test_top [axi4_outstanding_test] 
# === TEST PASSED ===
# 
# 
# --- UVM Report Summary ---
# 
# ** Report counts by severity
# UVM_INFO :  463
# UVM_WARNING :    0
# UVM_ERROR :    0
# UVM_FATAL :    0
# ** Report counts by id
# [Questa UVM]     3
# [RNTST]     1
# [TB_TOP]     2
# [TEST_DONE]     1
# [TOP_TB]     1
# [UVMTOP]     1
# [axi4_master_agent]     1
# [axi4_master_driver]    76
# [axi4_master_monitor]    76
# [axi4_outstanding_seq]    64
# [axi4_outstanding_test]     3
# [axi4_scoreboard]    91
# [axi4_slave_agent]     1
# [axi4_slave_driver]    61
# [axi4_slave_monitor]    76
# [axi4_vip_env]     5
# ** Note: $finish    : /cadtools/mentor/Questa_10.6b/questasim/linux_x86_64/../verilog_src/uvm-1.1d/src/base/uvm_root.svh(430)
#    Time: 79485 ns  Iteration: 55  Instance: /tb_top
# Saving coverage database on exit...
# End time: 11:25:19 on Jun 05,2026, Elapsed time: 0:00:42
# Errors: 0, Warnings: 0
