# vsim -c -coverage -sv_seed 64793113 "+UVM_TESTNAME=axi4_outstanding_test" "+UVM_VERBOSITY=UVM_HIGH" "+DUMP_VCD" -l ./report/logs/axi4_outstanding_test_run_4_seed_64793113.log -do "coverage save -onexit ./report/coverage/axi4_outstanding_test_run_4_seed_64793113.ucdb; run -all; quit -f" opt_tb_top 
# Start time: 11:23:44 on Jun 05,2026
# //  Questa Sim-64
# //  Version 10.6b linux_x86_64 May 25 2017
# //
# //  Copyright 1991-2017 Mentor Graphics Corporation
# //  All Rights Reserved.
# //
# //  QuestaSim and its associated documentation contain trade
# //  secrets and commercial or financial information that are the property of
# //  Mentor Graphics Corporation and are privileged, confidential,
# //  and exempt from disclosure under the Freedom of Information Act,
# //  5 U.S.C. Section 552. Furthermore, this information
# //  is prohibited from disclosure under the Trade Secrets Act,
# //  18 U.S.C. Section 1905.
# //
# Loading sv_std.std
# Loading work.axi4_if(fast)
# Loading mtiUvm.uvm_pkg
# Loading work.axi4_pkg(fast)
# Loading work.axi4_test_pkg(fast)
# Loading work.tb_top(fast)
# Loading work.axi4_if(fast)
# Loading work.axi4_sva(fast)
# Loading mtiUvm.questa_uvm_pkg(fast)
# Loading /cadtools/mentor/Questa_10.6b/questasim/uvm-1.1d/linux_x86_64/uvm_dpi.so
# coverage save -onexit ./report/coverage/axi4_outstanding_test_run_4_seed_64793113.ucdb
#  run -all
# ----------------------------------------------------------------
# UVM-1.1d
# (C) 2007-2013 Mentor Graphics Corporation
# (C) 2007-2013 Cadence Design Systems, Inc.
# (C) 2006-2013 Synopsys, Inc.
# (C) 2011-2013 Cypress Semiconductor Corp.
# ----------------------------------------------------------------
# 
#   ***********       IMPORTANT RELEASE NOTES         ************
# 
#   You are using a version of the UVM library that has been compiled
#   with `UVM_NO_DEPRECATED undefined.
#   See http://www.eda.org/svdb/view.php?id=3313 for more details.
# 
#   You are using a version of the UVM library that has been compiled
#   with `UVM_OBJECT_MUST_HAVE_CONSTRUCTOR undefined.
#   See http://www.eda.org/svdb/view.php?id=3770 for more details.
# 
#       (Specify +UVM_NO_RELNOTES to turn off this notice)
# 
# UVM_INFO verilog_src/questa_uvm_pkg-1.2/src/questa_uvm_pkg.sv(215) @ 0: reporter [Questa UVM] QUESTA_UVM-1.2.3
# UVM_INFO verilog_src/questa_uvm_pkg-1.2/src/questa_uvm_pkg.sv(217) @ 0: reporter [Questa UVM]  questa_uvm::init(+struct)
# UVM_INFO ../src/tb_top.sv(128) @ 0: reporter [TB_TOP] Virtual interface set in config_db
# UVM_INFO @ 0: reporter [RNTST] Running test axi4_outstanding_test...
# UVM_INFO ../src/tb_top.sv(142) @ 0: reporter [TB_TOP] Waveform VCD dumping enabled (axi4_vip.vcd)
# UVM_INFO ../src/env/axi4_vip_env.sv(83) @ 0: uvm_test_top.env [axi4_vip_env] slave_vif not set - reusing master_vif (passthrough mode)
# UVM_INFO ../src/env/axi4_vip_env.sv(93) @ 0: uvm_test_top.env [axi4_vip_env] Scoreboard created
# UVM_INFO ../src/env/axi4_vip_env.sv(100) @ 0: uvm_test_top.env [axi4_vip_env] Coverage collectors created
# UVM_INFO ../src/mst/axi4_master_agent.sv(69) @ 0: uvm_test_top.env.master_agent [axi4_master_agent] ACTIVE mode - driver + sequencer created
# UVM_INFO ../src/slv/axi4_slave_agent.sv(82) @ 0: uvm_test_top.env.slave_agent [axi4_slave_agent] ACTIVE mode — ready_delay=[0:0] resp_delay=[0:0]
# UVM_INFO ../src/env/axi4_vip_env.sv(116) @ 0: uvm_test_top.env [axi4_vip_env] Scoreboard connected: master_mon.ap -> scb, slave_mon.ap -> scb
# UVM_INFO ../src/env/axi4_vip_env.sv(124) @ 0: uvm_test_top.env [axi4_vip_env] Coverage connected: master_mon.ap -> master_cov, slave_mon.ap -> slave_cov
# UVM_INFO @ 0: reporter [UVMTOP] UVM testbench topology:
# ---------------------------------------------------------------
# Name                       Type                     Size  Value
# ---------------------------------------------------------------
# uvm_test_top               axi4_outstanding_test    -     @473 
#   env                      axi4_vip_env             -     @488 
#     master_agent           axi4_master_agent        -     @503 
#       drv                  axi4_master_driver       -     @567 
#         rsp_port           uvm_analysis_port        -     @582 
#         seq_item_port      uvm_seq_item_pull_port   -     @574 
#       mon                  axi4_master_monitor      -     @559 
#         ap                 uvm_analysis_port        -     @700 
#       sqr                  axi4_master_sequencer    -     @590 
#         rsp_export         uvm_analysis_export      -     @597 
#         seq_item_export    uvm_seq_item_pull_imp    -     @691 
#         arbitration_queue  array                    0     -    
#         lock_queue         array                    0     -    
#         num_last_reqs      integral                 32    'd1  
#         num_last_rsps      integral                 32    'd1  
#     master_cov             axi4_coverage            -     @524 
#       analysis_imp         uvm_analysis_imp         -     @531 
#     scb                    axi4_scoreboard          -     @517 
#       master_export        uvm_analysis_imp_master  -     @714 
#       slave_export         uvm_analysis_imp_slave   -     @722 
#     slave_agent            axi4_slave_agent         -     @510 
#       drv                  axi4_slave_driver        -     @753 
#         rsp_port           uvm_analysis_port        -     @768 
#         seq_item_port      uvm_seq_item_pull_port   -     @760 
#       mon                  axi4_slave_monitor       -     @735 
#         ap                 uvm_analysis_port        -     @890 
#       sqr                  axi4_slave_sequencer     -     @776 
#         rsp_export         uvm_analysis_export      -     @783 
#         seq_item_export    uvm_seq_item_pull_imp    -     @877 
#         arbitration_queue  array                    0     -    
#         lock_queue         array                    0     -    
#         num_last_reqs      integral                 32    'd1  
#         num_last_rsps      integral                 32    'd1  
#     slave_cov              axi4_coverage            -     @539 
#       analysis_imp         uvm_analysis_imp         -     @546 
# ---------------------------------------------------------------
# 
# UVM_INFO verilog_src/questa_uvm_pkg-1.2/src/questa_uvm_pkg.sv(277) @ 0: reporter [Questa UVM] End Of Elaboration
# UVM_INFO ../src/test/axi4_outstanding_test.sv(45) @ 0: uvm_test_top [axi4_outstanding_test] Starting outstanding test with 15 writes, 15 reads, depth=4
# UVM_INFO ../src/seq/axi4_outstanding_seq.sv(40) @ 0: uvm_test_top.env.master_agent.sqr@@outstanding_seq [axi4_outstanding_seq] Starting outstanding sequence: writes=15, reads=15, depth=4
# UVM_INFO ../src/tb_top.sv(49) @ 95000: reporter [TOP_TB] Reset de-asserted
# UVM_INFO ../src/slv/axi4_slave_driver.sv(70) @ 95000: uvm_test_top.env.slave_agent.drv [axi4_slave_driver] Reset deasserted - slave driver active
# UVM_INFO ../src/mst/axi4_master_driver.sv(46) @ 95000: uvm_test_top.env.master_agent.drv [axi4_master_driver] Reset deasserted - master driver active
# UVM_INFO ../src/mst/axi4_master_monitor.sv(77) @ 95000: uvm_test_top.env.master_agent.mon [axi4_master_monitor] Reset deasserted — monitor active
# UVM_INFO ../src/slv/axi4_slave_monitor.sv(71) @ 95000: uvm_test_top.env.slave_agent.mon [axi4_slave_monitor] Reset deasserted — monitor active
# UVM_INFO ../src/seq/axi4_outstanding_seq.sv(65) @ 95000: uvm_test_top.env.master_agent.sqr@@outstanding_seq [axi4_outstanding_seq] Outstanding Write [#3] started: ID=0xa ADDR=0x3c0fa6d1 LEN=14
# UVM_INFO ../src/mst/axi4_master_driver.sv(55) @ 95000: uvm_test_top.env.master_agent.drv [axi4_master_driver] Driving AXI4_WRITE  ID=0xa  ADDR=0x3c0fa6d1  LEN=14
# UVM_INFO ../src/mst/axi4_master_driver.sv(106) @ 95000: uvm_test_top.env.master_agent.drv [axi4_master_driver] Write order: W -> AW (W first)
# UVM_INFO ../src/slv/axi4_slave_driver.sv(165) @ 165000: uvm_test_top.env.slave_agent.drv [axi4_slave_driver] AW received: ID=0xa ADDR=0x3c0fa6d1 LEN=14 LOCK=AXI4_LOCK_NORMAL
# UVM_INFO ../src/mst/axi4_master_monitor.sv(124) @ 165000: uvm_test_top.env.master_agent.mon [axi4_master_monitor] AW observed: ID=0xa ADDR=0x3c0fa6d1 LEN=14
# UVM_INFO ../src/slv/axi4_slave_monitor.sv(116) @ 165000: uvm_test_top.env.slave_agent.mon [axi4_slave_monitor] AW received: ID=0xa ADDR=0x3c0fa6d1 LEN=14
# UVM_INFO ../src/mst/axi4_master_monitor.sv(184) @ 385000: uvm_test_top.env.master_agent.mon [axi4_master_monitor] W data assembled: ID=0xa ADDR=0x3c0fa6d1 15 beats
# UVM_INFO ../src/slv/axi4_slave_monitor.sv(167) @ 385000: uvm_test_top.env.slave_agent.mon [axi4_slave_monitor] W data assembled: ID=0xa ADDR=0x3c0fa6d1 15 beats
# UVM_INFO ../src/mst/axi4_master_driver.sv(197) @ 415000: uvm_test_top.env.master_agent.drv [axi4_master_driver] Write response: AXI4_RESP_OKAY
# UVM_INFO ../src/slv/axi4_slave_driver.sv(261) @ 415000: uvm_test_top.env.slave_agent.drv [axi4_slave_driver] Write complete: ID=0xa ADDR=0x3c0fa6d1 RESP=AXI4_RESP_OKAY  15 beats processed
# UVM_INFO ../src/slv/axi4_slave_monitor.sv(189) @ 415000: uvm_test_top.env.slave_agent.mon [axi4_slave_monitor] Write response sent: ID=0xa ADDR=0x3c0fa6d1 RESP=AXI4_RESP_OKAY
# UVM_INFO ../src/env/axi4_scoreboard.sv(103) @ 415000: uvm_test_top.env.scb [axi4_scoreboard] Slave AXI4_WRITE received: ID=0xa ADDR=0x3c0fa6d1 LEN=14
# UVM_INFO ../src/mst/axi4_master_monitor.sv(210) @ 415000: uvm_test_top.env.master_agent.mon [axi4_master_monitor] Write complete: ID=0xa ADDR=0x3c0fa6d1 RESP=AXI4_RESP_OKAY
# UVM_INFO ../src/env/axi4_scoreboard.sv(82) @ 415000: uvm_test_top.env.scb [axi4_scoreboard] Master AXI4_WRITE received: ID=0xa ADDR=0x3c0fa6d1 LEN=14
# UVM_INFO ../src/env/axi4_scoreboard.sv(154) @ 415000: uvm_test_top.env.scb [axi4_scoreboard] [WRITE] MATCH #1: ID=0xa ADDR=0x3c0fa6d1 LEN=14
# UVM_INFO ../src/seq/axi4_outstanding_seq.sv(71) @ 415000: uvm_test_top.env.master_agent.sqr@@outstanding_seq [axi4_outstanding_seq] Outstanding Write [#3] complete: ID=0xa
# UVM_INFO ../src/seq/axi4_outstanding_seq.sv(65) @ 415000: uvm_test_top.env.master_agent.sqr@@outstanding_seq [axi4_outstanding_seq] Outstanding Write [#2] started: ID=0x0 ADDR=0x342d1185 LEN=15
# UVM_INFO ../src/mst/axi4_master_driver.sv(55) @ 415000: uvm_test_top.env.master_agent.drv [axi4_master_driver] Driving AXI4_WRITE  ID=0x0  ADDR=0x342d1185  LEN=15
# UVM_INFO ../src/mst/axi4_master_driver.sv(101) @ 415000: uvm_test_top.env.master_agent.drv [axi4_master_driver] Write order: AW -> W (sequential)
# UVM_INFO ../src/slv/axi4_slave_driver.sv(165) @ 445000: uvm_test_top.env.slave_agent.drv [axi4_slave_driver] AW received: ID=0x0 ADDR=0x342d1185 LEN=15 LOCK=AXI4_LOCK_NORMAL
# UVM_INFO ../src/mst/axi4_master_monitor.sv(124) @ 445000: uvm_test_top.env.master_agent.mon [axi4_master_monitor] AW observed: ID=0x0 ADDR=0x342d1185 LEN=15
# UVM_INFO ../src/slv/axi4_slave_monitor.sv(116) @ 445000: uvm_test_top.env.slave_agent.mon [axi4_slave_monitor] AW received: ID=0x0 ADDR=0x342d1185 LEN=15
# UVM_INFO ../src/mst/axi4_master_monitor.sv(184) @ 765000: uvm_test_top.env.master_agent.mon [axi4_master_monitor] W data assembled: ID=0x0 ADDR=0x342d1185 16 beats
# UVM_INFO ../src/slv/axi4_slave_monitor.sv(167) @ 765000: uvm_test_top.env.slave_agent.mon [axi4_slave_monitor] W data assembled: ID=0x0 ADDR=0x342d1185 16 beats
# UVM_INFO ../src/mst/axi4_master_driver.sv(197) @ 795000: uvm_test_top.env.master_agent.drv [axi4_master_driver] Write response: AXI4_RESP_OKAY
# UVM_INFO ../src/slv/axi4_slave_driver.sv(261) @ 795000: uvm_test_top.env.slave_agent.drv [axi4_slave_driver] Write complete: ID=0x0 ADDR=0x342d1185 RESP=AXI4_RESP_OKAY  16 beats processed
# UVM_INFO ../src/slv/axi4_slave_monitor.sv(189) @ 795000: uvm_test_top.env.slave_agent.mon [axi4_slave_monitor] Write response sent: ID=0x0 ADDR=0x342d1185 RESP=AXI4_RESP_OKAY
# UVM_INFO ../src/env/axi4_scoreboard.sv(103) @ 795000: uvm_test_top.env.scb [axi4_scoreboard] Slave AXI4_WRITE received: ID=0x0 ADDR=0x342d1185 LEN=15
# UVM_INFO ../src/mst/axi4_master_monitor.sv(210) @ 795000: uvm_test_top.env.master_agent.mon [axi4_master_monitor] Write complete: ID=0x0 ADDR=0x342d1185 RESP=AXI4_RESP_OKAY
# UVM_INFO ../src/env/axi4_scoreboard.sv(82) @ 795000: uvm_test_top.env.scb [axi4_scoreboard] Master AXI4_WRITE received: ID=0x0 ADDR=0x342d1185 LEN=15
# UVM_INFO ../src/env/axi4_scoreboard.sv(154) @ 795000: uvm_test_top.env.scb [axi4_scoreboard] [WRITE] MATCH #2: ID=0x0 ADDR=0x342d1185 LEN=15
# UVM_INFO ../src/seq/axi4_outstanding_seq.sv(71) @ 795000: uvm_test_top.env.master_agent.sqr@@outstanding_seq [axi4_outstanding_seq] Outstanding Write [#2] complete: ID=0x0
# UVM_INFO ../src/seq/axi4_outstanding_seq.sv(65) @ 795000: uvm_test_top.env.master_agent.sqr@@outstanding_seq [axi4_outstanding_seq] Outstanding Write [#1] started: ID=0x4 ADDR=0x3c752643 LEN=26
# UVM_INFO ../src/mst/axi4_master_driver.sv(55) @ 795000: uvm_test_top.env.master_agent.drv [axi4_master_driver] Driving AXI4_WRITE  ID=0x4  ADDR=0x3c752643  LEN=26
# UVM_INFO ../src/mst/axi4_master_driver.sv(94) @ 795000: uvm_test_top.env.master_agent.drv [axi4_master_driver] Write order: AW || W (parallel)
# UVM_INFO ../src/slv/axi4_slave_driver.sv(165) @ 825000: uvm_test_top.env.slave_agent.drv [axi4_slave_driver] AW received: ID=0x4 ADDR=0x3c752643 LEN=26 LOCK=AXI4_LOCK_NORMAL
# UVM_INFO ../src/mst/axi4_master_monitor.sv(124) @ 825000: uvm_test_top.env.master_agent.mon [axi4_master_monitor] AW observed: ID=0x4 ADDR=0x3c752643 LEN=26
# UVM_INFO ../src/slv/axi4_slave_monitor.sv(116) @ 825000: uvm_test_top.env.slave_agent.mon [axi4_slave_monitor] AW received: ID=0x4 ADDR=0x3c752643 LEN=26
# UVM_INFO ../src/slv/axi4_slave_monitor.sv(167) @ 1335000: uvm_test_top.env.slave_agent.mon [axi4_slave_monitor] W data assembled: ID=0x4 ADDR=0x3c752643 27 beats
# UVM_INFO ../src/mst/axi4_master_monitor.sv(184) @ 1335000: uvm_test_top.env.master_agent.mon [axi4_master_monitor] W data assembled: ID=0x4 ADDR=0x3c752643 27 beats
# UVM_INFO ../src/mst/axi4_master_driver.sv(197) @ 1365000: uvm_test_top.env.master_agent.drv [axi4_master_driver] Write response: AXI4_RESP_OKAY
# UVM_INFO ../src/slv/axi4_slave_driver.sv(261) @ 1365000: uvm_test_top.env.slave_agent.drv [axi4_slave_driver] Write complete: ID=0x4 ADDR=0x3c752643 RESP=AXI4_RESP_OKAY  27 beats processed
# UVM_INFO ../src/mst/axi4_master_monitor.sv(210) @ 1365000: uvm_test_top.env.master_agent.mon [axi4_master_monitor] Write complete: ID=0x4 ADDR=0x3c752643 RESP=AXI4_RESP_OKAY
# UVM_INFO ../src/env/axi4_scoreboard.sv(82) @ 1365000: uvm_test_top.env.scb [axi4_scoreboard] Master AXI4_WRITE received: ID=0x4 ADDR=0x3c752643 LEN=26
# UVM_INFO ../src/slv/axi4_slave_monitor.sv(189) @ 1365000: uvm_test_top.env.slave_agent.mon [axi4_slave_monitor] Write response sent: ID=0x4 ADDR=0x3c752643 RESP=AXI4_RESP_OKAY
# UVM_INFO ../src/env/axi4_scoreboard.sv(103) @ 1365000: uvm_test_top.env.scb [axi4_scoreboard] Slave AXI4_WRITE received: ID=0x4 ADDR=0x3c752643 LEN=26
# UVM_INFO ../src/env/axi4_scoreboard.sv(154) @ 1365000: uvm_test_top.env.scb [axi4_scoreboard] [WRITE] MATCH #3: ID=0x4 ADDR=0x3c752643 LEN=26
# UVM_INFO ../src/seq/axi4_outstanding_seq.sv(71) @ 1365000: uvm_test_top.env.master_agent.sqr@@outstanding_seq [axi4_outstanding_seq] Outstanding Write [#1] complete: ID=0x4
# UVM_INFO ../src/seq/axi4_outstanding_seq.sv(65) @ 1365000: uvm_test_top.env.master_agent.sqr@@outstanding_seq [axi4_outstanding_seq] Outstanding Write [#0] started: ID=0x2 ADDR=0x0df15a7a LEN=215
# UVM_INFO ../src/mst/axi4_master_driver.sv(55) @ 1365000: uvm_test_top.env.master_agent.drv [axi4_master_driver] Driving AXI4_WRITE  ID=0x2  ADDR=0x0df15a7a  LEN=215
# UVM_INFO ../src/mst/axi4_master_driver.sv(94) @ 1365000: uvm_test_top.env.master_agent.drv [axi4_master_driver] Write order: AW || W (parallel)
# UVM_INFO ../src/slv/axi4_slave_driver.sv(165) @ 1395000: uvm_test_top.env.slave_agent.drv [axi4_slave_driver] AW received: ID=0x2 ADDR=0x0df15a7a LEN=215 LOCK=AXI4_LOCK_NORMAL
# UVM_INFO ../src/slv/axi4_slave_monitor.sv(116) @ 1395000: uvm_test_top.env.slave_agent.mon [axi4_slave_monitor] AW received: ID=0x2 ADDR=0x0df15a7a LEN=215
# UVM_INFO ../src/mst/axi4_master_monitor.sv(124) @ 1395000: uvm_test_top.env.master_agent.mon [axi4_master_monitor] AW observed: ID=0x2 ADDR=0x0df15a7a LEN=215
# UVM_INFO ../src/mst/axi4_master_monitor.sv(184) @ 5685000: uvm_test_top.env.master_agent.mon [axi4_master_monitor] W data assembled: ID=0x2 ADDR=0x0df15a7a 216 beats
# UVM_INFO ../src/slv/axi4_slave_monitor.sv(167) @ 5685000: uvm_test_top.env.slave_agent.mon [axi4_slave_monitor] W data assembled: ID=0x2 ADDR=0x0df15a7a 216 beats
# UVM_INFO ../src/mst/axi4_master_driver.sv(197) @ 5715000: uvm_test_top.env.master_agent.drv [axi4_master_driver] Write response: AXI4_RESP_OKAY
# UVM_INFO ../src/slv/axi4_slave_driver.sv(261) @ 5715000: uvm_test_top.env.slave_agent.drv [axi4_slave_driver] Write complete: ID=0x2 ADDR=0x0df15a7a RESP=AXI4_RESP_OKAY  216 beats processed
# UVM_INFO ../src/slv/axi4_slave_monitor.sv(189) @ 5715000: uvm_test_top.env.slave_agent.mon [axi4_slave_monitor] Write response sent: ID=0x2 ADDR=0x0df15a7a RESP=AXI4_RESP_OKAY
# UVM_INFO ../src/env/axi4_scoreboard.sv(103) @ 5715000: uvm_test_top.env.scb [axi4_scoreboard] Slave AXI4_WRITE received: ID=0x2 ADDR=0x0df15a7a LEN=215
# UVM_INFO ../src/mst/axi4_master_monitor.sv(210) @ 5715000: uvm_test_top.env.master_agent.mon [axi4_master_monitor] Write complete: ID=0x2 ADDR=0x0df15a7a RESP=AXI4_RESP_OKAY
# UVM_INFO ../src/env/axi4_scoreboard.sv(82) @ 5715000: uvm_test_top.env.scb [axi4_scoreboard] Master AXI4_WRITE received: ID=0x2 ADDR=0x0df15a7a LEN=215
# UVM_INFO ../src/env/axi4_scoreboard.sv(154) @ 5715000: uvm_test_top.env.scb [axi4_scoreboard] [WRITE] MATCH #4: ID=0x2 ADDR=0x0df15a7a LEN=215
# UVM_INFO ../src/seq/axi4_outstanding_seq.sv(71) @ 5715000: uvm_test_top.env.master_agent.sqr@@outstanding_seq [axi4_outstanding_seq] Outstanding Write [#0] complete: ID=0x2
# UVM_INFO ../src/seq/axi4_outstanding_seq.sv(100) @ 5715000: uvm_test_top.env.master_agent.sqr@@outstanding_seq [axi4_outstanding_seq] Outstanding Read [#3] started: ID=0x4 ADDR=0x8f33c0a5 LEN=2
# UVM_INFO ../src/mst/axi4_master_driver.sv(55) @ 5715000: uvm_test_top.env.master_agent.drv [axi4_master_driver] Driving AXI4_READ  ID=0x4  ADDR=0x8f33c0a5  LEN=2
# UVM_INFO ../src/slv/axi4_slave_driver.sv(300) @ 5745000: uvm_test_top.env.slave_agent.drv [axi4_slave_driver] AR received: ID=0x4 ADDR=0x8f33c0a5 LEN=2 LOCK=AXI4_LOCK_NORMAL
# UVM_INFO ../src/mst/axi4_master_monitor.sv(246) @ 5745000: uvm_test_top.env.master_agent.mon [axi4_master_monitor] AR observed: ID=0x4 ADDR=0x8f33c0a5 LEN=2
# UVM_INFO ../src/slv/axi4_slave_monitor.sv(224) @ 5745000: uvm_test_top.env.slave_agent.mon [axi4_slave_monitor] AR received: ID=0x4 ADDR=0x8f33c0a5 LEN=2
# UVM_INFO ../src/mst/axi4_master_driver.sv(254) @ 5805000: uvm_test_top.env.master_agent.drv [axi4_master_driver] Read complete: 3 beats received
# UVM_INFO ../src/slv/axi4_slave_driver.sv(349) @ 5805000: uvm_test_top.env.slave_agent.drv [axi4_slave_driver] Read complete: ID=0x4 ADDR=0x8f33c0a5 RESP=AXI4_RESP_OKAY  3 beats sent
# UVM_INFO ../src/mst/axi4_master_monitor.sv(314) @ 5805000: uvm_test_top.env.master_agent.mon [axi4_master_monitor] Read complete: ID=0x4 ADDR=0x8f33c0a5 3 beats
# UVM_INFO ../src/env/axi4_scoreboard.sv(82) @ 5805000: uvm_test_top.env.scb [axi4_scoreboard] Master AXI4_READ received: ID=0x4 ADDR=0x8f33c0a5 LEN=2
# UVM_INFO ../src/slv/axi4_slave_monitor.sv(287) @ 5805000: uvm_test_top.env.slave_agent.mon [axi4_slave_monitor] Read data sent: ID=0x4 ADDR=0x8f33c0a5 3 beats
# UVM_INFO ../src/env/axi4_scoreboard.sv(103) @ 5805000: uvm_test_top.env.scb [axi4_scoreboard] Slave AXI4_READ received: ID=0x4 ADDR=0x8f33c0a5 LEN=2
# UVM_INFO ../src/env/axi4_scoreboard.sv(154) @ 5805000: uvm_test_top.env.scb [axi4_scoreboard] [READ] MATCH #5: ID=0x4 ADDR=0x8f33c0a5 LEN=2
# UVM_INFO ../src/seq/axi4_outstanding_seq.sv(106) @ 5805000: uvm_test_top.env.master_agent.sqr@@outstanding_seq [axi4_outstanding_seq] Outstanding Read [#3] complete: ID=0x4
# UVM_INFO ../src/seq/axi4_outstanding_seq.sv(100) @ 5805000: uvm_test_top.env.master_agent.sqr@@outstanding_seq [axi4_outstanding_seq] Outstanding Read [#2] started: ID=0xc ADDR=0xe715f476 LEN=169
# UVM_INFO ../src/mst/axi4_master_driver.sv(55) @ 5805000: uvm_test_top.env.master_agent.drv [axi4_master_driver] Driving AXI4_READ  ID=0xc  ADDR=0xe715f476  LEN=169
# UVM_INFO ../src/slv/axi4_slave_driver.sv(300) @ 5835000: uvm_test_top.env.slave_agent.drv [axi4_slave_driver] AR received: ID=0xc ADDR=0xe715f476 LEN=169 LOCK=AXI4_LOCK_NORMAL
# UVM_INFO ../src/slv/axi4_slave_monitor.sv(224) @ 5835000: uvm_test_top.env.slave_agent.mon [axi4_slave_monitor] AR received: ID=0xc ADDR=0xe715f476 LEN=169
# UVM_INFO ../src/mst/axi4_master_monitor.sv(246) @ 5835000: uvm_test_top.env.master_agent.mon [axi4_master_monitor] AR observed: ID=0xc ADDR=0xe715f476 LEN=169
# UVM_INFO ../src/mst/axi4_master_driver.sv(254) @ 9235000: uvm_test_top.env.master_agent.drv [axi4_master_driver] Read complete: 170 beats received
# UVM_INFO ../src/slv/axi4_slave_driver.sv(349) @ 9235000: uvm_test_top.env.slave_agent.drv [axi4_slave_driver] Read complete: ID=0xc ADDR=0xe715f476 RESP=AXI4_RESP_SLVERR  170 beats sent
# UVM_INFO ../src/slv/axi4_slave_monitor.sv(287) @ 9235000: uvm_test_top.env.slave_agent.mon [axi4_slave_monitor] Read data sent: ID=0xc ADDR=0xe715f476 170 beats
# UVM_INFO ../src/env/axi4_scoreboard.sv(103) @ 9235000: uvm_test_top.env.scb [axi4_scoreboard] Slave AXI4_READ received: ID=0xc ADDR=0xe715f476 LEN=169
# UVM_INFO ../src/mst/axi4_master_monitor.sv(314) @ 9235000: uvm_test_top.env.master_agent.mon [axi4_master_monitor] Read complete: ID=0xc ADDR=0xe715f476 170 beats
# UVM_INFO ../src/env/axi4_scoreboard.sv(82) @ 9235000: uvm_test_top.env.scb [axi4_scoreboard] Master AXI4_READ received: ID=0xc ADDR=0xe715f476 LEN=169
# UVM_INFO ../src/env/axi4_scoreboard.sv(154) @ 9235000: uvm_test_top.env.scb [axi4_scoreboard] [READ] MATCH #6: ID=0xc ADDR=0xe715f476 LEN=169
# UVM_INFO ../src/seq/axi4_outstanding_seq.sv(106) @ 9235000: uvm_test_top.env.master_agent.sqr@@outstanding_seq [axi4_outstanding_seq] Outstanding Read [#2] complete: ID=0xc
# UVM_INFO ../src/seq/axi4_outstanding_seq.sv(100) @ 9235000: uvm_test_top.env.master_agent.sqr@@outstanding_seq [axi4_outstanding_seq] Outstanding Read [#1] started: ID=0x9 ADDR=0xceb58f93 LEN=129
# UVM_INFO ../src/mst/axi4_master_driver.sv(55) @ 9235000: uvm_test_top.env.master_agent.drv [axi4_master_driver] Driving AXI4_READ  ID=0x9  ADDR=0xceb58f93  LEN=129
# UVM_INFO ../src/slv/axi4_slave_driver.sv(300) @ 9265000: uvm_test_top.env.slave_agent.drv [axi4_slave_driver] AR received: ID=0x9 ADDR=0xceb58f93 LEN=129 LOCK=AXI4_LOCK_NORMAL
# UVM_INFO ../src/mst/axi4_master_monitor.sv(246) @ 9265000: uvm_test_top.env.master_agent.mon [axi4_master_monitor] AR observed: ID=0x9 ADDR=0xceb58f93 LEN=129
# UVM_INFO ../src/slv/axi4_slave_monitor.sv(224) @ 9265000: uvm_test_top.env.slave_agent.mon [axi4_slave_monitor] AR received: ID=0x9 ADDR=0xceb58f93 LEN=129
# UVM_INFO ../src/mst/axi4_master_driver.sv(254) @ 11865000: uvm_test_top.env.master_agent.drv [axi4_master_driver] Read complete: 130 beats received
# UVM_INFO ../src/slv/axi4_slave_driver.sv(349) @ 11865000: uvm_test_top.env.slave_agent.drv [axi4_slave_driver] Read complete: ID=0x9 ADDR=0xceb58f93 RESP=AXI4_RESP_OKAY  130 beats sent
# UVM_INFO ../src/mst/axi4_master_monitor.sv(314) @ 11865000: uvm_test_top.env.master_agent.mon [axi4_master_monitor] Read complete: ID=0x9 ADDR=0xceb58f93 130 beats
# UVM_INFO ../src/env/axi4_scoreboard.sv(82) @ 11865000: uvm_test_top.env.scb [axi4_scoreboard] Master AXI4_READ received: ID=0x9 ADDR=0xceb58f93 LEN=129
# UVM_INFO ../src/slv/axi4_slave_monitor.sv(287) @ 11865000: uvm_test_top.env.slave_agent.mon [axi4_slave_monitor] Read data sent: ID=0x9 ADDR=0xceb58f93 130 beats
# UVM_INFO ../src/env/axi4_scoreboard.sv(103) @ 11865000: uvm_test_top.env.scb [axi4_scoreboard] Slave AXI4_READ received: ID=0x9 ADDR=0xceb58f93 LEN=129
# UVM_INFO ../src/env/axi4_scoreboard.sv(154) @ 11865000: uvm_test_top.env.scb [axi4_scoreboard] [READ] MATCH #7: ID=0x9 ADDR=0xceb58f93 LEN=129
# UVM_INFO ../src/seq/axi4_outstanding_seq.sv(106) @ 11865000: uvm_test_top.env.master_agent.sqr@@outstanding_seq [axi4_outstanding_seq] Outstanding Read [#1] complete: ID=0x9
# UVM_INFO ../src/seq/axi4_outstanding_seq.sv(100) @ 11865000: uvm_test_top.env.master_agent.sqr@@outstanding_seq [axi4_outstanding_seq] Outstanding Read [#0] started: ID=0x0 ADDR=0xc12a1b89 LEN=200
# UVM_INFO ../src/mst/axi4_master_driver.sv(55) @ 11865000: uvm_test_top.env.master_agent.drv [axi4_master_driver] Driving AXI4_READ  ID=0x0  ADDR=0xc12a1b89  LEN=200
# UVM_INFO ../src/slv/axi4_slave_driver.sv(300) @ 11895000: uvm_test_top.env.slave_agent.drv [axi4_slave_driver] AR received: ID=0x0 ADDR=0xc12a1b89 LEN=200 LOCK=AXI4_LOCK_EXCLUSIVE
# UVM_INFO ../src/slv/axi4_slave_monitor.sv(224) @ 11895000: uvm_test_top.env.slave_agent.mon [axi4_slave_monitor] AR received: ID=0x0 ADDR=0xc12a1b89 LEN=200
# UVM_INFO ../src/mst/axi4_master_monitor.sv(246) @ 11895000: uvm_test_top.env.master_agent.mon [axi4_master_monitor] AR observed: ID=0x0 ADDR=0xc12a1b89 LEN=200
# UVM_INFO ../src/mst/axi4_master_driver.sv(254) @ 15915000: uvm_test_top.env.master_agent.drv [axi4_master_driver] Read complete: 201 beats received
# UVM_INFO ../src/slv/axi4_slave_driver.sv(349) @ 15915000: uvm_test_top.env.slave_agent.drv [axi4_slave_driver] Read complete: ID=0x0 ADDR=0xc12a1b89 RESP=AXI4_RESP_EXOKAY  201 beats sent
# UVM_INFO ../src/slv/axi4_slave_monitor.sv(287) @ 15915000: uvm_test_top.env.slave_agent.mon [axi4_slave_monitor] Read data sent: ID=0x0 ADDR=0xc12a1b89 201 beats
# UVM_INFO ../src/env/axi4_scoreboard.sv(103) @ 15915000: uvm_test_top.env.scb [axi4_scoreboard] Slave AXI4_READ received: ID=0x0 ADDR=0xc12a1b89 LEN=200
# UVM_INFO ../src/mst/axi4_master_monitor.sv(314) @ 15915000: uvm_test_top.env.master_agent.mon [axi4_master_monitor] Read complete: ID=0x0 ADDR=0xc12a1b89 201 beats
# UVM_INFO ../src/env/axi4_scoreboard.sv(82) @ 15915000: uvm_test_top.env.scb [axi4_scoreboard] Master AXI4_READ received: ID=0x0 ADDR=0xc12a1b89 LEN=200
# UVM_INFO ../src/env/axi4_scoreboard.sv(154) @ 15915000: uvm_test_top.env.scb [axi4_scoreboard] [READ] MATCH #8: ID=0x0 ADDR=0xc12a1b89 LEN=200
# UVM_INFO ../src/seq/axi4_outstanding_seq.sv(106) @ 15915000: uvm_test_top.env.master_agent.sqr@@outstanding_seq [axi4_outstanding_seq] Outstanding Read [#0] complete: ID=0x0
# UVM_INFO ../src/seq/axi4_outstanding_seq.sv(65) @ 15915000: uvm_test_top.env.master_agent.sqr@@outstanding_seq [axi4_outstanding_seq] Outstanding Write [#4] started: ID=0x1 ADDR=0x31524503 LEN=144
# UVM_INFO ../src/mst/axi4_master_driver.sv(55) @ 15915000: uvm_test_top.env.master_agent.drv [axi4_master_driver] Driving AXI4_WRITE  ID=0x1  ADDR=0x31524503  LEN=144
# UVM_INFO ../src/mst/axi4_master_driver.sv(106) @ 15915000: uvm_test_top.env.master_agent.drv [axi4_master_driver] Write order: W -> AW (W first)
# UVM_INFO ../src/slv/axi4_slave_driver.sv(165) @ 15985000: uvm_test_top.env.slave_agent.drv [axi4_slave_driver] AW received: ID=0x1 ADDR=0x31524503 LEN=144 LOCK=AXI4_LOCK_EXCLUSIVE
# UVM_INFO ../src/mst/axi4_master_monitor.sv(124) @ 15985000: uvm_test_top.env.master_agent.mon [axi4_master_monitor] AW observed: ID=0x1 ADDR=0x31524503 LEN=144
# UVM_INFO ../src/slv/axi4_slave_monitor.sv(116) @ 15985000: uvm_test_top.env.slave_agent.mon [axi4_slave_monitor] AW received: ID=0x1 ADDR=0x31524503 LEN=144
# UVM_INFO ../src/slv/axi4_slave_monitor.sv(167) @ 18815000: uvm_test_top.env.slave_agent.mon [axi4_slave_monitor] W data assembled: ID=0x1 ADDR=0x31524503 145 beats
# UVM_INFO ../src/mst/axi4_master_monitor.sv(184) @ 18815000: uvm_test_top.env.master_agent.mon [axi4_master_monitor] W data assembled: ID=0x1 ADDR=0x31524503 145 beats
# UVM_INFO ../src/mst/axi4_master_driver.sv(197) @ 18845000: uvm_test_top.env.master_agent.drv [axi4_master_driver] Write response: AXI4_RESP_OKAY
# UVM_INFO ../src/slv/axi4_slave_driver.sv(261) @ 18845000: uvm_test_top.env.slave_agent.drv [axi4_slave_driver] Write complete: ID=0x1 ADDR=0x31524503 RESP=AXI4_RESP_OKAY  145 beats processed
# UVM_INFO ../src/mst/axi4_master_monitor.sv(210) @ 18845000: uvm_test_top.env.master_agent.mon [axi4_master_monitor] Write complete: ID=0x1 ADDR=0x31524503 RESP=AXI4_RESP_OKAY
# UVM_INFO ../src/env/axi4_scoreboard.sv(82) @ 18845000: uvm_test_top.env.scb [axi4_scoreboard] Master AXI4_WRITE received: ID=0x1 ADDR=0x31524503 LEN=144
# UVM_INFO ../src/slv/axi4_slave_monitor.sv(189) @ 18845000: uvm_test_top.env.slave_agent.mon [axi4_slave_monitor] Write response sent: ID=0x1 ADDR=0x31524503 RESP=AXI4_RESP_OKAY
# UVM_INFO ../src/env/axi4_scoreboard.sv(103) @ 18845000: uvm_test_top.env.scb [axi4_scoreboard] Slave AXI4_WRITE received: ID=0x1 ADDR=0x31524503 LEN=144
# UVM_INFO ../src/env/axi4_scoreboard.sv(154) @ 18845000: uvm_test_top.env.scb [axi4_scoreboard] [WRITE] MATCH #9: ID=0x1 ADDR=0x31524503 LEN=144
# UVM_INFO ../src/seq/axi4_outstanding_seq.sv(71) @ 18845000: uvm_test_top.env.master_agent.sqr@@outstanding_seq [axi4_outstanding_seq] Outstanding Write [#4] complete: ID=0x1
# UVM_INFO ../src/seq/axi4_outstanding_seq.sv(65) @ 18845000: uvm_test_top.env.master_agent.sqr@@outstanding_seq [axi4_outstanding_seq] Outstanding Write [#5] started: ID=0x7 ADDR=0x6d26319b LEN=130
# UVM_INFO ../src/mst/axi4_master_driver.sv(55) @ 18845000: uvm_test_top.env.master_agent.drv [axi4_master_driver] Driving AXI4_WRITE  ID=0x7  ADDR=0x6d26319b  LEN=130
# UVM_INFO ../src/mst/axi4_master_driver.sv(101) @ 18845000: uvm_test_top.env.master_agent.drv [axi4_master_driver] Write order: AW -> W (sequential)
# UVM_INFO ../src/slv/axi4_slave_driver.sv(165) @ 18875000: uvm_test_top.env.slave_agent.drv [axi4_slave_driver] AW received: ID=0x7 ADDR=0x6d26319b LEN=130 LOCK=AXI4_LOCK_EXCLUSIVE
# UVM_INFO ../src/slv/axi4_slave_monitor.sv(116) @ 18875000: uvm_test_top.env.slave_agent.mon [axi4_slave_monitor] AW received: ID=0x7 ADDR=0x6d26319b LEN=130
# UVM_INFO ../src/mst/axi4_master_monitor.sv(124) @ 18875000: uvm_test_top.env.master_agent.mon [axi4_master_monitor] AW observed: ID=0x7 ADDR=0x6d26319b LEN=130
# UVM_INFO ../src/slv/axi4_slave_monitor.sv(167) @ 21495000: uvm_test_top.env.slave_agent.mon [axi4_slave_monitor] W data assembled: ID=0x7 ADDR=0x6d26319b 131 beats
# UVM_INFO ../src/mst/axi4_master_monitor.sv(184) @ 21495000: uvm_test_top.env.master_agent.mon [axi4_master_monitor] W data assembled: ID=0x7 ADDR=0x6d26319b 131 beats
# UVM_INFO ../src/mst/axi4_master_driver.sv(197) @ 21525000: uvm_test_top.env.master_agent.drv [axi4_master_driver] Write response: AXI4_RESP_OKAY
# UVM_INFO ../src/slv/axi4_slave_driver.sv(261) @ 21525000: uvm_test_top.env.slave_agent.drv [axi4_slave_driver] Write complete: ID=0x7 ADDR=0x6d26319b RESP=AXI4_RESP_OKAY  131 beats processed
# UVM_INFO ../src/mst/axi4_master_monitor.sv(210) @ 21525000: uvm_test_top.env.master_agent.mon [axi4_master_monitor] Write complete: ID=0x7 ADDR=0x6d26319b RESP=AXI4_RESP_OKAY
# UVM_INFO ../src/env/axi4_scoreboard.sv(82) @ 21525000: uvm_test_top.env.scb [axi4_scoreboard] Master AXI4_WRITE received: ID=0x7 ADDR=0x6d26319b LEN=130
# UVM_INFO ../src/slv/axi4_slave_monitor.sv(189) @ 21525000: uvm_test_top.env.slave_agent.mon [axi4_slave_monitor] Write response sent: ID=0x7 ADDR=0x6d26319b RESP=AXI4_RESP_OKAY
# UVM_INFO ../src/env/axi4_scoreboard.sv(103) @ 21525000: uvm_test_top.env.scb [axi4_scoreboard] Slave AXI4_WRITE received: ID=0x7 ADDR=0x6d26319b LEN=130
# UVM_INFO ../src/env/axi4_scoreboard.sv(154) @ 21525000: uvm_test_top.env.scb [axi4_scoreboard] [WRITE] MATCH #10: ID=0x7 ADDR=0x6d26319b LEN=130
# UVM_INFO ../src/seq/axi4_outstanding_seq.sv(71) @ 21525000: uvm_test_top.env.master_agent.sqr@@outstanding_seq [axi4_outstanding_seq] Outstanding Write [#5] complete: ID=0x7
# UVM_INFO ../src/seq/axi4_outstanding_seq.sv(65) @ 21525000: uvm_test_top.env.master_agent.sqr@@outstanding_seq [axi4_outstanding_seq] Outstanding Write [#6] started: ID=0x0 ADDR=0x3db4a4c3 LEN=236
# UVM_INFO ../src/mst/axi4_master_driver.sv(55) @ 21525000: uvm_test_top.env.master_agent.drv [axi4_master_driver] Driving AXI4_WRITE  ID=0x0  ADDR=0x3db4a4c3  LEN=236
# UVM_INFO ../src/mst/axi4_master_driver.sv(101) @ 21525000: uvm_test_top.env.master_agent.drv [axi4_master_driver] Write order: AW -> W (sequential)
# UVM_INFO ../src/slv/axi4_slave_driver.sv(165) @ 21555000: uvm_test_top.env.slave_agent.drv [axi4_slave_driver] AW received: ID=0x0 ADDR=0x3db4a4c3 LEN=236 LOCK=AXI4_LOCK_EXCLUSIVE
# UVM_INFO ../src/slv/axi4_slave_monitor.sv(116) @ 21555000: uvm_test_top.env.slave_agent.mon [axi4_slave_monitor] AW received: ID=0x0 ADDR=0x3db4a4c3 LEN=236
# UVM_INFO ../src/mst/axi4_master_monitor.sv(124) @ 21555000: uvm_test_top.env.master_agent.mon [axi4_master_monitor] AW observed: ID=0x0 ADDR=0x3db4a4c3 LEN=236
# UVM_INFO ../src/slv/axi4_slave_monitor.sv(167) @ 26295000: uvm_test_top.env.slave_agent.mon [axi4_slave_monitor] W data assembled: ID=0x0 ADDR=0x3db4a4c3 237 beats
# UVM_INFO ../src/mst/axi4_master_monitor.sv(184) @ 26295000: uvm_test_top.env.master_agent.mon [axi4_master_monitor] W data assembled: ID=0x0 ADDR=0x3db4a4c3 237 beats
# UVM_INFO ../src/mst/axi4_master_driver.sv(197) @ 26325000: uvm_test_top.env.master_agent.drv [axi4_master_driver] Write response: AXI4_RESP_OKAY
# UVM_INFO ../src/slv/axi4_slave_driver.sv(261) @ 26325000: uvm_test_top.env.slave_agent.drv [axi4_slave_driver] Write complete: ID=0x0 ADDR=0x3db4a4c3 RESP=AXI4_RESP_OKAY  237 beats processed
# UVM_INFO ../src/mst/axi4_master_monitor.sv(210) @ 26325000: uvm_test_top.env.master_agent.mon [axi4_master_monitor] Write complete: ID=0x0 ADDR=0x3db4a4c3 RESP=AXI4_RESP_OKAY
# UVM_INFO ../src/env/axi4_scoreboard.sv(82) @ 26325000: uvm_test_top.env.scb [axi4_scoreboard] Master AXI4_WRITE received: ID=0x0 ADDR=0x3db4a4c3 LEN=236
# UVM_INFO ../src/slv/axi4_slave_monitor.sv(189) @ 26325000: uvm_test_top.env.slave_agent.mon [axi4_slave_monitor] Write response sent: ID=0x0 ADDR=0x3db4a4c3 RESP=AXI4_RESP_OKAY
# UVM_INFO ../src/env/axi4_scoreboard.sv(103) @ 26325000: uvm_test_top.env.scb [axi4_scoreboard] Slave AXI4_WRITE received: ID=0x0 ADDR=0x3db4a4c3 LEN=236
# UVM_INFO ../src/env/axi4_scoreboard.sv(154) @ 26325000: uvm_test_top.env.scb [axi4_scoreboard] [WRITE] MATCH #11: ID=0x0 ADDR=0x3db4a4c3 LEN=236
# UVM_INFO ../src/seq/axi4_outstanding_seq.sv(71) @ 26325000: uvm_test_top.env.master_agent.sqr@@outstanding_seq [axi4_outstanding_seq] Outstanding Write [#6] complete: ID=0x0
# UVM_INFO ../src/seq/axi4_outstanding_seq.sv(65) @ 26325000: uvm_test_top.env.master_agent.sqr@@outstanding_seq [axi4_outstanding_seq] Outstanding Write [#7] started: ID=0x1 ADDR=0x3cefc2fa LEN=233
# UVM_INFO ../src/mst/axi4_master_driver.sv(55) @ 26325000: uvm_test_top.env.master_agent.drv [axi4_master_driver] Driving AXI4_WRITE  ID=0x1  ADDR=0x3cefc2fa  LEN=233
# UVM_INFO ../src/mst/axi4_master_driver.sv(94) @ 26325000: uvm_test_top.env.master_agent.drv [axi4_master_driver] Write order: AW || W (parallel)
# UVM_INFO ../src/slv/axi4_slave_driver.sv(165) @ 26355000: uvm_test_top.env.slave_agent.drv [axi4_slave_driver] AW received: ID=0x1 ADDR=0x3cefc2fa LEN=233 LOCK=AXI4_LOCK_EXCLUSIVE
# UVM_INFO ../src/slv/axi4_slave_monitor.sv(116) @ 26355000: uvm_test_top.env.slave_agent.mon [axi4_slave_monitor] AW received: ID=0x1 ADDR=0x3cefc2fa LEN=233
# UVM_INFO ../src/mst/axi4_master_monitor.sv(124) @ 26355000: uvm_test_top.env.master_agent.mon [axi4_master_monitor] AW observed: ID=0x1 ADDR=0x3cefc2fa LEN=233
# UVM_INFO ../src/mst/axi4_master_monitor.sv(184) @ 31005000: uvm_test_top.env.master_agent.mon [axi4_master_monitor] W data assembled: ID=0x1 ADDR=0x3cefc2fa 234 beats
# UVM_INFO ../src/slv/axi4_slave_monitor.sv(167) @ 31005000: uvm_test_top.env.slave_agent.mon [axi4_slave_monitor] W data assembled: ID=0x1 ADDR=0x3cefc2fa 234 beats
# UVM_INFO ../src/mst/axi4_master_driver.sv(197) @ 31035000: uvm_test_top.env.master_agent.drv [axi4_master_driver] Write response: AXI4_RESP_OKAY
# UVM_INFO ../src/slv/axi4_slave_driver.sv(261) @ 31035000: uvm_test_top.env.slave_agent.drv [axi4_slave_driver] Write complete: ID=0x1 ADDR=0x3cefc2fa RESP=AXI4_RESP_OKAY  234 beats processed
# UVM_INFO ../src/slv/axi4_slave_monitor.sv(189) @ 31035000: uvm_test_top.env.slave_agent.mon [axi4_slave_monitor] Write response sent: ID=0x1 ADDR=0x3cefc2fa RESP=AXI4_RESP_OKAY
# UVM_INFO ../src/env/axi4_scoreboard.sv(103) @ 31035000: uvm_test_top.env.scb [axi4_scoreboard] Slave AXI4_WRITE received: ID=0x1 ADDR=0x3cefc2fa LEN=233
# UVM_INFO ../src/mst/axi4_master_monitor.sv(210) @ 31035000: uvm_test_top.env.master_agent.mon [axi4_master_monitor] Write complete: ID=0x1 ADDR=0x3cefc2fa RESP=AXI4_RESP_OKAY
# UVM_INFO ../src/env/axi4_scoreboard.sv(82) @ 31035000: uvm_test_top.env.scb [axi4_scoreboard] Master AXI4_WRITE received: ID=0x1 ADDR=0x3cefc2fa LEN=233
# UVM_INFO ../src/env/axi4_scoreboard.sv(154) @ 31035000: uvm_test_top.env.scb [axi4_scoreboard] [WRITE] MATCH #12: ID=0x1 ADDR=0x3cefc2fa LEN=233
# UVM_INFO ../src/seq/axi4_outstanding_seq.sv(71) @ 31035000: uvm_test_top.env.master_agent.sqr@@outstanding_seq [axi4_outstanding_seq] Outstanding Write [#7] complete: ID=0x1
# UVM_INFO ../src/seq/axi4_outstanding_seq.sv(100) @ 31035000: uvm_test_top.env.master_agent.sqr@@outstanding_seq [axi4_outstanding_seq] Outstanding Read [#4] started: ID=0x5 ADDR=0xc6a585cf LEN=209
# UVM_INFO ../src/mst/axi4_master_driver.sv(55) @ 31035000: uvm_test_top.env.master_agent.drv [axi4_master_driver] Driving AXI4_READ  ID=0x5  ADDR=0xc6a585cf  LEN=209
# UVM_INFO ../src/slv/axi4_slave_driver.sv(300) @ 31065000: uvm_test_top.env.slave_agent.drv [axi4_slave_driver] AR received: ID=0x5 ADDR=0xc6a585cf LEN=209 LOCK=AXI4_LOCK_EXCLUSIVE
# UVM_INFO ../src/mst/axi4_master_monitor.sv(246) @ 31065000: uvm_test_top.env.master_agent.mon [axi4_master_monitor] AR observed: ID=0x5 ADDR=0xc6a585cf LEN=209
# UVM_INFO ../src/slv/axi4_slave_monitor.sv(224) @ 31065000: uvm_test_top.env.slave_agent.mon [axi4_slave_monitor] AR received: ID=0x5 ADDR=0xc6a585cf LEN=209
# UVM_INFO ../src/mst/axi4_master_driver.sv(254) @ 35265000: uvm_test_top.env.master_agent.drv [axi4_master_driver] Read complete: 210 beats received
# UVM_INFO ../src/slv/axi4_slave_driver.sv(349) @ 35265000: uvm_test_top.env.slave_agent.drv [axi4_slave_driver] Read complete: ID=0x5 ADDR=0xc6a585cf RESP=AXI4_RESP_EXOKAY  210 beats sent
# UVM_INFO ../src/mst/axi4_master_monitor.sv(314) @ 35265000: uvm_test_top.env.master_agent.mon [axi4_master_monitor] Read complete: ID=0x5 ADDR=0xc6a585cf 210 beats
# UVM_INFO ../src/env/axi4_scoreboard.sv(82) @ 35265000: uvm_test_top.env.scb [axi4_scoreboard] Master AXI4_READ received: ID=0x5 ADDR=0xc6a585cf LEN=209
# UVM_INFO ../src/slv/axi4_slave_monitor.sv(287) @ 35265000: uvm_test_top.env.slave_agent.mon [axi4_slave_monitor] Read data sent: ID=0x5 ADDR=0xc6a585cf 210 beats
# UVM_INFO ../src/env/axi4_scoreboard.sv(103) @ 35265000: uvm_test_top.env.scb [axi4_scoreboard] Slave AXI4_READ received: ID=0x5 ADDR=0xc6a585cf LEN=209
# UVM_INFO ../src/env/axi4_scoreboard.sv(154) @ 35265000: uvm_test_top.env.scb [axi4_scoreboard] [READ] MATCH #13: ID=0x5 ADDR=0xc6a585cf LEN=209
# UVM_INFO ../src/seq/axi4_outstanding_seq.sv(106) @ 35265000: uvm_test_top.env.master_agent.sqr@@outstanding_seq [axi4_outstanding_seq] Outstanding Read [#4] complete: ID=0x5
# UVM_INFO ../src/seq/axi4_outstanding_seq.sv(100) @ 35265000: uvm_test_top.env.master_agent.sqr@@outstanding_seq [axi4_outstanding_seq] Outstanding Read [#5] started: ID=0x6 ADDR=0x6c7bce78 LEN=14
# UVM_INFO ../src/mst/axi4_master_driver.sv(55) @ 35265000: uvm_test_top.env.master_agent.drv [axi4_master_driver] Driving AXI4_READ  ID=0x6  ADDR=0x6c7bce78  LEN=14
# UVM_INFO ../src/slv/axi4_slave_driver.sv(300) @ 35295000: uvm_test_top.env.slave_agent.drv [axi4_slave_driver] AR received: ID=0x6 ADDR=0x6c7bce78 LEN=14 LOCK=AXI4_LOCK_NORMAL
# UVM_INFO ../src/slv/axi4_slave_monitor.sv(224) @ 35295000: uvm_test_top.env.slave_agent.mon [axi4_slave_monitor] AR received: ID=0x6 ADDR=0x6c7bce78 LEN=14
# UVM_INFO ../src/mst/axi4_master_monitor.sv(246) @ 35295000: uvm_test_top.env.master_agent.mon [axi4_master_monitor] AR observed: ID=0x6 ADDR=0x6c7bce78 LEN=14
# UVM_INFO ../src/mst/axi4_master_driver.sv(254) @ 35595000: uvm_test_top.env.master_agent.drv [axi4_master_driver] Read complete: 15 beats received
# UVM_INFO ../src/slv/axi4_slave_driver.sv(349) @ 35595000: uvm_test_top.env.slave_agent.drv [axi4_slave_driver] Read complete: ID=0x6 ADDR=0x6c7bce78 RESP=AXI4_RESP_OKAY  15 beats sent
# UVM_INFO ../src/slv/axi4_slave_monitor.sv(287) @ 35595000: uvm_test_top.env.slave_agent.mon [axi4_slave_monitor] Read data sent: ID=0x6 ADDR=0x6c7bce78 15 beats
# UVM_INFO ../src/env/axi4_scoreboard.sv(103) @ 35595000: uvm_test_top.env.scb [axi4_scoreboard] Slave AXI4_READ received: ID=0x6 ADDR=0x6c7bce78 LEN=14
# UVM_INFO ../src/mst/axi4_master_monitor.sv(314) @ 35595000: uvm_test_top.env.master_agent.mon [axi4_master_monitor] Read complete: ID=0x6 ADDR=0x6c7bce78 15 beats
# UVM_INFO ../src/env/axi4_scoreboard.sv(82) @ 35595000: uvm_test_top.env.scb [axi4_scoreboard] Master AXI4_READ received: ID=0x6 ADDR=0x6c7bce78 LEN=14
# UVM_INFO ../src/env/axi4_scoreboard.sv(154) @ 35595000: uvm_test_top.env.scb [axi4_scoreboard] [READ] MATCH #14: ID=0x6 ADDR=0x6c7bce78 LEN=14
# UVM_INFO ../src/seq/axi4_outstanding_seq.sv(106) @ 35595000: uvm_test_top.env.master_agent.sqr@@outstanding_seq [axi4_outstanding_seq] Outstanding Read [#5] complete: ID=0x6
# UVM_INFO ../src/seq/axi4_outstanding_seq.sv(100) @ 35595000: uvm_test_top.env.master_agent.sqr@@outstanding_seq [axi4_outstanding_seq] Outstanding Read [#6] started: ID=0x1 ADDR=0x39fb303e LEN=15
# UVM_INFO ../src/mst/axi4_master_driver.sv(55) @ 35595000: uvm_test_top.env.master_agent.drv [axi4_master_driver] Driving AXI4_READ  ID=0x1  ADDR=0x39fb303e  LEN=15
# UVM_INFO ../src/slv/axi4_slave_driver.sv(300) @ 35625000: uvm_test_top.env.slave_agent.drv [axi4_slave_driver] AR received: ID=0x1 ADDR=0x39fb303e LEN=15 LOCK=AXI4_LOCK_NORMAL
# UVM_INFO ../src/mst/axi4_master_monitor.sv(246) @ 35625000: uvm_test_top.env.master_agent.mon [axi4_master_monitor] AR observed: ID=0x1 ADDR=0x39fb303e LEN=15
# UVM_INFO ../src/slv/axi4_slave_monitor.sv(224) @ 35625000: uvm_test_top.env.slave_agent.mon [axi4_slave_monitor] AR received: ID=0x1 ADDR=0x39fb303e LEN=15
# UVM_INFO ../src/mst/axi4_master_driver.sv(254) @ 35945000: uvm_test_top.env.master_agent.drv [axi4_master_driver] Read complete: 16 beats received
# UVM_INFO ../src/slv/axi4_slave_driver.sv(349) @ 35945000: uvm_test_top.env.slave_agent.drv [axi4_slave_driver] Read complete: ID=0x1 ADDR=0x39fb303e RESP=AXI4_RESP_OKAY  16 beats sent
# UVM_INFO ../src/mst/axi4_master_monitor.sv(314) @ 35945000: uvm_test_top.env.master_agent.mon [axi4_master_monitor] Read complete: ID=0x1 ADDR=0x39fb303e 16 beats
# UVM_INFO ../src/env/axi4_scoreboard.sv(82) @ 35945000: uvm_test_top.env.scb [axi4_scoreboard] Master AXI4_READ received: ID=0x1 ADDR=0x39fb303e LEN=15
# UVM_INFO ../src/slv/axi4_slave_monitor.sv(287) @ 35945000: uvm_test_top.env.slave_agent.mon [axi4_slave_monitor] Read data sent: ID=0x1 ADDR=0x39fb303e 16 beats
# UVM_INFO ../src/env/axi4_scoreboard.sv(103) @ 35945000: uvm_test_top.env.scb [axi4_scoreboard] Slave AXI4_READ received: ID=0x1 ADDR=0x39fb303e LEN=15
# UVM_INFO ../src/env/axi4_scoreboard.sv(154) @ 35945000: uvm_test_top.env.scb [axi4_scoreboard] [READ] MATCH #15: ID=0x1 ADDR=0x39fb303e LEN=15
# UVM_INFO ../src/seq/axi4_outstanding_seq.sv(106) @ 35945000: uvm_test_top.env.master_agent.sqr@@outstanding_seq [axi4_outstanding_seq] Outstanding Read [#6] complete: ID=0x1
# UVM_INFO ../src/seq/axi4_outstanding_seq.sv(100) @ 35945000: uvm_test_top.env.master_agent.sqr@@outstanding_seq [axi4_outstanding_seq] Outstanding Read [#7] started: ID=0x0 ADDR=0xe174ed78 LEN=7
# UVM_INFO ../src/mst/axi4_master_driver.sv(55) @ 35945000: uvm_test_top.env.master_agent.drv [axi4_master_driver] Driving AXI4_READ  ID=0x0  ADDR=0xe174ed78  LEN=7
# UVM_INFO ../src/slv/axi4_slave_driver.sv(300) @ 35975000: uvm_test_top.env.slave_agent.drv [axi4_slave_driver] AR received: ID=0x0 ADDR=0xe174ed78 LEN=7 LOCK=AXI4_LOCK_EXCLUSIVE
# UVM_INFO ../src/slv/axi4_slave_monitor.sv(224) @ 35975000: uvm_test_top.env.slave_agent.mon [axi4_slave_monitor] AR received: ID=0x0 ADDR=0xe174ed78 LEN=7
# UVM_INFO ../src/mst/axi4_master_monitor.sv(246) @ 35975000: uvm_test_top.env.master_agent.mon [axi4_master_monitor] AR observed: ID=0x0 ADDR=0xe174ed78 LEN=7
# UVM_INFO ../src/mst/axi4_master_driver.sv(254) @ 36135000: uvm_test_top.env.master_agent.drv [axi4_master_driver] Read complete: 8 beats received
# UVM_INFO ../src/slv/axi4_slave_driver.sv(349) @ 36135000: uvm_test_top.env.slave_agent.drv [axi4_slave_driver] Read complete: ID=0x0 ADDR=0xe174ed78 RESP=AXI4_RESP_SLVERR  8 beats sent
# UVM_INFO ../src/slv/axi4_slave_monitor.sv(287) @ 36135000: uvm_test_top.env.slave_agent.mon [axi4_slave_monitor] Read data sent: ID=0x0 ADDR=0xe174ed78 8 beats
# UVM_INFO ../src/env/axi4_scoreboard.sv(103) @ 36135000: uvm_test_top.env.scb [axi4_scoreboard] Slave AXI4_READ received: ID=0x0 ADDR=0xe174ed78 LEN=7
# UVM_INFO ../src/mst/axi4_master_monitor.sv(314) @ 36135000: uvm_test_top.env.master_agent.mon [axi4_master_monitor] Read complete: ID=0x0 ADDR=0xe174ed78 8 beats
# UVM_INFO ../src/env/axi4_scoreboard.sv(82) @ 36135000: uvm_test_top.env.scb [axi4_scoreboard] Master AXI4_READ received: ID=0x0 ADDR=0xe174ed78 LEN=7
# UVM_INFO ../src/env/axi4_scoreboard.sv(154) @ 36135000: uvm_test_top.env.scb [axi4_scoreboard] [READ] MATCH #16: ID=0x0 ADDR=0xe174ed78 LEN=7
# UVM_INFO ../src/seq/axi4_outstanding_seq.sv(106) @ 36135000: uvm_test_top.env.master_agent.sqr@@outstanding_seq [axi4_outstanding_seq] Outstanding Read [#7] complete: ID=0x0
# UVM_INFO ../src/seq/axi4_outstanding_seq.sv(65) @ 36135000: uvm_test_top.env.master_agent.sqr@@outstanding_seq [axi4_outstanding_seq] Outstanding Write [#8] started: ID=0x5 ADDR=0xc0dd4a5f LEN=233
# UVM_INFO ../src/mst/axi4_master_driver.sv(55) @ 36135000: uvm_test_top.env.master_agent.drv [axi4_master_driver] Driving AXI4_WRITE  ID=0x5  ADDR=0xc0dd4a5f  LEN=233
# UVM_INFO ../src/mst/axi4_master_driver.sv(94) @ 36135000: uvm_test_top.env.master_agent.drv [axi4_master_driver] Write order: AW || W (parallel)
# UVM_INFO ../src/slv/axi4_slave_driver.sv(165) @ 36165000: uvm_test_top.env.slave_agent.drv [axi4_slave_driver] AW received: ID=0x5 ADDR=0xc0dd4a5f LEN=233 LOCK=AXI4_LOCK_NORMAL
# UVM_INFO ../src/mst/axi4_master_monitor.sv(124) @ 36165000: uvm_test_top.env.master_agent.mon [axi4_master_monitor] AW observed: ID=0x5 ADDR=0xc0dd4a5f LEN=233
# UVM_INFO ../src/slv/axi4_slave_monitor.sv(116) @ 36165000: uvm_test_top.env.slave_agent.mon [axi4_slave_monitor] AW received: ID=0x5 ADDR=0xc0dd4a5f LEN=233
# UVM_INFO ../src/slv/axi4_slave_monitor.sv(167) @ 40815000: uvm_test_top.env.slave_agent.mon [axi4_slave_monitor] W data assembled: ID=0x5 ADDR=0xc0dd4a5f 234 beats
# UVM_INFO ../src/mst/axi4_master_monitor.sv(184) @ 40815000: uvm_test_top.env.master_agent.mon [axi4_master_monitor] W data assembled: ID=0x5 ADDR=0xc0dd4a5f 234 beats
# UVM_INFO ../src/mst/axi4_master_driver.sv(197) @ 40845000: uvm_test_top.env.master_agent.drv [axi4_master_driver] Write response: AXI4_RESP_OKAY
# UVM_INFO ../src/slv/axi4_slave_driver.sv(261) @ 40845000: uvm_test_top.env.slave_agent.drv [axi4_slave_driver] Write complete: ID=0x5 ADDR=0xc0dd4a5f RESP=AXI4_RESP_OKAY  234 beats processed
# UVM_INFO ../src/mst/axi4_master_monitor.sv(210) @ 40845000: uvm_test_top.env.master_agent.mon [axi4_master_monitor] Write complete: ID=0x5 ADDR=0xc0dd4a5f RESP=AXI4_RESP_OKAY
# UVM_INFO ../src/env/axi4_scoreboard.sv(82) @ 40845000: uvm_test_top.env.scb [axi4_scoreboard] Master AXI4_WRITE received: ID=0x5 ADDR=0xc0dd4a5f LEN=233
# UVM_INFO ../src/slv/axi4_slave_monitor.sv(189) @ 40845000: uvm_test_top.env.slave_agent.mon [axi4_slave_monitor] Write response sent: ID=0x5 ADDR=0xc0dd4a5f RESP=AXI4_RESP_OKAY
# UVM_INFO ../src/env/axi4_scoreboard.sv(103) @ 40845000: uvm_test_top.env.scb [axi4_scoreboard] Slave AXI4_WRITE received: ID=0x5 ADDR=0xc0dd4a5f LEN=233
# UVM_INFO ../src/env/axi4_scoreboard.sv(154) @ 40845000: uvm_test_top.env.scb [axi4_scoreboard] [WRITE] MATCH #17: ID=0x5 ADDR=0xc0dd4a5f LEN=233
# UVM_INFO ../src/seq/axi4_outstanding_seq.sv(71) @ 40845000: uvm_test_top.env.master_agent.sqr@@outstanding_seq [axi4_outstanding_seq] Outstanding Write [#8] complete: ID=0x5
# UVM_INFO ../src/seq/axi4_outstanding_seq.sv(65) @ 40845000: uvm_test_top.env.master_agent.sqr@@outstanding_seq [axi4_outstanding_seq] Outstanding Write [#9] started: ID=0x8 ADDR=0x4c0a457b LEN=98
# UVM_INFO ../src/mst/axi4_master_driver.sv(55) @ 40845000: uvm_test_top.env.master_agent.drv [axi4_master_driver] Driving AXI4_WRITE  ID=0x8  ADDR=0x4c0a457b  LEN=98
# UVM_INFO ../src/mst/axi4_master_driver.sv(101) @ 40845000: uvm_test_top.env.master_agent.drv [axi4_master_driver] Write order: AW -> W (sequential)
# UVM_INFO ../src/slv/axi4_slave_driver.sv(165) @ 40875000: uvm_test_top.env.slave_agent.drv [axi4_slave_driver] AW received: ID=0x8 ADDR=0x4c0a457b LEN=98 LOCK=AXI4_LOCK_EXCLUSIVE
# UVM_INFO ../src/slv/axi4_slave_monitor.sv(116) @ 40875000: uvm_test_top.env.slave_agent.mon [axi4_slave_monitor] AW received: ID=0x8 ADDR=0x4c0a457b LEN=98
# UVM_INFO ../src/mst/axi4_master_monitor.sv(124) @ 40875000: uvm_test_top.env.master_agent.mon [axi4_master_monitor] AW observed: ID=0x8 ADDR=0x4c0a457b LEN=98
# UVM_INFO ../src/slv/axi4_slave_monitor.sv(167) @ 42855000: uvm_test_top.env.slave_agent.mon [axi4_slave_monitor] W data assembled: ID=0x8 ADDR=0x4c0a457b 99 beats
# UVM_INFO ../src/mst/axi4_master_monitor.sv(184) @ 42855000: uvm_test_top.env.master_agent.mon [axi4_master_monitor] W data assembled: ID=0x8 ADDR=0x4c0a457b 99 beats
# UVM_INFO ../src/mst/axi4_master_driver.sv(197) @ 42885000: uvm_test_top.env.master_agent.drv [axi4_master_driver] Write response: AXI4_RESP_OKAY
# UVM_INFO ../src/slv/axi4_slave_driver.sv(261) @ 42885000: uvm_test_top.env.slave_agent.drv [axi4_slave_driver] Write complete: ID=0x8 ADDR=0x4c0a457b RESP=AXI4_RESP_OKAY  99 beats processed
# UVM_INFO ../src/mst/axi4_master_monitor.sv(210) @ 42885000: uvm_test_top.env.master_agent.mon [axi4_master_monitor] Write complete: ID=0x8 ADDR=0x4c0a457b RESP=AXI4_RESP_OKAY
# UVM_INFO ../src/env/axi4_scoreboard.sv(82) @ 42885000: uvm_test_top.env.scb [axi4_scoreboard] Master AXI4_WRITE received: ID=0x8 ADDR=0x4c0a457b LEN=98
# UVM_INFO ../src/slv/axi4_slave_monitor.sv(189) @ 42885000: uvm_test_top.env.slave_agent.mon [axi4_slave_monitor] Write response sent: ID=0x8 ADDR=0x4c0a457b RESP=AXI4_RESP_OKAY
# UVM_INFO ../src/env/axi4_scoreboard.sv(103) @ 42885000: uvm_test_top.env.scb [axi4_scoreboard] Slave AXI4_WRITE received: ID=0x8 ADDR=0x4c0a457b LEN=98
# UVM_INFO ../src/env/axi4_scoreboard.sv(154) @ 42885000: uvm_test_top.env.scb [axi4_scoreboard] [WRITE] MATCH #18: ID=0x8 ADDR=0x4c0a457b LEN=98
# UVM_INFO ../src/seq/axi4_outstanding_seq.sv(71) @ 42885000: uvm_test_top.env.master_agent.sqr@@outstanding_seq [axi4_outstanding_seq] Outstanding Write [#9] complete: ID=0x8
# UVM_INFO ../src/seq/axi4_outstanding_seq.sv(65) @ 42885000: uvm_test_top.env.master_agent.sqr@@outstanding_seq [axi4_outstanding_seq] Outstanding Write [#10] started: ID=0xb ADDR=0x1ad3358b LEN=239
# UVM_INFO ../src/mst/axi4_master_driver.sv(55) @ 42885000: uvm_test_top.env.master_agent.drv [axi4_master_driver] Driving AXI4_WRITE  ID=0xb  ADDR=0x1ad3358b  LEN=239
# UVM_INFO ../src/mst/axi4_master_driver.sv(94) @ 42885000: uvm_test_top.env.master_agent.drv [axi4_master_driver] Write order: AW || W (parallel)
# UVM_INFO ../src/slv/axi4_slave_driver.sv(165) @ 42915000: uvm_test_top.env.slave_agent.drv [axi4_slave_driver] AW received: ID=0xb ADDR=0x1ad3358b LEN=239 LOCK=AXI4_LOCK_EXCLUSIVE
# UVM_INFO ../src/slv/axi4_slave_monitor.sv(116) @ 42915000: uvm_test_top.env.slave_agent.mon [axi4_slave_monitor] AW received: ID=0xb ADDR=0x1ad3358b LEN=239
# UVM_INFO ../src/mst/axi4_master_monitor.sv(124) @ 42915000: uvm_test_top.env.master_agent.mon [axi4_master_monitor] AW observed: ID=0xb ADDR=0x1ad3358b LEN=239
# UVM_INFO ../src/mst/axi4_master_monitor.sv(184) @ 47685000: uvm_test_top.env.master_agent.mon [axi4_master_monitor] W data assembled: ID=0xb ADDR=0x1ad3358b 240 beats
# UVM_INFO ../src/slv/axi4_slave_monitor.sv(167) @ 47685000: uvm_test_top.env.slave_agent.mon [axi4_slave_monitor] W data assembled: ID=0xb ADDR=0x1ad3358b 240 beats
# UVM_INFO ../src/mst/axi4_master_driver.sv(197) @ 47715000: uvm_test_top.env.master_agent.drv [axi4_master_driver] Write response: AXI4_RESP_OKAY
# UVM_INFO ../src/slv/axi4_slave_driver.sv(261) @ 47715000: uvm_test_top.env.slave_agent.drv [axi4_slave_driver] Write complete: ID=0xb ADDR=0x1ad3358b RESP=AXI4_RESP_OKAY  240 beats processed
# UVM_INFO ../src/slv/axi4_slave_monitor.sv(189) @ 47715000: uvm_test_top.env.slave_agent.mon [axi4_slave_monitor] Write response sent: ID=0xb ADDR=0x1ad3358b RESP=AXI4_RESP_OKAY
# UVM_INFO ../src/env/axi4_scoreboard.sv(103) @ 47715000: uvm_test_top.env.scb [axi4_scoreboard] Slave AXI4_WRITE received: ID=0xb ADDR=0x1ad3358b LEN=239
# UVM_INFO ../src/mst/axi4_master_monitor.sv(210) @ 47715000: uvm_test_top.env.master_agent.mon [axi4_master_monitor] Write complete: ID=0xb ADDR=0x1ad3358b RESP=AXI4_RESP_OKAY
# UVM_INFO ../src/env/axi4_scoreboard.sv(82) @ 47715000: uvm_test_top.env.scb [axi4_scoreboard] Master AXI4_WRITE received: ID=0xb ADDR=0x1ad3358b LEN=239
# UVM_INFO ../src/env/axi4_scoreboard.sv(154) @ 47715000: uvm_test_top.env.scb [axi4_scoreboard] [WRITE] MATCH #19: ID=0xb ADDR=0x1ad3358b LEN=239
# UVM_INFO ../src/seq/axi4_outstanding_seq.sv(71) @ 47715000: uvm_test_top.env.master_agent.sqr@@outstanding_seq [axi4_outstanding_seq] Outstanding Write [#10] complete: ID=0xb
# UVM_INFO ../src/seq/axi4_outstanding_seq.sv(65) @ 47715000: uvm_test_top.env.master_agent.sqr@@outstanding_seq [axi4_outstanding_seq] Outstanding Write [#11] started: ID=0x7 ADDR=0xd5eedb07 LEN=8
# UVM_INFO ../src/mst/axi4_master_driver.sv(55) @ 47715000: uvm_test_top.env.master_agent.drv [axi4_master_driver] Driving AXI4_WRITE  ID=0x7  ADDR=0xd5eedb07  LEN=8
# UVM_INFO ../src/mst/axi4_master_driver.sv(94) @ 47715000: uvm_test_top.env.master_agent.drv [axi4_master_driver] Write order: AW || W (parallel)
# UVM_INFO ../src/slv/axi4_slave_driver.sv(165) @ 47745000: uvm_test_top.env.slave_agent.drv [axi4_slave_driver] AW received: ID=0x7 ADDR=0xd5eedb07 LEN=8 LOCK=AXI4_LOCK_EXCLUSIVE
# UVM_INFO ../src/mst/axi4_master_monitor.sv(124) @ 47745000: uvm_test_top.env.master_agent.mon [axi4_master_monitor] AW observed: ID=0x7 ADDR=0xd5eedb07 LEN=8
# UVM_INFO ../src/slv/axi4_slave_monitor.sv(116) @ 47745000: uvm_test_top.env.slave_agent.mon [axi4_slave_monitor] AW received: ID=0x7 ADDR=0xd5eedb07 LEN=8
# UVM_INFO ../src/slv/axi4_slave_monitor.sv(167) @ 47895000: uvm_test_top.env.slave_agent.mon [axi4_slave_monitor] W data assembled: ID=0x7 ADDR=0xd5eedb07 9 beats
# UVM_INFO ../src/mst/axi4_master_monitor.sv(184) @ 47895000: uvm_test_top.env.master_agent.mon [axi4_master_monitor] W data assembled: ID=0x7 ADDR=0xd5eedb07 9 beats
# UVM_INFO ../src/mst/axi4_master_driver.sv(197) @ 47925000: uvm_test_top.env.master_agent.drv [axi4_master_driver] Write response: AXI4_RESP_OKAY
# UVM_INFO ../src/slv/axi4_slave_driver.sv(261) @ 47925000: uvm_test_top.env.slave_agent.drv [axi4_slave_driver] Write complete: ID=0x7 ADDR=0xd5eedb07 RESP=AXI4_RESP_OKAY  9 beats processed
# UVM_INFO ../src/mst/axi4_master_monitor.sv(210) @ 47925000: uvm_test_top.env.master_agent.mon [axi4_master_monitor] Write complete: ID=0x7 ADDR=0xd5eedb07 RESP=AXI4_RESP_OKAY
# UVM_INFO ../src/env/axi4_scoreboard.sv(82) @ 47925000: uvm_test_top.env.scb [axi4_scoreboard] Master AXI4_WRITE received: ID=0x7 ADDR=0xd5eedb07 LEN=8
# UVM_INFO ../src/slv/axi4_slave_monitor.sv(189) @ 47925000: uvm_test_top.env.slave_agent.mon [axi4_slave_monitor] Write response sent: ID=0x7 ADDR=0xd5eedb07 RESP=AXI4_RESP_OKAY
# UVM_INFO ../src/env/axi4_scoreboard.sv(103) @ 47925000: uvm_test_top.env.scb [axi4_scoreboard] Slave AXI4_WRITE received: ID=0x7 ADDR=0xd5eedb07 LEN=8
# UVM_INFO ../src/env/axi4_scoreboard.sv(154) @ 47925000: uvm_test_top.env.scb [axi4_scoreboard] [WRITE] MATCH #20: ID=0x7 ADDR=0xd5eedb07 LEN=8
# UVM_INFO ../src/seq/axi4_outstanding_seq.sv(71) @ 47925000: uvm_test_top.env.master_agent.sqr@@outstanding_seq [axi4_outstanding_seq] Outstanding Write [#11] complete: ID=0x7
# UVM_INFO ../src/seq/axi4_outstanding_seq.sv(100) @ 47925000: uvm_test_top.env.master_agent.sqr@@outstanding_seq [axi4_outstanding_seq] Outstanding Read [#8] started: ID=0x4 ADDR=0x058e4b75 LEN=235
# UVM_INFO ../src/mst/axi4_master_driver.sv(55) @ 47925000: uvm_test_top.env.master_agent.drv [axi4_master_driver] Driving AXI4_READ  ID=0x4  ADDR=0x058e4b75  LEN=235
# UVM_INFO ../src/slv/axi4_slave_driver.sv(300) @ 47955000: uvm_test_top.env.slave_agent.drv [axi4_slave_driver] AR received: ID=0x4 ADDR=0x058e4b75 LEN=235 LOCK=AXI4_LOCK_EXCLUSIVE
# UVM_INFO ../src/slv/axi4_slave_monitor.sv(224) @ 47955000: uvm_test_top.env.slave_agent.mon [axi4_slave_monitor] AR received: ID=0x4 ADDR=0x058e4b75 LEN=235
# UVM_INFO ../src/mst/axi4_master_monitor.sv(246) @ 47955000: uvm_test_top.env.master_agent.mon [axi4_master_monitor] AR observed: ID=0x4 ADDR=0x058e4b75 LEN=235
# UVM_INFO ../src/mst/axi4_master_driver.sv(254) @ 52675000: uvm_test_top.env.master_agent.drv [axi4_master_driver] Read complete: 236 beats received
# UVM_INFO ../src/slv/axi4_slave_driver.sv(349) @ 52675000: uvm_test_top.env.slave_agent.drv [axi4_slave_driver] Read complete: ID=0x4 ADDR=0x058e4b75 RESP=AXI4_RESP_EXOKAY  236 beats sent
# UVM_INFO ../src/slv/axi4_slave_monitor.sv(287) @ 52675000: uvm_test_top.env.slave_agent.mon [axi4_slave_monitor] Read data sent: ID=0x4 ADDR=0x058e4b75 236 beats
# UVM_INFO ../src/env/axi4_scoreboard.sv(103) @ 52675000: uvm_test_top.env.scb [axi4_scoreboard] Slave AXI4_READ received: ID=0x4 ADDR=0x058e4b75 LEN=235
# UVM_INFO ../src/mst/axi4_master_monitor.sv(314) @ 52675000: uvm_test_top.env.master_agent.mon [axi4_master_monitor] Read complete: ID=0x4 ADDR=0x058e4b75 236 beats
# UVM_INFO ../src/env/axi4_scoreboard.sv(82) @ 52675000: uvm_test_top.env.scb [axi4_scoreboard] Master AXI4_READ received: ID=0x4 ADDR=0x058e4b75 LEN=235
# UVM_INFO ../src/env/axi4_scoreboard.sv(154) @ 52675000: uvm_test_top.env.scb [axi4_scoreboard] [READ] MATCH #21: ID=0x4 ADDR=0x058e4b75 LEN=235
# UVM_INFO ../src/seq/axi4_outstanding_seq.sv(106) @ 52675000: uvm_test_top.env.master_agent.sqr@@outstanding_seq [axi4_outstanding_seq] Outstanding Read [#8] complete: ID=0x4
# UVM_INFO ../src/seq/axi4_outstanding_seq.sv(100) @ 52675000: uvm_test_top.env.master_agent.sqr@@outstanding_seq [axi4_outstanding_seq] Outstanding Read [#9] started: ID=0x0 ADDR=0xb51d75df LEN=229
# UVM_INFO ../src/mst/axi4_master_driver.sv(55) @ 52675000: uvm_test_top.env.master_agent.drv [axi4_master_driver] Driving AXI4_READ  ID=0x0  ADDR=0xb51d75df  LEN=229
# UVM_INFO ../src/slv/axi4_slave_driver.sv(300) @ 52705000: uvm_test_top.env.slave_agent.drv [axi4_slave_driver] AR received: ID=0x0 ADDR=0xb51d75df LEN=229 LOCK=AXI4_LOCK_EXCLUSIVE
# UVM_INFO ../src/mst/axi4_master_monitor.sv(246) @ 52705000: uvm_test_top.env.master_agent.mon [axi4_master_monitor] AR observed: ID=0x0 ADDR=0xb51d75df LEN=229
# UVM_INFO ../src/slv/axi4_slave_monitor.sv(224) @ 52705000: uvm_test_top.env.slave_agent.mon [axi4_slave_monitor] AR received: ID=0x0 ADDR=0xb51d75df LEN=229
# UVM_INFO ../src/mst/axi4_master_driver.sv(254) @ 57305000: uvm_test_top.env.master_agent.drv [axi4_master_driver] Read complete: 230 beats received
# UVM_INFO ../src/slv/axi4_slave_driver.sv(349) @ 57305000: uvm_test_top.env.slave_agent.drv [axi4_slave_driver] Read complete: ID=0x0 ADDR=0xb51d75df RESP=AXI4_RESP_EXOKAY  230 beats sent
# UVM_INFO ../src/mst/axi4_master_monitor.sv(314) @ 57305000: uvm_test_top.env.master_agent.mon [axi4_master_monitor] Read complete: ID=0x0 ADDR=0xb51d75df 230 beats
# UVM_INFO ../src/env/axi4_scoreboard.sv(82) @ 57305000: uvm_test_top.env.scb [axi4_scoreboard] Master AXI4_READ received: ID=0x0 ADDR=0xb51d75df LEN=229
# UVM_INFO ../src/slv/axi4_slave_monitor.sv(287) @ 57305000: uvm_test_top.env.slave_agent.mon [axi4_slave_monitor] Read data sent: ID=0x0 ADDR=0xb51d75df 230 beats
# UVM_INFO ../src/env/axi4_scoreboard.sv(103) @ 57305000: uvm_test_top.env.scb [axi4_scoreboard] Slave AXI4_READ received: ID=0x0 ADDR=0xb51d75df LEN=229
# UVM_INFO ../src/env/axi4_scoreboard.sv(154) @ 57305000: uvm_test_top.env.scb [axi4_scoreboard] [READ] MATCH #22: ID=0x0 ADDR=0xb51d75df LEN=229
# UVM_INFO ../src/seq/axi4_outstanding_seq.sv(106) @ 57305000: uvm_test_top.env.master_agent.sqr@@outstanding_seq [axi4_outstanding_seq] Outstanding Read [#9] complete: ID=0x0
# UVM_INFO ../src/seq/axi4_outstanding_seq.sv(100) @ 57305000: uvm_test_top.env.master_agent.sqr@@outstanding_seq [axi4_outstanding_seq] Outstanding Read [#10] started: ID=0xa ADDR=0x9613e5e9 LEN=5
# UVM_INFO ../src/mst/axi4_master_driver.sv(55) @ 57305000: uvm_test_top.env.master_agent.drv [axi4_master_driver] Driving AXI4_READ  ID=0xa  ADDR=0x9613e5e9  LEN=5
# UVM_INFO ../src/slv/axi4_slave_driver.sv(300) @ 57335000: uvm_test_top.env.slave_agent.drv [axi4_slave_driver] AR received: ID=0xa ADDR=0x9613e5e9 LEN=5 LOCK=AXI4_LOCK_EXCLUSIVE
# UVM_INFO ../src/slv/axi4_slave_monitor.sv(224) @ 57335000: uvm_test_top.env.slave_agent.mon [axi4_slave_monitor] AR received: ID=0xa ADDR=0x9613e5e9 LEN=5
# UVM_INFO ../src/mst/axi4_master_monitor.sv(246) @ 57335000: uvm_test_top.env.master_agent.mon [axi4_master_monitor] AR observed: ID=0xa ADDR=0x9613e5e9 LEN=5
# UVM_INFO ../src/mst/axi4_master_driver.sv(254) @ 57455000: uvm_test_top.env.master_agent.drv [axi4_master_driver] Read complete: 6 beats received
# UVM_INFO ../src/slv/axi4_slave_driver.sv(349) @ 57455000: uvm_test_top.env.slave_agent.drv [axi4_slave_driver] Read complete: ID=0xa ADDR=0x9613e5e9 RESP=AXI4_RESP_EXOKAY  6 beats sent
# UVM_INFO ../src/slv/axi4_slave_monitor.sv(287) @ 57455000: uvm_test_top.env.slave_agent.mon [axi4_slave_monitor] Read data sent: ID=0xa ADDR=0x9613e5e9 6 beats
# UVM_INFO ../src/env/axi4_scoreboard.sv(103) @ 57455000: uvm_test_top.env.scb [axi4_scoreboard] Slave AXI4_READ received: ID=0xa ADDR=0x9613e5e9 LEN=5
# UVM_INFO ../src/mst/axi4_master_monitor.sv(314) @ 57455000: uvm_test_top.env.master_agent.mon [axi4_master_monitor] Read complete: ID=0xa ADDR=0x9613e5e9 6 beats
# UVM_INFO ../src/env/axi4_scoreboard.sv(82) @ 57455000: uvm_test_top.env.scb [axi4_scoreboard] Master AXI4_READ received: ID=0xa ADDR=0x9613e5e9 LEN=5
# UVM_INFO ../src/env/axi4_scoreboard.sv(154) @ 57455000: uvm_test_top.env.scb [axi4_scoreboard] [READ] MATCH #23: ID=0xa ADDR=0x9613e5e9 LEN=5
# UVM_INFO ../src/seq/axi4_outstanding_seq.sv(106) @ 57455000: uvm_test_top.env.master_agent.sqr@@outstanding_seq [axi4_outstanding_seq] Outstanding Read [#10] complete: ID=0xa
# UVM_INFO ../src/seq/axi4_outstanding_seq.sv(100) @ 57455000: uvm_test_top.env.master_agent.sqr@@outstanding_seq [axi4_outstanding_seq] Outstanding Read [#11] started: ID=0x5 ADDR=0x88031854 LEN=232
# UVM_INFO ../src/mst/axi4_master_driver.sv(55) @ 57455000: uvm_test_top.env.master_agent.drv [axi4_master_driver] Driving AXI4_READ  ID=0x5  ADDR=0x88031854  LEN=232
# UVM_INFO ../src/slv/axi4_slave_driver.sv(300) @ 57485000: uvm_test_top.env.slave_agent.drv [axi4_slave_driver] AR received: ID=0x5 ADDR=0x88031854 LEN=232 LOCK=AXI4_LOCK_EXCLUSIVE
# UVM_INFO ../src/mst/axi4_master_monitor.sv(246) @ 57485000: uvm_test_top.env.master_agent.mon [axi4_master_monitor] AR observed: ID=0x5 ADDR=0x88031854 LEN=232
# UVM_INFO ../src/slv/axi4_slave_monitor.sv(224) @ 57485000: uvm_test_top.env.slave_agent.mon [axi4_slave_monitor] AR received: ID=0x5 ADDR=0x88031854 LEN=232
# UVM_INFO ../src/mst/axi4_master_driver.sv(254) @ 62145000: uvm_test_top.env.master_agent.drv [axi4_master_driver] Read complete: 233 beats received
# UVM_INFO ../src/slv/axi4_slave_driver.sv(349) @ 62145000: uvm_test_top.env.slave_agent.drv [axi4_slave_driver] Read complete: ID=0x5 ADDR=0x88031854 RESP=AXI4_RESP_EXOKAY  233 beats sent
# UVM_INFO ../src/mst/axi4_master_monitor.sv(314) @ 62145000: uvm_test_top.env.master_agent.mon [axi4_master_monitor] Read complete: ID=0x5 ADDR=0x88031854 233 beats
# UVM_INFO ../src/env/axi4_scoreboard.sv(82) @ 62145000: uvm_test_top.env.scb [axi4_scoreboard] Master AXI4_READ received: ID=0x5 ADDR=0x88031854 LEN=232
# UVM_INFO ../src/slv/axi4_slave_monitor.sv(287) @ 62145000: uvm_test_top.env.slave_agent.mon [axi4_slave_monitor] Read data sent: ID=0x5 ADDR=0x88031854 233 beats
# UVM_INFO ../src/env/axi4_scoreboard.sv(103) @ 62145000: uvm_test_top.env.scb [axi4_scoreboard] Slave AXI4_READ received: ID=0x5 ADDR=0x88031854 LEN=232
# UVM_INFO ../src/env/axi4_scoreboard.sv(154) @ 62145000: uvm_test_top.env.scb [axi4_scoreboard] [READ] MATCH #24: ID=0x5 ADDR=0x88031854 LEN=232
# UVM_INFO ../src/seq/axi4_outstanding_seq.sv(106) @ 62145000: uvm_test_top.env.master_agent.sqr@@outstanding_seq [axi4_outstanding_seq] Outstanding Read [#11] complete: ID=0x5
# UVM_INFO ../src/seq/axi4_outstanding_seq.sv(65) @ 62145000: uvm_test_top.env.master_agent.sqr@@outstanding_seq [axi4_outstanding_seq] Outstanding Write [#12] started: ID=0x6 ADDR=0xea240638 LEN=50
# UVM_INFO ../src/mst/axi4_master_driver.sv(55) @ 62145000: uvm_test_top.env.master_agent.drv [axi4_master_driver] Driving AXI4_WRITE  ID=0x6  ADDR=0xea240638  LEN=50
# UVM_INFO ../src/mst/axi4_master_driver.sv(101) @ 62145000: uvm_test_top.env.master_agent.drv [axi4_master_driver] Write order: AW -> W (sequential)
# UVM_INFO ../src/slv/axi4_slave_driver.sv(165) @ 62175000: uvm_test_top.env.slave_agent.drv [axi4_slave_driver] AW received: ID=0x6 ADDR=0xea240638 LEN=50 LOCK=AXI4_LOCK_NORMAL
# UVM_INFO ../src/slv/axi4_slave_monitor.sv(116) @ 62175000: uvm_test_top.env.slave_agent.mon [axi4_slave_monitor] AW received: ID=0x6 ADDR=0xea240638 LEN=50
# UVM_INFO ../src/mst/axi4_master_monitor.sv(124) @ 62175000: uvm_test_top.env.master_agent.mon [axi4_master_monitor] AW observed: ID=0x6 ADDR=0xea240638 LEN=50
# UVM_INFO ../src/slv/axi4_slave_monitor.sv(167) @ 63195000: uvm_test_top.env.slave_agent.mon [axi4_slave_monitor] W data assembled: ID=0x6 ADDR=0xea240638 51 beats
# UVM_INFO ../src/mst/axi4_master_monitor.sv(184) @ 63195000: uvm_test_top.env.master_agent.mon [axi4_master_monitor] W data assembled: ID=0x6 ADDR=0xea240638 51 beats
# UVM_INFO ../src/mst/axi4_master_driver.sv(197) @ 63225000: uvm_test_top.env.master_agent.drv [axi4_master_driver] Write response: AXI4_RESP_SLVERR
# UVM_INFO ../src/slv/axi4_slave_driver.sv(261) @ 63225000: uvm_test_top.env.slave_agent.drv [axi4_slave_driver] Write complete: ID=0x6 ADDR=0xea240638 RESP=AXI4_RESP_SLVERR  51 beats processed
# UVM_INFO ../src/mst/axi4_master_monitor.sv(210) @ 63225000: uvm_test_top.env.master_agent.mon [axi4_master_monitor] Write complete: ID=0x6 ADDR=0xea240638 RESP=AXI4_RESP_SLVERR
# UVM_INFO ../src/env/axi4_scoreboard.sv(82) @ 63225000: uvm_test_top.env.scb [axi4_scoreboard] Master AXI4_WRITE received: ID=0x6 ADDR=0xea240638 LEN=50
# UVM_INFO ../src/slv/axi4_slave_monitor.sv(189) @ 63225000: uvm_test_top.env.slave_agent.mon [axi4_slave_monitor] Write response sent: ID=0x6 ADDR=0xea240638 RESP=AXI4_RESP_SLVERR
# UVM_INFO ../src/env/axi4_scoreboard.sv(103) @ 63225000: uvm_test_top.env.scb [axi4_scoreboard] Slave AXI4_WRITE received: ID=0x6 ADDR=0xea240638 LEN=50
# UVM_INFO ../src/env/axi4_scoreboard.sv(154) @ 63225000: uvm_test_top.env.scb [axi4_scoreboard] [WRITE] MATCH #25: ID=0x6 ADDR=0xea240638 LEN=50
# UVM_INFO ../src/seq/axi4_outstanding_seq.sv(71) @ 63225000: uvm_test_top.env.master_agent.sqr@@outstanding_seq [axi4_outstanding_seq] Outstanding Write [#12] complete: ID=0x6
# UVM_INFO ../src/seq/axi4_outstanding_seq.sv(65) @ 63225000: uvm_test_top.env.master_agent.sqr@@outstanding_seq [axi4_outstanding_seq] Outstanding Write [#13] started: ID=0x8 ADDR=0x4244e81b LEN=46
# UVM_INFO ../src/mst/axi4_master_driver.sv(55) @ 63225000: uvm_test_top.env.master_agent.drv [axi4_master_driver] Driving AXI4_WRITE  ID=0x8  ADDR=0x4244e81b  LEN=46
# UVM_INFO ../src/mst/axi4_master_driver.sv(94) @ 63225000: uvm_test_top.env.master_agent.drv [axi4_master_driver] Write order: AW || W (parallel)
# UVM_INFO ../src/slv/axi4_slave_driver.sv(165) @ 63255000: uvm_test_top.env.slave_agent.drv [axi4_slave_driver] AW received: ID=0x8 ADDR=0x4244e81b LEN=46 LOCK=AXI4_LOCK_NORMAL
# UVM_INFO ../src/slv/axi4_slave_monitor.sv(116) @ 63255000: uvm_test_top.env.slave_agent.mon [axi4_slave_monitor] AW received: ID=0x8 ADDR=0x4244e81b LEN=46
# UVM_INFO ../src/mst/axi4_master_monitor.sv(124) @ 63255000: uvm_test_top.env.master_agent.mon [axi4_master_monitor] AW observed: ID=0x8 ADDR=0x4244e81b LEN=46
# UVM_INFO ../src/mst/axi4_master_monitor.sv(184) @ 64165000: uvm_test_top.env.master_agent.mon [axi4_master_monitor] W data assembled: ID=0x8 ADDR=0x4244e81b 47 beats
# UVM_INFO ../src/slv/axi4_slave_monitor.sv(167) @ 64165000: uvm_test_top.env.slave_agent.mon [axi4_slave_monitor] W data assembled: ID=0x8 ADDR=0x4244e81b 47 beats
# UVM_INFO ../src/mst/axi4_master_driver.sv(197) @ 64195000: uvm_test_top.env.master_agent.drv [axi4_master_driver] Write response: AXI4_RESP_OKAY
# UVM_INFO ../src/slv/axi4_slave_driver.sv(261) @ 64195000: uvm_test_top.env.slave_agent.drv [axi4_slave_driver] Write complete: ID=0x8 ADDR=0x4244e81b RESP=AXI4_RESP_OKAY  47 beats processed
# UVM_INFO ../src/slv/axi4_slave_monitor.sv(189) @ 64195000: uvm_test_top.env.slave_agent.mon [axi4_slave_monitor] Write response sent: ID=0x8 ADDR=0x4244e81b RESP=AXI4_RESP_OKAY
# UVM_INFO ../src/env/axi4_scoreboard.sv(103) @ 64195000: uvm_test_top.env.scb [axi4_scoreboard] Slave AXI4_WRITE received: ID=0x8 ADDR=0x4244e81b LEN=46
# UVM_INFO ../src/mst/axi4_master_monitor.sv(210) @ 64195000: uvm_test_top.env.master_agent.mon [axi4_master_monitor] Write complete: ID=0x8 ADDR=0x4244e81b RESP=AXI4_RESP_OKAY
# UVM_INFO ../src/env/axi4_scoreboard.sv(82) @ 64195000: uvm_test_top.env.scb [axi4_scoreboard] Master AXI4_WRITE received: ID=0x8 ADDR=0x4244e81b LEN=46
# UVM_INFO ../src/env/axi4_scoreboard.sv(154) @ 64195000: uvm_test_top.env.scb [axi4_scoreboard] [WRITE] MATCH #26: ID=0x8 ADDR=0x4244e81b LEN=46
# UVM_INFO ../src/seq/axi4_outstanding_seq.sv(71) @ 64195000: uvm_test_top.env.master_agent.sqr@@outstanding_seq [axi4_outstanding_seq] Outstanding Write [#13] complete: ID=0x8
# UVM_INFO ../src/seq/axi4_outstanding_seq.sv(65) @ 64195000: uvm_test_top.env.master_agent.sqr@@outstanding_seq [axi4_outstanding_seq] Outstanding Write [#14] started: ID=0xf ADDR=0x21e756b1 LEN=5
# UVM_INFO ../src/mst/axi4_master_driver.sv(55) @ 64195000: uvm_test_top.env.master_agent.drv [axi4_master_driver] Driving AXI4_WRITE  ID=0xf  ADDR=0x21e756b1  LEN=5
# UVM_INFO ../src/mst/axi4_master_driver.sv(101) @ 64195000: uvm_test_top.env.master_agent.drv [axi4_master_driver] Write order: AW -> W (sequential)
# UVM_INFO ../src/slv/axi4_slave_driver.sv(165) @ 64225000: uvm_test_top.env.slave_agent.drv [axi4_slave_driver] AW received: ID=0xf ADDR=0x21e756b1 LEN=5 LOCK=AXI4_LOCK_NORMAL
# UVM_INFO ../src/mst/axi4_master_monitor.sv(124) @ 64225000: uvm_test_top.env.master_agent.mon [axi4_master_monitor] AW observed: ID=0xf ADDR=0x21e756b1 LEN=5
# UVM_INFO ../src/slv/axi4_slave_monitor.sv(116) @ 64225000: uvm_test_top.env.slave_agent.mon [axi4_slave_monitor] AW received: ID=0xf ADDR=0x21e756b1 LEN=5
# UVM_INFO ../src/mst/axi4_master_monitor.sv(184) @ 64345000: uvm_test_top.env.master_agent.mon [axi4_master_monitor] W data assembled: ID=0xf ADDR=0x21e756b1 6 beats
# UVM_INFO ../src/slv/axi4_slave_monitor.sv(167) @ 64345000: uvm_test_top.env.slave_agent.mon [axi4_slave_monitor] W data assembled: ID=0xf ADDR=0x21e756b1 6 beats
# UVM_INFO ../src/mst/axi4_master_driver.sv(197) @ 64375000: uvm_test_top.env.master_agent.drv [axi4_master_driver] Write response: AXI4_RESP_OKAY
# UVM_INFO ../src/slv/axi4_slave_driver.sv(261) @ 64375000: uvm_test_top.env.slave_agent.drv [axi4_slave_driver] Write complete: ID=0xf ADDR=0x21e756b1 RESP=AXI4_RESP_OKAY  6 beats processed
# UVM_INFO ../src/slv/axi4_slave_monitor.sv(189) @ 64375000: uvm_test_top.env.slave_agent.mon [axi4_slave_monitor] Write response sent: ID=0xf ADDR=0x21e756b1 RESP=AXI4_RESP_OKAY
# UVM_INFO ../src/env/axi4_scoreboard.sv(103) @ 64375000: uvm_test_top.env.scb [axi4_scoreboard] Slave AXI4_WRITE received: ID=0xf ADDR=0x21e756b1 LEN=5
# UVM_INFO ../src/mst/axi4_master_monitor.sv(210) @ 64375000: uvm_test_top.env.master_agent.mon [axi4_master_monitor] Write complete: ID=0xf ADDR=0x21e756b1 RESP=AXI4_RESP_OKAY
# UVM_INFO ../src/env/axi4_scoreboard.sv(82) @ 64375000: uvm_test_top.env.scb [axi4_scoreboard] Master AXI4_WRITE received: ID=0xf ADDR=0x21e756b1 LEN=5
# UVM_INFO ../src/env/axi4_scoreboard.sv(154) @ 64375000: uvm_test_top.env.scb [axi4_scoreboard] [WRITE] MATCH #27: ID=0xf ADDR=0x21e756b1 LEN=5
# UVM_INFO ../src/seq/axi4_outstanding_seq.sv(71) @ 64375000: uvm_test_top.env.master_agent.sqr@@outstanding_seq [axi4_outstanding_seq] Outstanding Write [#14] complete: ID=0xf
# UVM_INFO ../src/seq/axi4_outstanding_seq.sv(78) @ 64375000: uvm_test_top.env.master_agent.sqr@@outstanding_seq [axi4_outstanding_seq] All outstanding write transactions finished
# UVM_INFO ../src/seq/axi4_outstanding_seq.sv(100) @ 64375000: uvm_test_top.env.master_agent.sqr@@outstanding_seq [axi4_outstanding_seq] Outstanding Read [#12] started: ID=0x0 ADDR=0x4ef0a7b7 LEN=169
# UVM_INFO ../src/mst/axi4_master_driver.sv(55) @ 64375000: uvm_test_top.env.master_agent.drv [axi4_master_driver] Driving AXI4_READ  ID=0x0  ADDR=0x4ef0a7b7  LEN=169
# UVM_INFO ../src/slv/axi4_slave_driver.sv(300) @ 64405000: uvm_test_top.env.slave_agent.drv [axi4_slave_driver] AR received: ID=0x0 ADDR=0x4ef0a7b7 LEN=169 LOCK=AXI4_LOCK_NORMAL
# UVM_INFO ../src/mst/axi4_master_monitor.sv(246) @ 64405000: uvm_test_top.env.master_agent.mon [axi4_master_monitor] AR observed: ID=0x0 ADDR=0x4ef0a7b7 LEN=169
# UVM_INFO ../src/slv/axi4_slave_monitor.sv(224) @ 64405000: uvm_test_top.env.slave_agent.mon [axi4_slave_monitor] AR received: ID=0x0 ADDR=0x4ef0a7b7 LEN=169
# UVM_INFO ../src/mst/axi4_master_driver.sv(254) @ 67805000: uvm_test_top.env.master_agent.drv [axi4_master_driver] Read complete: 170 beats received
# UVM_INFO ../src/slv/axi4_slave_driver.sv(349) @ 67805000: uvm_test_top.env.slave_agent.drv [axi4_slave_driver] Read complete: ID=0x0 ADDR=0x4ef0a7b7 RESP=AXI4_RESP_OKAY  170 beats sent
# UVM_INFO ../src/mst/axi4_master_monitor.sv(314) @ 67805000: uvm_test_top.env.master_agent.mon [axi4_master_monitor] Read complete: ID=0x0 ADDR=0x4ef0a7b7 170 beats
# UVM_INFO ../src/env/axi4_scoreboard.sv(82) @ 67805000: uvm_test_top.env.scb [axi4_scoreboard] Master AXI4_READ received: ID=0x0 ADDR=0x4ef0a7b7 LEN=169
# UVM_INFO ../src/slv/axi4_slave_monitor.sv(287) @ 67805000: uvm_test_top.env.slave_agent.mon [axi4_slave_monitor] Read data sent: ID=0x0 ADDR=0x4ef0a7b7 170 beats
# UVM_INFO ../src/env/axi4_scoreboard.sv(103) @ 67805000: uvm_test_top.env.scb [axi4_scoreboard] Slave AXI4_READ received: ID=0x0 ADDR=0x4ef0a7b7 LEN=169
# UVM_INFO ../src/env/axi4_scoreboard.sv(154) @ 67805000: uvm_test_top.env.scb [axi4_scoreboard] [READ] MATCH #28: ID=0x0 ADDR=0x4ef0a7b7 LEN=169
# UVM_INFO ../src/seq/axi4_outstanding_seq.sv(106) @ 67805000: uvm_test_top.env.master_agent.sqr@@outstanding_seq [axi4_outstanding_seq] Outstanding Read [#12] complete: ID=0x0
# UVM_INFO ../src/seq/axi4_outstanding_seq.sv(100) @ 67805000: uvm_test_top.env.master_agent.sqr@@outstanding_seq [axi4_outstanding_seq] Outstanding Read [#13] started: ID=0x2 ADDR=0x760cca87 LEN=199
# UVM_INFO ../src/mst/axi4_master_driver.sv(55) @ 67805000: uvm_test_top.env.master_agent.drv [axi4_master_driver] Driving AXI4_READ  ID=0x2  ADDR=0x760cca87  LEN=199
# UVM_INFO ../src/slv/axi4_slave_driver.sv(300) @ 67835000: uvm_test_top.env.slave_agent.drv [axi4_slave_driver] AR received: ID=0x2 ADDR=0x760cca87 LEN=199 LOCK=AXI4_LOCK_NORMAL
# UVM_INFO ../src/slv/axi4_slave_monitor.sv(224) @ 67835000: uvm_test_top.env.slave_agent.mon [axi4_slave_monitor] AR received: ID=0x2 ADDR=0x760cca87 LEN=199
# UVM_INFO ../src/mst/axi4_master_monitor.sv(246) @ 67835000: uvm_test_top.env.master_agent.mon [axi4_master_monitor] AR observed: ID=0x2 ADDR=0x760cca87 LEN=199
# UVM_INFO ../src/mst/axi4_master_driver.sv(254) @ 71835000: uvm_test_top.env.master_agent.drv [axi4_master_driver] Read complete: 200 beats received
# UVM_INFO ../src/slv/axi4_slave_driver.sv(349) @ 71835000: uvm_test_top.env.slave_agent.drv [axi4_slave_driver] Read complete: ID=0x2 ADDR=0x760cca87 RESP=AXI4_RESP_OKAY  200 beats sent
# UVM_INFO ../src/slv/axi4_slave_monitor.sv(287) @ 71835000: uvm_test_top.env.slave_agent.mon [axi4_slave_monitor] Read data sent: ID=0x2 ADDR=0x760cca87 200 beats
# UVM_INFO ../src/env/axi4_scoreboard.sv(103) @ 71835000: uvm_test_top.env.scb [axi4_scoreboard] Slave AXI4_READ received: ID=0x2 ADDR=0x760cca87 LEN=199
# UVM_INFO ../src/mst/axi4_master_monitor.sv(314) @ 71835000: uvm_test_top.env.master_agent.mon [axi4_master_monitor] Read complete: ID=0x2 ADDR=0x760cca87 200 beats
# UVM_INFO ../src/env/axi4_scoreboard.sv(82) @ 71835000: uvm_test_top.env.scb [axi4_scoreboard] Master AXI4_READ received: ID=0x2 ADDR=0x760cca87 LEN=199
# UVM_INFO ../src/env/axi4_scoreboard.sv(154) @ 71835000: uvm_test_top.env.scb [axi4_scoreboard] [READ] MATCH #29: ID=0x2 ADDR=0x760cca87 LEN=199
# UVM_INFO ../src/seq/axi4_outstanding_seq.sv(106) @ 71835000: uvm_test_top.env.master_agent.sqr@@outstanding_seq [axi4_outstanding_seq] Outstanding Read [#13] complete: ID=0x2
# UVM_INFO ../src/seq/axi4_outstanding_seq.sv(100) @ 71835000: uvm_test_top.env.master_agent.sqr@@outstanding_seq [axi4_outstanding_seq] Outstanding Read [#14] started: ID=0x0 ADDR=0xa51d89a3 LEN=13
# UVM_INFO ../src/mst/axi4_master_driver.sv(55) @ 71835000: uvm_test_top.env.master_agent.drv [axi4_master_driver] Driving AXI4_READ  ID=0x0  ADDR=0xa51d89a3  LEN=13
# UVM_INFO ../src/slv/axi4_slave_driver.sv(300) @ 71865000: uvm_test_top.env.slave_agent.drv [axi4_slave_driver] AR received: ID=0x0 ADDR=0xa51d89a3 LEN=13 LOCK=AXI4_LOCK_EXCLUSIVE
# UVM_INFO ../src/mst/axi4_master_monitor.sv(246) @ 71865000: uvm_test_top.env.master_agent.mon [axi4_master_monitor] AR observed: ID=0x0 ADDR=0xa51d89a3 LEN=13
# UVM_INFO ../src/slv/axi4_slave_monitor.sv(224) @ 71865000: uvm_test_top.env.slave_agent.mon [axi4_slave_monitor] AR received: ID=0x0 ADDR=0xa51d89a3 LEN=13
# UVM_INFO ../src/mst/axi4_master_driver.sv(254) @ 72145000: uvm_test_top.env.master_agent.drv [axi4_master_driver] Read complete: 14 beats received
# UVM_INFO ../src/slv/axi4_slave_driver.sv(349) @ 72145000: uvm_test_top.env.slave_agent.drv [axi4_slave_driver] Read complete: ID=0x0 ADDR=0xa51d89a3 RESP=AXI4_RESP_EXOKAY  14 beats sent
# UVM_INFO ../src/mst/axi4_master_monitor.sv(314) @ 72145000: uvm_test_top.env.master_agent.mon [axi4_master_monitor] Read complete: ID=0x0 ADDR=0xa51d89a3 14 beats
# UVM_INFO ../src/env/axi4_scoreboard.sv(82) @ 72145000: uvm_test_top.env.scb [axi4_scoreboard] Master AXI4_READ received: ID=0x0 ADDR=0xa51d89a3 LEN=13
# UVM_INFO ../src/slv/axi4_slave_monitor.sv(287) @ 72145000: uvm_test_top.env.slave_agent.mon [axi4_slave_monitor] Read data sent: ID=0x0 ADDR=0xa51d89a3 14 beats
# UVM_INFO ../src/env/axi4_scoreboard.sv(103) @ 72145000: uvm_test_top.env.scb [axi4_scoreboard] Slave AXI4_READ received: ID=0x0 ADDR=0xa51d89a3 LEN=13
# UVM_INFO ../src/env/axi4_scoreboard.sv(154) @ 72145000: uvm_test_top.env.scb [axi4_scoreboard] [READ] MATCH #30: ID=0x0 ADDR=0xa51d89a3 LEN=13
# UVM_INFO ../src/seq/axi4_outstanding_seq.sv(106) @ 72145000: uvm_test_top.env.master_agent.sqr@@outstanding_seq [axi4_outstanding_seq] Outstanding Read [#14] complete: ID=0x0
# UVM_INFO ../src/seq/axi4_outstanding_seq.sv(113) @ 72145000: uvm_test_top.env.master_agent.sqr@@outstanding_seq [axi4_outstanding_seq] All outstanding read transactions finished
# UVM_INFO ../src/seq/axi4_outstanding_seq.sv(117) @ 72145000: uvm_test_top.env.master_agent.sqr@@outstanding_seq [axi4_outstanding_seq] Outstanding sequence complete
# UVM_INFO ../src/test/axi4_outstanding_test.sv(59) @ 73145000: uvm_test_top [axi4_outstanding_test] Outstanding test completed successfully
# UVM_INFO verilog_src/uvm-1.1d/src/base/uvm_objection.svh(1268) @ 73145000: reporter [TEST_DONE] 'run' phase is ready to proceed to the 'extract' phase
# UVM_INFO ../src/env/axi4_scoreboard.sv(218) @ 73145000: uvm_test_top.env.scb [axi4_scoreboard] 
# ========================================
#          SCOREBOARD SUMMARY
# ========================================
#   Master transactions : 30
#   Slave transactions  : 30
#   Matches             : 30
#   Mismatches          : 0
#   Unmatched master WR : 0
#   Unmatched master RD : 0
#   Unmatched slave  WR : 0
#   Unmatched slave  RD : 0
# ========================================
#   RESULT : PASS
# ========================================
# UVM_INFO ../src/test/axi4_base_test.sv(91) @ 73145000: uvm_test_top [axi4_outstanding_test] 
# === TEST PASSED ===
# 
# 
# --- UVM Report Summary ---
# 
# ** Report counts by severity
# UVM_INFO :  463
# UVM_WARNING :    0
# UVM_ERROR :    0
# UVM_FATAL :    0
# ** Report counts by id
# [Questa UVM]     3
# [RNTST]     1
# [TB_TOP]     2
# [TEST_DONE]     1
# [TOP_TB]     1
# [UVMTOP]     1
# [axi4_master_agent]     1
# [axi4_master_driver]    76
# [axi4_master_monitor]    76
# [axi4_outstanding_seq]    64
# [axi4_outstanding_test]     3
# [axi4_scoreboard]    91
# [axi4_slave_agent]     1
# [axi4_slave_driver]    61
# [axi4_slave_monitor]    76
# [axi4_vip_env]     5
# ** Note: $finish    : /cadtools/mentor/Questa_10.6b/questasim/linux_x86_64/../verilog_src/uvm-1.1d/src/base/uvm_root.svh(430)
#    Time: 73145 ns  Iteration: 55  Instance: /tb_top
# Saving coverage database on exit...
# End time: 11:24:26 on Jun 05,2026, Elapsed time: 0:00:42
# Errors: 0, Warnings: 0
