# vsim -c -coverage -sv_seed 77383185 "+UVM_TESTNAME=axi4_unaligned_test" "+UVM_VERBOSITY=UVM_HIGH" "+DUMP_VCD" -l ./report/logs/axi4_unaligned_test_run_4_seed_77383185.log -do "coverage save -onexit ./report/coverage/axi4_unaligned_test_run_4_seed_77383185.ucdb; run -all; quit -f" opt_tb_top 
# Start time: 14:07:21 on Jun 11,2026
# //  Questa Sim-64
# //  Version 10.6b linux_x86_64 May 25 2017
# //
# //  Copyright 1991-2017 Mentor Graphics Corporation
# //  All Rights Reserved.
# //
# //  QuestaSim and its associated documentation contain trade
# //  secrets and commercial or financial information that are the property of
# //  Mentor Graphics Corporation and are privileged, confidential,
# //  and exempt from disclosure under the Freedom of Information Act,
# //  5 U.S.C. Section 552. Furthermore, this information
# //  is prohibited from disclosure under the Trade Secrets Act,
# //  18 U.S.C. Section 1905.
# //
# Loading sv_std.std
# Loading work.axi4_if(fast)
# Loading mtiUvm.uvm_pkg
# Loading work.axi4_pkg(fast)
# Loading work.axi4_test_pkg(fast)
# Loading work.tb_top(fast)
# Loading work.axi4_if(fast)
# Loading work.axi4_sva(fast)
# Loading mtiUvm.questa_uvm_pkg(fast)
# Loading /cadtools/mentor/Questa_10.6b/questasim/uvm-1.1d/linux_x86_64/uvm_dpi.so
# coverage save -onexit ./report/coverage/axi4_unaligned_test_run_4_seed_77383185.ucdb
#  run -all
# ----------------------------------------------------------------
# UVM-1.1d
# (C) 2007-2013 Mentor Graphics Corporation
# (C) 2007-2013 Cadence Design Systems, Inc.
# (C) 2006-2013 Synopsys, Inc.
# (C) 2011-2013 Cypress Semiconductor Corp.
# ----------------------------------------------------------------
# 
#   ***********       IMPORTANT RELEASE NOTES         ************
# 
#   You are using a version of the UVM library that has been compiled
#   with `UVM_NO_DEPRECATED undefined.
#   See http://www.eda.org/svdb/view.php?id=3313 for more details.
# 
#   You are using a version of the UVM library that has been compiled
#   with `UVM_OBJECT_MUST_HAVE_CONSTRUCTOR undefined.
#   See http://www.eda.org/svdb/view.php?id=3770 for more details.
# 
#       (Specify +UVM_NO_RELNOTES to turn off this notice)
# 
# UVM_INFO verilog_src/questa_uvm_pkg-1.2/src/questa_uvm_pkg.sv(215) @ 0: reporter [Questa UVM] QUESTA_UVM-1.2.3
# UVM_INFO verilog_src/questa_uvm_pkg-1.2/src/questa_uvm_pkg.sv(217) @ 0: reporter [Questa UVM]  questa_uvm::init(+struct)
# UVM_INFO ../src/tb_top.sv(128) @ 0: reporter [TB_TOP] Virtual interface set in config_db
# UVM_INFO @ 0: reporter [RNTST] Running test axi4_unaligned_test...
# UVM_INFO ../src/tb_top.sv(142) @ 0: reporter [TB_TOP] Waveform VCD dumping enabled (axi4_vip.vcd)
# UVM_INFO ../src/env/axi4_vip_env.sv(83) @ 0: uvm_test_top.env [axi4_vip_env] slave_vif not set - reusing master_vif (passthrough mode)
# UVM_INFO ../src/env/axi4_vip_env.sv(93) @ 0: uvm_test_top.env [axi4_vip_env] Scoreboard created
# UVM_INFO ../src/env/axi4_vip_env.sv(100) @ 0: uvm_test_top.env [axi4_vip_env] Coverage collectors created
# UVM_INFO ../src/mst/axi4_master_agent.sv(69) @ 0: uvm_test_top.env.master_agent [axi4_master_agent] ACTIVE mode - driver + sequencer created
# UVM_INFO ../src/slv/axi4_slave_agent.sv(82) @ 0: uvm_test_top.env.slave_agent [axi4_slave_agent] ACTIVE mode — ready_delay=[0:0] resp_delay=[0:0]
# UVM_INFO ../src/env/axi4_vip_env.sv(116) @ 0: uvm_test_top.env [axi4_vip_env] Scoreboard connected: master_mon.ap -> scb, slave_mon.ap -> scb
# UVM_INFO ../src/env/axi4_vip_env.sv(124) @ 0: uvm_test_top.env [axi4_vip_env] Coverage connected: master_mon.ap -> master_cov, slave_mon.ap -> slave_cov
# UVM_INFO @ 0: reporter [UVMTOP] UVM testbench topology:
# ---------------------------------------------------------------
# Name                       Type                     Size  Value
# ---------------------------------------------------------------
# uvm_test_top               axi4_unaligned_test      -     @473 
#   env                      axi4_vip_env             -     @488 
#     master_agent           axi4_master_agent        -     @503 
#       drv                  axi4_master_driver       -     @567 
#         rsp_port           uvm_analysis_port        -     @582 
#         seq_item_port      uvm_seq_item_pull_port   -     @574 
#       mon                  axi4_master_monitor      -     @559 
#         ap                 uvm_analysis_port        -     @700 
#       sqr                  axi4_master_sequencer    -     @590 
#         rsp_export         uvm_analysis_export      -     @597 
#         seq_item_export    uvm_seq_item_pull_imp    -     @691 
#         arbitration_queue  array                    0     -    
#         lock_queue         array                    0     -    
#         num_last_reqs      integral                 32    'd1  
#         num_last_rsps      integral                 32    'd1  
#     master_cov             axi4_coverage            -     @524 
#       analysis_imp         uvm_analysis_imp         -     @531 
#     scb                    axi4_scoreboard          -     @517 
#       master_export        uvm_analysis_imp_master  -     @714 
#       slave_export         uvm_analysis_imp_slave   -     @722 
#     slave_agent            axi4_slave_agent         -     @510 
#       drv                  axi4_slave_driver        -     @753 
#         rsp_port           uvm_analysis_port        -     @768 
#         seq_item_port      uvm_seq_item_pull_port   -     @760 
#       mon                  axi4_slave_monitor       -     @735 
#         ap                 uvm_analysis_port        -     @892 
#       sqr                  axi4_slave_sequencer     -     @776 
#         rsp_export         uvm_analysis_export      -     @783 
#         seq_item_export    uvm_seq_item_pull_imp    -     @877 
#         arbitration_queue  array                    0     -    
#         lock_queue         array                    0     -    
#         num_last_reqs      integral                 32    'd1  
#         num_last_rsps      integral                 32    'd1  
#     slave_cov              axi4_coverage            -     @539 
#       analysis_imp         uvm_analysis_imp         -     @546 
# ---------------------------------------------------------------
# 
# UVM_INFO verilog_src/questa_uvm_pkg-1.2/src/questa_uvm_pkg.sv(277) @ 0: reporter [Questa UVM] End Of Elaboration
# UVM_INFO ../src/test/axi4_unaligned_test.sv(24) @ 0: uvm_test_top [axi4_unaligned_test] Starting unaligned access test
# UVM_INFO ../src/seq/axi4_unaligned_seq.sv(28) @ 0: uvm_test_top.env.master_agent.sqr@@unalign_seq [axi4_unaligned_seq] Starting unaligned access sequence: 40 transactions
# UVM_INFO ../src/tb_top.sv(49) @ 95000: reporter [TOP_TB] Reset de-asserted
# UVM_INFO ../src/slv/axi4_slave_driver.sv(122) @ 95000: uvm_test_top.env.slave_agent.drv [axi4_slave_driver] Reset deasserted - slave driver active
# UVM_INFO ../src/mst/axi4_master_driver.sv(64) @ 95000: uvm_test_top.env.master_agent.drv [axi4_master_driver] Reset deasserted - master driver active
# UVM_INFO ../src/mst/axi4_master_monitor.sv(77) @ 95000: uvm_test_top.env.master_agent.mon [axi4_master_monitor] Reset deasserted - monitor active
# UVM_INFO ../src/slv/axi4_slave_monitor.sv(71) @ 95000: uvm_test_top.env.slave_agent.mon [axi4_slave_monitor] Reset deasserted - monitor active
# UVM_INFO ../src/mst/axi4_master_driver.sv(73) @ 95000: uvm_test_top.env.master_agent.drv [axi4_master_driver] Driving AXI4_READ  ID=0xf  ADDR=0x5bc39e4f  LEN=52
# UVM_INFO ../src/seq/axi4_unaligned_seq.sv(54) @ 95000: uvm_test_top.env.master_agent.sqr@@unalign_seq [axi4_unaligned_seq] [1/40] Unaligned AXI4_READ: ADDR=0x5bc39e4f SIZE=AXI4_SIZE_2B BURST=AXI4_BURST_INCR (AlignmentOffset=1)
# UVM_INFO ../src/mst/axi4_master_driver.sv(73) @ 95000: uvm_test_top.env.master_agent.drv [axi4_master_driver] Driving AXI4_WRITE  ID=0x3  ADDR=0x85d51c65  LEN=0
# UVM_INFO ../src/seq/axi4_unaligned_seq.sv(54) @ 95000: uvm_test_top.env.master_agent.sqr@@unalign_seq [axi4_unaligned_seq] [2/40] Unaligned AXI4_WRITE: ADDR=0x85d51c65 SIZE=AXI4_SIZE_4B BURST=AXI4_BURST_FIXED (AlignmentOffset=1)
# UVM_INFO ../src/mst/axi4_master_driver.sv(73) @ 95000: uvm_test_top.env.master_agent.drv [axi4_master_driver] Driving AXI4_WRITE  ID=0x4  ADDR=0x7e422bc6  LEN=127
# UVM_INFO ../src/seq/axi4_unaligned_seq.sv(54) @ 95000: uvm_test_top.env.master_agent.sqr@@unalign_seq [axi4_unaligned_seq] [3/40] Unaligned AXI4_WRITE: ADDR=0x7e422bc6 SIZE=AXI4_SIZE_4B BURST=AXI4_BURST_INCR (AlignmentOffset=2)
# UVM_INFO ../src/mst/axi4_master_driver.sv(73) @ 95000: uvm_test_top.env.master_agent.drv [axi4_master_driver] Driving AXI4_WRITE  ID=0x8  ADDR=0xdfc50d56  LEN=211
# UVM_INFO ../src/seq/axi4_unaligned_seq.sv(54) @ 95000: uvm_test_top.env.master_agent.sqr@@unalign_seq [axi4_unaligned_seq] [4/40] Unaligned AXI4_WRITE: ADDR=0xdfc50d56 SIZE=AXI4_SIZE_4B BURST=AXI4_BURST_INCR (AlignmentOffset=2)
# UVM_INFO ../src/mst/axi4_master_driver.sv(73) @ 95000: uvm_test_top.env.master_agent.drv [axi4_master_driver] Driving AXI4_READ  ID=0xe  ADDR=0xaeb457c9  LEN=77
# UVM_INFO ../src/seq/axi4_unaligned_seq.sv(54) @ 95000: uvm_test_top.env.master_agent.sqr@@unalign_seq [axi4_unaligned_seq] [5/40] Unaligned AXI4_READ: ADDR=0xaeb457c9 SIZE=AXI4_SIZE_4B BURST=AXI4_BURST_INCR (AlignmentOffset=1)
# UVM_INFO ../src/mst/axi4_master_driver.sv(73) @ 95000: uvm_test_top.env.master_agent.drv [axi4_master_driver] Driving AXI4_WRITE  ID=0xf  ADDR=0x98187051  LEN=76
# UVM_INFO ../src/seq/axi4_unaligned_seq.sv(54) @ 95000: uvm_test_top.env.master_agent.sqr@@unalign_seq [axi4_unaligned_seq] [6/40] Unaligned AXI4_WRITE: ADDR=0x98187051 SIZE=AXI4_SIZE_4B BURST=AXI4_BURST_INCR (AlignmentOffset=1)
# UVM_INFO ../src/mst/axi4_master_driver.sv(73) @ 95000: uvm_test_top.env.master_agent.drv [axi4_master_driver] Driving AXI4_WRITE  ID=0xe  ADDR=0xd1d76989  LEN=26
# UVM_INFO ../src/seq/axi4_unaligned_seq.sv(54) @ 95000: uvm_test_top.env.master_agent.sqr@@unalign_seq [axi4_unaligned_seq] [7/40] Unaligned AXI4_WRITE: ADDR=0xd1d76989 SIZE=AXI4_SIZE_2B BURST=AXI4_BURST_INCR (AlignmentOffset=1)
# UVM_INFO ../src/mst/axi4_master_driver.sv(73) @ 95000: uvm_test_top.env.master_agent.drv [axi4_master_driver] Driving AXI4_WRITE  ID=0x3  ADDR=0x86efd2fa  LEN=11
# UVM_INFO ../src/seq/axi4_unaligned_seq.sv(54) @ 95000: uvm_test_top.env.master_agent.sqr@@unalign_seq [axi4_unaligned_seq] [8/40] Unaligned AXI4_WRITE: ADDR=0x86efd2fa SIZE=AXI4_SIZE_4B BURST=AXI4_BURST_INCR (AlignmentOffset=2)
# UVM_INFO ../src/mst/axi4_master_driver.sv(73) @ 95000: uvm_test_top.env.master_agent.drv [axi4_master_driver] Driving AXI4_WRITE  ID=0x0  ADDR=0x3d269219  LEN=182
# UVM_INFO ../src/seq/axi4_unaligned_seq.sv(54) @ 95000: uvm_test_top.env.master_agent.sqr@@unalign_seq [axi4_unaligned_seq] [9/40] Unaligned AXI4_WRITE: ADDR=0x3d269219 SIZE=AXI4_SIZE_4B BURST=AXI4_BURST_INCR (AlignmentOffset=1)
# UVM_INFO ../src/mst/axi4_master_driver.sv(73) @ 95000: uvm_test_top.env.master_agent.drv [axi4_master_driver] Driving AXI4_WRITE  ID=0xf  ADDR=0x766f0e23  LEN=168
# UVM_INFO ../src/seq/axi4_unaligned_seq.sv(54) @ 95000: uvm_test_top.env.master_agent.sqr@@unalign_seq [axi4_unaligned_seq] [10/40] Unaligned AXI4_WRITE: ADDR=0x766f0e23 SIZE=AXI4_SIZE_4B BURST=AXI4_BURST_INCR (AlignmentOffset=3)
# UVM_INFO ../src/mst/axi4_master_driver.sv(73) @ 95000: uvm_test_top.env.master_agent.drv [axi4_master_driver] Driving AXI4_READ  ID=0x2  ADDR=0x120f9a69  LEN=134
# UVM_INFO ../src/seq/axi4_unaligned_seq.sv(54) @ 95000: uvm_test_top.env.master_agent.sqr@@unalign_seq [axi4_unaligned_seq] [11/40] Unaligned AXI4_READ: ADDR=0x120f9a69 SIZE=AXI4_SIZE_2B BURST=AXI4_BURST_INCR (AlignmentOffset=1)
# UVM_INFO ../src/mst/axi4_master_driver.sv(73) @ 95000: uvm_test_top.env.master_agent.drv [axi4_master_driver] Driving AXI4_READ  ID=0x0  ADDR=0x34f3639e  LEN=47
# UVM_INFO ../src/seq/axi4_unaligned_seq.sv(54) @ 95000: uvm_test_top.env.master_agent.sqr@@unalign_seq [axi4_unaligned_seq] [12/40] Unaligned AXI4_READ: ADDR=0x34f3639e SIZE=AXI4_SIZE_4B BURST=AXI4_BURST_INCR (AlignmentOffset=2)
# UVM_INFO ../src/mst/axi4_master_driver.sv(73) @ 95000: uvm_test_top.env.master_agent.drv [axi4_master_driver] Driving AXI4_WRITE  ID=0x1  ADDR=0x6d531eb1  LEN=35
# UVM_INFO ../src/seq/axi4_unaligned_seq.sv(54) @ 95000: uvm_test_top.env.master_agent.sqr@@unalign_seq [axi4_unaligned_seq] [13/40] Unaligned AXI4_WRITE: ADDR=0x6d531eb1 SIZE=AXI4_SIZE_4B BURST=AXI4_BURST_INCR (AlignmentOffset=1)
# UVM_INFO ../src/mst/axi4_master_driver.sv(73) @ 95000: uvm_test_top.env.master_agent.drv [axi4_master_driver] Driving AXI4_WRITE  ID=0x1  ADDR=0x1084d9e9  LEN=71
# UVM_INFO ../src/seq/axi4_unaligned_seq.sv(54) @ 95000: uvm_test_top.env.master_agent.sqr@@unalign_seq [axi4_unaligned_seq] [14/40] Unaligned AXI4_WRITE: ADDR=0x1084d9e9 SIZE=AXI4_SIZE_4B BURST=AXI4_BURST_INCR (AlignmentOffset=1)
# UVM_INFO ../src/mst/axi4_master_driver.sv(73) @ 95000: uvm_test_top.env.master_agent.drv [axi4_master_driver] Driving AXI4_WRITE  ID=0x1  ADDR=0x1c07d10f  LEN=117
# UVM_INFO ../src/seq/axi4_unaligned_seq.sv(54) @ 95000: uvm_test_top.env.master_agent.sqr@@unalign_seq [axi4_unaligned_seq] [15/40] Unaligned AXI4_WRITE: ADDR=0x1c07d10f SIZE=AXI4_SIZE_2B BURST=AXI4_BURST_INCR (AlignmentOffset=1)
# UVM_INFO ../src/mst/axi4_master_driver.sv(73) @ 95000: uvm_test_top.env.master_agent.drv [axi4_master_driver] Driving AXI4_WRITE  ID=0xf  ADDR=0x697ebc9e  LEN=28
# UVM_INFO ../src/seq/axi4_unaligned_seq.sv(54) @ 95000: uvm_test_top.env.master_agent.sqr@@unalign_seq [axi4_unaligned_seq] [16/40] Unaligned AXI4_WRITE: ADDR=0x697ebc9e SIZE=AXI4_SIZE_4B BURST=AXI4_BURST_INCR (AlignmentOffset=2)
# UVM_INFO ../src/mst/axi4_master_driver.sv(73) @ 95000: uvm_test_top.env.master_agent.drv [axi4_master_driver] Driving AXI4_READ  ID=0x6  ADDR=0x4d0dd3d3  LEN=183
# UVM_INFO ../src/seq/axi4_unaligned_seq.sv(54) @ 95000: uvm_test_top.env.master_agent.sqr@@unalign_seq [axi4_unaligned_seq] [17/40] Unaligned AXI4_READ: ADDR=0x4d0dd3d3 SIZE=AXI4_SIZE_2B BURST=AXI4_BURST_INCR (AlignmentOffset=1)
# UVM_INFO ../src/mst/axi4_master_driver.sv(73) @ 95000: uvm_test_top.env.master_agent.drv [axi4_master_driver] Driving AXI4_WRITE  ID=0x0  ADDR=0x0ff937e3  LEN=150
# UVM_INFO ../src/seq/axi4_unaligned_seq.sv(54) @ 95000: uvm_test_top.env.master_agent.sqr@@unalign_seq [axi4_unaligned_seq] [18/40] Unaligned AXI4_WRITE: ADDR=0x0ff937e3 SIZE=AXI4_SIZE_4B BURST=AXI4_BURST_INCR (AlignmentOffset=3)
# UVM_INFO ../src/mst/axi4_master_driver.sv(73) @ 95000: uvm_test_top.env.master_agent.drv [axi4_master_driver] Driving AXI4_WRITE  ID=0x3  ADDR=0x2fdca0e2  LEN=4
# UVM_INFO ../src/seq/axi4_unaligned_seq.sv(54) @ 95000: uvm_test_top.env.master_agent.sqr@@unalign_seq [axi4_unaligned_seq] [19/40] Unaligned AXI4_WRITE: ADDR=0x2fdca0e2 SIZE=AXI4_SIZE_4B BURST=AXI4_BURST_FIXED (AlignmentOffset=2)
# UVM_INFO ../src/mst/axi4_master_driver.sv(73) @ 95000: uvm_test_top.env.master_agent.drv [axi4_master_driver] Driving AXI4_WRITE  ID=0xc  ADDR=0x9a4bc54d  LEN=55
# UVM_INFO ../src/seq/axi4_unaligned_seq.sv(54) @ 95000: uvm_test_top.env.master_agent.sqr@@unalign_seq [axi4_unaligned_seq] [20/40] Unaligned AXI4_WRITE: ADDR=0x9a4bc54d SIZE=AXI4_SIZE_4B BURST=AXI4_BURST_INCR (AlignmentOffset=1)
# UVM_INFO ../src/mst/axi4_master_driver.sv(73) @ 95000: uvm_test_top.env.master_agent.drv [axi4_master_driver] Driving AXI4_READ  ID=0xa  ADDR=0x1bc4ced2  LEN=86
# UVM_INFO ../src/seq/axi4_unaligned_seq.sv(54) @ 95000: uvm_test_top.env.master_agent.sqr@@unalign_seq [axi4_unaligned_seq] [21/40] Unaligned AXI4_READ: ADDR=0x1bc4ced2 SIZE=AXI4_SIZE_4B BURST=AXI4_BURST_INCR (AlignmentOffset=2)
# UVM_INFO ../src/mst/axi4_master_driver.sv(73) @ 95000: uvm_test_top.env.master_agent.drv [axi4_master_driver] Driving AXI4_WRITE  ID=0xa  ADDR=0xa0b79d52  LEN=77
# UVM_INFO ../src/seq/axi4_unaligned_seq.sv(54) @ 95000: uvm_test_top.env.master_agent.sqr@@unalign_seq [axi4_unaligned_seq] [22/40] Unaligned AXI4_WRITE: ADDR=0xa0b79d52 SIZE=AXI4_SIZE_4B BURST=AXI4_BURST_INCR (AlignmentOffset=2)
# UVM_INFO ../src/mst/axi4_master_driver.sv(73) @ 95000: uvm_test_top.env.master_agent.drv [axi4_master_driver] Driving AXI4_READ  ID=0xe  ADDR=0x60570da2  LEN=8
# UVM_INFO ../src/seq/axi4_unaligned_seq.sv(54) @ 95000: uvm_test_top.env.master_agent.sqr@@unalign_seq [axi4_unaligned_seq] [23/40] Unaligned AXI4_READ: ADDR=0x60570da2 SIZE=AXI4_SIZE_4B BURST=AXI4_BURST_FIXED (AlignmentOffset=2)
# UVM_INFO ../src/mst/axi4_master_driver.sv(73) @ 95000: uvm_test_top.env.master_agent.drv [axi4_master_driver] Driving AXI4_WRITE  ID=0xb  ADDR=0xda334a59  LEN=111
# UVM_INFO ../src/seq/axi4_unaligned_seq.sv(54) @ 95000: uvm_test_top.env.master_agent.sqr@@unalign_seq [axi4_unaligned_seq] [24/40] Unaligned AXI4_WRITE: ADDR=0xda334a59 SIZE=AXI4_SIZE_2B BURST=AXI4_BURST_INCR (AlignmentOffset=1)
# UVM_INFO ../src/mst/axi4_master_driver.sv(73) @ 95000: uvm_test_top.env.master_agent.drv [axi4_master_driver] Driving AXI4_READ  ID=0x7  ADDR=0x8f32e78e  LEN=211
# UVM_INFO ../src/seq/axi4_unaligned_seq.sv(54) @ 95000: uvm_test_top.env.master_agent.sqr@@unalign_seq [axi4_unaligned_seq] [25/40] Unaligned AXI4_READ: ADDR=0x8f32e78e SIZE=AXI4_SIZE_4B BURST=AXI4_BURST_INCR (AlignmentOffset=2)
# UVM_INFO ../src/mst/axi4_master_driver.sv(73) @ 95000: uvm_test_top.env.master_agent.drv [axi4_master_driver] Driving AXI4_WRITE  ID=0x7  ADDR=0xc2a78c83  LEN=142
# UVM_INFO ../src/seq/axi4_unaligned_seq.sv(54) @ 95000: uvm_test_top.env.master_agent.sqr@@unalign_seq [axi4_unaligned_seq] [26/40] Unaligned AXI4_WRITE: ADDR=0xc2a78c83 SIZE=AXI4_SIZE_4B BURST=AXI4_BURST_INCR (AlignmentOffset=3)
# UVM_INFO ../src/mst/axi4_master_driver.sv(73) @ 95000: uvm_test_top.env.master_agent.drv [axi4_master_driver] Driving AXI4_WRITE  ID=0x0  ADDR=0xc51e9893  LEN=1
# UVM_INFO ../src/seq/axi4_unaligned_seq.sv(54) @ 95000: uvm_test_top.env.master_agent.sqr@@unalign_seq [axi4_unaligned_seq] [27/40] Unaligned AXI4_WRITE: ADDR=0xc51e9893 SIZE=AXI4_SIZE_4B BURST=AXI4_BURST_FIXED (AlignmentOffset=3)
# UVM_INFO ../src/mst/axi4_master_driver.sv(73) @ 95000: uvm_test_top.env.master_agent.drv [axi4_master_driver] Driving AXI4_WRITE  ID=0xc  ADDR=0x18d90329  LEN=13
# UVM_INFO ../src/seq/axi4_unaligned_seq.sv(54) @ 95000: uvm_test_top.env.master_agent.sqr@@unalign_seq [axi4_unaligned_seq] [28/40] Unaligned AXI4_WRITE: ADDR=0x18d90329 SIZE=AXI4_SIZE_2B BURST=AXI4_BURST_FIXED (AlignmentOffset=1)
# UVM_INFO ../src/mst/axi4_master_driver.sv(73) @ 95000: uvm_test_top.env.master_agent.drv [axi4_master_driver] Driving AXI4_WRITE  ID=0x3  ADDR=0x5a3c7a4d  LEN=198
# UVM_INFO ../src/seq/axi4_unaligned_seq.sv(54) @ 95000: uvm_test_top.env.master_agent.sqr@@unalign_seq [axi4_unaligned_seq] [29/40] Unaligned AXI4_WRITE: ADDR=0x5a3c7a4d SIZE=AXI4_SIZE_2B BURST=AXI4_BURST_INCR (AlignmentOffset=1)
# UVM_INFO ../src/mst/axi4_master_driver.sv(73) @ 95000: uvm_test_top.env.master_agent.drv [axi4_master_driver] Driving AXI4_READ  ID=0xe  ADDR=0x34717193  LEN=214
# UVM_INFO ../src/seq/axi4_unaligned_seq.sv(54) @ 95000: uvm_test_top.env.master_agent.sqr@@unalign_seq [axi4_unaligned_seq] [30/40] Unaligned AXI4_READ: ADDR=0x34717193 SIZE=AXI4_SIZE_2B BURST=AXI4_BURST_INCR (AlignmentOffset=1)
# UVM_INFO ../src/mst/axi4_master_driver.sv(73) @ 95000: uvm_test_top.env.master_agent.drv [axi4_master_driver] Driving AXI4_WRITE  ID=0xe  ADDR=0x60505b65  LEN=124
# UVM_INFO ../src/seq/axi4_unaligned_seq.sv(54) @ 95000: uvm_test_top.env.master_agent.sqr@@unalign_seq [axi4_unaligned_seq] [31/40] Unaligned AXI4_WRITE: ADDR=0x60505b65 SIZE=AXI4_SIZE_4B BURST=AXI4_BURST_INCR (AlignmentOffset=1)
# UVM_INFO ../src/mst/axi4_master_driver.sv(73) @ 95000: uvm_test_top.env.master_agent.drv [axi4_master_driver] Driving AXI4_READ  ID=0x3  ADDR=0x87b77e1f  LEN=127
# UVM_INFO ../src/seq/axi4_unaligned_seq.sv(54) @ 95000: uvm_test_top.env.master_agent.sqr@@unalign_seq [axi4_unaligned_seq] [32/40] Unaligned AXI4_READ: ADDR=0x87b77e1f SIZE=AXI4_SIZE_4B BURST=AXI4_BURST_INCR (AlignmentOffset=3)
# UVM_INFO ../src/mst/axi4_master_driver.sv(73) @ 95000: uvm_test_top.env.master_agent.drv [axi4_master_driver] Driving AXI4_READ  ID=0xc  ADDR=0x180b3421  LEN=37
# UVM_INFO ../src/seq/axi4_unaligned_seq.sv(54) @ 95000: uvm_test_top.env.master_agent.sqr@@unalign_seq [axi4_unaligned_seq] [33/40] Unaligned AXI4_READ: ADDR=0x180b3421 SIZE=AXI4_SIZE_4B BURST=AXI4_BURST_INCR (AlignmentOffset=1)
# UVM_INFO ../src/mst/axi4_master_driver.sv(73) @ 95000: uvm_test_top.env.master_agent.drv [axi4_master_driver] Driving AXI4_WRITE  ID=0x5  ADDR=0xd7075b71  LEN=153
# UVM_INFO ../src/seq/axi4_unaligned_seq.sv(54) @ 95000: uvm_test_top.env.master_agent.sqr@@unalign_seq [axi4_unaligned_seq] [34/40] Unaligned AXI4_WRITE: ADDR=0xd7075b71 SIZE=AXI4_SIZE_4B BURST=AXI4_BURST_INCR (AlignmentOffset=1)
# UVM_INFO ../src/mst/axi4_master_driver.sv(73) @ 95000: uvm_test_top.env.master_agent.drv [axi4_master_driver] Driving AXI4_READ  ID=0xe  ADDR=0x86e9cb06  LEN=233
# UVM_INFO ../src/seq/axi4_unaligned_seq.sv(54) @ 95000: uvm_test_top.env.master_agent.sqr@@unalign_seq [axi4_unaligned_seq] [35/40] Unaligned AXI4_READ: ADDR=0x86e9cb06 SIZE=AXI4_SIZE_4B BURST=AXI4_BURST_INCR (AlignmentOffset=2)
# UVM_INFO ../src/mst/axi4_master_driver.sv(73) @ 95000: uvm_test_top.env.master_agent.drv [axi4_master_driver] Driving AXI4_WRITE  ID=0xa  ADDR=0x6d79ba57  LEN=41
# UVM_INFO ../src/seq/axi4_unaligned_seq.sv(54) @ 95000: uvm_test_top.env.master_agent.sqr@@unalign_seq [axi4_unaligned_seq] [36/40] Unaligned AXI4_WRITE: ADDR=0x6d79ba57 SIZE=AXI4_SIZE_4B BURST=AXI4_BURST_INCR (AlignmentOffset=3)
# UVM_INFO ../src/mst/axi4_master_driver.sv(73) @ 95000: uvm_test_top.env.master_agent.drv [axi4_master_driver] Driving AXI4_WRITE  ID=0x4  ADDR=0xca864261  LEN=103
# UVM_INFO ../src/seq/axi4_unaligned_seq.sv(54) @ 95000: uvm_test_top.env.master_agent.sqr@@unalign_seq [axi4_unaligned_seq] [37/40] Unaligned AXI4_WRITE: ADDR=0xca864261 SIZE=AXI4_SIZE_4B BURST=AXI4_BURST_INCR (AlignmentOffset=1)
# UVM_INFO ../src/mst/axi4_master_driver.sv(73) @ 95000: uvm_test_top.env.master_agent.drv [axi4_master_driver] Driving AXI4_READ  ID=0x4  ADDR=0x8502cbcd  LEN=62
# UVM_INFO ../src/seq/axi4_unaligned_seq.sv(54) @ 95000: uvm_test_top.env.master_agent.sqr@@unalign_seq [axi4_unaligned_seq] [38/40] Unaligned AXI4_READ: ADDR=0x8502cbcd SIZE=AXI4_SIZE_2B BURST=AXI4_BURST_INCR (AlignmentOffset=1)
# UVM_INFO ../src/mst/axi4_master_driver.sv(73) @ 95000: uvm_test_top.env.master_agent.drv [axi4_master_driver] Driving AXI4_WRITE  ID=0xf  ADDR=0xa08b1f6f  LEN=64
# UVM_INFO ../src/seq/axi4_unaligned_seq.sv(54) @ 95000: uvm_test_top.env.master_agent.sqr@@unalign_seq [axi4_unaligned_seq] [39/40] Unaligned AXI4_WRITE: ADDR=0xa08b1f6f SIZE=AXI4_SIZE_4B BURST=AXI4_BURST_INCR (AlignmentOffset=3)
# UVM_INFO ../src/mst/axi4_master_driver.sv(73) @ 95000: uvm_test_top.env.master_agent.drv [axi4_master_driver] Driving AXI4_WRITE  ID=0x2  ADDR=0xc8af57bf  LEN=144
# UVM_INFO ../src/seq/axi4_unaligned_seq.sv(54) @ 95000: uvm_test_top.env.master_agent.sqr@@unalign_seq [axi4_unaligned_seq] [40/40] Unaligned AXI4_WRITE: ADDR=0xc8af57bf SIZE=AXI4_SIZE_4B BURST=AXI4_BURST_INCR (AlignmentOffset=3)
# UVM_INFO ../src/seq/axi4_unaligned_seq.sv(57) @ 95000: uvm_test_top.env.master_agent.sqr@@unalign_seq [axi4_unaligned_seq] Unaligned access sequence complete
# UVM_INFO ../src/slv/axi4_slave_driver.sv(358) @ 115000: uvm_test_top.env.slave_agent.drv [axi4_slave_driver] AR received: ID=0xf ADDR=0x5bc39e4f LEN=52 LOCK=AXI4_LOCK_NORMAL
# UVM_INFO ../src/slv/axi4_slave_driver.sv(212) @ 115000: uvm_test_top.env.slave_agent.drv [axi4_slave_driver] AW received: ID=0x3 ADDR=0x85d51c65 LEN=0 LOCK=AXI4_LOCK_NORMAL
# UVM_INFO ../src/slv/axi4_slave_monitor.sv(224) @ 115000: uvm_test_top.env.slave_agent.mon [axi4_slave_monitor] AR received: ID=0xf ADDR=0x5bc39e4f LEN=52
# UVM_INFO ../src/slv/axi4_slave_monitor.sv(116) @ 115000: uvm_test_top.env.slave_agent.mon [axi4_slave_monitor] AW received: ID=0x3 ADDR=0x85d51c65 LEN=0
# UVM_INFO ../src/mst/axi4_master_monitor.sv(246) @ 115000: uvm_test_top.env.master_agent.mon [axi4_master_monitor] AR observed: ID=0xf ADDR=0x5bc39e4f LEN=52
# UVM_INFO ../src/mst/axi4_master_monitor.sv(124) @ 115000: uvm_test_top.env.master_agent.mon [axi4_master_monitor] AW observed: ID=0x3 ADDR=0x85d51c65 LEN=0
# UVM_INFO ../src/slv/axi4_slave_monitor.sv(167) @ 135000: uvm_test_top.env.slave_agent.mon [axi4_slave_monitor] W data assembled: ID=0x3 ADDR=0x85d51c65 1 beats
# UVM_INFO ../src/mst/axi4_master_monitor.sv(184) @ 135000: uvm_test_top.env.master_agent.mon [axi4_master_monitor] W data assembled: ID=0x3 ADDR=0x85d51c65 1 beats
# UVM_INFO ../src/slv/axi4_slave_driver.sv(358) @ 145000: uvm_test_top.env.slave_agent.drv [axi4_slave_driver] AR received: ID=0xe ADDR=0xaeb457c9 LEN=77 LOCK=AXI4_LOCK_NORMAL
# UVM_INFO ../src/mst/axi4_master_monitor.sv(246) @ 145000: uvm_test_top.env.master_agent.mon [axi4_master_monitor] AR observed: ID=0xe ADDR=0xaeb457c9 LEN=77
# UVM_INFO ../src/slv/axi4_slave_monitor.sv(224) @ 145000: uvm_test_top.env.slave_agent.mon [axi4_slave_monitor] AR received: ID=0xe ADDR=0xaeb457c9 LEN=77
# UVM_INFO ../src/mst/axi4_master_driver.sv(289) @ 165000: uvm_test_top.env.master_agent.drv [axi4_master_driver] Master driver received B response: ID=0x3 RESP=AXI4_RESP_OKAY
# UVM_INFO ../src/slv/axi4_slave_driver.sv(320) @ 165000: uvm_test_top.env.slave_agent.drv [axi4_slave_driver] Write complete: ID=0x3 RESP=AXI4_RESP_OKAY
# UVM_INFO ../src/mst/axi4_master_monitor.sv(210) @ 165000: uvm_test_top.env.master_agent.mon [axi4_master_monitor] Write complete: ID=0x3 ADDR=0x85d51c65 RESP=AXI4_RESP_OKAY
# UVM_INFO ../src/env/axi4_scoreboard.sv(87) @ 165000: uvm_test_top.env.scb [axi4_scoreboard] Master AXI4_WRITE received: ID=0x3 ADDR=0x85d51c65 LEN=0
# UVM_INFO ../src/slv/axi4_slave_monitor.sv(189) @ 165000: uvm_test_top.env.slave_agent.mon [axi4_slave_monitor] Write response sent: ID=0x3 ADDR=0x85d51c65 RESP=AXI4_RESP_OKAY
# UVM_INFO ../src/env/axi4_scoreboard.sv(108) @ 165000: uvm_test_top.env.scb [axi4_scoreboard] Slave AXI4_WRITE received: ID=0x3 ADDR=0x85d51c65 LEN=0
# UVM_INFO ../src/env/axi4_scoreboard.sv(291) @ 165000: uvm_test_top.env.scb [axi4_scoreboard] [WRITE] MATCH #1: ID=0x3 ADDR=0x85d51c65 LEN=0
# UVM_INFO ../src/env/axi4_scoreboard.sv(219) @ 165000: uvm_test_top.env.scb [axi4_scoreboard] [REF_MEM_WRITE] Addr=0x85d51c65 Data=0x39
# UVM_INFO ../src/env/axi4_scoreboard.sv(219) @ 165000: uvm_test_top.env.scb [axi4_scoreboard] [REF_MEM_WRITE] Addr=0x85d51c66 Data=0x2c
# UVM_INFO ../src/slv/axi4_slave_driver.sv(358) @ 175000: uvm_test_top.env.slave_agent.drv [axi4_slave_driver] AR received: ID=0x2 ADDR=0x120f9a69 LEN=134 LOCK=AXI4_LOCK_NORMAL
# UVM_INFO ../src/slv/axi4_slave_monitor.sv(224) @ 175000: uvm_test_top.env.slave_agent.mon [axi4_slave_monitor] AR received: ID=0x2 ADDR=0x120f9a69 LEN=134
# UVM_INFO ../src/mst/axi4_master_monitor.sv(246) @ 175000: uvm_test_top.env.master_agent.mon [axi4_master_monitor] AR observed: ID=0x2 ADDR=0x120f9a69 LEN=134
# UVM_INFO ../src/slv/axi4_slave_driver.sv(358) @ 205000: uvm_test_top.env.slave_agent.drv [axi4_slave_driver] AR received: ID=0x0 ADDR=0x34f3639e LEN=47 LOCK=AXI4_LOCK_EXCLUSIVE
# UVM_INFO ../src/mst/axi4_master_monitor.sv(246) @ 205000: uvm_test_top.env.master_agent.mon [axi4_master_monitor] AR observed: ID=0x0 ADDR=0x34f3639e LEN=47
# UVM_INFO ../src/slv/axi4_slave_monitor.sv(224) @ 205000: uvm_test_top.env.slave_agent.mon [axi4_slave_monitor] AR received: ID=0x0 ADDR=0x34f3639e LEN=47
# UVM_INFO ../src/slv/axi4_slave_driver.sv(212) @ 215000: uvm_test_top.env.slave_agent.drv [axi4_slave_driver] AW received: ID=0x4 ADDR=0x7e422bc6 LEN=127 LOCK=AXI4_LOCK_EXCLUSIVE
# UVM_INFO ../src/slv/axi4_slave_monitor.sv(116) @ 215000: uvm_test_top.env.slave_agent.mon [axi4_slave_monitor] AW received: ID=0x4 ADDR=0x7e422bc6 LEN=127
# UVM_INFO ../src/mst/axi4_master_monitor.sv(124) @ 215000: uvm_test_top.env.master_agent.mon [axi4_master_monitor] AW observed: ID=0x4 ADDR=0x7e422bc6 LEN=127
# UVM_INFO ../src/slv/axi4_slave_driver.sv(358) @ 235000: uvm_test_top.env.slave_agent.drv [axi4_slave_driver] AR received: ID=0x6 ADDR=0x4d0dd3d3 LEN=183 LOCK=AXI4_LOCK_NORMAL
# UVM_INFO ../src/slv/axi4_slave_monitor.sv(224) @ 235000: uvm_test_top.env.slave_agent.mon [axi4_slave_monitor] AR received: ID=0x6 ADDR=0x4d0dd3d3 LEN=183
# UVM_INFO ../src/mst/axi4_master_monitor.sv(246) @ 235000: uvm_test_top.env.master_agent.mon [axi4_master_monitor] AR observed: ID=0x6 ADDR=0x4d0dd3d3 LEN=183
# UVM_INFO ../src/slv/axi4_slave_driver.sv(212) @ 245000: uvm_test_top.env.slave_agent.drv [axi4_slave_driver] AW received: ID=0x8 ADDR=0xdfc50d56 LEN=211 LOCK=AXI4_LOCK_NORMAL
# UVM_INFO ../src/mst/axi4_master_monitor.sv(124) @ 245000: uvm_test_top.env.master_agent.mon [axi4_master_monitor] AW observed: ID=0x8 ADDR=0xdfc50d56 LEN=211
# UVM_INFO ../src/slv/axi4_slave_monitor.sv(116) @ 245000: uvm_test_top.env.slave_agent.mon [axi4_slave_monitor] AW received: ID=0x8 ADDR=0xdfc50d56 LEN=211
# UVM_INFO ../src/slv/axi4_slave_driver.sv(358) @ 265000: uvm_test_top.env.slave_agent.drv [axi4_slave_driver] AR received: ID=0xa ADDR=0x1bc4ced2 LEN=86 LOCK=AXI4_LOCK_EXCLUSIVE
# UVM_INFO ../src/mst/axi4_master_monitor.sv(246) @ 265000: uvm_test_top.env.master_agent.mon [axi4_master_monitor] AR observed: ID=0xa ADDR=0x1bc4ced2 LEN=86
# UVM_INFO ../src/slv/axi4_slave_monitor.sv(224) @ 265000: uvm_test_top.env.slave_agent.mon [axi4_slave_monitor] AR received: ID=0xa ADDR=0x1bc4ced2 LEN=86
# UVM_INFO ../src/slv/axi4_slave_driver.sv(212) @ 275000: uvm_test_top.env.slave_agent.drv [axi4_slave_driver] AW received: ID=0xf ADDR=0x98187051 LEN=76 LOCK=AXI4_LOCK_NORMAL
# UVM_INFO ../src/slv/axi4_slave_monitor.sv(116) @ 275000: uvm_test_top.env.slave_agent.mon [axi4_slave_monitor] AW received: ID=0xf ADDR=0x98187051 LEN=76
# UVM_INFO ../src/mst/axi4_master_monitor.sv(124) @ 275000: uvm_test_top.env.master_agent.mon [axi4_master_monitor] AW observed: ID=0xf ADDR=0x98187051 LEN=76
# UVM_INFO ../src/slv/axi4_slave_driver.sv(358) @ 295000: uvm_test_top.env.slave_agent.drv [axi4_slave_driver] AR received: ID=0xe ADDR=0x60570da2 LEN=8 LOCK=AXI4_LOCK_NORMAL
# UVM_INFO ../src/slv/axi4_slave_monitor.sv(224) @ 295000: uvm_test_top.env.slave_agent.mon [axi4_slave_monitor] AR received: ID=0xe ADDR=0x60570da2 LEN=8
# UVM_INFO ../src/mst/axi4_master_monitor.sv(246) @ 295000: uvm_test_top.env.master_agent.mon [axi4_master_monitor] AR observed: ID=0xe ADDR=0x60570da2 LEN=8
# UVM_INFO ../src/slv/axi4_slave_driver.sv(212) @ 305000: uvm_test_top.env.slave_agent.drv [axi4_slave_driver] AW received: ID=0xe ADDR=0xd1d76989 LEN=26 LOCK=AXI4_LOCK_NORMAL
# UVM_INFO ../src/mst/axi4_master_monitor.sv(124) @ 305000: uvm_test_top.env.master_agent.mon [axi4_master_monitor] AW observed: ID=0xe ADDR=0xd1d76989 LEN=26
# UVM_INFO ../src/slv/axi4_slave_monitor.sv(116) @ 305000: uvm_test_top.env.slave_agent.mon [axi4_slave_monitor] AW received: ID=0xe ADDR=0xd1d76989 LEN=26
# UVM_INFO ../src/slv/axi4_slave_driver.sv(358) @ 325000: uvm_test_top.env.slave_agent.drv [axi4_slave_driver] AR received: ID=0x7 ADDR=0x8f32e78e LEN=211 LOCK=AXI4_LOCK_EXCLUSIVE
# UVM_INFO ../src/mst/axi4_master_monitor.sv(246) @ 325000: uvm_test_top.env.master_agent.mon [axi4_master_monitor] AR observed: ID=0x7 ADDR=0x8f32e78e LEN=211
# UVM_INFO ../src/slv/axi4_slave_monitor.sv(224) @ 325000: uvm_test_top.env.slave_agent.mon [axi4_slave_monitor] AR received: ID=0x7 ADDR=0x8f32e78e LEN=211
# UVM_INFO ../src/slv/axi4_slave_driver.sv(358) @ 355000: uvm_test_top.env.slave_agent.drv [axi4_slave_driver] AR received: ID=0xe ADDR=0x34717193 LEN=214 LOCK=AXI4_LOCK_EXCLUSIVE
# UVM_INFO ../src/slv/axi4_slave_monitor.sv(224) @ 355000: uvm_test_top.env.slave_agent.mon [axi4_slave_monitor] AR received: ID=0xe ADDR=0x34717193 LEN=214
# UVM_INFO ../src/mst/axi4_master_monitor.sv(246) @ 355000: uvm_test_top.env.master_agent.mon [axi4_master_monitor] AR observed: ID=0xe ADDR=0x34717193 LEN=214
# UVM_INFO ../src/slv/axi4_slave_driver.sv(358) @ 385000: uvm_test_top.env.slave_agent.drv [axi4_slave_driver] AR received: ID=0x3 ADDR=0x87b77e1f LEN=127 LOCK=AXI4_LOCK_NORMAL
# UVM_INFO ../src/mst/axi4_master_monitor.sv(246) @ 385000: uvm_test_top.env.master_agent.mon [axi4_master_monitor] AR observed: ID=0x3 ADDR=0x87b77e1f LEN=127
# UVM_INFO ../src/slv/axi4_slave_monitor.sv(224) @ 385000: uvm_test_top.env.slave_agent.mon [axi4_slave_monitor] AR received: ID=0x3 ADDR=0x87b77e1f LEN=127
# UVM_INFO ../src/slv/axi4_slave_driver.sv(358) @ 415000: uvm_test_top.env.slave_agent.drv [axi4_slave_driver] AR received: ID=0xc ADDR=0x180b3421 LEN=37 LOCK=AXI4_LOCK_NORMAL
# UVM_INFO ../src/slv/axi4_slave_monitor.sv(224) @ 415000: uvm_test_top.env.slave_agent.mon [axi4_slave_monitor] AR received: ID=0xc ADDR=0x180b3421 LEN=37
# UVM_INFO ../src/mst/axi4_master_monitor.sv(246) @ 415000: uvm_test_top.env.master_agent.mon [axi4_master_monitor] AR observed: ID=0xc ADDR=0x180b3421 LEN=37
# UVM_INFO ../src/slv/axi4_slave_driver.sv(358) @ 445000: uvm_test_top.env.slave_agent.drv [axi4_slave_driver] AR received: ID=0xe ADDR=0x86e9cb06 LEN=233 LOCK=AXI4_LOCK_EXCLUSIVE
# UVM_INFO ../src/mst/axi4_master_monitor.sv(246) @ 445000: uvm_test_top.env.master_agent.mon [axi4_master_monitor] AR observed: ID=0xe ADDR=0x86e9cb06 LEN=233
# UVM_INFO ../src/slv/axi4_slave_monitor.sv(224) @ 445000: uvm_test_top.env.slave_agent.mon [axi4_slave_monitor] AR received: ID=0xe ADDR=0x86e9cb06 LEN=233
# UVM_INFO ../src/slv/axi4_slave_driver.sv(358) @ 475000: uvm_test_top.env.slave_agent.drv [axi4_slave_driver] AR received: ID=0x4 ADDR=0x8502cbcd LEN=62 LOCK=AXI4_LOCK_NORMAL
# UVM_INFO ../src/slv/axi4_slave_monitor.sv(224) @ 475000: uvm_test_top.env.slave_agent.mon [axi4_slave_monitor] AR received: ID=0x4 ADDR=0x8502cbcd LEN=62
# UVM_INFO ../src/mst/axi4_master_monitor.sv(246) @ 475000: uvm_test_top.env.master_agent.mon [axi4_master_monitor] AR observed: ID=0x4 ADDR=0x8502cbcd LEN=62
# UVM_INFO ../src/test/axi4_unaligned_test.sv(33) @ 1095000: uvm_test_top [axi4_unaligned_test] Unaligned access test complete
# UVM_INFO ../src/mst/axi4_master_driver.sv(348) @ 1175000: uvm_test_top.env.master_agent.drv [axi4_master_driver] Master driver received all R beats for ID=0xf
# UVM_INFO ../src/slv/axi4_slave_driver.sv(464) @ 1175000: uvm_test_top.env.slave_agent.drv [axi4_slave_driver] Read complete: ID=0xf ADDR=0x5bc39e4f RESP=AXI4_RESP_OKAY  53 beats sent
# UVM_INFO ../src/slv/axi4_slave_monitor.sv(287) @ 1175000: uvm_test_top.env.slave_agent.mon [axi4_slave_monitor] Read data sent: ID=0xf ADDR=0x5bc39e4f 53 beats
# UVM_INFO ../src/env/axi4_scoreboard.sv(108) @ 1175000: uvm_test_top.env.scb [axi4_scoreboard] Slave AXI4_READ received: ID=0xf ADDR=0x5bc39e4f LEN=52
# UVM_INFO ../src/mst/axi4_master_monitor.sv(314) @ 1175000: uvm_test_top.env.master_agent.mon [axi4_master_monitor] Read complete: ID=0xf ADDR=0x5bc39e4f 53 beats
# UVM_INFO ../src/env/axi4_scoreboard.sv(87) @ 1175000: uvm_test_top.env.scb [axi4_scoreboard] Master AXI4_READ received: ID=0xf ADDR=0x5bc39e4f LEN=52
# UVM_INFO ../src/env/axi4_scoreboard.sv(291) @ 1175000: uvm_test_top.env.scb [axi4_scoreboard] [READ] MATCH #2: ID=0xf ADDR=0x5bc39e4f LEN=52
# UVM_INFO ../src/slv/axi4_slave_monitor.sv(167) @ 2695000: uvm_test_top.env.slave_agent.mon [axi4_slave_monitor] W data assembled: ID=0x4 ADDR=0x7e422bc6 128 beats
# UVM_INFO ../src/mst/axi4_master_monitor.sv(184) @ 2695000: uvm_test_top.env.master_agent.mon [axi4_master_monitor] W data assembled: ID=0x4 ADDR=0x7e422bc6 128 beats
# UVM_INFO ../src/mst/axi4_master_driver.sv(289) @ 2725000: uvm_test_top.env.master_agent.drv [axi4_master_driver] Master driver received B response: ID=0x4 RESP=AXI4_RESP_OKAY
# UVM_INFO ../src/slv/axi4_slave_driver.sv(320) @ 2725000: uvm_test_top.env.slave_agent.drv [axi4_slave_driver] Write complete: ID=0x4 RESP=AXI4_RESP_OKAY
# UVM_INFO ../src/mst/axi4_master_monitor.sv(210) @ 2725000: uvm_test_top.env.master_agent.mon [axi4_master_monitor] Write complete: ID=0x4 ADDR=0x7e422bc6 RESP=AXI4_RESP_OKAY
# UVM_INFO ../src/env/axi4_scoreboard.sv(87) @ 2725000: uvm_test_top.env.scb [axi4_scoreboard] Master AXI4_WRITE received: ID=0x4 ADDR=0x7e422bc6 LEN=127
# UVM_INFO ../src/slv/axi4_slave_monitor.sv(189) @ 2725000: uvm_test_top.env.slave_agent.mon [axi4_slave_monitor] Write response sent: ID=0x4 ADDR=0x7e422bc6 RESP=AXI4_RESP_OKAY
# UVM_INFO ../src/env/axi4_scoreboard.sv(108) @ 2725000: uvm_test_top.env.scb [axi4_scoreboard] Slave AXI4_WRITE received: ID=0x4 ADDR=0x7e422bc6 LEN=127
# UVM_INFO ../src/env/axi4_scoreboard.sv(291) @ 2725000: uvm_test_top.env.scb [axi4_scoreboard] [WRITE] MATCH #3: ID=0x4 ADDR=0x7e422bc6 LEN=127
# UVM_INFO ../src/env/axi4_scoreboard.sv(226) @ 2725000: uvm_test_top.env.scb [axi4_scoreboard] [REF_MEM_WRITE_IGNORED] Write ignored for ADDR=0x7e422bc6 LOCK=AXI4_LOCK_EXCLUSIVE RESP=AXI4_RESP_OKAY
# UVM_INFO ../src/mst/axi4_master_driver.sv(348) @ 2735000: uvm_test_top.env.master_agent.drv [axi4_master_driver] Master driver received all R beats for ID=0xe
# UVM_INFO ../src/slv/axi4_slave_driver.sv(464) @ 2735000: uvm_test_top.env.slave_agent.drv [axi4_slave_driver] Read complete: ID=0xe ADDR=0xaeb457c9 RESP=AXI4_RESP_OKAY  78 beats sent
# UVM_INFO ../src/slv/axi4_slave_monitor.sv(287) @ 2735000: uvm_test_top.env.slave_agent.mon [axi4_slave_monitor] Read data sent: ID=0xe ADDR=0xaeb457c9 78 beats
# UVM_INFO ../src/env/axi4_scoreboard.sv(108) @ 2735000: uvm_test_top.env.scb [axi4_scoreboard] Slave AXI4_READ received: ID=0xe ADDR=0xaeb457c9 LEN=77
# UVM_INFO ../src/mst/axi4_master_monitor.sv(314) @ 2735000: uvm_test_top.env.master_agent.mon [axi4_master_monitor] Read complete: ID=0xe ADDR=0xaeb457c9 78 beats
# UVM_INFO ../src/env/axi4_scoreboard.sv(87) @ 2735000: uvm_test_top.env.scb [axi4_scoreboard] Master AXI4_READ received: ID=0xe ADDR=0xaeb457c9 LEN=77
# UVM_INFO ../src/env/axi4_scoreboard.sv(291) @ 2735000: uvm_test_top.env.scb [axi4_scoreboard] [READ] MATCH #4: ID=0xe ADDR=0xaeb457c9 LEN=77
# UVM_INFO ../src/mst/axi4_master_driver.sv(348) @ 5435000: uvm_test_top.env.master_agent.drv [axi4_master_driver] Master driver received all R beats for ID=0x2
# UVM_INFO ../src/slv/axi4_slave_driver.sv(464) @ 5435000: uvm_test_top.env.slave_agent.drv [axi4_slave_driver] Read complete: ID=0x2 ADDR=0x120f9a69 RESP=AXI4_RESP_OKAY  135 beats sent
# UVM_INFO ../src/slv/axi4_slave_monitor.sv(287) @ 5435000: uvm_test_top.env.slave_agent.mon [axi4_slave_monitor] Read data sent: ID=0x2 ADDR=0x120f9a69 135 beats
# UVM_INFO ../src/env/axi4_scoreboard.sv(108) @ 5435000: uvm_test_top.env.scb [axi4_scoreboard] Slave AXI4_READ received: ID=0x2 ADDR=0x120f9a69 LEN=134
# UVM_INFO ../src/mst/axi4_master_monitor.sv(314) @ 5435000: uvm_test_top.env.master_agent.mon [axi4_master_monitor] Read complete: ID=0x2 ADDR=0x120f9a69 135 beats
# UVM_INFO ../src/env/axi4_scoreboard.sv(87) @ 5435000: uvm_test_top.env.scb [axi4_scoreboard] Master AXI4_READ received: ID=0x2 ADDR=0x120f9a69 LEN=134
# UVM_INFO ../src/env/axi4_scoreboard.sv(291) @ 5435000: uvm_test_top.env.scb [axi4_scoreboard] [READ] MATCH #5: ID=0x2 ADDR=0x120f9a69 LEN=134
# UVM_INFO ../src/mst/axi4_master_driver.sv(348) @ 6395000: uvm_test_top.env.master_agent.drv [axi4_master_driver] Master driver received all R beats for ID=0x0
# UVM_INFO ../src/slv/axi4_slave_driver.sv(464) @ 6395000: uvm_test_top.env.slave_agent.drv [axi4_slave_driver] Read complete: ID=0x0 ADDR=0x34f3639e RESP=AXI4_RESP_EXOKAY  48 beats sent
# UVM_INFO ../src/slv/axi4_slave_monitor.sv(287) @ 6395000: uvm_test_top.env.slave_agent.mon [axi4_slave_monitor] Read data sent: ID=0x0 ADDR=0x34f3639e 48 beats
# UVM_INFO ../src/env/axi4_scoreboard.sv(108) @ 6395000: uvm_test_top.env.scb [axi4_scoreboard] Slave AXI4_READ received: ID=0x0 ADDR=0x34f3639e LEN=47
# UVM_INFO ../src/mst/axi4_master_monitor.sv(314) @ 6395000: uvm_test_top.env.master_agent.mon [axi4_master_monitor] Read complete: ID=0x0 ADDR=0x34f3639e 48 beats
# UVM_INFO ../src/env/axi4_scoreboard.sv(87) @ 6395000: uvm_test_top.env.scb [axi4_scoreboard] Master AXI4_READ received: ID=0x0 ADDR=0x34f3639e LEN=47
# UVM_INFO ../src/env/axi4_scoreboard.sv(291) @ 6395000: uvm_test_top.env.scb [axi4_scoreboard] [READ] MATCH #6: ID=0x0 ADDR=0x34f3639e LEN=47
# UVM_INFO ../src/slv/axi4_slave_monitor.sv(167) @ 6935000: uvm_test_top.env.slave_agent.mon [axi4_slave_monitor] W data assembled: ID=0x8 ADDR=0xdfc50d56 212 beats
# UVM_INFO ../src/mst/axi4_master_monitor.sv(184) @ 6935000: uvm_test_top.env.master_agent.mon [axi4_master_monitor] W data assembled: ID=0x8 ADDR=0xdfc50d56 212 beats
# UVM_INFO ../src/mst/axi4_master_driver.sv(289) @ 6965000: uvm_test_top.env.master_agent.drv [axi4_master_driver] Master driver received B response: ID=0x8 RESP=AXI4_RESP_OKAY
# UVM_INFO ../src/slv/axi4_slave_driver.sv(320) @ 6965000: uvm_test_top.env.slave_agent.drv [axi4_slave_driver] Write complete: ID=0x8 RESP=AXI4_RESP_OKAY
# UVM_INFO ../src/mst/axi4_master_monitor.sv(210) @ 6965000: uvm_test_top.env.master_agent.mon [axi4_master_monitor] Write complete: ID=0x8 ADDR=0xdfc50d56 RESP=AXI4_RESP_OKAY
# UVM_INFO ../src/env/axi4_scoreboard.sv(87) @ 6965000: uvm_test_top.env.scb [axi4_scoreboard] Master AXI4_WRITE received: ID=0x8 ADDR=0xdfc50d56 LEN=211
# UVM_INFO ../src/slv/axi4_slave_monitor.sv(189) @ 6965000: uvm_test_top.env.slave_agent.mon [axi4_slave_monitor] Write response sent: ID=0x8 ADDR=0xdfc50d56 RESP=AXI4_RESP_OKAY
# UVM_INFO ../src/env/axi4_scoreboard.sv(108) @ 6965000: uvm_test_top.env.scb [axi4_scoreboard] Slave AXI4_WRITE received: ID=0x8 ADDR=0xdfc50d56 LEN=211
# UVM_INFO ../src/env/axi4_scoreboard.sv(291) @ 6965000: uvm_test_top.env.scb [axi4_scoreboard] [WRITE] MATCH #7: ID=0x8 ADDR=0xdfc50d56 LEN=211
# UVM_INFO ../src/env/axi4_scoreboard.sv(219) @ 6965000: uvm_test_top.env.scb [axi4_scoreboard] [REF_MEM_WRITE] Addr=0xdfc50d55 Data=0x73
# UVM_INFO ../src/env/axi4_scoreboard.sv(219) @ 6965000: uvm_test_top.env.scb [axi4_scoreboard] [REF_MEM_WRITE] Addr=0xdfc50d57 Data=0x6a
# UVM_INFO ../src/env/axi4_scoreboard.sv(219) @ 6965000: uvm_test_top.env.scb [axi4_scoreboard] [REF_MEM_WRITE] Addr=0xdfc50d5a Data=0x3f
# UVM_INFO ../src/env/axi4_scoreboard.sv(219) @ 6965000: uvm_test_top.env.scb [axi4_scoreboard] [REF_MEM_WRITE] Addr=0xdfc50d5b Data=0x8d
# UVM_INFO ../src/env/axi4_scoreboard.sv(219) @ 6965000: uvm_test_top.env.scb [axi4_scoreboard] [REF_MEM_WRITE] Addr=0xdfc50d5f Data=0x8f
# UVM_INFO ../src/env/axi4_scoreboard.sv(219) @ 6965000: uvm_test_top.env.scb [axi4_scoreboard] [REF_MEM_WRITE] Addr=0xdfc50d63 Data=0xe5
# UVM_INFO ../src/env/axi4_scoreboard.sv(219) @ 6965000: uvm_test_top.env.scb [axi4_scoreboard] [REF_MEM_WRITE] Addr=0xdfc50d64 Data=0xd8
# UVM_INFO ../src/env/axi4_scoreboard.sv(219) @ 6965000: uvm_test_top.env.scb [axi4_scoreboard] [REF_MEM_WRITE] Addr=0xdfc50d65 Data=0x51
# UVM_INFO ../src/env/axi4_scoreboard.sv(219) @ 6965000: uvm_test_top.env.scb [axi4_scoreboard] [REF_MEM_WRITE] Addr=0xdfc50d66 Data=0x67
# UVM_INFO ../src/env/axi4_scoreboard.sv(219) @ 6965000: uvm_test_top.env.scb [axi4_scoreboard] [REF_MEM_WRITE] Addr=0xdfc50d67 Data=0xe6
# UVM_INFO ../src/env/axi4_scoreboard.sv(219) @ 6965000: uvm_test_top.env.scb [axi4_scoreboard] [REF_MEM_WRITE] Addr=0xdfc50d68 Data=0xeb
# UVM_INFO ../src/env/axi4_scoreboard.sv(219) @ 6965000: uvm_test_top.env.scb [axi4_scoreboard] [REF_MEM_WRITE] Addr=0xdfc50d69 Data=0x85
# UVM_INFO ../src/env/axi4_scoreboard.sv(219) @ 6965000: uvm_test_top.env.scb [axi4_scoreboard] [REF_MEM_WRITE] Addr=0xdfc50d6a Data=0x17
# UVM_INFO ../src/env/axi4_scoreboard.sv(219) @ 6965000: uvm_test_top.env.scb [axi4_scoreboard] [REF_MEM_WRITE] Addr=0xdfc50d6e Data=0x4b
# UVM_INFO ../src/env/axi4_scoreboard.sv(219) @ 6965000: uvm_test_top.env.scb [axi4_scoreboard] [REF_MEM_WRITE] Addr=0xdfc50d70 Data=0x6b
# UVM_INFO ../src/env/axi4_scoreboard.sv(219) @ 6965000: uvm_test_top.env.scb [axi4_scoreboard] [REF_MEM_WRITE] Addr=0xdfc50d71 Data=0x14
# UVM_INFO ../src/env/axi4_scoreboard.sv(219) @ 6965000: uvm_test_top.env.scb [axi4_scoreboard] [REF_MEM_WRITE] Addr=0xdfc50d72 Data=0x76
# UVM_INFO ../src/env/axi4_scoreboard.sv(219) @ 6965000: uvm_test_top.env.scb [axi4_scoreboard] [REF_MEM_WRITE] Addr=0xdfc50d73 Data=0xe1
# UVM_INFO ../src/env/axi4_scoreboard.sv(219) @ 6965000: uvm_test_top.env.scb [axi4_scoreboard] [REF_MEM_WRITE] Addr=0xdfc50d74 Data=0xfd
# UVM_INFO ../src/env/axi4_scoreboard.sv(219) @ 6965000: uvm_test_top.env.scb [axi4_scoreboard] [REF_MEM_WRITE] Addr=0xdfc50d75 Data=0x72
# UVM_INFO ../src/env/axi4_scoreboard.sv(219) @ 6965000: uvm_test_top.env.scb [axi4_scoreboard] [REF_MEM_WRITE] Addr=0xdfc50d77 Data=0xec
# UVM_INFO ../src/env/axi4_scoreboard.sv(219) @ 6965000: uvm_test_top.env.scb [axi4_scoreboard] [REF_MEM_WRITE] Addr=0xdfc50d78 Data=0x18
# UVM_INFO ../src/env/axi4_scoreboard.sv(219) @ 6965000: uvm_test_top.env.scb [axi4_scoreboard] [REF_MEM_WRITE] Addr=0xdfc50d79 Data=0xce
# UVM_INFO ../src/env/axi4_scoreboard.sv(219) @ 6965000: uvm_test_top.env.scb [axi4_scoreboard] [REF_MEM_WRITE] Addr=0xdfc50d7a Data=0x07
# UVM_INFO ../src/env/axi4_scoreboard.sv(219) @ 6965000: uvm_test_top.env.scb [axi4_scoreboard] [REF_MEM_WRITE] Addr=0xdfc50d7c Data=0x87
# UVM_INFO ../src/env/axi4_scoreboard.sv(219) @ 6965000: uvm_test_top.env.scb [axi4_scoreboard] [REF_MEM_WRITE] Addr=0xdfc50d7d Data=0x6b
# UVM_INFO ../src/env/axi4_scoreboard.sv(219) @ 6965000: uvm_test_top.env.scb [axi4_scoreboard] [REF_MEM_WRITE] Addr=0xdfc50d7f Data=0xd5
# UVM_INFO ../src/env/axi4_scoreboard.sv(219) @ 6965000: uvm_test_top.env.scb [axi4_scoreboard] [REF_MEM_WRITE] Addr=0xdfc50d84 Data=0x14
# UVM_INFO ../src/env/axi4_scoreboard.sv(219) @ 6965000: uvm_test_top.env.scb [axi4_scoreboard] [REF_MEM_WRITE] Addr=0xdfc50d86 Data=0xc1
# UVM_INFO ../src/env/axi4_scoreboard.sv(219) @ 6965000: uvm_test_top.env.scb [axi4_scoreboard] [REF_MEM_WRITE] Addr=0xdfc50d89 Data=0xf9
# UVM_INFO ../src/env/axi4_scoreboard.sv(219) @ 6965000: uvm_test_top.env.scb [axi4_scoreboard] [REF_MEM_WRITE] Addr=0xdfc50d8b Data=0x71
# UVM_INFO ../src/env/axi4_scoreboard.sv(219) @ 6965000: uvm_test_top.env.scb [axi4_scoreboard] [REF_MEM_WRITE] Addr=0xdfc50d8c Data=0x0d
# UVM_INFO ../src/env/axi4_scoreboard.sv(219) @ 6965000: uvm_test_top.env.scb [axi4_scoreboard] [REF_MEM_WRITE] Addr=0xdfc50d8e Data=0x32
# UVM_INFO ../src/env/axi4_scoreboard.sv(219) @ 6965000: uvm_test_top.env.scb [axi4_scoreboard] [REF_MEM_WRITE] Addr=0xdfc50d92 Data=0x7d
# UVM_INFO ../src/env/axi4_scoreboard.sv(219) @ 6965000: uvm_test_top.env.scb [axi4_scoreboard] [REF_MEM_WRITE] Addr=0xdfc50d93 Data=0xdf
# UVM_INFO ../src/env/axi4_scoreboard.sv(219) @ 6965000: uvm_test_top.env.scb [axi4_scoreboard] [REF_MEM_WRITE] Addr=0xdfc50d95 Data=0x2d
# UVM_INFO ../src/env/axi4_scoreboard.sv(219) @ 6965000: uvm_test_top.env.scb [axi4_scoreboard] [REF_MEM_WRITE] Addr=0xdfc50d9e Data=0x8c
# UVM_INFO ../src/env/axi4_scoreboard.sv(219) @ 6965000: uvm_test_top.env.scb [axi4_scoreboard] [REF_MEM_WRITE] Addr=0xdfc50d9f Data=0xfb
# UVM_INFO ../src/env/axi4_scoreboard.sv(219) @ 6965000: uvm_test_top.env.scb [axi4_scoreboard] [REF_MEM_WRITE] Addr=0xdfc50da1 Data=0x19
# UVM_INFO ../src/env/axi4_scoreboard.sv(219) @ 6965000: uvm_test_top.env.scb [axi4_scoreboard] [REF_MEM_WRITE] Addr=0xdfc50da2 Data=0x6b
# UVM_INFO ../src/env/axi4_scoreboard.sv(219) @ 6965000: uvm_test_top.env.scb [axi4_scoreboard] [REF_MEM_WRITE] Addr=0xdfc50da3 Data=0x22
# UVM_INFO ../src/env/axi4_scoreboard.sv(219) @ 6965000: uvm_test_top.env.scb [axi4_scoreboard] [REF_MEM_WRITE] Addr=0xdfc50da4 Data=0xef
# UVM_INFO ../src/env/axi4_scoreboard.sv(219) @ 6965000: uvm_test_top.env.scb [axi4_scoreboard] [REF_MEM_WRITE] Addr=0xdfc50da5 Data=0x25
# UVM_INFO ../src/env/axi4_scoreboard.sv(219) @ 6965000: uvm_test_top.env.scb [axi4_scoreboard] [REF_MEM_WRITE] Addr=0xdfc50da7 Data=0x9f
# UVM_INFO ../src/env/axi4_scoreboard.sv(219) @ 6965000: uvm_test_top.env.scb [axi4_scoreboard] [REF_MEM_WRITE] Addr=0xdfc50da8 Data=0x5d
# UVM_INFO ../src/env/axi4_scoreboard.sv(219) @ 6965000: uvm_test_top.env.scb [axi4_scoreboard] [REF_MEM_WRITE] Addr=0xdfc50da9 Data=0x91
# UVM_INFO ../src/env/axi4_scoreboard.sv(219) @ 6965000: uvm_test_top.env.scb [axi4_scoreboard] [REF_MEM_WRITE] Addr=0xdfc50daa Data=0x11
# UVM_INFO ../src/env/axi4_scoreboard.sv(219) @ 6965000: uvm_test_top.env.scb [axi4_scoreboard] [REF_MEM_WRITE] Addr=0xdfc50db1 Data=0x53
# UVM_INFO ../src/env/axi4_scoreboard.sv(219) @ 6965000: uvm_test_top.env.scb [axi4_scoreboard] [REF_MEM_WRITE] Addr=0xdfc50db2 Data=0x21
# UVM_INFO ../src/env/axi4_scoreboard.sv(219) @ 6965000: uvm_test_top.env.scb [axi4_scoreboard] [REF_MEM_WRITE] Addr=0xdfc50db5 Data=0x49
# UVM_INFO ../src/env/axi4_scoreboard.sv(219) @ 6965000: uvm_test_top.env.scb [axi4_scoreboard] [REF_MEM_WRITE] Addr=0xdfc50db6 Data=0x3b
# UVM_INFO ../src/env/axi4_scoreboard.sv(219) @ 6965000: uvm_test_top.env.scb [axi4_scoreboard] [REF_MEM_WRITE] Addr=0xdfc50db9 Data=0xfd
# UVM_INFO ../src/env/axi4_scoreboard.sv(219) @ 6965000: uvm_test_top.env.scb [axi4_scoreboard] [REF_MEM_WRITE] Addr=0xdfc50dbb Data=0xdb
# UVM_INFO ../src/env/axi4_scoreboard.sv(219) @ 6965000: uvm_test_top.env.scb [axi4_scoreboard] [REF_MEM_WRITE] Addr=0xdfc50dbf Data=0xab
# UVM_INFO ../src/env/axi4_scoreboard.sv(219) @ 6965000: uvm_test_top.env.scb [axi4_scoreboard] [REF_MEM_WRITE] Addr=0xdfc50dc0 Data=0x68
# UVM_INFO ../src/env/axi4_scoreboard.sv(219) @ 6965000: uvm_test_top.env.scb [axi4_scoreboard] [REF_MEM_WRITE] Addr=0xdfc50dc2 Data=0xbe
# UVM_INFO ../src/env/axi4_scoreboard.sv(219) @ 6965000: uvm_test_top.env.scb [axi4_scoreboard] [REF_MEM_WRITE] Addr=0xdfc50dc3 Data=0x95
# UVM_INFO ../src/env/axi4_scoreboard.sv(219) @ 6965000: uvm_test_top.env.scb [axi4_scoreboard] [REF_MEM_WRITE] Addr=0xdfc50dc6 Data=0x2c
# UVM_INFO ../src/env/axi4_scoreboard.sv(219) @ 6965000: uvm_test_top.env.scb [axi4_scoreboard] [REF_MEM_WRITE] Addr=0xdfc50dcc Data=0xaf
# UVM_INFO ../src/env/axi4_scoreboard.sv(219) @ 6965000: uvm_test_top.env.scb [axi4_scoreboard] [REF_MEM_WRITE] Addr=0xdfc50dcd Data=0x78
# UVM_INFO ../src/env/axi4_scoreboard.sv(219) @ 6965000: uvm_test_top.env.scb [axi4_scoreboard] [REF_MEM_WRITE] Addr=0xdfc50dcf Data=0x96
# UVM_INFO ../src/env/axi4_scoreboard.sv(219) @ 6965000: uvm_test_top.env.scb [axi4_scoreboard] [REF_MEM_WRITE] Addr=0xdfc50dd0 Data=0x3e
# UVM_INFO ../src/env/axi4_scoreboard.sv(219) @ 6965000: uvm_test_top.env.scb [axi4_scoreboard] [REF_MEM_WRITE] Addr=0xdfc50dd2 Data=0x0e
# UVM_INFO ../src/env/axi4_scoreboard.sv(219) @ 6965000: uvm_test_top.env.scb [axi4_scoreboard] [REF_MEM_WRITE] Addr=0xdfc50dd4 Data=0x01
# UVM_INFO ../src/env/axi4_scoreboard.sv(219) @ 6965000: uvm_test_top.env.scb [axi4_scoreboard] [REF_MEM_WRITE] Addr=0xdfc50dd6 Data=0xb3
# UVM_INFO ../src/env/axi4_scoreboard.sv(219) @ 6965000: uvm_test_top.env.scb [axi4_scoreboard] [REF_MEM_WRITE] Addr=0xdfc50dd7 Data=0x16
# UVM_INFO ../src/env/axi4_scoreboard.sv(219) @ 6965000: uvm_test_top.env.scb [axi4_scoreboard] [REF_MEM_WRITE] Addr=0xdfc50dd9 Data=0xcb
# UVM_INFO ../src/env/axi4_scoreboard.sv(219) @ 6965000: uvm_test_top.env.scb [axi4_scoreboard] [REF_MEM_WRITE] Addr=0xdfc50ddc Data=0x61
# UVM_INFO ../src/env/axi4_scoreboard.sv(219) @ 6965000: uvm_test_top.env.scb [axi4_scoreboard] [REF_MEM_WRITE] Addr=0xdfc50ddd Data=0x3a
# UVM_INFO ../src/env/axi4_scoreboard.sv(219) @ 6965000: uvm_test_top.env.scb [axi4_scoreboard] [REF_MEM_WRITE] Addr=0xdfc50de1 Data=0xd4
# UVM_INFO ../src/env/axi4_scoreboard.sv(219) @ 6965000: uvm_test_top.env.scb [axi4_scoreboard] [REF_MEM_WRITE] Addr=0xdfc50de5 Data=0x76
# UVM_INFO ../src/env/axi4_scoreboard.sv(219) @ 6965000: uvm_test_top.env.scb [axi4_scoreboard] [REF_MEM_WRITE] Addr=0xdfc50de7 Data=0x46
# UVM_INFO ../src/env/axi4_scoreboard.sv(219) @ 6965000: uvm_test_top.env.scb [axi4_scoreboard] [REF_MEM_WRITE] Addr=0xdfc50de8 Data=0x32
# UVM_INFO ../src/env/axi4_scoreboard.sv(219) @ 6965000: uvm_test_top.env.scb [axi4_scoreboard] [REF_MEM_WRITE] Addr=0xdfc50dec Data=0x06
# UVM_INFO ../src/env/axi4_scoreboard.sv(219) @ 6965000: uvm_test_top.env.scb [axi4_scoreboard] [REF_MEM_WRITE] Addr=0xdfc50ded Data=0x97
# UVM_INFO ../src/env/axi4_scoreboard.sv(219) @ 6965000: uvm_test_top.env.scb [axi4_scoreboard] [REF_MEM_WRITE] Addr=0xdfc50def Data=0x0f
# UVM_INFO ../src/env/axi4_scoreboard.sv(219) @ 6965000: uvm_test_top.env.scb [axi4_scoreboard] [REF_MEM_WRITE] Addr=0xdfc50df0 Data=0x3c
# UVM_INFO ../src/env/axi4_scoreboard.sv(219) @ 6965000: uvm_test_top.env.scb [axi4_scoreboard] [REF_MEM_WRITE] Addr=0xdfc50df3 Data=0xb4
# UVM_INFO ../src/env/axi4_scoreboard.sv(219) @ 6965000: uvm_test_top.env.scb [axi4_scoreboard] [REF_MEM_WRITE] Addr=0xdfc50df4 Data=0xf7
# UVM_INFO ../src/env/axi4_scoreboard.sv(219) @ 6965000: uvm_test_top.env.scb [axi4_scoreboard] [REF_MEM_WRITE] Addr=0xdfc50df6 Data=0x6d
# UVM_INFO ../src/env/axi4_scoreboard.sv(219) @ 6965000: uvm_test_top.env.scb [axi4_scoreboard] [REF_MEM_WRITE] Addr=0xdfc50df8 Data=0xe4
# UVM_INFO ../src/env/axi4_scoreboard.sv(219) @ 6965000: uvm_test_top.env.scb [axi4_scoreboard] [REF_MEM_WRITE] Addr=0xdfc50e03 Data=0x62
# UVM_INFO ../src/env/axi4_scoreboard.sv(219) @ 6965000: uvm_test_top.env.scb [axi4_scoreboard] [REF_MEM_WRITE] Addr=0xdfc50e05 Data=0xc1
# UVM_INFO ../src/env/axi4_scoreboard.sv(219) @ 6965000: uvm_test_top.env.scb [axi4_scoreboard] [REF_MEM_WRITE] Addr=0xdfc50e0d Data=0x0a
# UVM_INFO ../src/env/axi4_scoreboard.sv(219) @ 6965000: uvm_test_top.env.scb [axi4_scoreboard] [REF_MEM_WRITE] Addr=0xdfc50e0e Data=0x06
# UVM_INFO ../src/env/axi4_scoreboard.sv(219) @ 6965000: uvm_test_top.env.scb [axi4_scoreboard] [REF_MEM_WRITE] Addr=0xdfc50e14 Data=0x48
# UVM_INFO ../src/env/axi4_scoreboard.sv(219) @ 6965000: uvm_test_top.env.scb [axi4_scoreboard] [REF_MEM_WRITE] Addr=0xdfc50e15 Data=0x6c
# UVM_INFO ../src/env/axi4_scoreboard.sv(219) @ 6965000: uvm_test_top.env.scb [axi4_scoreboard] [REF_MEM_WRITE] Addr=0xdfc50e16 Data=0x63
# UVM_INFO ../src/env/axi4_scoreboard.sv(219) @ 6965000: uvm_test_top.env.scb [axi4_scoreboard] [REF_MEM_WRITE] Addr=0xdfc50e18 Data=0x0a
# UVM_INFO ../src/env/axi4_scoreboard.sv(219) @ 6965000: uvm_test_top.env.scb [axi4_scoreboard] [REF_MEM_WRITE] Addr=0xdfc50e19 Data=0xd4
# UVM_INFO ../src/env/axi4_scoreboard.sv(219) @ 6965000: uvm_test_top.env.scb [axi4_scoreboard] [REF_MEM_WRITE] Addr=0xdfc50e1a Data=0xc0
# UVM_INFO ../src/env/axi4_scoreboard.sv(219) @ 6965000: uvm_test_top.env.scb [axi4_scoreboard] [REF_MEM_WRITE] Addr=0xdfc50e1d Data=0x7d
# UVM_INFO ../src/env/axi4_scoreboard.sv(219) @ 6965000: uvm_test_top.env.scb [axi4_scoreboard] [REF_MEM_WRITE] Addr=0xdfc50e22 Data=0xf7
# UVM_INFO ../src/env/axi4_scoreboard.sv(219) @ 6965000: uvm_test_top.env.scb [axi4_scoreboard] [REF_MEM_WRITE] Addr=0xdfc50e23 Data=0x9c
# UVM_INFO ../src/env/axi4_scoreboard.sv(219) @ 6965000: uvm_test_top.env.scb [axi4_scoreboard] [REF_MEM_WRITE] Addr=0xdfc50e26 Data=0xa2
# UVM_INFO ../src/env/axi4_scoreboard.sv(219) @ 6965000: uvm_test_top.env.scb [axi4_scoreboard] [REF_MEM_WRITE] Addr=0xdfc50e2b Data=0xb5
# UVM_INFO ../src/env/axi4_scoreboard.sv(219) @ 6965000: uvm_test_top.env.scb [axi4_scoreboard] [REF_MEM_WRITE] Addr=0xdfc50e2d Data=0x21
# UVM_INFO ../src/env/axi4_scoreboard.sv(219) @ 6965000: uvm_test_top.env.scb [axi4_scoreboard] [REF_MEM_WRITE] Addr=0xdfc50e2e Data=0x6d
# UVM_INFO ../src/env/axi4_scoreboard.sv(219) @ 6965000: uvm_test_top.env.scb [axi4_scoreboard] [REF_MEM_WRITE] Addr=0xdfc50e2f Data=0x8e
# UVM_INFO ../src/env/axi4_scoreboard.sv(219) @ 6965000: uvm_test_top.env.scb [axi4_scoreboard] [REF_MEM_WRITE] Addr=0xdfc50e30 Data=0x71
# UVM_INFO ../src/env/axi4_scoreboard.sv(219) @ 6965000: uvm_test_top.env.scb [axi4_scoreboard] [REF_MEM_WRITE] Addr=0xdfc50e34 Data=0x26
# UVM_INFO ../src/env/axi4_scoreboard.sv(219) @ 6965000: uvm_test_top.env.scb [axi4_scoreboard] [REF_MEM_WRITE] Addr=0xdfc50e35 Data=0xdd
# UVM_INFO ../src/env/axi4_scoreboard.sv(219) @ 6965000: uvm_test_top.env.scb [axi4_scoreboard] [REF_MEM_WRITE] Addr=0xdfc50e36 Data=0x70
# UVM_INFO ../src/env/axi4_scoreboard.sv(219) @ 6965000: uvm_test_top.env.scb [axi4_scoreboard] [REF_MEM_WRITE] Addr=0xdfc50e39 Data=0x59
# UVM_INFO ../src/env/axi4_scoreboard.sv(219) @ 6965000: uvm_test_top.env.scb [axi4_scoreboard] [REF_MEM_WRITE] Addr=0xdfc50e3a Data=0x07
# UVM_INFO ../src/env/axi4_scoreboard.sv(219) @ 6965000: uvm_test_top.env.scb [axi4_scoreboard] [REF_MEM_WRITE] Addr=0xdfc50e3c Data=0x99
# UVM_INFO ../src/env/axi4_scoreboard.sv(219) @ 6965000: uvm_test_top.env.scb [axi4_scoreboard] [REF_MEM_WRITE] Addr=0xdfc50e3e Data=0xc9
# UVM_INFO ../src/env/axi4_scoreboard.sv(219) @ 6965000: uvm_test_top.env.scb [axi4_scoreboard] [REF_MEM_WRITE] Addr=0xdfc50e40 Data=0x90
# UVM_INFO ../src/env/axi4_scoreboard.sv(219) @ 6965000: uvm_test_top.env.scb [axi4_scoreboard] [REF_MEM_WRITE] Addr=0xdfc50e41 Data=0xe3
# UVM_INFO ../src/env/axi4_scoreboard.sv(219) @ 6965000: uvm_test_top.env.scb [axi4_scoreboard] [REF_MEM_WRITE] Addr=0xdfc50e42 Data=0x1b
# UVM_INFO ../src/env/axi4_scoreboard.sv(219) @ 6965000: uvm_test_top.env.scb [axi4_scoreboard] [REF_MEM_WRITE] Addr=0xdfc50e43 Data=0xe2
# UVM_INFO ../src/env/axi4_scoreboard.sv(219) @ 6965000: uvm_test_top.env.scb [axi4_scoreboard] [REF_MEM_WRITE] Addr=0xdfc50e44 Data=0x4d
# UVM_INFO ../src/env/axi4_scoreboard.sv(219) @ 6965000: uvm_test_top.env.scb [axi4_scoreboard] [REF_MEM_WRITE] Addr=0xdfc50e47 Data=0x15
# UVM_INFO ../src/env/axi4_scoreboard.sv(219) @ 6965000: uvm_test_top.env.scb [axi4_scoreboard] [REF_MEM_WRITE] Addr=0xdfc50e48 Data=0xe5
# UVM_INFO ../src/env/axi4_scoreboard.sv(219) @ 6965000: uvm_test_top.env.scb [axi4_scoreboard] [REF_MEM_WRITE] Addr=0xdfc50e49 Data=0x0e
# UVM_INFO ../src/env/axi4_scoreboard.sv(219) @ 6965000: uvm_test_top.env.scb [axi4_scoreboard] [REF_MEM_WRITE] Addr=0xdfc50e4c Data=0x07
# UVM_INFO ../src/env/axi4_scoreboard.sv(219) @ 6965000: uvm_test_top.env.scb [axi4_scoreboard] [REF_MEM_WRITE] Addr=0xdfc50e4e Data=0xa0
# UVM_INFO ../src/env/axi4_scoreboard.sv(219) @ 6965000: uvm_test_top.env.scb [axi4_scoreboard] [REF_MEM_WRITE] Addr=0xdfc50e4f Data=0x91
# UVM_INFO ../src/env/axi4_scoreboard.sv(219) @ 6965000: uvm_test_top.env.scb [axi4_scoreboard] [REF_MEM_WRITE] Addr=0xdfc50e50 Data=0xf4
# UVM_INFO ../src/env/axi4_scoreboard.sv(219) @ 6965000: uvm_test_top.env.scb [axi4_scoreboard] [REF_MEM_WRITE] Addr=0xdfc50e54 Data=0xf5
# UVM_INFO ../src/env/axi4_scoreboard.sv(219) @ 6965000: uvm_test_top.env.scb [axi4_scoreboard] [REF_MEM_WRITE] Addr=0xdfc50e55 Data=0x3b
# UVM_INFO ../src/env/axi4_scoreboard.sv(219) @ 6965000: uvm_test_top.env.scb [axi4_scoreboard] [REF_MEM_WRITE] Addr=0xdfc50e56 Data=0x3f
# UVM_INFO ../src/env/axi4_scoreboard.sv(219) @ 6965000: uvm_test_top.env.scb [axi4_scoreboard] [REF_MEM_WRITE] Addr=0xdfc50e58 Data=0xd9
# UVM_INFO ../src/env/axi4_scoreboard.sv(219) @ 6965000: uvm_test_top.env.scb [axi4_scoreboard] [REF_MEM_WRITE] Addr=0xdfc50e59 Data=0xdd
# UVM_INFO ../src/env/axi4_scoreboard.sv(219) @ 6965000: uvm_test_top.env.scb [axi4_scoreboard] [REF_MEM_WRITE] Addr=0xdfc50e5b Data=0x87
# UVM_INFO ../src/env/axi4_scoreboard.sv(219) @ 6965000: uvm_test_top.env.scb [axi4_scoreboard] [REF_MEM_WRITE] Addr=0xdfc50e5d Data=0x78
# UVM_INFO ../src/env/axi4_scoreboard.sv(219) @ 6965000: uvm_test_top.env.scb [axi4_scoreboard] [REF_MEM_WRITE] Addr=0xdfc50e64 Data=0xa5
# UVM_INFO ../src/env/axi4_scoreboard.sv(219) @ 6965000: uvm_test_top.env.scb [axi4_scoreboard] [REF_MEM_WRITE] Addr=0xdfc50e65 Data=0x15
# UVM_INFO ../src/env/axi4_scoreboard.sv(219) @ 6965000: uvm_test_top.env.scb [axi4_scoreboard] [REF_MEM_WRITE] Addr=0xdfc50e66 Data=0x89
# UVM_INFO ../src/env/axi4_scoreboard.sv(219) @ 6965000: uvm_test_top.env.scb [axi4_scoreboard] [REF_MEM_WRITE] Addr=0xdfc50e68 Data=0x1f
# UVM_INFO ../src/env/axi4_scoreboard.sv(219) @ 6965000: uvm_test_top.env.scb [axi4_scoreboard] [REF_MEM_WRITE] Addr=0xdfc50e6a Data=0x39
# UVM_INFO ../src/env/axi4_scoreboard.sv(219) @ 6965000: uvm_test_top.env.scb [axi4_scoreboard] [REF_MEM_WRITE] Addr=0xdfc50e6b Data=0xdb
# UVM_INFO ../src/env/axi4_scoreboard.sv(219) @ 6965000: uvm_test_top.env.scb [axi4_scoreboard] [REF_MEM_WRITE] Addr=0xdfc50e6d Data=0xf4
# UVM_INFO ../src/env/axi4_scoreboard.sv(219) @ 6965000: uvm_test_top.env.scb [axi4_scoreboard] [REF_MEM_WRITE] Addr=0xdfc50e6e Data=0xee
# UVM_INFO ../src/env/axi4_scoreboard.sv(219) @ 6965000: uvm_test_top.env.scb [axi4_scoreboard] [REF_MEM_WRITE] Addr=0xdfc50e6f Data=0x8a
# UVM_INFO ../src/env/axi4_scoreboard.sv(219) @ 6965000: uvm_test_top.env.scb [axi4_scoreboard] [REF_MEM_WRITE] Addr=0xdfc50e70 Data=0xaf
# UVM_INFO ../src/env/axi4_scoreboard.sv(219) @ 6965000: uvm_test_top.env.scb [axi4_scoreboard] [REF_MEM_WRITE] Addr=0xdfc50e71 Data=0x49
# UVM_INFO ../src/env/axi4_scoreboard.sv(219) @ 6965000: uvm_test_top.env.scb [axi4_scoreboard] [REF_MEM_WRITE] Addr=0xdfc50e73 Data=0x40
# UVM_INFO ../src/env/axi4_scoreboard.sv(219) @ 6965000: uvm_test_top.env.scb [axi4_scoreboard] [REF_MEM_WRITE] Addr=0xdfc50e74 Data=0x0d
# UVM_INFO ../src/env/axi4_scoreboard.sv(219) @ 6965000: uvm_test_top.env.scb [axi4_scoreboard] [REF_MEM_WRITE] Addr=0xdfc50e76 Data=0xd0
# UVM_INFO ../src/env/axi4_scoreboard.sv(219) @ 6965000: uvm_test_top.env.scb [axi4_scoreboard] [REF_MEM_WRITE] Addr=0xdfc50e7b Data=0x7d
# UVM_INFO ../src/env/axi4_scoreboard.sv(219) @ 6965000: uvm_test_top.env.scb [axi4_scoreboard] [REF_MEM_WRITE] Addr=0xdfc50e7c Data=0x0d
# UVM_INFO ../src/env/axi4_scoreboard.sv(219) @ 6965000: uvm_test_top.env.scb [axi4_scoreboard] [REF_MEM_WRITE] Addr=0xdfc50e83 Data=0xfb
# UVM_INFO ../src/env/axi4_scoreboard.sv(219) @ 6965000: uvm_test_top.env.scb [axi4_scoreboard] [REF_MEM_WRITE] Addr=0xdfc50e85 Data=0xcd
# UVM_INFO ../src/env/axi4_scoreboard.sv(219) @ 6965000: uvm_test_top.env.scb [axi4_scoreboard] [REF_MEM_WRITE] Addr=0xdfc50e86 Data=0xae
# UVM_INFO ../src/env/axi4_scoreboard.sv(219) @ 6965000: uvm_test_top.env.scb [axi4_scoreboard] [REF_MEM_WRITE] Addr=0xdfc50e8e Data=0x6f
# UVM_INFO ../src/env/axi4_scoreboard.sv(219) @ 6965000: uvm_test_top.env.scb [axi4_scoreboard] [REF_MEM_WRITE] Addr=0xdfc50e91 Data=0x4d
# UVM_INFO ../src/env/axi4_scoreboard.sv(219) @ 6965000: uvm_test_top.env.scb [axi4_scoreboard] [REF_MEM_WRITE] Addr=0xdfc50e92 Data=0xe4
# UVM_INFO ../src/env/axi4_scoreboard.sv(219) @ 6965000: uvm_test_top.env.scb [axi4_scoreboard] [REF_MEM_WRITE] Addr=0xdfc50e93 Data=0x9b
# UVM_INFO ../src/env/axi4_scoreboard.sv(219) @ 6965000: uvm_test_top.env.scb [axi4_scoreboard] [REF_MEM_WRITE] Addr=0xdfc50e94 Data=0x1a
# UVM_INFO ../src/env/axi4_scoreboard.sv(219) @ 6965000: uvm_test_top.env.scb [axi4_scoreboard] [REF_MEM_WRITE] Addr=0xdfc50e97 Data=0xbd
# UVM_INFO ../src/env/axi4_scoreboard.sv(219) @ 6965000: uvm_test_top.env.scb [axi4_scoreboard] [REF_MEM_WRITE] Addr=0xdfc50e98 Data=0x99
# UVM_INFO ../src/env/axi4_scoreboard.sv(219) @ 6965000: uvm_test_top.env.scb [axi4_scoreboard] [REF_MEM_WRITE] Addr=0xdfc50e9b Data=0xb3
# UVM_INFO ../src/env/axi4_scoreboard.sv(219) @ 6965000: uvm_test_top.env.scb [axi4_scoreboard] [REF_MEM_WRITE] Addr=0xdfc50e9e Data=0x7d
# UVM_INFO ../src/env/axi4_scoreboard.sv(219) @ 6965000: uvm_test_top.env.scb [axi4_scoreboard] [REF_MEM_WRITE] Addr=0xdfc50ea0 Data=0xdb
# UVM_INFO ../src/env/axi4_scoreboard.sv(219) @ 6965000: uvm_test_top.env.scb [axi4_scoreboard] [REF_MEM_WRITE] Addr=0xdfc50ea3 Data=0x95
# UVM_INFO ../src/env/axi4_scoreboard.sv(219) @ 6965000: uvm_test_top.env.scb [axi4_scoreboard] [REF_MEM_WRITE] Addr=0xdfc50ea4 Data=0x36
# UVM_INFO ../src/env/axi4_scoreboard.sv(219) @ 6965000: uvm_test_top.env.scb [axi4_scoreboard] [REF_MEM_WRITE] Addr=0xdfc50ea5 Data=0x92
# UVM_INFO ../src/env/axi4_scoreboard.sv(219) @ 6965000: uvm_test_top.env.scb [axi4_scoreboard] [REF_MEM_WRITE] Addr=0xdfc50ea8 Data=0xb7
# UVM_INFO ../src/env/axi4_scoreboard.sv(219) @ 6965000: uvm_test_top.env.scb [axi4_scoreboard] [REF_MEM_WRITE] Addr=0xdfc50eab Data=0xef
# UVM_INFO ../src/env/axi4_scoreboard.sv(219) @ 6965000: uvm_test_top.env.scb [axi4_scoreboard] [REF_MEM_WRITE] Addr=0xdfc50eac Data=0xf4
# UVM_INFO ../src/env/axi4_scoreboard.sv(219) @ 6965000: uvm_test_top.env.scb [axi4_scoreboard] [REF_MEM_WRITE] Addr=0xdfc50eae Data=0xf9
# UVM_INFO ../src/env/axi4_scoreboard.sv(219) @ 6965000: uvm_test_top.env.scb [axi4_scoreboard] [REF_MEM_WRITE] Addr=0xdfc50eb0 Data=0x9a
# UVM_INFO ../src/env/axi4_scoreboard.sv(219) @ 6965000: uvm_test_top.env.scb [axi4_scoreboard] [REF_MEM_WRITE] Addr=0xdfc50eb1 Data=0x0a
# UVM_INFO ../src/env/axi4_scoreboard.sv(219) @ 6965000: uvm_test_top.env.scb [axi4_scoreboard] [REF_MEM_WRITE] Addr=0xdfc50eb2 Data=0xa4
# UVM_INFO ../src/env/axi4_scoreboard.sv(219) @ 6965000: uvm_test_top.env.scb [axi4_scoreboard] [REF_MEM_WRITE] Addr=0xdfc50eb3 Data=0x0e
# UVM_INFO ../src/env/axi4_scoreboard.sv(219) @ 6965000: uvm_test_top.env.scb [axi4_scoreboard] [REF_MEM_WRITE] Addr=0xdfc50eb5 Data=0xbe
# UVM_INFO ../src/env/axi4_scoreboard.sv(219) @ 6965000: uvm_test_top.env.scb [axi4_scoreboard] [REF_MEM_WRITE] Addr=0xdfc50eb6 Data=0xb4
# UVM_INFO ../src/env/axi4_scoreboard.sv(219) @ 6965000: uvm_test_top.env.scb [axi4_scoreboard] [REF_MEM_WRITE] Addr=0xdfc50ebe Data=0x1f
# UVM_INFO ../src/env/axi4_scoreboard.sv(219) @ 6965000: uvm_test_top.env.scb [axi4_scoreboard] [REF_MEM_WRITE] Addr=0xdfc50ec4 Data=0xd9
# UVM_INFO ../src/env/axi4_scoreboard.sv(219) @ 6965000: uvm_test_top.env.scb [axi4_scoreboard] [REF_MEM_WRITE] Addr=0xdfc50ec7 Data=0x13
# UVM_INFO ../src/env/axi4_scoreboard.sv(219) @ 6965000: uvm_test_top.env.scb [axi4_scoreboard] [REF_MEM_WRITE] Addr=0xdfc50ec9 Data=0x22
# UVM_INFO ../src/env/axi4_scoreboard.sv(219) @ 6965000: uvm_test_top.env.scb [axi4_scoreboard] [REF_MEM_WRITE] Addr=0xdfc50ecb Data=0xb4
# UVM_INFO ../src/env/axi4_scoreboard.sv(219) @ 6965000: uvm_test_top.env.scb [axi4_scoreboard] [REF_MEM_WRITE] Addr=0xdfc50ecc Data=0x81
# UVM_INFO ../src/env/axi4_scoreboard.sv(219) @ 6965000: uvm_test_top.env.scb [axi4_scoreboard] [REF_MEM_WRITE] Addr=0xdfc50ecd Data=0xe7
# UVM_INFO ../src/env/axi4_scoreboard.sv(219) @ 6965000: uvm_test_top.env.scb [axi4_scoreboard] [REF_MEM_WRITE] Addr=0xdfc50ecf Data=0xa6
# UVM_INFO ../src/env/axi4_scoreboard.sv(219) @ 6965000: uvm_test_top.env.scb [axi4_scoreboard] [REF_MEM_WRITE] Addr=0xdfc50ed0 Data=0x6c
# UVM_INFO ../src/env/axi4_scoreboard.sv(219) @ 6965000: uvm_test_top.env.scb [axi4_scoreboard] [REF_MEM_WRITE] Addr=0xdfc50ed2 Data=0x54
# UVM_INFO ../src/env/axi4_scoreboard.sv(219) @ 6965000: uvm_test_top.env.scb [axi4_scoreboard] [REF_MEM_WRITE] Addr=0xdfc50ed3 Data=0x8a
# UVM_INFO ../src/env/axi4_scoreboard.sv(219) @ 6965000: uvm_test_top.env.scb [axi4_scoreboard] [REF_MEM_WRITE] Addr=0xdfc50ed4 Data=0x73
# UVM_INFO ../src/env/axi4_scoreboard.sv(219) @ 6965000: uvm_test_top.env.scb [axi4_scoreboard] [REF_MEM_WRITE] Addr=0xdfc50ed9 Data=0x2b
# UVM_INFO ../src/env/axi4_scoreboard.sv(219) @ 6965000: uvm_test_top.env.scb [axi4_scoreboard] [REF_MEM_WRITE] Addr=0xdfc50edb Data=0x3a
# UVM_INFO ../src/env/axi4_scoreboard.sv(219) @ 6965000: uvm_test_top.env.scb [axi4_scoreboard] [REF_MEM_WRITE] Addr=0xdfc50edc Data=0x18
# UVM_INFO ../src/env/axi4_scoreboard.sv(219) @ 6965000: uvm_test_top.env.scb [axi4_scoreboard] [REF_MEM_WRITE] Addr=0xdfc50edf Data=0x0a
# UVM_INFO ../src/env/axi4_scoreboard.sv(219) @ 6965000: uvm_test_top.env.scb [axi4_scoreboard] [REF_MEM_WRITE] Addr=0xdfc50ee0 Data=0x02
# UVM_INFO ../src/env/axi4_scoreboard.sv(219) @ 6965000: uvm_test_top.env.scb [axi4_scoreboard] [REF_MEM_WRITE] Addr=0xdfc50ee1 Data=0xd3
# UVM_INFO ../src/env/axi4_scoreboard.sv(219) @ 6965000: uvm_test_top.env.scb [axi4_scoreboard] [REF_MEM_WRITE] Addr=0xdfc50ee4 Data=0x7e
# UVM_INFO ../src/env/axi4_scoreboard.sv(219) @ 6965000: uvm_test_top.env.scb [axi4_scoreboard] [REF_MEM_WRITE] Addr=0xdfc50ee6 Data=0x2c
# UVM_INFO ../src/env/axi4_scoreboard.sv(219) @ 6965000: uvm_test_top.env.scb [axi4_scoreboard] [REF_MEM_WRITE] Addr=0xdfc50ee7 Data=0x1f
# UVM_INFO ../src/env/axi4_scoreboard.sv(219) @ 6965000: uvm_test_top.env.scb [axi4_scoreboard] [REF_MEM_WRITE] Addr=0xdfc50ee9 Data=0x68
# UVM_INFO ../src/env/axi4_scoreboard.sv(219) @ 6965000: uvm_test_top.env.scb [axi4_scoreboard] [REF_MEM_WRITE] Addr=0xdfc50eea Data=0x30
# UVM_INFO ../src/env/axi4_scoreboard.sv(219) @ 6965000: uvm_test_top.env.scb [axi4_scoreboard] [REF_MEM_WRITE] Addr=0xdfc50eec Data=0xa8
# UVM_INFO ../src/env/axi4_scoreboard.sv(219) @ 6965000: uvm_test_top.env.scb [axi4_scoreboard] [REF_MEM_WRITE] Addr=0xdfc50eed Data=0xce
# UVM_INFO ../src/env/axi4_scoreboard.sv(219) @ 6965000: uvm_test_top.env.scb [axi4_scoreboard] [REF_MEM_WRITE] Addr=0xdfc50eee Data=0x72
# UVM_INFO ../src/env/axi4_scoreboard.sv(219) @ 6965000: uvm_test_top.env.scb [axi4_scoreboard] [REF_MEM_WRITE] Addr=0xdfc50eef Data=0x0e
# UVM_INFO ../src/env/axi4_scoreboard.sv(219) @ 6965000: uvm_test_top.env.scb [axi4_scoreboard] [REF_MEM_WRITE] Addr=0xdfc50ef0 Data=0x43
# UVM_INFO ../src/env/axi4_scoreboard.sv(219) @ 6965000: uvm_test_top.env.scb [axi4_scoreboard] [REF_MEM_WRITE] Addr=0xdfc50ef5 Data=0x8c
# UVM_INFO ../src/env/axi4_scoreboard.sv(219) @ 6965000: uvm_test_top.env.scb [axi4_scoreboard] [REF_MEM_WRITE] Addr=0xdfc50efa Data=0xfb
# UVM_INFO ../src/env/axi4_scoreboard.sv(219) @ 6965000: uvm_test_top.env.scb [axi4_scoreboard] [REF_MEM_WRITE] Addr=0xdfc50efc Data=0xd3
# UVM_INFO ../src/env/axi4_scoreboard.sv(219) @ 6965000: uvm_test_top.env.scb [axi4_scoreboard] [REF_MEM_WRITE] Addr=0xdfc50efd Data=0x23
# UVM_INFO ../src/env/axi4_scoreboard.sv(219) @ 6965000: uvm_test_top.env.scb [axi4_scoreboard] [REF_MEM_WRITE] Addr=0xdfc50eff Data=0xee
# UVM_INFO ../src/env/axi4_scoreboard.sv(219) @ 6965000: uvm_test_top.env.scb [axi4_scoreboard] [REF_MEM_WRITE] Addr=0xdfc50f02 Data=0x84
# UVM_INFO ../src/env/axi4_scoreboard.sv(219) @ 6965000: uvm_test_top.env.scb [axi4_scoreboard] [REF_MEM_WRITE] Addr=0xdfc50f03 Data=0xa6
# UVM_INFO ../src/env/axi4_scoreboard.sv(219) @ 6965000: uvm_test_top.env.scb [axi4_scoreboard] [REF_MEM_WRITE] Addr=0xdfc50f0c Data=0x21
# UVM_INFO ../src/env/axi4_scoreboard.sv(219) @ 6965000: uvm_test_top.env.scb [axi4_scoreboard] [REF_MEM_WRITE] Addr=0xdfc50f0d Data=0x63
# UVM_INFO ../src/env/axi4_scoreboard.sv(219) @ 6965000: uvm_test_top.env.scb [axi4_scoreboard] [REF_MEM_WRITE] Addr=0xdfc50f0f Data=0x56
# UVM_INFO ../src/env/axi4_scoreboard.sv(219) @ 6965000: uvm_test_top.env.scb [axi4_scoreboard] [REF_MEM_WRITE] Addr=0xdfc50f11 Data=0xfb
# UVM_INFO ../src/env/axi4_scoreboard.sv(219) @ 6965000: uvm_test_top.env.scb [axi4_scoreboard] [REF_MEM_WRITE] Addr=0xdfc50f12 Data=0xd1
# UVM_INFO ../src/env/axi4_scoreboard.sv(219) @ 6965000: uvm_test_top.env.scb [axi4_scoreboard] [REF_MEM_WRITE] Addr=0xdfc50f14 Data=0x7e
# UVM_INFO ../src/env/axi4_scoreboard.sv(219) @ 6965000: uvm_test_top.env.scb [axi4_scoreboard] [REF_MEM_WRITE] Addr=0xdfc50f16 Data=0xda
# UVM_INFO ../src/env/axi4_scoreboard.sv(219) @ 6965000: uvm_test_top.env.scb [axi4_scoreboard] [REF_MEM_WRITE] Addr=0xdfc50f18 Data=0x53
# UVM_INFO ../src/env/axi4_scoreboard.sv(219) @ 6965000: uvm_test_top.env.scb [axi4_scoreboard] [REF_MEM_WRITE] Addr=0xdfc50f1a Data=0xa5
# UVM_INFO ../src/env/axi4_scoreboard.sv(219) @ 6965000: uvm_test_top.env.scb [axi4_scoreboard] [REF_MEM_WRITE] Addr=0xdfc50f1b Data=0x1f
# UVM_INFO ../src/env/axi4_scoreboard.sv(219) @ 6965000: uvm_test_top.env.scb [axi4_scoreboard] [REF_MEM_WRITE] Addr=0xdfc50f1c Data=0x2b
# UVM_INFO ../src/env/axi4_scoreboard.sv(219) @ 6965000: uvm_test_top.env.scb [axi4_scoreboard] [REF_MEM_WRITE] Addr=0xdfc50f1d Data=0x4f
# UVM_INFO ../src/env/axi4_scoreboard.sv(219) @ 6965000: uvm_test_top.env.scb [axi4_scoreboard] [REF_MEM_WRITE] Addr=0xdfc50f1e Data=0x4a
# UVM_INFO ../src/env/axi4_scoreboard.sv(219) @ 6965000: uvm_test_top.env.scb [axi4_scoreboard] [REF_MEM_WRITE] Addr=0xdfc50f22 Data=0x61
# UVM_INFO ../src/env/axi4_scoreboard.sv(219) @ 6965000: uvm_test_top.env.scb [axi4_scoreboard] [REF_MEM_WRITE] Addr=0xdfc50f26 Data=0x48
# UVM_INFO ../src/env/axi4_scoreboard.sv(219) @ 6965000: uvm_test_top.env.scb [axi4_scoreboard] [REF_MEM_WRITE] Addr=0xdfc50f28 Data=0xec
# UVM_INFO ../src/env/axi4_scoreboard.sv(219) @ 6965000: uvm_test_top.env.scb [axi4_scoreboard] [REF_MEM_WRITE] Addr=0xdfc50f2d Data=0x4e
# UVM_INFO ../src/env/axi4_scoreboard.sv(219) @ 6965000: uvm_test_top.env.scb [axi4_scoreboard] [REF_MEM_WRITE] Addr=0xdfc50f2e Data=0x22
# UVM_INFO ../src/env/axi4_scoreboard.sv(219) @ 6965000: uvm_test_top.env.scb [axi4_scoreboard] [REF_MEM_WRITE] Addr=0xdfc50f2f Data=0x81
# UVM_INFO ../src/env/axi4_scoreboard.sv(219) @ 6965000: uvm_test_top.env.scb [axi4_scoreboard] [REF_MEM_WRITE] Addr=0xdfc50f30 Data=0xd5
# UVM_INFO ../src/env/axi4_scoreboard.sv(219) @ 6965000: uvm_test_top.env.scb [axi4_scoreboard] [REF_MEM_WRITE] Addr=0xdfc50f32 Data=0xcd
# UVM_INFO ../src/env/axi4_scoreboard.sv(219) @ 6965000: uvm_test_top.env.scb [axi4_scoreboard] [REF_MEM_WRITE] Addr=0xdfc50f33 Data=0x1c
# UVM_INFO ../src/env/axi4_scoreboard.sv(219) @ 6965000: uvm_test_top.env.scb [axi4_scoreboard] [REF_MEM_WRITE] Addr=0xdfc50f35 Data=0x3c
# UVM_INFO ../src/env/axi4_scoreboard.sv(219) @ 6965000: uvm_test_top.env.scb [axi4_scoreboard] [REF_MEM_WRITE] Addr=0xdfc50f38 Data=0x29
# UVM_INFO ../src/env/axi4_scoreboard.sv(219) @ 6965000: uvm_test_top.env.scb [axi4_scoreboard] [REF_MEM_WRITE] Addr=0xdfc50f3a Data=0xb6
# UVM_INFO ../src/env/axi4_scoreboard.sv(219) @ 6965000: uvm_test_top.env.scb [axi4_scoreboard] [REF_MEM_WRITE] Addr=0xdfc50f3b Data=0x57
# UVM_INFO ../src/env/axi4_scoreboard.sv(219) @ 6965000: uvm_test_top.env.scb [axi4_scoreboard] [REF_MEM_WRITE] Addr=0xdfc50f3d Data=0x5f
# UVM_INFO ../src/env/axi4_scoreboard.sv(219) @ 6965000: uvm_test_top.env.scb [axi4_scoreboard] [REF_MEM_WRITE] Addr=0xdfc50f3e Data=0xbf
# UVM_INFO ../src/env/axi4_scoreboard.sv(219) @ 6965000: uvm_test_top.env.scb [axi4_scoreboard] [REF_MEM_WRITE] Addr=0xdfc50f3f Data=0x1c
# UVM_INFO ../src/env/axi4_scoreboard.sv(219) @ 6965000: uvm_test_top.env.scb [axi4_scoreboard] [REF_MEM_WRITE] Addr=0xdfc50f40 Data=0x00
# UVM_INFO ../src/env/axi4_scoreboard.sv(219) @ 6965000: uvm_test_top.env.scb [axi4_scoreboard] [REF_MEM_WRITE] Addr=0xdfc50f43 Data=0x15
# UVM_INFO ../src/env/axi4_scoreboard.sv(219) @ 6965000: uvm_test_top.env.scb [axi4_scoreboard] [REF_MEM_WRITE] Addr=0xdfc50f44 Data=0x56
# UVM_INFO ../src/env/axi4_scoreboard.sv(219) @ 6965000: uvm_test_top.env.scb [axi4_scoreboard] [REF_MEM_WRITE] Addr=0xdfc50f45 Data=0xf7
# UVM_INFO ../src/env/axi4_scoreboard.sv(219) @ 6965000: uvm_test_top.env.scb [axi4_scoreboard] [REF_MEM_WRITE] Addr=0xdfc50f46 Data=0x3e
# UVM_INFO ../src/env/axi4_scoreboard.sv(219) @ 6965000: uvm_test_top.env.scb [axi4_scoreboard] [REF_MEM_WRITE] Addr=0xdfc50f48 Data=0xe0
# UVM_INFO ../src/env/axi4_scoreboard.sv(219) @ 6965000: uvm_test_top.env.scb [axi4_scoreboard] [REF_MEM_WRITE] Addr=0xdfc50f4b Data=0xc2
# UVM_INFO ../src/env/axi4_scoreboard.sv(219) @ 6965000: uvm_test_top.env.scb [axi4_scoreboard] [REF_MEM_WRITE] Addr=0xdfc50f4d Data=0x7d
# UVM_INFO ../src/env/axi4_scoreboard.sv(219) @ 6965000: uvm_test_top.env.scb [axi4_scoreboard] [REF_MEM_WRITE] Addr=0xdfc50f4e Data=0x0b
# UVM_INFO ../src/env/axi4_scoreboard.sv(219) @ 6965000: uvm_test_top.env.scb [axi4_scoreboard] [REF_MEM_WRITE] Addr=0xdfc50f4f Data=0xe4
# UVM_INFO ../src/env/axi4_scoreboard.sv(219) @ 6965000: uvm_test_top.env.scb [axi4_scoreboard] [REF_MEM_WRITE] Addr=0xdfc50f51 Data=0xd2
# UVM_INFO ../src/env/axi4_scoreboard.sv(219) @ 6965000: uvm_test_top.env.scb [axi4_scoreboard] [REF_MEM_WRITE] Addr=0xdfc50f53 Data=0x89
# UVM_INFO ../src/env/axi4_scoreboard.sv(219) @ 6965000: uvm_test_top.env.scb [axi4_scoreboard] [REF_MEM_WRITE] Addr=0xdfc50f54 Data=0xec
# UVM_INFO ../src/env/axi4_scoreboard.sv(219) @ 6965000: uvm_test_top.env.scb [axi4_scoreboard] [REF_MEM_WRITE] Addr=0xdfc50f57 Data=0xbb
# UVM_INFO ../src/env/axi4_scoreboard.sv(219) @ 6965000: uvm_test_top.env.scb [axi4_scoreboard] [REF_MEM_WRITE] Addr=0xdfc50f58 Data=0x8d
# UVM_INFO ../src/env/axi4_scoreboard.sv(219) @ 6965000: uvm_test_top.env.scb [axi4_scoreboard] [REF_MEM_WRITE] Addr=0xdfc50f59 Data=0xf7
# UVM_INFO ../src/env/axi4_scoreboard.sv(219) @ 6965000: uvm_test_top.env.scb [axi4_scoreboard] [REF_MEM_WRITE] Addr=0xdfc50f5a Data=0x3b
# UVM_INFO ../src/env/axi4_scoreboard.sv(219) @ 6965000: uvm_test_top.env.scb [axi4_scoreboard] [REF_MEM_WRITE] Addr=0xdfc50f5f Data=0xac
# UVM_INFO ../src/env/axi4_scoreboard.sv(219) @ 6965000: uvm_test_top.env.scb [axi4_scoreboard] [REF_MEM_WRITE] Addr=0xdfc50f61 Data=0xe3
# UVM_INFO ../src/env/axi4_scoreboard.sv(219) @ 6965000: uvm_test_top.env.scb [axi4_scoreboard] [REF_MEM_WRITE] Addr=0xdfc50f63 Data=0x0a
# UVM_INFO ../src/env/axi4_scoreboard.sv(219) @ 6965000: uvm_test_top.env.scb [axi4_scoreboard] [REF_MEM_WRITE] Addr=0xdfc50f68 Data=0x1d
# UVM_INFO ../src/env/axi4_scoreboard.sv(219) @ 6965000: uvm_test_top.env.scb [axi4_scoreboard] [REF_MEM_WRITE] Addr=0xdfc50f69 Data=0xad
# UVM_INFO ../src/env/axi4_scoreboard.sv(219) @ 6965000: uvm_test_top.env.scb [axi4_scoreboard] [REF_MEM_WRITE] Addr=0xdfc50f6d Data=0xa2
# UVM_INFO ../src/env/axi4_scoreboard.sv(219) @ 6965000: uvm_test_top.env.scb [axi4_scoreboard] [REF_MEM_WRITE] Addr=0xdfc50f6e Data=0xbf
# UVM_INFO ../src/env/axi4_scoreboard.sv(219) @ 6965000: uvm_test_top.env.scb [axi4_scoreboard] [REF_MEM_WRITE] Addr=0xdfc50f73 Data=0x9a
# UVM_INFO ../src/env/axi4_scoreboard.sv(219) @ 6965000: uvm_test_top.env.scb [axi4_scoreboard] [REF_MEM_WRITE] Addr=0xdfc50f75 Data=0xcf
# UVM_INFO ../src/env/axi4_scoreboard.sv(219) @ 6965000: uvm_test_top.env.scb [axi4_scoreboard] [REF_MEM_WRITE] Addr=0xdfc50f77 Data=0x07
# UVM_INFO ../src/env/axi4_scoreboard.sv(219) @ 6965000: uvm_test_top.env.scb [axi4_scoreboard] [REF_MEM_WRITE] Addr=0xdfc50f78 Data=0x85
# UVM_INFO ../src/env/axi4_scoreboard.sv(219) @ 6965000: uvm_test_top.env.scb [axi4_scoreboard] [REF_MEM_WRITE] Addr=0xdfc50f79 Data=0x08
# UVM_INFO ../src/env/axi4_scoreboard.sv(219) @ 6965000: uvm_test_top.env.scb [axi4_scoreboard] [REF_MEM_WRITE] Addr=0xdfc50f7f Data=0x7c
# UVM_INFO ../src/env/axi4_scoreboard.sv(219) @ 6965000: uvm_test_top.env.scb [axi4_scoreboard] [REF_MEM_WRITE] Addr=0xdfc50f85 Data=0x00
# UVM_INFO ../src/env/axi4_scoreboard.sv(219) @ 6965000: uvm_test_top.env.scb [axi4_scoreboard] [REF_MEM_WRITE] Addr=0xdfc50f86 Data=0xbe
# UVM_INFO ../src/env/axi4_scoreboard.sv(219) @ 6965000: uvm_test_top.env.scb [axi4_scoreboard] [REF_MEM_WRITE] Addr=0xdfc50f87 Data=0x33
# UVM_INFO ../src/env/axi4_scoreboard.sv(219) @ 6965000: uvm_test_top.env.scb [axi4_scoreboard] [REF_MEM_WRITE] Addr=0xdfc50f88 Data=0x99
# UVM_INFO ../src/env/axi4_scoreboard.sv(219) @ 6965000: uvm_test_top.env.scb [axi4_scoreboard] [REF_MEM_WRITE] Addr=0xdfc50f8a Data=0xb9
# UVM_INFO ../src/env/axi4_scoreboard.sv(219) @ 6965000: uvm_test_top.env.scb [axi4_scoreboard] [REF_MEM_WRITE] Addr=0xdfc50f8c Data=0x17
# UVM_INFO ../src/env/axi4_scoreboard.sv(219) @ 6965000: uvm_test_top.env.scb [axi4_scoreboard] [REF_MEM_WRITE] Addr=0xdfc50f8d Data=0x9e
# UVM_INFO ../src/env/axi4_scoreboard.sv(219) @ 6965000: uvm_test_top.env.scb [axi4_scoreboard] [REF_MEM_WRITE] Addr=0xdfc50f92 Data=0x65
# UVM_INFO ../src/env/axi4_scoreboard.sv(219) @ 6965000: uvm_test_top.env.scb [axi4_scoreboard] [REF_MEM_WRITE] Addr=0xdfc50f94 Data=0x8e
# UVM_INFO ../src/env/axi4_scoreboard.sv(219) @ 6965000: uvm_test_top.env.scb [axi4_scoreboard] [REF_MEM_WRITE] Addr=0xdfc50f98 Data=0x59
# UVM_INFO ../src/env/axi4_scoreboard.sv(219) @ 6965000: uvm_test_top.env.scb [axi4_scoreboard] [REF_MEM_WRITE] Addr=0xdfc50f9a Data=0xaf
# UVM_INFO ../src/env/axi4_scoreboard.sv(219) @ 6965000: uvm_test_top.env.scb [axi4_scoreboard] [REF_MEM_WRITE] Addr=0xdfc50f9c Data=0xd3
# UVM_INFO ../src/env/axi4_scoreboard.sv(219) @ 6965000: uvm_test_top.env.scb [axi4_scoreboard] [REF_MEM_WRITE] Addr=0xdfc50f9d Data=0x92
# UVM_INFO ../src/env/axi4_scoreboard.sv(219) @ 6965000: uvm_test_top.env.scb [axi4_scoreboard] [REF_MEM_WRITE] Addr=0xdfc50fa0 Data=0x51
# UVM_INFO ../src/env/axi4_scoreboard.sv(219) @ 6965000: uvm_test_top.env.scb [axi4_scoreboard] [REF_MEM_WRITE] Addr=0xdfc50fa1 Data=0x95
# UVM_INFO ../src/env/axi4_scoreboard.sv(219) @ 6965000: uvm_test_top.env.scb [axi4_scoreboard] [REF_MEM_WRITE] Addr=0xdfc50fa3 Data=0x83
# UVM_INFO ../src/env/axi4_scoreboard.sv(219) @ 6965000: uvm_test_top.env.scb [axi4_scoreboard] [REF_MEM_WRITE] Addr=0xdfc50fa5 Data=0x4f
# UVM_INFO ../src/env/axi4_scoreboard.sv(219) @ 6965000: uvm_test_top.env.scb [axi4_scoreboard] [REF_MEM_WRITE] Addr=0xdfc50fa7 Data=0xa8
# UVM_INFO ../src/env/axi4_scoreboard.sv(219) @ 6965000: uvm_test_top.env.scb [axi4_scoreboard] [REF_MEM_WRITE] Addr=0xdfc50fab Data=0xd1
# UVM_INFO ../src/env/axi4_scoreboard.sv(219) @ 6965000: uvm_test_top.env.scb [axi4_scoreboard] [REF_MEM_WRITE] Addr=0xdfc50fad Data=0x73
# UVM_INFO ../src/env/axi4_scoreboard.sv(219) @ 6965000: uvm_test_top.env.scb [axi4_scoreboard] [REF_MEM_WRITE] Addr=0xdfc50fb0 Data=0xc2
# UVM_INFO ../src/env/axi4_scoreboard.sv(219) @ 6965000: uvm_test_top.env.scb [axi4_scoreboard] [REF_MEM_WRITE] Addr=0xdfc50fb1 Data=0xd4
# UVM_INFO ../src/env/axi4_scoreboard.sv(219) @ 6965000: uvm_test_top.env.scb [axi4_scoreboard] [REF_MEM_WRITE] Addr=0xdfc50fb3 Data=0x6b
# UVM_INFO ../src/env/axi4_scoreboard.sv(219) @ 6965000: uvm_test_top.env.scb [axi4_scoreboard] [REF_MEM_WRITE] Addr=0xdfc50fb4 Data=0x73
# UVM_INFO ../src/env/axi4_scoreboard.sv(219) @ 6965000: uvm_test_top.env.scb [axi4_scoreboard] [REF_MEM_WRITE] Addr=0xdfc50fb5 Data=0xa6
# UVM_INFO ../src/env/axi4_scoreboard.sv(219) @ 6965000: uvm_test_top.env.scb [axi4_scoreboard] [REF_MEM_WRITE] Addr=0xdfc50fb7 Data=0xa5
# UVM_INFO ../src/env/axi4_scoreboard.sv(219) @ 6965000: uvm_test_top.env.scb [axi4_scoreboard] [REF_MEM_WRITE] Addr=0xdfc50fbc Data=0x56
# UVM_INFO ../src/env/axi4_scoreboard.sv(219) @ 6965000: uvm_test_top.env.scb [axi4_scoreboard] [REF_MEM_WRITE] Addr=0xdfc50fbd Data=0x7b
# UVM_INFO ../src/env/axi4_scoreboard.sv(219) @ 6965000: uvm_test_top.env.scb [axi4_scoreboard] [REF_MEM_WRITE] Addr=0xdfc50fbe Data=0xa2
# UVM_INFO ../src/env/axi4_scoreboard.sv(219) @ 6965000: uvm_test_top.env.scb [axi4_scoreboard] [REF_MEM_WRITE] Addr=0xdfc50fbf Data=0x22
# UVM_INFO ../src/env/axi4_scoreboard.sv(219) @ 6965000: uvm_test_top.env.scb [axi4_scoreboard] [REF_MEM_WRITE] Addr=0xdfc50fc1 Data=0x32
# UVM_INFO ../src/env/axi4_scoreboard.sv(219) @ 6965000: uvm_test_top.env.scb [axi4_scoreboard] [REF_MEM_WRITE] Addr=0xdfc50fc3 Data=0x39
# UVM_INFO ../src/env/axi4_scoreboard.sv(219) @ 6965000: uvm_test_top.env.scb [axi4_scoreboard] [REF_MEM_WRITE] Addr=0xdfc50fc4 Data=0x4d
# UVM_INFO ../src/env/axi4_scoreboard.sv(219) @ 6965000: uvm_test_top.env.scb [axi4_scoreboard] [REF_MEM_WRITE] Addr=0xdfc50fc6 Data=0x1e
# UVM_INFO ../src/env/axi4_scoreboard.sv(219) @ 6965000: uvm_test_top.env.scb [axi4_scoreboard] [REF_MEM_WRITE] Addr=0xdfc50fc7 Data=0x25
# UVM_INFO ../src/env/axi4_scoreboard.sv(219) @ 6965000: uvm_test_top.env.scb [axi4_scoreboard] [REF_MEM_WRITE] Addr=0xdfc50fc8 Data=0xf5
# UVM_INFO ../src/env/axi4_scoreboard.sv(219) @ 6965000: uvm_test_top.env.scb [axi4_scoreboard] [REF_MEM_WRITE] Addr=0xdfc50fc9 Data=0xf4
# UVM_INFO ../src/env/axi4_scoreboard.sv(219) @ 6965000: uvm_test_top.env.scb [axi4_scoreboard] [REF_MEM_WRITE] Addr=0xdfc50fca Data=0x52
# UVM_INFO ../src/env/axi4_scoreboard.sv(219) @ 6965000: uvm_test_top.env.scb [axi4_scoreboard] [REF_MEM_WRITE] Addr=0xdfc50fcc Data=0xc9
# UVM_INFO ../src/env/axi4_scoreboard.sv(219) @ 6965000: uvm_test_top.env.scb [axi4_scoreboard] [REF_MEM_WRITE] Addr=0xdfc50fce Data=0xca
# UVM_INFO ../src/env/axi4_scoreboard.sv(219) @ 6965000: uvm_test_top.env.scb [axi4_scoreboard] [REF_MEM_WRITE] Addr=0xdfc50fd6 Data=0xa7
# UVM_INFO ../src/env/axi4_scoreboard.sv(219) @ 6965000: uvm_test_top.env.scb [axi4_scoreboard] [REF_MEM_WRITE] Addr=0xdfc50fd8 Data=0x81
# UVM_INFO ../src/env/axi4_scoreboard.sv(219) @ 6965000: uvm_test_top.env.scb [axi4_scoreboard] [REF_MEM_WRITE] Addr=0xdfc50fd9 Data=0x39
# UVM_INFO ../src/env/axi4_scoreboard.sv(219) @ 6965000: uvm_test_top.env.scb [axi4_scoreboard] [REF_MEM_WRITE] Addr=0xdfc50fda Data=0xdc
# UVM_INFO ../src/env/axi4_scoreboard.sv(219) @ 6965000: uvm_test_top.env.scb [axi4_scoreboard] [REF_MEM_WRITE] Addr=0xdfc50fdb Data=0xb2
# UVM_INFO ../src/env/axi4_scoreboard.sv(219) @ 6965000: uvm_test_top.env.scb [axi4_scoreboard] [REF_MEM_WRITE] Addr=0xdfc50fdd Data=0x4a
# UVM_INFO ../src/env/axi4_scoreboard.sv(219) @ 6965000: uvm_test_top.env.scb [axi4_scoreboard] [REF_MEM_WRITE] Addr=0xdfc50fdf Data=0x5a
# UVM_INFO ../src/env/axi4_scoreboard.sv(219) @ 6965000: uvm_test_top.env.scb [axi4_scoreboard] [REF_MEM_WRITE] Addr=0xdfc50fe0 Data=0xf7
# UVM_INFO ../src/env/axi4_scoreboard.sv(219) @ 6965000: uvm_test_top.env.scb [axi4_scoreboard] [REF_MEM_WRITE] Addr=0xdfc50fe1 Data=0xee
# UVM_INFO ../src/env/axi4_scoreboard.sv(219) @ 6965000: uvm_test_top.env.scb [axi4_scoreboard] [REF_MEM_WRITE] Addr=0xdfc50fe2 Data=0xaa
# UVM_INFO ../src/env/axi4_scoreboard.sv(219) @ 6965000: uvm_test_top.env.scb [axi4_scoreboard] [REF_MEM_WRITE] Addr=0xdfc50fe3 Data=0x98
# UVM_INFO ../src/env/axi4_scoreboard.sv(219) @ 6965000: uvm_test_top.env.scb [axi4_scoreboard] [REF_MEM_WRITE] Addr=0xdfc50fea Data=0x03
# UVM_INFO ../src/env/axi4_scoreboard.sv(219) @ 6965000: uvm_test_top.env.scb [axi4_scoreboard] [REF_MEM_WRITE] Addr=0xdfc50fef Data=0x0f
# UVM_INFO ../src/env/axi4_scoreboard.sv(219) @ 6965000: uvm_test_top.env.scb [axi4_scoreboard] [REF_MEM_WRITE] Addr=0xdfc50ff0 Data=0xa4
# UVM_INFO ../src/env/axi4_scoreboard.sv(219) @ 6965000: uvm_test_top.env.scb [axi4_scoreboard] [REF_MEM_WRITE] Addr=0xdfc50ff1 Data=0xaf
# UVM_INFO ../src/env/axi4_scoreboard.sv(219) @ 6965000: uvm_test_top.env.scb [axi4_scoreboard] [REF_MEM_WRITE] Addr=0xdfc50ff4 Data=0x47
# UVM_INFO ../src/env/axi4_scoreboard.sv(219) @ 6965000: uvm_test_top.env.scb [axi4_scoreboard] [REF_MEM_WRITE] Addr=0xdfc50ff6 Data=0x92
# UVM_INFO ../src/env/axi4_scoreboard.sv(219) @ 6965000: uvm_test_top.env.scb [axi4_scoreboard] [REF_MEM_WRITE] Addr=0xdfc50ff7 Data=0xed
# UVM_INFO ../src/env/axi4_scoreboard.sv(219) @ 6965000: uvm_test_top.env.scb [axi4_scoreboard] [REF_MEM_WRITE] Addr=0xdfc50ffb Data=0x2b
# UVM_INFO ../src/env/axi4_scoreboard.sv(219) @ 6965000: uvm_test_top.env.scb [axi4_scoreboard] [REF_MEM_WRITE] Addr=0xdfc50ffe Data=0x37
# UVM_INFO ../src/env/axi4_scoreboard.sv(219) @ 6965000: uvm_test_top.env.scb [axi4_scoreboard] [REF_MEM_WRITE] Addr=0xdfc51002 Data=0xe0
# UVM_INFO ../src/env/axi4_scoreboard.sv(219) @ 6965000: uvm_test_top.env.scb [axi4_scoreboard] [REF_MEM_WRITE] Addr=0xdfc51003 Data=0x1a
# UVM_INFO ../src/env/axi4_scoreboard.sv(219) @ 6965000: uvm_test_top.env.scb [axi4_scoreboard] [REF_MEM_WRITE] Addr=0xdfc51004 Data=0xe0
# UVM_INFO ../src/env/axi4_scoreboard.sv(219) @ 6965000: uvm_test_top.env.scb [axi4_scoreboard] [REF_MEM_WRITE] Addr=0xdfc51005 Data=0x0b
# UVM_INFO ../src/env/axi4_scoreboard.sv(219) @ 6965000: uvm_test_top.env.scb [axi4_scoreboard] [REF_MEM_WRITE] Addr=0xdfc51008 Data=0x8c
# UVM_INFO ../src/env/axi4_scoreboard.sv(219) @ 6965000: uvm_test_top.env.scb [axi4_scoreboard] [REF_MEM_WRITE] Addr=0xdfc5100b Data=0xf5
# UVM_INFO ../src/env/axi4_scoreboard.sv(219) @ 6965000: uvm_test_top.env.scb [axi4_scoreboard] [REF_MEM_WRITE] Addr=0xdfc5100c Data=0x7c
# UVM_INFO ../src/env/axi4_scoreboard.sv(219) @ 6965000: uvm_test_top.env.scb [axi4_scoreboard] [REF_MEM_WRITE] Addr=0xdfc5100f Data=0x6a
# UVM_INFO ../src/env/axi4_scoreboard.sv(219) @ 6965000: uvm_test_top.env.scb [axi4_scoreboard] [REF_MEM_WRITE] Addr=0xdfc51011 Data=0x14
# UVM_INFO ../src/env/axi4_scoreboard.sv(219) @ 6965000: uvm_test_top.env.scb [axi4_scoreboard] [REF_MEM_WRITE] Addr=0xdfc51012 Data=0x1a
# UVM_INFO ../src/env/axi4_scoreboard.sv(219) @ 6965000: uvm_test_top.env.scb [axi4_scoreboard] [REF_MEM_WRITE] Addr=0xdfc51013 Data=0x05
# UVM_INFO ../src/env/axi4_scoreboard.sv(219) @ 6965000: uvm_test_top.env.scb [axi4_scoreboard] [REF_MEM_WRITE] Addr=0xdfc51015 Data=0xc6
# UVM_INFO ../src/env/axi4_scoreboard.sv(219) @ 6965000: uvm_test_top.env.scb [axi4_scoreboard] [REF_MEM_WRITE] Addr=0xdfc51016 Data=0xa1
# UVM_INFO ../src/env/axi4_scoreboard.sv(219) @ 6965000: uvm_test_top.env.scb [axi4_scoreboard] [REF_MEM_WRITE] Addr=0xdfc51018 Data=0xd1
# UVM_INFO ../src/env/axi4_scoreboard.sv(219) @ 6965000: uvm_test_top.env.scb [axi4_scoreboard] [REF_MEM_WRITE] Addr=0xdfc5101a Data=0x70
# UVM_INFO ../src/env/axi4_scoreboard.sv(219) @ 6965000: uvm_test_top.env.scb [axi4_scoreboard] [REF_MEM_WRITE] Addr=0xdfc5101b Data=0xe4
# UVM_INFO ../src/env/axi4_scoreboard.sv(219) @ 6965000: uvm_test_top.env.scb [axi4_scoreboard] [REF_MEM_WRITE] Addr=0xdfc5101c Data=0xe3
# UVM_INFO ../src/env/axi4_scoreboard.sv(219) @ 6965000: uvm_test_top.env.scb [axi4_scoreboard] [REF_MEM_WRITE] Addr=0xdfc5101d Data=0xf1
# UVM_INFO ../src/env/axi4_scoreboard.sv(219) @ 6965000: uvm_test_top.env.scb [axi4_scoreboard] [REF_MEM_WRITE] Addr=0xdfc5101e Data=0xb5
# UVM_INFO ../src/env/axi4_scoreboard.sv(219) @ 6965000: uvm_test_top.env.scb [axi4_scoreboard] [REF_MEM_WRITE] Addr=0xdfc51022 Data=0x24
# UVM_INFO ../src/env/axi4_scoreboard.sv(219) @ 6965000: uvm_test_top.env.scb [axi4_scoreboard] [REF_MEM_WRITE] Addr=0xdfc51023 Data=0xee
# UVM_INFO ../src/env/axi4_scoreboard.sv(219) @ 6965000: uvm_test_top.env.scb [axi4_scoreboard] [REF_MEM_WRITE] Addr=0xdfc51027 Data=0xe0
# UVM_INFO ../src/env/axi4_scoreboard.sv(219) @ 6965000: uvm_test_top.env.scb [axi4_scoreboard] [REF_MEM_WRITE] Addr=0xdfc51028 Data=0x07
# UVM_INFO ../src/env/axi4_scoreboard.sv(219) @ 6965000: uvm_test_top.env.scb [axi4_scoreboard] [REF_MEM_WRITE] Addr=0xdfc5102a Data=0xf1
# UVM_INFO ../src/env/axi4_scoreboard.sv(219) @ 6965000: uvm_test_top.env.scb [axi4_scoreboard] [REF_MEM_WRITE] Addr=0xdfc5102c Data=0x30
# UVM_INFO ../src/env/axi4_scoreboard.sv(219) @ 6965000: uvm_test_top.env.scb [axi4_scoreboard] [REF_MEM_WRITE] Addr=0xdfc5102e Data=0xfa
# UVM_INFO ../src/env/axi4_scoreboard.sv(219) @ 6965000: uvm_test_top.env.scb [axi4_scoreboard] [REF_MEM_WRITE] Addr=0xdfc5102f Data=0x75
# UVM_INFO ../src/env/axi4_scoreboard.sv(219) @ 6965000: uvm_test_top.env.scb [axi4_scoreboard] [REF_MEM_WRITE] Addr=0xdfc51030 Data=0x6e
# UVM_INFO ../src/env/axi4_scoreboard.sv(219) @ 6965000: uvm_test_top.env.scb [axi4_scoreboard] [REF_MEM_WRITE] Addr=0xdfc51031 Data=0x4a
# UVM_INFO ../src/env/axi4_scoreboard.sv(219) @ 6965000: uvm_test_top.env.scb [axi4_scoreboard] [REF_MEM_WRITE] Addr=0xdfc51033 Data=0xe3
# UVM_INFO ../src/env/axi4_scoreboard.sv(219) @ 6965000: uvm_test_top.env.scb [axi4_scoreboard] [REF_MEM_WRITE] Addr=0xdfc51034 Data=0x26
# UVM_INFO ../src/env/axi4_scoreboard.sv(219) @ 6965000: uvm_test_top.env.scb [axi4_scoreboard] [REF_MEM_WRITE] Addr=0xdfc51036 Data=0x35
# UVM_INFO ../src/env/axi4_scoreboard.sv(219) @ 6965000: uvm_test_top.env.scb [axi4_scoreboard] [REF_MEM_WRITE] Addr=0xdfc51038 Data=0x11
# UVM_INFO ../src/env/axi4_scoreboard.sv(219) @ 6965000: uvm_test_top.env.scb [axi4_scoreboard] [REF_MEM_WRITE] Addr=0xdfc51039 Data=0x48
# UVM_INFO ../src/env/axi4_scoreboard.sv(219) @ 6965000: uvm_test_top.env.scb [axi4_scoreboard] [REF_MEM_WRITE] Addr=0xdfc5103a Data=0x74
# UVM_INFO ../src/env/axi4_scoreboard.sv(219) @ 6965000: uvm_test_top.env.scb [axi4_scoreboard] [REF_MEM_WRITE] Addr=0xdfc5103f Data=0x35
# UVM_INFO ../src/env/axi4_scoreboard.sv(219) @ 6965000: uvm_test_top.env.scb [axi4_scoreboard] [REF_MEM_WRITE] Addr=0xdfc51040 Data=0xdc
# UVM_INFO ../src/env/axi4_scoreboard.sv(219) @ 6965000: uvm_test_top.env.scb [axi4_scoreboard] [REF_MEM_WRITE] Addr=0xdfc51041 Data=0xf7
# UVM_INFO ../src/env/axi4_scoreboard.sv(219) @ 6965000: uvm_test_top.env.scb [axi4_scoreboard] [REF_MEM_WRITE] Addr=0xdfc51043 Data=0x80
# UVM_INFO ../src/env/axi4_scoreboard.sv(219) @ 6965000: uvm_test_top.env.scb [axi4_scoreboard] [REF_MEM_WRITE] Addr=0xdfc51044 Data=0x5c
# UVM_INFO ../src/env/axi4_scoreboard.sv(219) @ 6965000: uvm_test_top.env.scb [axi4_scoreboard] [REF_MEM_WRITE] Addr=0xdfc51047 Data=0xa4
# UVM_INFO ../src/env/axi4_scoreboard.sv(219) @ 6965000: uvm_test_top.env.scb [axi4_scoreboard] [REF_MEM_WRITE] Addr=0xdfc51049 Data=0x08
# UVM_INFO ../src/env/axi4_scoreboard.sv(219) @ 6965000: uvm_test_top.env.scb [axi4_scoreboard] [REF_MEM_WRITE] Addr=0xdfc5104d Data=0x29
# UVM_INFO ../src/env/axi4_scoreboard.sv(219) @ 6965000: uvm_test_top.env.scb [axi4_scoreboard] [REF_MEM_WRITE] Addr=0xdfc5104e Data=0x0e
# UVM_INFO ../src/env/axi4_scoreboard.sv(219) @ 6965000: uvm_test_top.env.scb [axi4_scoreboard] [REF_MEM_WRITE] Addr=0xdfc51050 Data=0x88
# UVM_INFO ../src/env/axi4_scoreboard.sv(219) @ 6965000: uvm_test_top.env.scb [axi4_scoreboard] [REF_MEM_WRITE] Addr=0xdfc51051 Data=0xd1
# UVM_INFO ../src/env/axi4_scoreboard.sv(219) @ 6965000: uvm_test_top.env.scb [axi4_scoreboard] [REF_MEM_WRITE] Addr=0xdfc51055 Data=0x2c
# UVM_INFO ../src/env/axi4_scoreboard.sv(219) @ 6965000: uvm_test_top.env.scb [axi4_scoreboard] [REF_MEM_WRITE] Addr=0xdfc51057 Data=0x87
# UVM_INFO ../src/env/axi4_scoreboard.sv(219) @ 6965000: uvm_test_top.env.scb [axi4_scoreboard] [REF_MEM_WRITE] Addr=0xdfc5105e Data=0xbb
# UVM_INFO ../src/env/axi4_scoreboard.sv(219) @ 6965000: uvm_test_top.env.scb [axi4_scoreboard] [REF_MEM_WRITE] Addr=0xdfc5105f Data=0xc3
# UVM_INFO ../src/env/axi4_scoreboard.sv(219) @ 6965000: uvm_test_top.env.scb [axi4_scoreboard] [REF_MEM_WRITE] Addr=0xdfc51060 Data=0x1a
# UVM_INFO ../src/env/axi4_scoreboard.sv(219) @ 6965000: uvm_test_top.env.scb [axi4_scoreboard] [REF_MEM_WRITE] Addr=0xdfc51061 Data=0xe0
# UVM_INFO ../src/env/axi4_scoreboard.sv(219) @ 6965000: uvm_test_top.env.scb [axi4_scoreboard] [REF_MEM_WRITE] Addr=0xdfc51064 Data=0x2c
# UVM_INFO ../src/env/axi4_scoreboard.sv(219) @ 6965000: uvm_test_top.env.scb [axi4_scoreboard] [REF_MEM_WRITE] Addr=0xdfc51065 Data=0xff
# UVM_INFO ../src/env/axi4_scoreboard.sv(219) @ 6965000: uvm_test_top.env.scb [axi4_scoreboard] [REF_MEM_WRITE] Addr=0xdfc51066 Data=0xd0
# UVM_INFO ../src/env/axi4_scoreboard.sv(219) @ 6965000: uvm_test_top.env.scb [axi4_scoreboard] [REF_MEM_WRITE] Addr=0xdfc51068 Data=0x66
# UVM_INFO ../src/env/axi4_scoreboard.sv(219) @ 6965000: uvm_test_top.env.scb [axi4_scoreboard] [REF_MEM_WRITE] Addr=0xdfc51069 Data=0x2a
# UVM_INFO ../src/env/axi4_scoreboard.sv(219) @ 6965000: uvm_test_top.env.scb [axi4_scoreboard] [REF_MEM_WRITE] Addr=0xdfc5106d Data=0x13
# UVM_INFO ../src/env/axi4_scoreboard.sv(219) @ 6965000: uvm_test_top.env.scb [axi4_scoreboard] [REF_MEM_WRITE] Addr=0xdfc5106e Data=0x77
# UVM_INFO ../src/env/axi4_scoreboard.sv(219) @ 6965000: uvm_test_top.env.scb [axi4_scoreboard] [REF_MEM_WRITE] Addr=0xdfc51072 Data=0x57
# UVM_INFO ../src/env/axi4_scoreboard.sv(219) @ 6965000: uvm_test_top.env.scb [axi4_scoreboard] [REF_MEM_WRITE] Addr=0xdfc51074 Data=0xec
# UVM_INFO ../src/env/axi4_scoreboard.sv(219) @ 6965000: uvm_test_top.env.scb [axi4_scoreboard] [REF_MEM_WRITE] Addr=0xdfc51075 Data=0x12
# UVM_INFO ../src/env/axi4_scoreboard.sv(219) @ 6965000: uvm_test_top.env.scb [axi4_scoreboard] [REF_MEM_WRITE] Addr=0xdfc51079 Data=0xe9
# UVM_INFO ../src/env/axi4_scoreboard.sv(219) @ 6965000: uvm_test_top.env.scb [axi4_scoreboard] [REF_MEM_WRITE] Addr=0xdfc51081 Data=0x8c
# UVM_INFO ../src/env/axi4_scoreboard.sv(219) @ 6965000: uvm_test_top.env.scb [axi4_scoreboard] [REF_MEM_WRITE] Addr=0xdfc51082 Data=0xf7
# UVM_INFO ../src/env/axi4_scoreboard.sv(219) @ 6965000: uvm_test_top.env.scb [axi4_scoreboard] [REF_MEM_WRITE] Addr=0xdfc51085 Data=0xa5
# UVM_INFO ../src/env/axi4_scoreboard.sv(219) @ 6965000: uvm_test_top.env.scb [axi4_scoreboard] [REF_MEM_WRITE] Addr=0xdfc51089 Data=0x5d
# UVM_INFO ../src/env/axi4_scoreboard.sv(219) @ 6965000: uvm_test_top.env.scb [axi4_scoreboard] [REF_MEM_WRITE] Addr=0xdfc5108b Data=0x55
# UVM_INFO ../src/env/axi4_scoreboard.sv(219) @ 6965000: uvm_test_top.env.scb [axi4_scoreboard] [REF_MEM_WRITE] Addr=0xdfc5108e Data=0x15
# UVM_INFO ../src/env/axi4_scoreboard.sv(219) @ 6965000: uvm_test_top.env.scb [axi4_scoreboard] [REF_MEM_WRITE] Addr=0xdfc51091 Data=0x58
# UVM_INFO ../src/env/axi4_scoreboard.sv(219) @ 6965000: uvm_test_top.env.scb [axi4_scoreboard] [REF_MEM_WRITE] Addr=0xdfc51094 Data=0x07
# UVM_INFO ../src/env/axi4_scoreboard.sv(219) @ 6965000: uvm_test_top.env.scb [axi4_scoreboard] [REF_MEM_WRITE] Addr=0xdfc51096 Data=0x3d
# UVM_INFO ../src/env/axi4_scoreboard.sv(219) @ 6965000: uvm_test_top.env.scb [axi4_scoreboard] [REF_MEM_WRITE] Addr=0xdfc51099 Data=0xf4
# UVM_INFO ../src/env/axi4_scoreboard.sv(219) @ 6965000: uvm_test_top.env.scb [axi4_scoreboard] [REF_MEM_WRITE] Addr=0xdfc5109a Data=0x23
# UVM_INFO ../src/env/axi4_scoreboard.sv(219) @ 6965000: uvm_test_top.env.scb [axi4_scoreboard] [REF_MEM_WRITE] Addr=0xdfc5109e Data=0x40
# UVM_INFO ../src/env/axi4_scoreboard.sv(219) @ 6965000: uvm_test_top.env.scb [axi4_scoreboard] [REF_MEM_WRITE] Addr=0xdfc5109f Data=0xf0
# UVM_INFO ../src/env/axi4_scoreboard.sv(219) @ 6965000: uvm_test_top.env.scb [axi4_scoreboard] [REF_MEM_WRITE] Addr=0xdfc510a1 Data=0x67
# UVM_INFO ../src/env/axi4_scoreboard.sv(219) @ 6965000: uvm_test_top.env.scb [axi4_scoreboard] [REF_MEM_WRITE] Addr=0xdfc510a2 Data=0xeb
# UVM_INFO ../src/slv/axi4_slave_monitor.sv(167) @ 8475000: uvm_test_top.env.slave_agent.mon [axi4_slave_monitor] W data assembled: ID=0xf ADDR=0x98187051 77 beats
# UVM_INFO ../src/mst/axi4_master_monitor.sv(184) @ 8475000: uvm_test_top.env.master_agent.mon [axi4_master_monitor] W data assembled: ID=0xf ADDR=0x98187051 77 beats
# UVM_INFO ../src/mst/axi4_master_driver.sv(289) @ 8505000: uvm_test_top.env.master_agent.drv [axi4_master_driver] Master driver received B response: ID=0xf RESP=AXI4_RESP_OKAY
# UVM_INFO ../src/slv/axi4_slave_driver.sv(320) @ 8505000: uvm_test_top.env.slave_agent.drv [axi4_slave_driver] Write complete: ID=0xf RESP=AXI4_RESP_OKAY
# UVM_INFO ../src/mst/axi4_master_monitor.sv(210) @ 8505000: uvm_test_top.env.master_agent.mon [axi4_master_monitor] Write complete: ID=0xf ADDR=0x98187051 RESP=AXI4_RESP_OKAY
# UVM_INFO ../src/env/axi4_scoreboard.sv(87) @ 8505000: uvm_test_top.env.scb [axi4_scoreboard] Master AXI4_WRITE received: ID=0xf ADDR=0x98187051 LEN=76
# UVM_INFO ../src/slv/axi4_slave_monitor.sv(189) @ 8505000: uvm_test_top.env.slave_agent.mon [axi4_slave_monitor] Write response sent: ID=0xf ADDR=0x98187051 RESP=AXI4_RESP_OKAY
# UVM_INFO ../src/env/axi4_scoreboard.sv(108) @ 8505000: uvm_test_top.env.scb [axi4_scoreboard] Slave AXI4_WRITE received: ID=0xf ADDR=0x98187051 LEN=76
# UVM_INFO ../src/env/axi4_scoreboard.sv(291) @ 8505000: uvm_test_top.env.scb [axi4_scoreboard] [WRITE] MATCH #8: ID=0xf ADDR=0x98187051 LEN=76
# UVM_INFO ../src/env/axi4_scoreboard.sv(219) @ 8505000: uvm_test_top.env.scb [axi4_scoreboard] [REF_MEM_WRITE] Addr=0x98187050 Data=0x1b
# UVM_INFO ../src/env/axi4_scoreboard.sv(219) @ 8505000: uvm_test_top.env.scb [axi4_scoreboard] [REF_MEM_WRITE] Addr=0x98187051 Data=0x59
# UVM_INFO ../src/env/axi4_scoreboard.sv(219) @ 8505000: uvm_test_top.env.scb [axi4_scoreboard] [REF_MEM_WRITE] Addr=0x98187053 Data=0x39
# UVM_INFO ../src/env/axi4_scoreboard.sv(219) @ 8505000: uvm_test_top.env.scb [axi4_scoreboard] [REF_MEM_WRITE] Addr=0x98187055 Data=0x80
# UVM_INFO ../src/env/axi4_scoreboard.sv(219) @ 8505000: uvm_test_top.env.scb [axi4_scoreboard] [REF_MEM_WRITE] Addr=0x98187056 Data=0xc7
# UVM_INFO ../src/env/axi4_scoreboard.sv(219) @ 8505000: uvm_test_top.env.scb [axi4_scoreboard] [REF_MEM_WRITE] Addr=0x98187057 Data=0x47
# UVM_INFO ../src/env/axi4_scoreboard.sv(219) @ 8505000: uvm_test_top.env.scb [axi4_scoreboard] [REF_MEM_WRITE] Addr=0x98187058 Data=0x39
# UVM_INFO ../src/env/axi4_scoreboard.sv(219) @ 8505000: uvm_test_top.env.scb [axi4_scoreboard] [REF_MEM_WRITE] Addr=0x98187059 Data=0xe9
# UVM_INFO ../src/env/axi4_scoreboard.sv(219) @ 8505000: uvm_test_top.env.scb [axi4_scoreboard] [REF_MEM_WRITE] Addr=0x9818705b Data=0x78
# UVM_INFO ../src/env/axi4_scoreboard.sv(219) @ 8505000: uvm_test_top.env.scb [axi4_scoreboard] [REF_MEM_WRITE] Addr=0x9818705c Data=0xfb
# UVM_INFO ../src/env/axi4_scoreboard.sv(219) @ 8505000: uvm_test_top.env.scb [axi4_scoreboard] [REF_MEM_WRITE] Addr=0x9818705f Data=0x9b
# UVM_INFO ../src/env/axi4_scoreboard.sv(219) @ 8505000: uvm_test_top.env.scb [axi4_scoreboard] [REF_MEM_WRITE] Addr=0x98187060 Data=0xfe
