# vsim -c -coverage -sv_seed 91361745 "+UVM_TESTNAME=axi4_wr_rd_test" "+UVM_VERBOSITY=UVM_HIGH" "+DUMP_VCD" -l ./report/logs/axi4_wr_rd_test_run_1_seed_91361745.log -do "coverage save -onexit ./report/coverage/axi4_wr_rd_test_run_1_seed_91361745.ucdb; run -all; quit -f" opt_tb_top 
# Start time: 12:58:16 on Jun 11,2026
# //  Questa Sim-64
# //  Version 10.6b linux_x86_64 May 25 2017
# //
# //  Copyright 1991-2017 Mentor Graphics Corporation
# //  All Rights Reserved.
# //
# //  QuestaSim and its associated documentation contain trade
# //  secrets and commercial or financial information that are the property of
# //  Mentor Graphics Corporation and are privileged, confidential,
# //  and exempt from disclosure under the Freedom of Information Act,
# //  5 U.S.C. Section 552. Furthermore, this information
# //  is prohibited from disclosure under the Trade Secrets Act,
# //  18 U.S.C. Section 1905.
# //
# Loading sv_std.std
# Loading work.axi4_if(fast)
# Loading mtiUvm.uvm_pkg
# Loading work.axi4_pkg(fast)
# Loading work.axi4_test_pkg(fast)
# Loading work.tb_top(fast)
# Loading work.axi4_if(fast)
# Loading work.axi4_sva(fast)
# Loading mtiUvm.questa_uvm_pkg(fast)
# Loading /cadtools/mentor/Questa_10.6b/questasim/uvm-1.1d/linux_x86_64/uvm_dpi.so
# coverage save -onexit ./report/coverage/axi4_wr_rd_test_run_1_seed_91361745.ucdb
#  run -all
# ----------------------------------------------------------------
# UVM-1.1d
# (C) 2007-2013 Mentor Graphics Corporation
# (C) 2007-2013 Cadence Design Systems, Inc.
# (C) 2006-2013 Synopsys, Inc.
# (C) 2011-2013 Cypress Semiconductor Corp.
# ----------------------------------------------------------------
# 
#   ***********       IMPORTANT RELEASE NOTES         ************
# 
#   You are using a version of the UVM library that has been compiled
#   with `UVM_NO_DEPRECATED undefined.
#   See http://www.eda.org/svdb/view.php?id=3313 for more details.
# 
#   You are using a version of the UVM library that has been compiled
#   with `UVM_OBJECT_MUST_HAVE_CONSTRUCTOR undefined.
#   See http://www.eda.org/svdb/view.php?id=3770 for more details.
# 
#       (Specify +UVM_NO_RELNOTES to turn off this notice)
# 
# UVM_INFO verilog_src/questa_uvm_pkg-1.2/src/questa_uvm_pkg.sv(215) @ 0: reporter [Questa UVM] QUESTA_UVM-1.2.3
# UVM_INFO verilog_src/questa_uvm_pkg-1.2/src/questa_uvm_pkg.sv(217) @ 0: reporter [Questa UVM]  questa_uvm::init(+struct)
# UVM_INFO ../src/tb_top.sv(128) @ 0: reporter [TB_TOP] Virtual interface set in config_db
# UVM_INFO @ 0: reporter [RNTST] Running test axi4_wr_rd_test...
# UVM_INFO ../src/tb_top.sv(142) @ 0: reporter [TB_TOP] Waveform VCD dumping enabled (axi4_vip.vcd)
# UVM_INFO ../src/env/axi4_vip_env.sv(83) @ 0: uvm_test_top.env [axi4_vip_env] slave_vif not set - reusing master_vif (passthrough mode)
# UVM_INFO ../src/env/axi4_vip_env.sv(93) @ 0: uvm_test_top.env [axi4_vip_env] Scoreboard created
# UVM_INFO ../src/env/axi4_vip_env.sv(100) @ 0: uvm_test_top.env [axi4_vip_env] Coverage collectors created
# UVM_INFO ../src/mst/axi4_master_agent.sv(69) @ 0: uvm_test_top.env.master_agent [axi4_master_agent] ACTIVE mode - driver + sequencer created
# UVM_INFO ../src/slv/axi4_slave_agent.sv(82) @ 0: uvm_test_top.env.slave_agent [axi4_slave_agent] ACTIVE mode — ready_delay=[0:0] resp_delay=[0:0]
# UVM_INFO ../src/env/axi4_vip_env.sv(116) @ 0: uvm_test_top.env [axi4_vip_env] Scoreboard connected: master_mon.ap -> scb, slave_mon.ap -> scb
# UVM_INFO ../src/env/axi4_vip_env.sv(124) @ 0: uvm_test_top.env [axi4_vip_env] Coverage connected: master_mon.ap -> master_cov, slave_mon.ap -> slave_cov
# UVM_INFO @ 0: reporter [UVMTOP] UVM testbench topology:
# ---------------------------------------------------------------
# Name                       Type                     Size  Value
# ---------------------------------------------------------------
# uvm_test_top               axi4_wr_rd_test          -     @473 
#   env                      axi4_vip_env             -     @488 
#     master_agent           axi4_master_agent        -     @503 
#       drv                  axi4_master_driver       -     @567 
#         rsp_port           uvm_analysis_port        -     @582 
#         seq_item_port      uvm_seq_item_pull_port   -     @574 
#       mon                  axi4_master_monitor      -     @559 
#         ap                 uvm_analysis_port        -     @700 
#       sqr                  axi4_master_sequencer    -     @590 
#         rsp_export         uvm_analysis_export      -     @597 
#         seq_item_export    uvm_seq_item_pull_imp    -     @691 
#         arbitration_queue  array                    0     -    
#         lock_queue         array                    0     -    
#         num_last_reqs      integral                 32    'd1  
#         num_last_rsps      integral                 32    'd1  
#     master_cov             axi4_coverage            -     @524 
#       analysis_imp         uvm_analysis_imp         -     @531 
#     scb                    axi4_scoreboard          -     @517 
#       master_export        uvm_analysis_imp_master  -     @714 
#       slave_export         uvm_analysis_imp_slave   -     @722 
#     slave_agent            axi4_slave_agent         -     @510 
#       drv                  axi4_slave_driver        -     @753 
#         rsp_port           uvm_analysis_port        -     @768 
#         seq_item_port      uvm_seq_item_pull_port   -     @760 
#       mon                  axi4_slave_monitor       -     @735 
#         ap                 uvm_analysis_port        -     @892 
#       sqr                  axi4_slave_sequencer     -     @776 
#         rsp_export         uvm_analysis_export      -     @783 
#         seq_item_export    uvm_seq_item_pull_imp    -     @877 
#         arbitration_queue  array                    0     -    
#         lock_queue         array                    0     -    
#         num_last_reqs      integral                 32    'd1  
#         num_last_rsps      integral                 32    'd1  
#     slave_cov              axi4_coverage            -     @539 
#       analysis_imp         uvm_analysis_imp         -     @546 
# ---------------------------------------------------------------
# 
# UVM_INFO verilog_src/questa_uvm_pkg-1.2/src/questa_uvm_pkg.sv(277) @ 0: reporter [Questa UVM] End Of Elaboration
# UVM_INFO ../src/test/axi4_wr_rd_test.sv(37) @ 0: uvm_test_top [axi4_wr_rd_test] Starting 10 write-read-back iterations
# UVM_INFO ../src/test/axi4_wr_rd_test.sv(52) @ 0: uvm_test_top [axi4_wr_rd_test] [1/10] ADDR=0x102405f4 LEN=12 BURST=AXI4_BURST_INCR
# UVM_INFO ../src/tb_top.sv(49) @ 95000: reporter [TOP_TB] Reset de-asserted
# UVM_INFO ../src/slv/axi4_slave_driver.sv(122) @ 95000: uvm_test_top.env.slave_agent.drv [axi4_slave_driver] Reset deasserted - slave driver active
# UVM_INFO ../src/mst/axi4_master_driver.sv(64) @ 95000: uvm_test_top.env.master_agent.drv [axi4_master_driver] Reset deasserted - master driver active
# UVM_INFO ../src/mst/axi4_master_monitor.sv(77) @ 95000: uvm_test_top.env.master_agent.mon [axi4_master_monitor] Reset deasserted - monitor active
# UVM_INFO ../src/slv/axi4_slave_monitor.sv(71) @ 95000: uvm_test_top.env.slave_agent.mon [axi4_slave_monitor] Reset deasserted - monitor active
# UVM_INFO ../src/mst/axi4_master_driver.sv(73) @ 95000: uvm_test_top.env.master_agent.drv [axi4_master_driver] Driving AXI4_WRITE  ID=0xf  ADDR=0x102405f4  LEN=12
# UVM_INFO ../src/seq/axi4_write_read_back_seq.sv(60) @ 95000: uvm_test_top.env.master_agent.sqr@@wr_rd_seq_0 [axi4_write_read_back_seq] Write phase: ADDR=0x102405f4 LEN=12 SIZE=AXI4_SIZE_4B BURST=AXI4_BURST_INCR
# UVM_INFO ../src/mst/axi4_master_driver.sv(73) @ 95000: uvm_test_top.env.master_agent.drv [axi4_master_driver] Driving AXI4_READ  ID=0x3  ADDR=0x102405f4  LEN=12
# UVM_INFO ../src/seq/axi4_write_read_back_seq.sv(80) @ 95000: uvm_test_top.env.master_agent.sqr@@wr_rd_seq_0 [axi4_write_read_back_seq] Read-back phase: ADDR=0x102405f4 LEN=12 - data integrity check via scoreboard
# UVM_INFO ../src/test/axi4_wr_rd_test.sv(52) @ 95000: uvm_test_top [axi4_wr_rd_test] [2/10] ADDR=0xef4ebd0b LEN=10 BURST=AXI4_BURST_INCR
# UVM_INFO ../src/mst/axi4_master_driver.sv(73) @ 95000: uvm_test_top.env.master_agent.drv [axi4_master_driver] Driving AXI4_WRITE  ID=0xd  ADDR=0xef4ebd0b  LEN=10
# UVM_INFO ../src/seq/axi4_write_read_back_seq.sv(60) @ 95000: uvm_test_top.env.master_agent.sqr@@wr_rd_seq_1 [axi4_write_read_back_seq] Write phase: ADDR=0xef4ebd0b LEN=10 SIZE=AXI4_SIZE_4B BURST=AXI4_BURST_INCR
# UVM_INFO ../src/mst/axi4_master_driver.sv(73) @ 95000: uvm_test_top.env.master_agent.drv [axi4_master_driver] Driving AXI4_READ  ID=0x9  ADDR=0xef4ebd0b  LEN=10
# UVM_INFO ../src/seq/axi4_write_read_back_seq.sv(80) @ 95000: uvm_test_top.env.master_agent.sqr@@wr_rd_seq_1 [axi4_write_read_back_seq] Read-back phase: ADDR=0xef4ebd0b LEN=10 - data integrity check via scoreboard
# UVM_INFO ../src/test/axi4_wr_rd_test.sv(52) @ 95000: uvm_test_top [axi4_wr_rd_test] [3/10] ADDR=0xf5d87bea LEN=10 BURST=AXI4_BURST_INCR
# UVM_INFO ../src/mst/axi4_master_driver.sv(73) @ 95000: uvm_test_top.env.master_agent.drv [axi4_master_driver] Driving AXI4_WRITE  ID=0x4  ADDR=0xf5d87bea  LEN=10
# UVM_INFO ../src/seq/axi4_write_read_back_seq.sv(60) @ 95000: uvm_test_top.env.master_agent.sqr@@wr_rd_seq_2 [axi4_write_read_back_seq] Write phase: ADDR=0xf5d87bea LEN=10 SIZE=AXI4_SIZE_4B BURST=AXI4_BURST_INCR
# UVM_INFO ../src/mst/axi4_master_driver.sv(73) @ 95000: uvm_test_top.env.master_agent.drv [axi4_master_driver] Driving AXI4_READ  ID=0x0  ADDR=0xf5d87bea  LEN=10
# UVM_INFO ../src/seq/axi4_write_read_back_seq.sv(80) @ 95000: uvm_test_top.env.master_agent.sqr@@wr_rd_seq_2 [axi4_write_read_back_seq] Read-back phase: ADDR=0xf5d87bea LEN=10 - data integrity check via scoreboard
# UVM_INFO ../src/test/axi4_wr_rd_test.sv(52) @ 95000: uvm_test_top [axi4_wr_rd_test] [4/10] ADDR=0x54cc14b2 LEN=14 BURST=AXI4_BURST_INCR
# UVM_INFO ../src/mst/axi4_master_driver.sv(73) @ 95000: uvm_test_top.env.master_agent.drv [axi4_master_driver] Driving AXI4_WRITE  ID=0x4  ADDR=0x54cc14b2  LEN=14
# UVM_INFO ../src/seq/axi4_write_read_back_seq.sv(60) @ 95000: uvm_test_top.env.master_agent.sqr@@wr_rd_seq_3 [axi4_write_read_back_seq] Write phase: ADDR=0x54cc14b2 LEN=14 SIZE=AXI4_SIZE_4B BURST=AXI4_BURST_INCR
# UVM_INFO ../src/mst/axi4_master_driver.sv(73) @ 95000: uvm_test_top.env.master_agent.drv [axi4_master_driver] Driving AXI4_READ  ID=0xd  ADDR=0x54cc14b2  LEN=14
# UVM_INFO ../src/seq/axi4_write_read_back_seq.sv(80) @ 95000: uvm_test_top.env.master_agent.sqr@@wr_rd_seq_3 [axi4_write_read_back_seq] Read-back phase: ADDR=0x54cc14b2 LEN=14 - data integrity check via scoreboard
# UVM_INFO ../src/test/axi4_wr_rd_test.sv(52) @ 95000: uvm_test_top [axi4_wr_rd_test] [5/10] ADDR=0xa6856b9a LEN=13 BURST=AXI4_BURST_INCR
# UVM_INFO ../src/mst/axi4_master_driver.sv(73) @ 95000: uvm_test_top.env.master_agent.drv [axi4_master_driver] Driving AXI4_WRITE  ID=0x4  ADDR=0xa6856b9a  LEN=13
# UVM_INFO ../src/seq/axi4_write_read_back_seq.sv(60) @ 95000: uvm_test_top.env.master_agent.sqr@@wr_rd_seq_4 [axi4_write_read_back_seq] Write phase: ADDR=0xa6856b9a LEN=13 SIZE=AXI4_SIZE_4B BURST=AXI4_BURST_INCR
# UVM_INFO ../src/mst/axi4_master_driver.sv(73) @ 95000: uvm_test_top.env.master_agent.drv [axi4_master_driver] Driving AXI4_READ  ID=0xb  ADDR=0xa6856b9a  LEN=13
# UVM_INFO ../src/seq/axi4_write_read_back_seq.sv(80) @ 95000: uvm_test_top.env.master_agent.sqr@@wr_rd_seq_4 [axi4_write_read_back_seq] Read-back phase: ADDR=0xa6856b9a LEN=13 - data integrity check via scoreboard
# UVM_INFO ../src/test/axi4_wr_rd_test.sv(52) @ 95000: uvm_test_top [axi4_wr_rd_test] [6/10] ADDR=0x26bf6159 LEN=11 BURST=AXI4_BURST_INCR
# UVM_INFO ../src/mst/axi4_master_driver.sv(73) @ 95000: uvm_test_top.env.master_agent.drv [axi4_master_driver] Driving AXI4_WRITE  ID=0x2  ADDR=0x26bf6159  LEN=11
# UVM_INFO ../src/seq/axi4_write_read_back_seq.sv(60) @ 95000: uvm_test_top.env.master_agent.sqr@@wr_rd_seq_5 [axi4_write_read_back_seq] Write phase: ADDR=0x26bf6159 LEN=11 SIZE=AXI4_SIZE_4B BURST=AXI4_BURST_INCR
# UVM_INFO ../src/mst/axi4_master_driver.sv(73) @ 95000: uvm_test_top.env.master_agent.drv [axi4_master_driver] Driving AXI4_READ  ID=0x5  ADDR=0x26bf6159  LEN=11
# UVM_INFO ../src/seq/axi4_write_read_back_seq.sv(80) @ 95000: uvm_test_top.env.master_agent.sqr@@wr_rd_seq_5 [axi4_write_read_back_seq] Read-back phase: ADDR=0x26bf6159 LEN=11 - data integrity check via scoreboard
# UVM_INFO ../src/test/axi4_wr_rd_test.sv(52) @ 95000: uvm_test_top [axi4_wr_rd_test] [7/10] ADDR=0xbc55cbd7 LEN=7 BURST=AXI4_BURST_INCR
# UVM_INFO ../src/mst/axi4_master_driver.sv(73) @ 95000: uvm_test_top.env.master_agent.drv [axi4_master_driver] Driving AXI4_WRITE  ID=0x3  ADDR=0xbc55cbd7  LEN=7
# UVM_INFO ../src/seq/axi4_write_read_back_seq.sv(60) @ 95000: uvm_test_top.env.master_agent.sqr@@wr_rd_seq_6 [axi4_write_read_back_seq] Write phase: ADDR=0xbc55cbd7 LEN=7 SIZE=AXI4_SIZE_4B BURST=AXI4_BURST_INCR
# UVM_INFO ../src/mst/axi4_master_driver.sv(73) @ 95000: uvm_test_top.env.master_agent.drv [axi4_master_driver] Driving AXI4_READ  ID=0x2  ADDR=0xbc55cbd7  LEN=7
# UVM_INFO ../src/seq/axi4_write_read_back_seq.sv(80) @ 95000: uvm_test_top.env.master_agent.sqr@@wr_rd_seq_6 [axi4_write_read_back_seq] Read-back phase: ADDR=0xbc55cbd7 LEN=7 - data integrity check via scoreboard
# UVM_INFO ../src/test/axi4_wr_rd_test.sv(52) @ 95000: uvm_test_top [axi4_wr_rd_test] [8/10] ADDR=0xd5bf1630 LEN=15 BURST=AXI4_BURST_INCR
# UVM_INFO ../src/mst/axi4_master_driver.sv(73) @ 95000: uvm_test_top.env.master_agent.drv [axi4_master_driver] Driving AXI4_WRITE  ID=0x6  ADDR=0xd5bf1630  LEN=15
# UVM_INFO ../src/seq/axi4_write_read_back_seq.sv(60) @ 95000: uvm_test_top.env.master_agent.sqr@@wr_rd_seq_7 [axi4_write_read_back_seq] Write phase: ADDR=0xd5bf1630 LEN=15 SIZE=AXI4_SIZE_4B BURST=AXI4_BURST_INCR
# UVM_INFO ../src/mst/axi4_master_driver.sv(73) @ 95000: uvm_test_top.env.master_agent.drv [axi4_master_driver] Driving AXI4_READ  ID=0x0  ADDR=0xd5bf1630  LEN=15
# UVM_INFO ../src/seq/axi4_write_read_back_seq.sv(80) @ 95000: uvm_test_top.env.master_agent.sqr@@wr_rd_seq_7 [axi4_write_read_back_seq] Read-back phase: ADDR=0xd5bf1630 LEN=15 - data integrity check via scoreboard
# UVM_INFO ../src/test/axi4_wr_rd_test.sv(52) @ 95000: uvm_test_top [axi4_wr_rd_test] [9/10] ADDR=0x02f1415f LEN=14 BURST=AXI4_BURST_INCR
# UVM_INFO ../src/mst/axi4_master_driver.sv(73) @ 95000: uvm_test_top.env.master_agent.drv [axi4_master_driver] Driving AXI4_WRITE  ID=0x9  ADDR=0x02f1415f  LEN=14
# UVM_INFO ../src/seq/axi4_write_read_back_seq.sv(60) @ 95000: uvm_test_top.env.master_agent.sqr@@wr_rd_seq_8 [axi4_write_read_back_seq] Write phase: ADDR=0x02f1415f LEN=14 SIZE=AXI4_SIZE_4B BURST=AXI4_BURST_INCR
# UVM_INFO ../src/mst/axi4_master_driver.sv(73) @ 95000: uvm_test_top.env.master_agent.drv [axi4_master_driver] Driving AXI4_READ  ID=0x9  ADDR=0x02f1415f  LEN=14
# UVM_INFO ../src/seq/axi4_write_read_back_seq.sv(80) @ 95000: uvm_test_top.env.master_agent.sqr@@wr_rd_seq_8 [axi4_write_read_back_seq] Read-back phase: ADDR=0x02f1415f LEN=14 - data integrity check via scoreboard
# UVM_INFO ../src/test/axi4_wr_rd_test.sv(52) @ 95000: uvm_test_top [axi4_wr_rd_test] [10/10] ADDR=0x7e784809 LEN=12 BURST=AXI4_BURST_INCR
# UVM_INFO ../src/mst/axi4_master_driver.sv(73) @ 95000: uvm_test_top.env.master_agent.drv [axi4_master_driver] Driving AXI4_WRITE  ID=0xf  ADDR=0x7e784809  LEN=12
# UVM_INFO ../src/seq/axi4_write_read_back_seq.sv(60) @ 95000: uvm_test_top.env.master_agent.sqr@@wr_rd_seq_9 [axi4_write_read_back_seq] Write phase: ADDR=0x7e784809 LEN=12 SIZE=AXI4_SIZE_4B BURST=AXI4_BURST_INCR
# UVM_INFO ../src/mst/axi4_master_driver.sv(73) @ 95000: uvm_test_top.env.master_agent.drv [axi4_master_driver] Driving AXI4_READ  ID=0x9  ADDR=0x7e784809  LEN=12
# UVM_INFO ../src/seq/axi4_write_read_back_seq.sv(80) @ 95000: uvm_test_top.env.master_agent.sqr@@wr_rd_seq_9 [axi4_write_read_back_seq] Read-back phase: ADDR=0x7e784809 LEN=12 - data integrity check via scoreboard
# UVM_INFO ../src/slv/axi4_slave_driver.sv(358) @ 115000: uvm_test_top.env.slave_agent.drv [axi4_slave_driver] AR received: ID=0x3 ADDR=0x102405f4 LEN=12 LOCK=AXI4_LOCK_NORMAL
# UVM_INFO ../src/slv/axi4_slave_monitor.sv(224) @ 115000: uvm_test_top.env.slave_agent.mon [axi4_slave_monitor] AR received: ID=0x3 ADDR=0x102405f4 LEN=12
# UVM_INFO ../src/mst/axi4_master_monitor.sv(246) @ 115000: uvm_test_top.env.master_agent.mon [axi4_master_monitor] AR observed: ID=0x3 ADDR=0x102405f4 LEN=12
# UVM_INFO ../src/slv/axi4_slave_driver.sv(358) @ 145000: uvm_test_top.env.slave_agent.drv [axi4_slave_driver] AR received: ID=0x9 ADDR=0xef4ebd0b LEN=10 LOCK=AXI4_LOCK_EXCLUSIVE
# UVM_INFO ../src/mst/axi4_master_monitor.sv(246) @ 145000: uvm_test_top.env.master_agent.mon [axi4_master_monitor] AR observed: ID=0x9 ADDR=0xef4ebd0b LEN=10
# UVM_INFO ../src/slv/axi4_slave_monitor.sv(224) @ 145000: uvm_test_top.env.slave_agent.mon [axi4_slave_monitor] AR received: ID=0x9 ADDR=0xef4ebd0b LEN=10
# UVM_INFO ../src/slv/axi4_slave_driver.sv(212) @ 165000: uvm_test_top.env.slave_agent.drv [axi4_slave_driver] AW received: ID=0xf ADDR=0x102405f4 LEN=12 LOCK=AXI4_LOCK_NORMAL
# UVM_INFO ../src/mst/axi4_master_monitor.sv(124) @ 165000: uvm_test_top.env.master_agent.mon [axi4_master_monitor] AW observed: ID=0xf ADDR=0x102405f4 LEN=12
# UVM_INFO ../src/slv/axi4_slave_monitor.sv(116) @ 165000: uvm_test_top.env.slave_agent.mon [axi4_slave_monitor] AW received: ID=0xf ADDR=0x102405f4 LEN=12
# UVM_INFO ../src/slv/axi4_slave_driver.sv(358) @ 175000: uvm_test_top.env.slave_agent.drv [axi4_slave_driver] AR received: ID=0x0 ADDR=0xf5d87bea LEN=10 LOCK=AXI4_LOCK_NORMAL
# UVM_INFO ../src/slv/axi4_slave_monitor.sv(224) @ 175000: uvm_test_top.env.slave_agent.mon [axi4_slave_monitor] AR received: ID=0x0 ADDR=0xf5d87bea LEN=10
# UVM_INFO ../src/mst/axi4_master_monitor.sv(246) @ 175000: uvm_test_top.env.master_agent.mon [axi4_master_monitor] AR observed: ID=0x0 ADDR=0xf5d87bea LEN=10
# UVM_INFO ../src/slv/axi4_slave_driver.sv(212) @ 195000: uvm_test_top.env.slave_agent.drv [axi4_slave_driver] AW received: ID=0xd ADDR=0xef4ebd0b LEN=10 LOCK=AXI4_LOCK_NORMAL
# UVM_INFO ../src/slv/axi4_slave_monitor.sv(116) @ 195000: uvm_test_top.env.slave_agent.mon [axi4_slave_monitor] AW received: ID=0xd ADDR=0xef4ebd0b LEN=10
# UVM_INFO ../src/mst/axi4_master_monitor.sv(124) @ 195000: uvm_test_top.env.master_agent.mon [axi4_master_monitor] AW observed: ID=0xd ADDR=0xef4ebd0b LEN=10
# UVM_INFO ../src/slv/axi4_slave_driver.sv(358) @ 205000: uvm_test_top.env.slave_agent.drv [axi4_slave_driver] AR received: ID=0xd ADDR=0x54cc14b2 LEN=14 LOCK=AXI4_LOCK_EXCLUSIVE
# UVM_INFO ../src/mst/axi4_master_monitor.sv(246) @ 205000: uvm_test_top.env.master_agent.mon [axi4_master_monitor] AR observed: ID=0xd ADDR=0x54cc14b2 LEN=14
# UVM_INFO ../src/slv/axi4_slave_monitor.sv(224) @ 205000: uvm_test_top.env.slave_agent.mon [axi4_slave_monitor] AR received: ID=0xd ADDR=0x54cc14b2 LEN=14
# UVM_INFO ../src/slv/axi4_slave_driver.sv(212) @ 225000: uvm_test_top.env.slave_agent.drv [axi4_slave_driver] AW received: ID=0x4 ADDR=0xf5d87bea LEN=10 LOCK=AXI4_LOCK_NORMAL
# UVM_INFO ../src/mst/axi4_master_monitor.sv(124) @ 225000: uvm_test_top.env.master_agent.mon [axi4_master_monitor] AW observed: ID=0x4 ADDR=0xf5d87bea LEN=10
# UVM_INFO ../src/slv/axi4_slave_monitor.sv(116) @ 225000: uvm_test_top.env.slave_agent.mon [axi4_slave_monitor] AW received: ID=0x4 ADDR=0xf5d87bea LEN=10
# UVM_INFO ../src/slv/axi4_slave_driver.sv(358) @ 235000: uvm_test_top.env.slave_agent.drv [axi4_slave_driver] AR received: ID=0xb ADDR=0xa6856b9a LEN=13 LOCK=AXI4_LOCK_EXCLUSIVE
# UVM_INFO ../src/slv/axi4_slave_monitor.sv(224) @ 235000: uvm_test_top.env.slave_agent.mon [axi4_slave_monitor] AR received: ID=0xb ADDR=0xa6856b9a LEN=13
# UVM_INFO ../src/mst/axi4_master_monitor.sv(246) @ 235000: uvm_test_top.env.master_agent.mon [axi4_master_monitor] AR observed: ID=0xb ADDR=0xa6856b9a LEN=13
# UVM_INFO ../src/slv/axi4_slave_driver.sv(212) @ 255000: uvm_test_top.env.slave_agent.drv [axi4_slave_driver] AW received: ID=0x4 ADDR=0x54cc14b2 LEN=14 LOCK=AXI4_LOCK_EXCLUSIVE
# UVM_INFO ../src/slv/axi4_slave_monitor.sv(116) @ 255000: uvm_test_top.env.slave_agent.mon [axi4_slave_monitor] AW received: ID=0x4 ADDR=0x54cc14b2 LEN=14
# UVM_INFO ../src/mst/axi4_master_monitor.sv(124) @ 255000: uvm_test_top.env.master_agent.mon [axi4_master_monitor] AW observed: ID=0x4 ADDR=0x54cc14b2 LEN=14
# UVM_INFO ../src/slv/axi4_slave_driver.sv(358) @ 265000: uvm_test_top.env.slave_agent.drv [axi4_slave_driver] AR received: ID=0x5 ADDR=0x26bf6159 LEN=11 LOCK=AXI4_LOCK_EXCLUSIVE
# UVM_INFO ../src/mst/axi4_master_monitor.sv(246) @ 265000: uvm_test_top.env.master_agent.mon [axi4_master_monitor] AR observed: ID=0x5 ADDR=0x26bf6159 LEN=11
# UVM_INFO ../src/slv/axi4_slave_monitor.sv(224) @ 265000: uvm_test_top.env.slave_agent.mon [axi4_slave_monitor] AR received: ID=0x5 ADDR=0x26bf6159 LEN=11
# UVM_INFO ../src/slv/axi4_slave_driver.sv(358) @ 295000: uvm_test_top.env.slave_agent.drv [axi4_slave_driver] AR received: ID=0x2 ADDR=0xbc55cbd7 LEN=7 LOCK=AXI4_LOCK_NORMAL
# UVM_INFO ../src/slv/axi4_slave_monitor.sv(224) @ 295000: uvm_test_top.env.slave_agent.mon [axi4_slave_monitor] AR received: ID=0x2 ADDR=0xbc55cbd7 LEN=7
# UVM_INFO ../src/mst/axi4_master_monitor.sv(246) @ 295000: uvm_test_top.env.master_agent.mon [axi4_master_monitor] AR observed: ID=0x2 ADDR=0xbc55cbd7 LEN=7
# UVM_INFO ../src/slv/axi4_slave_driver.sv(358) @ 325000: uvm_test_top.env.slave_agent.drv [axi4_slave_driver] AR received: ID=0x0 ADDR=0xd5bf1630 LEN=15 LOCK=AXI4_LOCK_NORMAL
# UVM_INFO ../src/mst/axi4_master_monitor.sv(246) @ 325000: uvm_test_top.env.master_agent.mon [axi4_master_monitor] AR observed: ID=0x0 ADDR=0xd5bf1630 LEN=15
# UVM_INFO ../src/slv/axi4_slave_monitor.sv(224) @ 325000: uvm_test_top.env.slave_agent.mon [axi4_slave_monitor] AR received: ID=0x0 ADDR=0xd5bf1630 LEN=15
# UVM_INFO ../src/mst/axi4_master_monitor.sv(184) @ 345000: uvm_test_top.env.master_agent.mon [axi4_master_monitor] W data assembled: ID=0xf ADDR=0x102405f4 13 beats
# UVM_INFO ../src/slv/axi4_slave_monitor.sv(167) @ 345000: uvm_test_top.env.slave_agent.mon [axi4_slave_monitor] W data assembled: ID=0xf ADDR=0x102405f4 13 beats
# UVM_INFO ../src/slv/axi4_slave_driver.sv(358) @ 355000: uvm_test_top.env.slave_agent.drv [axi4_slave_driver] AR received: ID=0x9 ADDR=0x02f1415f LEN=14 LOCK=AXI4_LOCK_NORMAL
# UVM_INFO ../src/slv/axi4_slave_monitor.sv(224) @ 355000: uvm_test_top.env.slave_agent.mon [axi4_slave_monitor] AR received: ID=0x9 ADDR=0x02f1415f LEN=14
# UVM_INFO ../src/mst/axi4_master_monitor.sv(246) @ 355000: uvm_test_top.env.master_agent.mon [axi4_master_monitor] AR observed: ID=0x9 ADDR=0x02f1415f LEN=14
# UVM_INFO ../src/mst/axi4_master_driver.sv(348) @ 375000: uvm_test_top.env.master_agent.drv [axi4_master_driver] Master driver received all R beats for ID=0x3
# UVM_INFO ../src/mst/axi4_master_driver.sv(289) @ 375000: uvm_test_top.env.master_agent.drv [axi4_master_driver] Master driver received B response: ID=0xf RESP=AXI4_RESP_OKAY
# UVM_INFO ../src/slv/axi4_slave_driver.sv(464) @ 375000: uvm_test_top.env.slave_agent.drv [axi4_slave_driver] Read complete: ID=0x3 ADDR=0x102405f4 RESP=AXI4_RESP_OKAY  13 beats sent
# UVM_INFO ../src/slv/axi4_slave_driver.sv(320) @ 375000: uvm_test_top.env.slave_agent.drv [axi4_slave_driver] Write complete: ID=0xf RESP=AXI4_RESP_OKAY
# UVM_INFO ../src/slv/axi4_slave_monitor.sv(287) @ 375000: uvm_test_top.env.slave_agent.mon [axi4_slave_monitor] Read data sent: ID=0x3 ADDR=0x102405f4 13 beats
# UVM_INFO ../src/env/axi4_scoreboard.sv(108) @ 375000: uvm_test_top.env.scb [axi4_scoreboard] Slave AXI4_READ received: ID=0x3 ADDR=0x102405f4 LEN=12
# UVM_INFO ../src/slv/axi4_slave_monitor.sv(189) @ 375000: uvm_test_top.env.slave_agent.mon [axi4_slave_monitor] Write response sent: ID=0xf ADDR=0x102405f4 RESP=AXI4_RESP_OKAY
# UVM_INFO ../src/env/axi4_scoreboard.sv(108) @ 375000: uvm_test_top.env.scb [axi4_scoreboard] Slave AXI4_WRITE received: ID=0xf ADDR=0x102405f4 LEN=12
# UVM_INFO ../src/mst/axi4_master_monitor.sv(314) @ 375000: uvm_test_top.env.master_agent.mon [axi4_master_monitor] Read complete: ID=0x3 ADDR=0x102405f4 13 beats
# UVM_INFO ../src/env/axi4_scoreboard.sv(87) @ 375000: uvm_test_top.env.scb [axi4_scoreboard] Master AXI4_READ received: ID=0x3 ADDR=0x102405f4 LEN=12
# UVM_INFO ../src/env/axi4_scoreboard.sv(291) @ 375000: uvm_test_top.env.scb [axi4_scoreboard] [READ] MATCH #1: ID=0x3 ADDR=0x102405f4 LEN=12
# UVM_INFO ../src/mst/axi4_master_monitor.sv(210) @ 375000: uvm_test_top.env.master_agent.mon [axi4_master_monitor] Write complete: ID=0xf ADDR=0x102405f4 RESP=AXI4_RESP_OKAY
# UVM_INFO ../src/env/axi4_scoreboard.sv(87) @ 375000: uvm_test_top.env.scb [axi4_scoreboard] Master AXI4_WRITE received: ID=0xf ADDR=0x102405f4 LEN=12
# UVM_INFO ../src/env/axi4_scoreboard.sv(291) @ 375000: uvm_test_top.env.scb [axi4_scoreboard] [WRITE] MATCH #2: ID=0xf ADDR=0x102405f4 LEN=12
# UVM_INFO ../src/env/axi4_scoreboard.sv(219) @ 375000: uvm_test_top.env.scb [axi4_scoreboard] [REF_MEM_WRITE] Addr=0x102405f7 Data=0xf9
# UVM_INFO ../src/env/axi4_scoreboard.sv(219) @ 375000: uvm_test_top.env.scb [axi4_scoreboard] [REF_MEM_WRITE] Addr=0x102405f8 Data=0x14
# UVM_INFO ../src/env/axi4_scoreboard.sv(219) @ 375000: uvm_test_top.env.scb [axi4_scoreboard] [REF_MEM_WRITE] Addr=0x102405fa Data=0x95
# UVM_INFO ../src/env/axi4_scoreboard.sv(219) @ 375000: uvm_test_top.env.scb [axi4_scoreboard] [REF_MEM_WRITE] Addr=0x102405fc Data=0xa6
# UVM_INFO ../src/env/axi4_scoreboard.sv(219) @ 375000: uvm_test_top.env.scb [axi4_scoreboard] [REF_MEM_WRITE] Addr=0x102405fd Data=0x8d
# UVM_INFO ../src/env/axi4_scoreboard.sv(219) @ 375000: uvm_test_top.env.scb [axi4_scoreboard] [REF_MEM_WRITE] Addr=0x102405fe Data=0x61
# UVM_INFO ../src/env/axi4_scoreboard.sv(219) @ 375000: uvm_test_top.env.scb [axi4_scoreboard] [REF_MEM_WRITE] Addr=0x102405ff Data=0x84
# UVM_INFO ../src/env/axi4_scoreboard.sv(219) @ 375000: uvm_test_top.env.scb [axi4_scoreboard] [REF_MEM_WRITE] Addr=0x10240600 Data=0x0a
# UVM_INFO ../src/env/axi4_scoreboard.sv(219) @ 375000: uvm_test_top.env.scb [axi4_scoreboard] [REF_MEM_WRITE] Addr=0x10240601 Data=0xc7
# UVM_INFO ../src/env/axi4_scoreboard.sv(219) @ 375000: uvm_test_top.env.scb [axi4_scoreboard] [REF_MEM_WRITE] Addr=0x10240602 Data=0x2b
# UVM_INFO ../src/env/axi4_scoreboard.sv(219) @ 375000: uvm_test_top.env.scb [axi4_scoreboard] [REF_MEM_WRITE] Addr=0x10240605 Data=0x9d
# UVM_INFO ../src/env/axi4_scoreboard.sv(219) @ 375000: uvm_test_top.env.scb [axi4_scoreboard] [REF_MEM_WRITE] Addr=0x10240606 Data=0x42
# UVM_INFO ../src/env/axi4_scoreboard.sv(219) @ 375000: uvm_test_top.env.scb [axi4_scoreboard] [REF_MEM_WRITE] Addr=0x10240607 Data=0xa6
# UVM_INFO ../src/env/axi4_scoreboard.sv(219) @ 375000: uvm_test_top.env.scb [axi4_scoreboard] [REF_MEM_WRITE] Addr=0x10240608 Data=0x72
# UVM_INFO ../src/env/axi4_scoreboard.sv(219) @ 375000: uvm_test_top.env.scb [axi4_scoreboard] [REF_MEM_WRITE] Addr=0x1024060a Data=0x21
# UVM_INFO ../src/env/axi4_scoreboard.sv(219) @ 375000: uvm_test_top.env.scb [axi4_scoreboard] [REF_MEM_WRITE] Addr=0x10240615 Data=0x6f
# UVM_INFO ../src/env/axi4_scoreboard.sv(219) @ 375000: uvm_test_top.env.scb [axi4_scoreboard] [REF_MEM_WRITE] Addr=0x10240616 Data=0x7d
# UVM_INFO ../src/env/axi4_scoreboard.sv(219) @ 375000: uvm_test_top.env.scb [axi4_scoreboard] [REF_MEM_WRITE] Addr=0x10240617 Data=0xe5
# UVM_INFO ../src/env/axi4_scoreboard.sv(219) @ 375000: uvm_test_top.env.scb [axi4_scoreboard] [REF_MEM_WRITE] Addr=0x1024061e Data=0x43
# UVM_INFO ../src/env/axi4_scoreboard.sv(219) @ 375000: uvm_test_top.env.scb [axi4_scoreboard] [REF_MEM_WRITE] Addr=0x1024061f Data=0xec
# UVM_INFO ../src/env/axi4_scoreboard.sv(219) @ 375000: uvm_test_top.env.scb [axi4_scoreboard] [REF_MEM_WRITE] Addr=0x10240620 Data=0xc9
# UVM_INFO ../src/env/axi4_scoreboard.sv(219) @ 375000: uvm_test_top.env.scb [axi4_scoreboard] [REF_MEM_WRITE] Addr=0x10240622 Data=0x45
# UVM_INFO ../src/env/axi4_scoreboard.sv(219) @ 375000: uvm_test_top.env.scb [axi4_scoreboard] [REF_MEM_WRITE] Addr=0x10240623 Data=0x2c
# UVM_INFO ../src/slv/axi4_slave_driver.sv(358) @ 385000: uvm_test_top.env.slave_agent.drv [axi4_slave_driver] AR received: ID=0x9 ADDR=0x7e784809 LEN=12 LOCK=AXI4_LOCK_EXCLUSIVE
# UVM_INFO ../src/mst/axi4_master_monitor.sv(246) @ 385000: uvm_test_top.env.master_agent.mon [axi4_master_monitor] AR observed: ID=0x9 ADDR=0x7e784809 LEN=12
# UVM_INFO ../src/slv/axi4_slave_monitor.sv(224) @ 385000: uvm_test_top.env.slave_agent.mon [axi4_slave_monitor] AR received: ID=0x9 ADDR=0x7e784809 LEN=12
# UVM_INFO ../src/mst/axi4_master_monitor.sv(184) @ 565000: uvm_test_top.env.master_agent.mon [axi4_master_monitor] W data assembled: ID=0xd ADDR=0xef4ebd0b 11 beats
# UVM_INFO ../src/slv/axi4_slave_monitor.sv(167) @ 565000: uvm_test_top.env.slave_agent.mon [axi4_slave_monitor] W data assembled: ID=0xd ADDR=0xef4ebd0b 11 beats
# UVM_INFO ../src/test/axi4_wr_rd_test.sv(62) @ 595000: uvm_test_top [axi4_wr_rd_test] 10 write-read-back iterations complete
# UVM_INFO ../src/mst/axi4_master_driver.sv(348) @ 595000: uvm_test_top.env.master_agent.drv [axi4_master_driver] Master driver received all R beats for ID=0x9
# UVM_INFO ../src/mst/axi4_master_driver.sv(289) @ 595000: uvm_test_top.env.master_agent.drv [axi4_master_driver] Master driver received B response: ID=0xd RESP=AXI4_RESP_SLVERR
# UVM_INFO ../src/slv/axi4_slave_driver.sv(464) @ 595000: uvm_test_top.env.slave_agent.drv [axi4_slave_driver] Read complete: ID=0x9 ADDR=0xef4ebd0b RESP=AXI4_RESP_SLVERR  11 beats sent
# UVM_INFO ../src/slv/axi4_slave_driver.sv(320) @ 595000: uvm_test_top.env.slave_agent.drv [axi4_slave_driver] Write complete: ID=0xd RESP=AXI4_RESP_SLVERR
# UVM_INFO ../src/slv/axi4_slave_monitor.sv(287) @ 595000: uvm_test_top.env.slave_agent.mon [axi4_slave_monitor] Read data sent: ID=0x9 ADDR=0xef4ebd0b 11 beats
# UVM_INFO ../src/env/axi4_scoreboard.sv(108) @ 595000: uvm_test_top.env.scb [axi4_scoreboard] Slave AXI4_READ received: ID=0x9 ADDR=0xef4ebd0b LEN=10
# UVM_INFO ../src/slv/axi4_slave_monitor.sv(189) @ 595000: uvm_test_top.env.slave_agent.mon [axi4_slave_monitor] Write response sent: ID=0xd ADDR=0xef4ebd0b RESP=AXI4_RESP_SLVERR
# UVM_INFO ../src/env/axi4_scoreboard.sv(108) @ 595000: uvm_test_top.env.scb [axi4_scoreboard] Slave AXI4_WRITE received: ID=0xd ADDR=0xef4ebd0b LEN=10
# UVM_INFO ../src/mst/axi4_master_monitor.sv(314) @ 595000: uvm_test_top.env.master_agent.mon [axi4_master_monitor] Read complete: ID=0x9 ADDR=0xef4ebd0b 11 beats
# UVM_INFO ../src/env/axi4_scoreboard.sv(87) @ 595000: uvm_test_top.env.scb [axi4_scoreboard] Master AXI4_READ received: ID=0x9 ADDR=0xef4ebd0b LEN=10
# UVM_INFO ../src/env/axi4_scoreboard.sv(291) @ 595000: uvm_test_top.env.scb [axi4_scoreboard] [READ] MATCH #3: ID=0x9 ADDR=0xef4ebd0b LEN=10
# UVM_INFO ../src/mst/axi4_master_monitor.sv(210) @ 595000: uvm_test_top.env.master_agent.mon [axi4_master_monitor] Write complete: ID=0xd ADDR=0xef4ebd0b RESP=AXI4_RESP_SLVERR
# UVM_INFO ../src/env/axi4_scoreboard.sv(87) @ 595000: uvm_test_top.env.scb [axi4_scoreboard] Master AXI4_WRITE received: ID=0xd ADDR=0xef4ebd0b LEN=10
# UVM_INFO ../src/env/axi4_scoreboard.sv(291) @ 595000: uvm_test_top.env.scb [axi4_scoreboard] [WRITE] MATCH #4: ID=0xd ADDR=0xef4ebd0b LEN=10
# UVM_INFO ../src/env/axi4_scoreboard.sv(226) @ 595000: uvm_test_top.env.scb [axi4_scoreboard] [REF_MEM_WRITE_IGNORED] Write ignored for ADDR=0xef4ebd0b LOCK=AXI4_LOCK_NORMAL RESP=AXI4_RESP_SLVERR
# UVM_INFO ../src/mst/axi4_master_monitor.sv(184) @ 785000: uvm_test_top.env.master_agent.mon [axi4_master_monitor] W data assembled: ID=0x4 ADDR=0xf5d87bea 11 beats
# UVM_INFO ../src/slv/axi4_slave_monitor.sv(167) @ 785000: uvm_test_top.env.slave_agent.mon [axi4_slave_monitor] W data assembled: ID=0x4 ADDR=0xf5d87bea 11 beats
# UVM_INFO ../src/mst/axi4_master_driver.sv(348) @ 815000: uvm_test_top.env.master_agent.drv [axi4_master_driver] Master driver received all R beats for ID=0x0
# UVM_INFO ../src/mst/axi4_master_driver.sv(289) @ 815000: uvm_test_top.env.master_agent.drv [axi4_master_driver] Master driver received B response: ID=0x4 RESP=AXI4_RESP_DECERR
# UVM_INFO ../src/slv/axi4_slave_driver.sv(464) @ 815000: uvm_test_top.env.slave_agent.drv [axi4_slave_driver] Read complete: ID=0x0 ADDR=0xf5d87bea RESP=AXI4_RESP_DECERR  11 beats sent
# UVM_INFO ../src/slv/axi4_slave_driver.sv(320) @ 815000: uvm_test_top.env.slave_agent.drv [axi4_slave_driver] Write complete: ID=0x4 RESP=AXI4_RESP_DECERR
# UVM_INFO ../src/slv/axi4_slave_monitor.sv(287) @ 815000: uvm_test_top.env.slave_agent.mon [axi4_slave_monitor] Read data sent: ID=0x0 ADDR=0xf5d87bea 11 beats
# UVM_INFO ../src/env/axi4_scoreboard.sv(108) @ 815000: uvm_test_top.env.scb [axi4_scoreboard] Slave AXI4_READ received: ID=0x0 ADDR=0xf5d87bea LEN=10
# UVM_INFO ../src/slv/axi4_slave_monitor.sv(189) @ 815000: uvm_test_top.env.slave_agent.mon [axi4_slave_monitor] Write response sent: ID=0x4 ADDR=0xf5d87bea RESP=AXI4_RESP_DECERR
# UVM_INFO ../src/env/axi4_scoreboard.sv(108) @ 815000: uvm_test_top.env.scb [axi4_scoreboard] Slave AXI4_WRITE received: ID=0x4 ADDR=0xf5d87bea LEN=10
# UVM_INFO ../src/mst/axi4_master_monitor.sv(314) @ 815000: uvm_test_top.env.master_agent.mon [axi4_master_monitor] Read complete: ID=0x0 ADDR=0xf5d87bea 11 beats
# UVM_INFO ../src/env/axi4_scoreboard.sv(87) @ 815000: uvm_test_top.env.scb [axi4_scoreboard] Master AXI4_READ received: ID=0x0 ADDR=0xf5d87bea LEN=10
# UVM_INFO ../src/env/axi4_scoreboard.sv(291) @ 815000: uvm_test_top.env.scb [axi4_scoreboard] [READ] MATCH #5: ID=0x0 ADDR=0xf5d87bea LEN=10
# UVM_INFO ../src/mst/axi4_master_monitor.sv(210) @ 815000: uvm_test_top.env.master_agent.mon [axi4_master_monitor] Write complete: ID=0x4 ADDR=0xf5d87bea RESP=AXI4_RESP_DECERR
# UVM_INFO ../src/env/axi4_scoreboard.sv(87) @ 815000: uvm_test_top.env.scb [axi4_scoreboard] Master AXI4_WRITE received: ID=0x4 ADDR=0xf5d87bea LEN=10
# UVM_INFO ../src/env/axi4_scoreboard.sv(291) @ 815000: uvm_test_top.env.scb [axi4_scoreboard] [WRITE] MATCH #6: ID=0x4 ADDR=0xf5d87bea LEN=10
# UVM_INFO ../src/env/axi4_scoreboard.sv(226) @ 815000: uvm_test_top.env.scb [axi4_scoreboard] [REF_MEM_WRITE_IGNORED] Write ignored for ADDR=0xf5d87bea LOCK=AXI4_LOCK_NORMAL RESP=AXI4_RESP_DECERR
# UVM_INFO ../src/mst/axi4_master_monitor.sv(184) @ 1085000: uvm_test_top.env.master_agent.mon [axi4_master_monitor] W data assembled: ID=0x4 ADDR=0x54cc14b2 15 beats
# UVM_INFO ../src/slv/axi4_slave_monitor.sv(167) @ 1085000: uvm_test_top.env.slave_agent.mon [axi4_slave_monitor] W data assembled: ID=0x4 ADDR=0x54cc14b2 15 beats
# UVM_INFO ../src/mst/axi4_master_driver.sv(348) @ 1115000: uvm_test_top.env.master_agent.drv [axi4_master_driver] Master driver received all R beats for ID=0xd
# UVM_INFO ../src/mst/axi4_master_driver.sv(289) @ 1115000: uvm_test_top.env.master_agent.drv [axi4_master_driver] Master driver received B response: ID=0x4 RESP=AXI4_RESP_OKAY
# UVM_INFO ../src/slv/axi4_slave_driver.sv(464) @ 1115000: uvm_test_top.env.slave_agent.drv [axi4_slave_driver] Read complete: ID=0xd ADDR=0x54cc14b2 RESP=AXI4_RESP_EXOKAY  15 beats sent
# UVM_INFO ../src/slv/axi4_slave_driver.sv(320) @ 1115000: uvm_test_top.env.slave_agent.drv [axi4_slave_driver] Write complete: ID=0x4 RESP=AXI4_RESP_OKAY
# UVM_INFO ../src/slv/axi4_slave_monitor.sv(287) @ 1115000: uvm_test_top.env.slave_agent.mon [axi4_slave_monitor] Read data sent: ID=0xd ADDR=0x54cc14b2 15 beats
# UVM_INFO ../src/env/axi4_scoreboard.sv(108) @ 1115000: uvm_test_top.env.scb [axi4_scoreboard] Slave AXI4_READ received: ID=0xd ADDR=0x54cc14b2 LEN=14
# UVM_INFO ../src/slv/axi4_slave_monitor.sv(189) @ 1115000: uvm_test_top.env.slave_agent.mon [axi4_slave_monitor] Write response sent: ID=0x4 ADDR=0x54cc14b2 RESP=AXI4_RESP_OKAY
# UVM_INFO ../src/env/axi4_scoreboard.sv(108) @ 1115000: uvm_test_top.env.scb [axi4_scoreboard] Slave AXI4_WRITE received: ID=0x4 ADDR=0x54cc14b2 LEN=14
# UVM_INFO ../src/mst/axi4_master_monitor.sv(314) @ 1115000: uvm_test_top.env.master_agent.mon [axi4_master_monitor] Read complete: ID=0xd ADDR=0x54cc14b2 15 beats
# UVM_INFO ../src/env/axi4_scoreboard.sv(87) @ 1115000: uvm_test_top.env.scb [axi4_scoreboard] Master AXI4_READ received: ID=0xd ADDR=0x54cc14b2 LEN=14
# UVM_INFO ../src/env/axi4_scoreboard.sv(291) @ 1115000: uvm_test_top.env.scb [axi4_scoreboard] [READ] MATCH #7: ID=0xd ADDR=0x54cc14b2 LEN=14
# UVM_INFO ../src/mst/axi4_master_monitor.sv(210) @ 1115000: uvm_test_top.env.master_agent.mon [axi4_master_monitor] Write complete: ID=0x4 ADDR=0x54cc14b2 RESP=AXI4_RESP_OKAY
# UVM_INFO ../src/env/axi4_scoreboard.sv(87) @ 1115000: uvm_test_top.env.scb [axi4_scoreboard] Master AXI4_WRITE received: ID=0x4 ADDR=0x54cc14b2 LEN=14
# UVM_INFO ../src/env/axi4_scoreboard.sv(291) @ 1115000: uvm_test_top.env.scb [axi4_scoreboard] [WRITE] MATCH #8: ID=0x4 ADDR=0x54cc14b2 LEN=14
# UVM_INFO ../src/env/axi4_scoreboard.sv(226) @ 1115000: uvm_test_top.env.scb [axi4_scoreboard] [REF_MEM_WRITE_IGNORED] Write ignored for ADDR=0x54cc14b2 LOCK=AXI4_LOCK_EXCLUSIVE RESP=AXI4_RESP_OKAY
# UVM_INFO ../src/slv/axi4_slave_driver.sv(212) @ 1155000: uvm_test_top.env.slave_agent.drv [axi4_slave_driver] AW received: ID=0x4 ADDR=0xa6856b9a LEN=13 LOCK=AXI4_LOCK_EXCLUSIVE
# UVM_INFO ../src/slv/axi4_slave_monitor.sv(116) @ 1155000: uvm_test_top.env.slave_agent.mon [axi4_slave_monitor] AW received: ID=0x4 ADDR=0xa6856b9a LEN=13
# UVM_INFO ../src/mst/axi4_master_monitor.sv(124) @ 1155000: uvm_test_top.env.master_agent.mon [axi4_master_monitor] AW observed: ID=0x4 ADDR=0xa6856b9a LEN=13
# UVM_INFO ../src/slv/axi4_slave_driver.sv(212) @ 1185000: uvm_test_top.env.slave_agent.drv [axi4_slave_driver] AW received: ID=0x2 ADDR=0x26bf6159 LEN=11 LOCK=AXI4_LOCK_NORMAL
# UVM_INFO ../src/mst/axi4_master_monitor.sv(124) @ 1185000: uvm_test_top.env.master_agent.mon [axi4_master_monitor] AW observed: ID=0x2 ADDR=0x26bf6159 LEN=11
# UVM_INFO ../src/slv/axi4_slave_monitor.sv(116) @ 1185000: uvm_test_top.env.slave_agent.mon [axi4_slave_monitor] AW received: ID=0x2 ADDR=0x26bf6159 LEN=11
# UVM_INFO ../src/mst/axi4_master_monitor.sv(184) @ 1365000: uvm_test_top.env.master_agent.mon [axi4_master_monitor] W data assembled: ID=0x4 ADDR=0xa6856b9a 14 beats
# UVM_INFO ../src/slv/axi4_slave_monitor.sv(167) @ 1365000: uvm_test_top.env.slave_agent.mon [axi4_slave_monitor] W data assembled: ID=0x4 ADDR=0xa6856b9a 14 beats
# UVM_INFO ../src/mst/axi4_master_driver.sv(348) @ 1395000: uvm_test_top.env.master_agent.drv [axi4_master_driver] Master driver received all R beats for ID=0xb
# UVM_INFO ../src/mst/axi4_master_driver.sv(289) @ 1395000: uvm_test_top.env.master_agent.drv [axi4_master_driver] Master driver received B response: ID=0x4 RESP=AXI4_RESP_OKAY
# UVM_INFO ../src/slv/axi4_slave_driver.sv(464) @ 1395000: uvm_test_top.env.slave_agent.drv [axi4_slave_driver] Read complete: ID=0xb ADDR=0xa6856b9a RESP=AXI4_RESP_EXOKAY  14 beats sent
# UVM_INFO ../src/slv/axi4_slave_driver.sv(320) @ 1395000: uvm_test_top.env.slave_agent.drv [axi4_slave_driver] Write complete: ID=0x4 RESP=AXI4_RESP_OKAY
# UVM_INFO ../src/slv/axi4_slave_monitor.sv(287) @ 1395000: uvm_test_top.env.slave_agent.mon [axi4_slave_monitor] Read data sent: ID=0xb ADDR=0xa6856b9a 14 beats
# UVM_INFO ../src/env/axi4_scoreboard.sv(108) @ 1395000: uvm_test_top.env.scb [axi4_scoreboard] Slave AXI4_READ received: ID=0xb ADDR=0xa6856b9a LEN=13
# UVM_INFO ../src/slv/axi4_slave_monitor.sv(189) @ 1395000: uvm_test_top.env.slave_agent.mon [axi4_slave_monitor] Write response sent: ID=0x4 ADDR=0xa6856b9a RESP=AXI4_RESP_OKAY
# UVM_INFO ../src/env/axi4_scoreboard.sv(108) @ 1395000: uvm_test_top.env.scb [axi4_scoreboard] Slave AXI4_WRITE received: ID=0x4 ADDR=0xa6856b9a LEN=13
# UVM_INFO ../src/mst/axi4_master_monitor.sv(314) @ 1395000: uvm_test_top.env.master_agent.mon [axi4_master_monitor] Read complete: ID=0xb ADDR=0xa6856b9a 14 beats
# UVM_INFO ../src/env/axi4_scoreboard.sv(87) @ 1395000: uvm_test_top.env.scb [axi4_scoreboard] Master AXI4_READ received: ID=0xb ADDR=0xa6856b9a LEN=13
# UVM_INFO ../src/env/axi4_scoreboard.sv(291) @ 1395000: uvm_test_top.env.scb [axi4_scoreboard] [READ] MATCH #9: ID=0xb ADDR=0xa6856b9a LEN=13
# UVM_INFO ../src/mst/axi4_master_monitor.sv(210) @ 1395000: uvm_test_top.env.master_agent.mon [axi4_master_monitor] Write complete: ID=0x4 ADDR=0xa6856b9a RESP=AXI4_RESP_OKAY
# UVM_INFO ../src/env/axi4_scoreboard.sv(87) @ 1395000: uvm_test_top.env.scb [axi4_scoreboard] Master AXI4_WRITE received: ID=0x4 ADDR=0xa6856b9a LEN=13
# UVM_INFO ../src/env/axi4_scoreboard.sv(291) @ 1395000: uvm_test_top.env.scb [axi4_scoreboard] [WRITE] MATCH #10: ID=0x4 ADDR=0xa6856b9a LEN=13
# UVM_INFO ../src/env/axi4_scoreboard.sv(226) @ 1395000: uvm_test_top.env.scb [axi4_scoreboard] [REF_MEM_WRITE_IGNORED] Write ignored for ADDR=0xa6856b9a LOCK=AXI4_LOCK_EXCLUSIVE RESP=AXI4_RESP_OKAY
# UVM_INFO ../src/mst/axi4_master_monitor.sv(184) @ 1605000: uvm_test_top.env.master_agent.mon [axi4_master_monitor] W data assembled: ID=0x2 ADDR=0x26bf6159 12 beats
# UVM_INFO ../src/slv/axi4_slave_monitor.sv(167) @ 1605000: uvm_test_top.env.slave_agent.mon [axi4_slave_monitor] W data assembled: ID=0x2 ADDR=0x26bf6159 12 beats
# UVM_INFO ../src/mst/axi4_master_driver.sv(348) @ 1635000: uvm_test_top.env.master_agent.drv [axi4_master_driver] Master driver received all R beats for ID=0x5
# UVM_INFO ../src/mst/axi4_master_driver.sv(289) @ 1635000: uvm_test_top.env.master_agent.drv [axi4_master_driver] Master driver received B response: ID=0x2 RESP=AXI4_RESP_OKAY
# UVM_INFO ../src/slv/axi4_slave_driver.sv(464) @ 1635000: uvm_test_top.env.slave_agent.drv [axi4_slave_driver] Read complete: ID=0x5 ADDR=0x26bf6159 RESP=AXI4_RESP_EXOKAY  12 beats sent
# UVM_INFO ../src/slv/axi4_slave_driver.sv(320) @ 1635000: uvm_test_top.env.slave_agent.drv [axi4_slave_driver] Write complete: ID=0x2 RESP=AXI4_RESP_OKAY
# UVM_INFO ../src/slv/axi4_slave_monitor.sv(287) @ 1635000: uvm_test_top.env.slave_agent.mon [axi4_slave_monitor] Read data sent: ID=0x5 ADDR=0x26bf6159 12 beats
# UVM_INFO ../src/env/axi4_scoreboard.sv(108) @ 1635000: uvm_test_top.env.scb [axi4_scoreboard] Slave AXI4_READ received: ID=0x5 ADDR=0x26bf6159 LEN=11
# UVM_INFO ../src/slv/axi4_slave_monitor.sv(189) @ 1635000: uvm_test_top.env.slave_agent.mon [axi4_slave_monitor] Write response sent: ID=0x2 ADDR=0x26bf6159 RESP=AXI4_RESP_OKAY
# UVM_INFO ../src/env/axi4_scoreboard.sv(108) @ 1635000: uvm_test_top.env.scb [axi4_scoreboard] Slave AXI4_WRITE received: ID=0x2 ADDR=0x26bf6159 LEN=11
# UVM_INFO ../src/mst/axi4_master_monitor.sv(314) @ 1635000: uvm_test_top.env.master_agent.mon [axi4_master_monitor] Read complete: ID=0x5 ADDR=0x26bf6159 12 beats
# UVM_INFO ../src/env/axi4_scoreboard.sv(87) @ 1635000: uvm_test_top.env.scb [axi4_scoreboard] Master AXI4_READ received: ID=0x5 ADDR=0x26bf6159 LEN=11
# UVM_INFO ../src/env/axi4_scoreboard.sv(291) @ 1635000: uvm_test_top.env.scb [axi4_scoreboard] [READ] MATCH #11: ID=0x5 ADDR=0x26bf6159 LEN=11
# UVM_INFO ../src/mst/axi4_master_monitor.sv(210) @ 1635000: uvm_test_top.env.master_agent.mon [axi4_master_monitor] Write complete: ID=0x2 ADDR=0x26bf6159 RESP=AXI4_RESP_OKAY
# UVM_INFO ../src/env/axi4_scoreboard.sv(87) @ 1635000: uvm_test_top.env.scb [axi4_scoreboard] Master AXI4_WRITE received: ID=0x2 ADDR=0x26bf6159 LEN=11
# UVM_INFO ../src/env/axi4_scoreboard.sv(291) @ 1635000: uvm_test_top.env.scb [axi4_scoreboard] [WRITE] MATCH #12: ID=0x2 ADDR=0x26bf6159 LEN=11
# UVM_INFO ../src/env/axi4_scoreboard.sv(219) @ 1635000: uvm_test_top.env.scb [axi4_scoreboard] [REF_MEM_WRITE] Addr=0x26bf6158 Data=0x11
# UVM_INFO ../src/env/axi4_scoreboard.sv(219) @ 1635000: uvm_test_top.env.scb [axi4_scoreboard] [REF_MEM_WRITE] Addr=0x26bf615b Data=0x3c
# UVM_INFO ../src/env/axi4_scoreboard.sv(219) @ 1635000: uvm_test_top.env.scb [axi4_scoreboard] [REF_MEM_WRITE] Addr=0x26bf6161 Data=0x5a
# UVM_INFO ../src/env/axi4_scoreboard.sv(219) @ 1635000: uvm_test_top.env.scb [axi4_scoreboard] [REF_MEM_WRITE] Addr=0x26bf6163 Data=0x0f
# UVM_INFO ../src/env/axi4_scoreboard.sv(219) @ 1635000: uvm_test_top.env.scb [axi4_scoreboard] [REF_MEM_WRITE] Addr=0x26bf6164 Data=0x96
# UVM_INFO ../src/env/axi4_scoreboard.sv(219) @ 1635000: uvm_test_top.env.scb [axi4_scoreboard] [REF_MEM_WRITE] Addr=0x26bf6165 Data=0xbc
# UVM_INFO ../src/env/axi4_scoreboard.sv(219) @ 1635000: uvm_test_top.env.scb [axi4_scoreboard] [REF_MEM_WRITE] Addr=0x26bf6166 Data=0xce
# UVM_INFO ../src/env/axi4_scoreboard.sv(219) @ 1635000: uvm_test_top.env.scb [axi4_scoreboard] [REF_MEM_WRITE] Addr=0x26bf616b Data=0x55
# UVM_INFO ../src/env/axi4_scoreboard.sv(219) @ 1635000: uvm_test_top.env.scb [axi4_scoreboard] [REF_MEM_WRITE] Addr=0x26bf616c Data=0xa1
# UVM_INFO ../src/env/axi4_scoreboard.sv(219) @ 1635000: uvm_test_top.env.scb [axi4_scoreboard] [REF_MEM_WRITE] Addr=0x26bf6170 Data=0x30
# UVM_INFO ../src/env/axi4_scoreboard.sv(219) @ 1635000: uvm_test_top.env.scb [axi4_scoreboard] [REF_MEM_WRITE] Addr=0x26bf6172 Data=0x13
# UVM_INFO ../src/env/axi4_scoreboard.sv(219) @ 1635000: uvm_test_top.env.scb [axi4_scoreboard] [REF_MEM_WRITE] Addr=0x26bf6174 Data=0xd4
# UVM_INFO ../src/env/axi4_scoreboard.sv(219) @ 1635000: uvm_test_top.env.scb [axi4_scoreboard] [REF_MEM_WRITE] Addr=0x26bf6176 Data=0x9e
# UVM_INFO ../src/env/axi4_scoreboard.sv(219) @ 1635000: uvm_test_top.env.scb [axi4_scoreboard] [REF_MEM_WRITE] Addr=0x26bf6177 Data=0xc9
# UVM_INFO ../src/env/axi4_scoreboard.sv(219) @ 1635000: uvm_test_top.env.scb [axi4_scoreboard] [REF_MEM_WRITE] Addr=0x26bf6179 Data=0x6b
# UVM_INFO ../src/env/axi4_scoreboard.sv(219) @ 1635000: uvm_test_top.env.scb [axi4_scoreboard] [REF_MEM_WRITE] Addr=0x26bf617a Data=0x71
# UVM_INFO ../src/env/axi4_scoreboard.sv(219) @ 1635000: uvm_test_top.env.scb [axi4_scoreboard] [REF_MEM_WRITE] Addr=0x26bf617b Data=0xa4
# UVM_INFO ../src/env/axi4_scoreboard.sv(219) @ 1635000: uvm_test_top.env.scb [axi4_scoreboard] [REF_MEM_WRITE] Addr=0x26bf617d Data=0x84
# UVM_INFO ../src/env/axi4_scoreboard.sv(219) @ 1635000: uvm_test_top.env.scb [axi4_scoreboard] [REF_MEM_WRITE] Addr=0x26bf6180 Data=0xa6
# UVM_INFO ../src/env/axi4_scoreboard.sv(219) @ 1635000: uvm_test_top.env.scb [axi4_scoreboard] [REF_MEM_WRITE] Addr=0x26bf6184 Data=0x0f
# UVM_INFO ../src/slv/axi4_slave_driver.sv(212) @ 1685000: uvm_test_top.env.slave_agent.drv [axi4_slave_driver] AW received: ID=0x3 ADDR=0xbc55cbd7 LEN=7 LOCK=AXI4_LOCK_NORMAL
# UVM_INFO ../src/mst/axi4_master_monitor.sv(124) @ 1685000: uvm_test_top.env.master_agent.mon [axi4_master_monitor] AW observed: ID=0x3 ADDR=0xbc55cbd7 LEN=7
# UVM_INFO ../src/slv/axi4_slave_monitor.sv(116) @ 1685000: uvm_test_top.env.slave_agent.mon [axi4_slave_monitor] AW received: ID=0x3 ADDR=0xbc55cbd7 LEN=7
# UVM_INFO ../src/slv/axi4_slave_driver.sv(212) @ 1715000: uvm_test_top.env.slave_agent.drv [axi4_slave_driver] AW received: ID=0x6 ADDR=0xd5bf1630 LEN=15 LOCK=AXI4_LOCK_EXCLUSIVE
# UVM_INFO ../src/slv/axi4_slave_monitor.sv(116) @ 1715000: uvm_test_top.env.slave_agent.mon [axi4_slave_monitor] AW received: ID=0x6 ADDR=0xd5bf1630 LEN=15
# UVM_INFO ../src/mst/axi4_master_monitor.sv(124) @ 1715000: uvm_test_top.env.master_agent.mon [axi4_master_monitor] AW observed: ID=0x6 ADDR=0xd5bf1630 LEN=15
# UVM_INFO ../src/slv/axi4_slave_driver.sv(212) @ 1745000: uvm_test_top.env.slave_agent.drv [axi4_slave_driver] AW received: ID=0x9 ADDR=0x02f1415f LEN=14 LOCK=AXI4_LOCK_NORMAL
# UVM_INFO ../src/mst/axi4_master_monitor.sv(124) @ 1745000: uvm_test_top.env.master_agent.mon [axi4_master_monitor] AW observed: ID=0x9 ADDR=0x02f1415f LEN=14
# UVM_INFO ../src/slv/axi4_slave_monitor.sv(116) @ 1745000: uvm_test_top.env.slave_agent.mon [axi4_slave_monitor] AW received: ID=0x9 ADDR=0x02f1415f LEN=14
# UVM_INFO ../src/mst/axi4_master_monitor.sv(184) @ 1765000: uvm_test_top.env.master_agent.mon [axi4_master_monitor] W data assembled: ID=0x3 ADDR=0xbc55cbd7 8 beats
# UVM_INFO ../src/slv/axi4_slave_monitor.sv(167) @ 1765000: uvm_test_top.env.slave_agent.mon [axi4_slave_monitor] W data assembled: ID=0x3 ADDR=0xbc55cbd7 8 beats
# UVM_INFO ../src/slv/axi4_slave_driver.sv(212) @ 1775000: uvm_test_top.env.slave_agent.drv [axi4_slave_driver] AW received: ID=0xf ADDR=0x7e784809 LEN=12 LOCK=AXI4_LOCK_NORMAL
# UVM_INFO ../src/slv/axi4_slave_monitor.sv(116) @ 1775000: uvm_test_top.env.slave_agent.mon [axi4_slave_monitor] AW received: ID=0xf ADDR=0x7e784809 LEN=12
# UVM_INFO ../src/mst/axi4_master_monitor.sv(124) @ 1775000: uvm_test_top.env.master_agent.mon [axi4_master_monitor] AW observed: ID=0xf ADDR=0x7e784809 LEN=12
# UVM_INFO ../src/mst/axi4_master_driver.sv(348) @ 1795000: uvm_test_top.env.master_agent.drv [axi4_master_driver] Master driver received all R beats for ID=0x2
# UVM_INFO ../src/mst/axi4_master_driver.sv(289) @ 1795000: uvm_test_top.env.master_agent.drv [axi4_master_driver] Master driver received B response: ID=0x3 RESP=AXI4_RESP_OKAY
# UVM_INFO ../src/slv/axi4_slave_driver.sv(464) @ 1795000: uvm_test_top.env.slave_agent.drv [axi4_slave_driver] Read complete: ID=0x2 ADDR=0xbc55cbd7 RESP=AXI4_RESP_OKAY  8 beats sent
# UVM_INFO ../src/slv/axi4_slave_driver.sv(320) @ 1795000: uvm_test_top.env.slave_agent.drv [axi4_slave_driver] Write complete: ID=0x3 RESP=AXI4_RESP_OKAY
# UVM_INFO ../src/slv/axi4_slave_monitor.sv(287) @ 1795000: uvm_test_top.env.slave_agent.mon [axi4_slave_monitor] Read data sent: ID=0x2 ADDR=0xbc55cbd7 8 beats
# UVM_INFO ../src/env/axi4_scoreboard.sv(108) @ 1795000: uvm_test_top.env.scb [axi4_scoreboard] Slave AXI4_READ received: ID=0x2 ADDR=0xbc55cbd7 LEN=7
# UVM_INFO ../src/slv/axi4_slave_monitor.sv(189) @ 1795000: uvm_test_top.env.slave_agent.mon [axi4_slave_monitor] Write response sent: ID=0x3 ADDR=0xbc55cbd7 RESP=AXI4_RESP_OKAY
# UVM_INFO ../src/env/axi4_scoreboard.sv(108) @ 1795000: uvm_test_top.env.scb [axi4_scoreboard] Slave AXI4_WRITE received: ID=0x3 ADDR=0xbc55cbd7 LEN=7
# UVM_INFO ../src/mst/axi4_master_monitor.sv(314) @ 1795000: uvm_test_top.env.master_agent.mon [axi4_master_monitor] Read complete: ID=0x2 ADDR=0xbc55cbd7 8 beats
# UVM_INFO ../src/env/axi4_scoreboard.sv(87) @ 1795000: uvm_test_top.env.scb [axi4_scoreboard] Master AXI4_READ received: ID=0x2 ADDR=0xbc55cbd7 LEN=7
# UVM_INFO ../src/env/axi4_scoreboard.sv(291) @ 1795000: uvm_test_top.env.scb [axi4_scoreboard] [READ] MATCH #13: ID=0x2 ADDR=0xbc55cbd7 LEN=7
# UVM_INFO ../src/mst/axi4_master_monitor.sv(210) @ 1795000: uvm_test_top.env.master_agent.mon [axi4_master_monitor] Write complete: ID=0x3 ADDR=0xbc55cbd7 RESP=AXI4_RESP_OKAY
# UVM_INFO ../src/env/axi4_scoreboard.sv(87) @ 1795000: uvm_test_top.env.scb [axi4_scoreboard] Master AXI4_WRITE received: ID=0x3 ADDR=0xbc55cbd7 LEN=7
# UVM_INFO ../src/env/axi4_scoreboard.sv(291) @ 1795000: uvm_test_top.env.scb [axi4_scoreboard] [WRITE] MATCH #14: ID=0x3 ADDR=0xbc55cbd7 LEN=7
# UVM_INFO ../src/env/axi4_scoreboard.sv(219) @ 1795000: uvm_test_top.env.scb [axi4_scoreboard] [REF_MEM_WRITE] Addr=0xbc55cbd4 Data=0x7f
# UVM_INFO ../src/env/axi4_scoreboard.sv(219) @ 1795000: uvm_test_top.env.scb [axi4_scoreboard] [REF_MEM_WRITE] Addr=0xbc55cbd5 Data=0xd1
# UVM_INFO ../src/env/axi4_scoreboard.sv(219) @ 1795000: uvm_test_top.env.scb [axi4_scoreboard] [REF_MEM_WRITE] Addr=0xbc55cbd6 Data=0x9d
# UVM_INFO ../src/env/axi4_scoreboard.sv(219) @ 1795000: uvm_test_top.env.scb [axi4_scoreboard] [REF_MEM_WRITE] Addr=0xbc55cbd9 Data=0x42
# UVM_INFO ../src/env/axi4_scoreboard.sv(219) @ 1795000: uvm_test_top.env.scb [axi4_scoreboard] [REF_MEM_WRITE] Addr=0xbc55cbdb Data=0xad
# UVM_INFO ../src/env/axi4_scoreboard.sv(219) @ 1795000: uvm_test_top.env.scb [axi4_scoreboard] [REF_MEM_WRITE] Addr=0xbc55cbde Data=0x9b
# UVM_INFO ../src/env/axi4_scoreboard.sv(219) @ 1795000: uvm_test_top.env.scb [axi4_scoreboard] [REF_MEM_WRITE] Addr=0xbc55cbe0 Data=0x3d
# UVM_INFO ../src/env/axi4_scoreboard.sv(219) @ 1795000: uvm_test_top.env.scb [axi4_scoreboard] [REF_MEM_WRITE] Addr=0xbc55cbe2 Data=0x21
# UVM_INFO ../src/env/axi4_scoreboard.sv(219) @ 1795000: uvm_test_top.env.scb [axi4_scoreboard] [REF_MEM_WRITE] Addr=0xbc55cbe5 Data=0x06
# UVM_INFO ../src/env/axi4_scoreboard.sv(219) @ 1795000: uvm_test_top.env.scb [axi4_scoreboard] [REF_MEM_WRITE] Addr=0xbc55cbe7 Data=0xd4
# UVM_INFO ../src/env/axi4_scoreboard.sv(219) @ 1795000: uvm_test_top.env.scb [axi4_scoreboard] [REF_MEM_WRITE] Addr=0xbc55cbee Data=0x73
# UVM_INFO ../src/env/axi4_scoreboard.sv(219) @ 1795000: uvm_test_top.env.scb [axi4_scoreboard] [REF_MEM_WRITE] Addr=0xbc55cbef Data=0xa4
# UVM_INFO ../src/env/axi4_scoreboard.sv(219) @ 1795000: uvm_test_top.env.scb [axi4_scoreboard] [REF_MEM_WRITE] Addr=0xbc55cbf3 Data=0x88
# UVM_INFO ../src/mst/axi4_master_monitor.sv(184) @ 2085000: uvm_test_top.env.master_agent.mon [axi4_master_monitor] W data assembled: ID=0x6 ADDR=0xd5bf1630 16 beats
# UVM_INFO ../src/slv/axi4_slave_monitor.sv(167) @ 2085000: uvm_test_top.env.slave_agent.mon [axi4_slave_monitor] W data assembled: ID=0x6 ADDR=0xd5bf1630 16 beats
# UVM_INFO ../src/mst/axi4_master_driver.sv(348) @ 2115000: uvm_test_top.env.master_agent.drv [axi4_master_driver] Master driver received all R beats for ID=0x0
# UVM_INFO ../src/mst/axi4_master_driver.sv(289) @ 2115000: uvm_test_top.env.master_agent.drv [axi4_master_driver] Master driver received B response: ID=0x6 RESP=AXI4_RESP_OKAY
# UVM_INFO ../src/slv/axi4_slave_driver.sv(464) @ 2115000: uvm_test_top.env.slave_agent.drv [axi4_slave_driver] Read complete: ID=0x0 ADDR=0xd5bf1630 RESP=AXI4_RESP_OKAY  16 beats sent
# UVM_INFO ../src/slv/axi4_slave_driver.sv(320) @ 2115000: uvm_test_top.env.slave_agent.drv [axi4_slave_driver] Write complete: ID=0x6 RESP=AXI4_RESP_OKAY
# UVM_INFO ../src/slv/axi4_slave_monitor.sv(287) @ 2115000: uvm_test_top.env.slave_agent.mon [axi4_slave_monitor] Read data sent: ID=0x0 ADDR=0xd5bf1630 16 beats
# UVM_INFO ../src/env/axi4_scoreboard.sv(108) @ 2115000: uvm_test_top.env.scb [axi4_scoreboard] Slave AXI4_READ received: ID=0x0 ADDR=0xd5bf1630 LEN=15
# UVM_INFO ../src/slv/axi4_slave_monitor.sv(189) @ 2115000: uvm_test_top.env.slave_agent.mon [axi4_slave_monitor] Write response sent: ID=0x6 ADDR=0xd5bf1630 RESP=AXI4_RESP_OKAY
# UVM_INFO ../src/env/axi4_scoreboard.sv(108) @ 2115000: uvm_test_top.env.scb [axi4_scoreboard] Slave AXI4_WRITE received: ID=0x6 ADDR=0xd5bf1630 LEN=15
# UVM_INFO ../src/mst/axi4_master_monitor.sv(314) @ 2115000: uvm_test_top.env.master_agent.mon [axi4_master_monitor] Read complete: ID=0x0 ADDR=0xd5bf1630 16 beats
# UVM_INFO ../src/env/axi4_scoreboard.sv(87) @ 2115000: uvm_test_top.env.scb [axi4_scoreboard] Master AXI4_READ received: ID=0x0 ADDR=0xd5bf1630 LEN=15
# UVM_INFO ../src/env/axi4_scoreboard.sv(291) @ 2115000: uvm_test_top.env.scb [axi4_scoreboard] [READ] MATCH #15: ID=0x0 ADDR=0xd5bf1630 LEN=15
# UVM_INFO ../src/mst/axi4_master_monitor.sv(210) @ 2115000: uvm_test_top.env.master_agent.mon [axi4_master_monitor] Write complete: ID=0x6 ADDR=0xd5bf1630 RESP=AXI4_RESP_OKAY
# UVM_INFO ../src/env/axi4_scoreboard.sv(87) @ 2115000: uvm_test_top.env.scb [axi4_scoreboard] Master AXI4_WRITE received: ID=0x6 ADDR=0xd5bf1630 LEN=15
# UVM_INFO ../src/env/axi4_scoreboard.sv(291) @ 2115000: uvm_test_top.env.scb [axi4_scoreboard] [WRITE] MATCH #16: ID=0x6 ADDR=0xd5bf1630 LEN=15
# UVM_INFO ../src/env/axi4_scoreboard.sv(226) @ 2115000: uvm_test_top.env.scb [axi4_scoreboard] [REF_MEM_WRITE_IGNORED] Write ignored for ADDR=0xd5bf1630 LOCK=AXI4_LOCK_EXCLUSIVE RESP=AXI4_RESP_OKAY
# UVM_INFO ../src/mst/axi4_master_monitor.sv(184) @ 2385000: uvm_test_top.env.master_agent.mon [axi4_master_monitor] W data assembled: ID=0x9 ADDR=0x02f1415f 15 beats
# UVM_INFO ../src/slv/axi4_slave_monitor.sv(167) @ 2385000: uvm_test_top.env.slave_agent.mon [axi4_slave_monitor] W data assembled: ID=0x9 ADDR=0x02f1415f 15 beats
# UVM_INFO ../src/mst/axi4_master_driver.sv(348) @ 2415000: uvm_test_top.env.master_agent.drv [axi4_master_driver] Master driver received all R beats for ID=0x9
# UVM_INFO ../src/mst/axi4_master_driver.sv(289) @ 2415000: uvm_test_top.env.master_agent.drv [axi4_master_driver] Master driver received B response: ID=0x9 RESP=AXI4_RESP_OKAY
# UVM_INFO ../src/slv/axi4_slave_driver.sv(464) @ 2415000: uvm_test_top.env.slave_agent.drv [axi4_slave_driver] Read complete: ID=0x9 ADDR=0x02f1415f RESP=AXI4_RESP_OKAY  15 beats sent
# UVM_INFO ../src/slv/axi4_slave_driver.sv(320) @ 2415000: uvm_test_top.env.slave_agent.drv [axi4_slave_driver] Write complete: ID=0x9 RESP=AXI4_RESP_OKAY
# UVM_INFO ../src/slv/axi4_slave_monitor.sv(287) @ 2415000: uvm_test_top.env.slave_agent.mon [axi4_slave_monitor] Read data sent: ID=0x9 ADDR=0x02f1415f 15 beats
# UVM_INFO ../src/env/axi4_scoreboard.sv(108) @ 2415000: uvm_test_top.env.scb [axi4_scoreboard] Slave AXI4_READ received: ID=0x9 ADDR=0x02f1415f LEN=14
# UVM_INFO ../src/slv/axi4_slave_monitor.sv(189) @ 2415000: uvm_test_top.env.slave_agent.mon [axi4_slave_monitor] Write response sent: ID=0x9 ADDR=0x02f1415f RESP=AXI4_RESP_OKAY
# UVM_INFO ../src/env/axi4_scoreboard.sv(108) @ 2415000: uvm_test_top.env.scb [axi4_scoreboard] Slave AXI4_WRITE received: ID=0x9 ADDR=0x02f1415f LEN=14
# UVM_INFO ../src/mst/axi4_master_monitor.sv(314) @ 2415000: uvm_test_top.env.master_agent.mon [axi4_master_monitor] Read complete: ID=0x9 ADDR=0x02f1415f 15 beats
# UVM_INFO ../src/env/axi4_scoreboard.sv(87) @ 2415000: uvm_test_top.env.scb [axi4_scoreboard] Master AXI4_READ received: ID=0x9 ADDR=0x02f1415f LEN=14
# UVM_INFO ../src/env/axi4_scoreboard.sv(291) @ 2415000: uvm_test_top.env.scb [axi4_scoreboard] [READ] MATCH #17: ID=0x9 ADDR=0x02f1415f LEN=14
# UVM_INFO ../src/mst/axi4_master_monitor.sv(210) @ 2415000: uvm_test_top.env.master_agent.mon [axi4_master_monitor] Write complete: ID=0x9 ADDR=0x02f1415f RESP=AXI4_RESP_OKAY
# UVM_INFO ../src/env/axi4_scoreboard.sv(87) @ 2415000: uvm_test_top.env.scb [axi4_scoreboard] Master AXI4_WRITE received: ID=0x9 ADDR=0x02f1415f LEN=14
# UVM_INFO ../src/env/axi4_scoreboard.sv(291) @ 2415000: uvm_test_top.env.scb [axi4_scoreboard] [WRITE] MATCH #18: ID=0x9 ADDR=0x02f1415f LEN=14
# UVM_INFO ../src/env/axi4_scoreboard.sv(219) @ 2415000: uvm_test_top.env.scb [axi4_scoreboard] [REF_MEM_WRITE] Addr=0x02f1415f Data=0x11
# UVM_INFO ../src/env/axi4_scoreboard.sv(219) @ 2415000: uvm_test_top.env.scb [axi4_scoreboard] [REF_MEM_WRITE] Addr=0x02f14160 Data=0xcf
# UVM_INFO ../src/env/axi4_scoreboard.sv(219) @ 2415000: uvm_test_top.env.scb [axi4_scoreboard] [REF_MEM_WRITE] Addr=0x02f14163 Data=0x28
# UVM_INFO ../src/env/axi4_scoreboard.sv(219) @ 2415000: uvm_test_top.env.scb [axi4_scoreboard] [REF_MEM_WRITE] Addr=0x02f14165 Data=0xaf
# UVM_INFO ../src/env/axi4_scoreboard.sv(219) @ 2415000: uvm_test_top.env.scb [axi4_scoreboard] [REF_MEM_WRITE] Addr=0x02f14167 Data=0xca
# UVM_INFO ../src/env/axi4_scoreboard.sv(219) @ 2415000: uvm_test_top.env.scb [axi4_scoreboard] [REF_MEM_WRITE] Addr=0x02f14168 Data=0x66
# UVM_INFO ../src/env/axi4_scoreboard.sv(219) @ 2415000: uvm_test_top.env.scb [axi4_scoreboard] [REF_MEM_WRITE] Addr=0x02f14169 Data=0x07
# UVM_INFO ../src/env/axi4_scoreboard.sv(219) @ 2415000: uvm_test_top.env.scb [axi4_scoreboard] [REF_MEM_WRITE] Addr=0x02f1416a Data=0x15
# UVM_INFO ../src/env/axi4_scoreboard.sv(219) @ 2415000: uvm_test_top.env.scb [axi4_scoreboard] [REF_MEM_WRITE] Addr=0x02f1416b Data=0xb6
# UVM_INFO ../src/env/axi4_scoreboard.sv(219) @ 2415000: uvm_test_top.env.scb [axi4_scoreboard] [REF_MEM_WRITE] Addr=0x02f1416d Data=0x72
# UVM_INFO ../src/env/axi4_scoreboard.sv(219) @ 2415000: uvm_test_top.env.scb [axi4_scoreboard] [REF_MEM_WRITE] Addr=0x02f1416e Data=0x7d
# UVM_INFO ../src/env/axi4_scoreboard.sv(219) @ 2415000: uvm_test_top.env.scb [axi4_scoreboard] [REF_MEM_WRITE] Addr=0x02f1416f Data=0x5c
# UVM_INFO ../src/env/axi4_scoreboard.sv(219) @ 2415000: uvm_test_top.env.scb [axi4_scoreboard] [REF_MEM_WRITE] Addr=0x02f14170 Data=0x1e
# UVM_INFO ../src/env/axi4_scoreboard.sv(219) @ 2415000: uvm_test_top.env.scb [axi4_scoreboard] [REF_MEM_WRITE] Addr=0x02f14172 Data=0x76
# UVM_INFO ../src/env/axi4_scoreboard.sv(219) @ 2415000: uvm_test_top.env.scb [axi4_scoreboard] [REF_MEM_WRITE] Addr=0x02f14173 Data=0x16
# UVM_INFO ../src/env/axi4_scoreboard.sv(219) @ 2415000: uvm_test_top.env.scb [axi4_scoreboard] [REF_MEM_WRITE] Addr=0x02f14174 Data=0xa4
# UVM_INFO ../src/env/axi4_scoreboard.sv(219) @ 2415000: uvm_test_top.env.scb [axi4_scoreboard] [REF_MEM_WRITE] Addr=0x02f14176 Data=0x2c
# UVM_INFO ../src/env/axi4_scoreboard.sv(219) @ 2415000: uvm_test_top.env.scb [axi4_scoreboard] [REF_MEM_WRITE] Addr=0x02f14177 Data=0x3d
# UVM_INFO ../src/env/axi4_scoreboard.sv(219) @ 2415000: uvm_test_top.env.scb [axi4_scoreboard] [REF_MEM_WRITE] Addr=0x02f1417b Data=0x70
# UVM_INFO ../src/env/axi4_scoreboard.sv(219) @ 2415000: uvm_test_top.env.scb [axi4_scoreboard] [REF_MEM_WRITE] Addr=0x02f1417c Data=0x5e
# UVM_INFO ../src/env/axi4_scoreboard.sv(219) @ 2415000: uvm_test_top.env.scb [axi4_scoreboard] [REF_MEM_WRITE] Addr=0x02f1417d Data=0xed
# UVM_INFO ../src/env/axi4_scoreboard.sv(219) @ 2415000: uvm_test_top.env.scb [axi4_scoreboard] [REF_MEM_WRITE] Addr=0x02f1417e Data=0x0e
# UVM_INFO ../src/env/axi4_scoreboard.sv(219) @ 2415000: uvm_test_top.env.scb [axi4_scoreboard] [REF_MEM_WRITE] Addr=0x02f1417f Data=0xa7
# UVM_INFO ../src/env/axi4_scoreboard.sv(219) @ 2415000: uvm_test_top.env.scb [axi4_scoreboard] [REF_MEM_WRITE] Addr=0x02f14180 Data=0xf5
# UVM_INFO ../src/env/axi4_scoreboard.sv(219) @ 2415000: uvm_test_top.env.scb [axi4_scoreboard] [REF_MEM_WRITE] Addr=0x02f14181 Data=0x2f
# UVM_INFO ../src/env/axi4_scoreboard.sv(219) @ 2415000: uvm_test_top.env.scb [axi4_scoreboard] [REF_MEM_WRITE] Addr=0x02f14182 Data=0xdd
# UVM_INFO ../src/env/axi4_scoreboard.sv(219) @ 2415000: uvm_test_top.env.scb [axi4_scoreboard] [REF_MEM_WRITE] Addr=0x02f14183 Data=0x24
# UVM_INFO ../src/env/axi4_scoreboard.sv(219) @ 2415000: uvm_test_top.env.scb [axi4_scoreboard] [REF_MEM_WRITE] Addr=0x02f14187 Data=0x65
# UVM_INFO ../src/env/axi4_scoreboard.sv(219) @ 2415000: uvm_test_top.env.scb [axi4_scoreboard] [REF_MEM_WRITE] Addr=0x02f14189 Data=0x85
# UVM_INFO ../src/env/axi4_scoreboard.sv(219) @ 2415000: uvm_test_top.env.scb [axi4_scoreboard] [REF_MEM_WRITE] Addr=0x02f1418a Data=0xfc
# UVM_INFO ../src/env/axi4_scoreboard.sv(219) @ 2415000: uvm_test_top.env.scb [axi4_scoreboard] [REF_MEM_WRITE] Addr=0x02f1418b Data=0x96
# UVM_INFO ../src/env/axi4_scoreboard.sv(219) @ 2415000: uvm_test_top.env.scb [axi4_scoreboard] [REF_MEM_WRITE] Addr=0x02f1418d Data=0x13
# UVM_INFO ../src/env/axi4_scoreboard.sv(219) @ 2415000: uvm_test_top.env.scb [axi4_scoreboard] [REF_MEM_WRITE] Addr=0x02f14191 Data=0x38
# UVM_INFO ../src/env/axi4_scoreboard.sv(219) @ 2415000: uvm_test_top.env.scb [axi4_scoreboard] [REF_MEM_WRITE] Addr=0x02f14192 Data=0x29
# UVM_INFO ../src/env/axi4_scoreboard.sv(219) @ 2415000: uvm_test_top.env.scb [axi4_scoreboard] [REF_MEM_WRITE] Addr=0x02f14193 Data=0x38
# UVM_INFO ../src/mst/axi4_master_monitor.sv(184) @ 2645000: uvm_test_top.env.master_agent.mon [axi4_master_monitor] W data assembled: ID=0xf ADDR=0x7e784809 13 beats
# UVM_INFO ../src/slv/axi4_slave_monitor.sv(167) @ 2645000: uvm_test_top.env.slave_agent.mon [axi4_slave_monitor] W data assembled: ID=0xf ADDR=0x7e784809 13 beats
# UVM_INFO ../src/mst/axi4_master_driver.sv(348) @ 2675000: uvm_test_top.env.master_agent.drv [axi4_master_driver] Master driver received all R beats for ID=0x9
# UVM_INFO ../src/mst/axi4_master_driver.sv(289) @ 2675000: uvm_test_top.env.master_agent.drv [axi4_master_driver] Master driver received B response: ID=0xf RESP=AXI4_RESP_OKAY
# UVM_INFO ../src/slv/axi4_slave_driver.sv(464) @ 2675000: uvm_test_top.env.slave_agent.drv [axi4_slave_driver] Read complete: ID=0x9 ADDR=0x7e784809 RESP=AXI4_RESP_EXOKAY  13 beats sent
# UVM_INFO ../src/slv/axi4_slave_driver.sv(320) @ 2675000: uvm_test_top.env.slave_agent.drv [axi4_slave_driver] Write complete: ID=0xf RESP=AXI4_RESP_OKAY
# UVM_INFO ../src/slv/axi4_slave_monitor.sv(287) @ 2675000: uvm_test_top.env.slave_agent.mon [axi4_slave_monitor] Read data sent: ID=0x9 ADDR=0x7e784809 13 beats
# UVM_INFO ../src/env/axi4_scoreboard.sv(108) @ 2675000: uvm_test_top.env.scb [axi4_scoreboard] Slave AXI4_READ received: ID=0x9 ADDR=0x7e784809 LEN=12
# UVM_INFO ../src/slv/axi4_slave_monitor.sv(189) @ 2675000: uvm_test_top.env.slave_agent.mon [axi4_slave_monitor] Write response sent: ID=0xf ADDR=0x7e784809 RESP=AXI4_RESP_OKAY
# UVM_INFO ../src/env/axi4_scoreboard.sv(108) @ 2675000: uvm_test_top.env.scb [axi4_scoreboard] Slave AXI4_WRITE received: ID=0xf ADDR=0x7e784809 LEN=12
# UVM_INFO ../src/mst/axi4_master_monitor.sv(314) @ 2675000: uvm_test_top.env.master_agent.mon [axi4_master_monitor] Read complete: ID=0x9 ADDR=0x7e784809 13 beats
# UVM_INFO ../src/env/axi4_scoreboard.sv(87) @ 2675000: uvm_test_top.env.scb [axi4_scoreboard] Master AXI4_READ received: ID=0x9 ADDR=0x7e784809 LEN=12
# UVM_INFO ../src/env/axi4_scoreboard.sv(291) @ 2675000: uvm_test_top.env.scb [axi4_scoreboard] [READ] MATCH #19: ID=0x9 ADDR=0x7e784809 LEN=12
# UVM_INFO ../src/mst/axi4_master_monitor.sv(210) @ 2675000: uvm_test_top.env.master_agent.mon [axi4_master_monitor] Write complete: ID=0xf ADDR=0x7e784809 RESP=AXI4_RESP_OKAY
# UVM_INFO ../src/env/axi4_scoreboard.sv(87) @ 2675000: uvm_test_top.env.scb [axi4_scoreboard] Master AXI4_WRITE received: ID=0xf ADDR=0x7e784809 LEN=12
# UVM_INFO ../src/env/axi4_scoreboard.sv(291) @ 2675000: uvm_test_top.env.scb [axi4_scoreboard] [WRITE] MATCH #20: ID=0xf ADDR=0x7e784809 LEN=12
# UVM_INFO ../src/env/axi4_scoreboard.sv(219) @ 2675000: uvm_test_top.env.scb [axi4_scoreboard] [REF_MEM_WRITE] Addr=0x7e784808 Data=0xe2
# UVM_INFO ../src/env/axi4_scoreboard.sv(219) @ 2675000: uvm_test_top.env.scb [axi4_scoreboard] [REF_MEM_WRITE] Addr=0x7e78480a Data=0x5f
# UVM_INFO ../src/env/axi4_scoreboard.sv(219) @ 2675000: uvm_test_top.env.scb [axi4_scoreboard] [REF_MEM_WRITE] Addr=0x7e78480b Data=0x15
# UVM_INFO ../src/env/axi4_scoreboard.sv(219) @ 2675000: uvm_test_top.env.scb [axi4_scoreboard] [REF_MEM_WRITE] Addr=0x7e784810 Data=0xf7
# UVM_INFO ../src/env/axi4_scoreboard.sv(219) @ 2675000: uvm_test_top.env.scb [axi4_scoreboard] [REF_MEM_WRITE] Addr=0x7e784811 Data=0xfe
# UVM_INFO ../src/env/axi4_scoreboard.sv(219) @ 2675000: uvm_test_top.env.scb [axi4_scoreboard] [REF_MEM_WRITE] Addr=0x7e784812 Data=0x5e
# UVM_INFO ../src/env/axi4_scoreboard.sv(219) @ 2675000: uvm_test_top.env.scb [axi4_scoreboard] [REF_MEM_WRITE] Addr=0x7e784814 Data=0x4e
# UVM_INFO ../src/env/axi4_scoreboard.sv(219) @ 2675000: uvm_test_top.env.scb [axi4_scoreboard] [REF_MEM_WRITE] Addr=0x7e784815 Data=0x70
# UVM_INFO ../src/env/axi4_scoreboard.sv(219) @ 2675000: uvm_test_top.env.scb [axi4_scoreboard] [REF_MEM_WRITE] Addr=0x7e784816 Data=0xdf
# UVM_INFO ../src/env/axi4_scoreboard.sv(219) @ 2675000: uvm_test_top.env.scb [axi4_scoreboard] [REF_MEM_WRITE] Addr=0x7e784817 Data=0x16
# UVM_INFO ../src/env/axi4_scoreboard.sv(219) @ 2675000: uvm_test_top.env.scb [axi4_scoreboard] [REF_MEM_WRITE] Addr=0x7e784818 Data=0x0a
# UVM_INFO ../src/env/axi4_scoreboard.sv(219) @ 2675000: uvm_test_top.env.scb [axi4_scoreboard] [REF_MEM_WRITE] Addr=0x7e78481f Data=0xc0
# UVM_INFO ../src/env/axi4_scoreboard.sv(219) @ 2675000: uvm_test_top.env.scb [axi4_scoreboard] [REF_MEM_WRITE] Addr=0x7e784820 Data=0xa0
# UVM_INFO ../src/env/axi4_scoreboard.sv(219) @ 2675000: uvm_test_top.env.scb [axi4_scoreboard] [REF_MEM_WRITE] Addr=0x7e784821 Data=0x7f
# UVM_INFO ../src/env/axi4_scoreboard.sv(219) @ 2675000: uvm_test_top.env.scb [axi4_scoreboard] [REF_MEM_WRITE] Addr=0x7e784822 Data=0x1a
# UVM_INFO ../src/env/axi4_scoreboard.sv(219) @ 2675000: uvm_test_top.env.scb [axi4_scoreboard] [REF_MEM_WRITE] Addr=0x7e784824 Data=0xf3
# UVM_INFO ../src/env/axi4_scoreboard.sv(219) @ 2675000: uvm_test_top.env.scb [axi4_scoreboard] [REF_MEM_WRITE] Addr=0x7e784825 Data=0x04
# UVM_INFO ../src/env/axi4_scoreboard.sv(219) @ 2675000: uvm_test_top.env.scb [axi4_scoreboard] [REF_MEM_WRITE] Addr=0x7e784826 Data=0x68
# UVM_INFO ../src/env/axi4_scoreboard.sv(219) @ 2675000: uvm_test_top.env.scb [axi4_scoreboard] [REF_MEM_WRITE] Addr=0x7e784827 Data=0x66
# UVM_INFO ../src/env/axi4_scoreboard.sv(219) @ 2675000: uvm_test_top.env.scb [axi4_scoreboard] [REF_MEM_WRITE] Addr=0x7e784828 Data=0x98
# UVM_INFO ../src/env/axi4_scoreboard.sv(219) @ 2675000: uvm_test_top.env.scb [axi4_scoreboard] [REF_MEM_WRITE] Addr=0x7e784829 Data=0x28
# UVM_INFO ../src/env/axi4_scoreboard.sv(219) @ 2675000: uvm_test_top.env.scb [axi4_scoreboard] [REF_MEM_WRITE] Addr=0x7e78482a Data=0xdb
# UVM_INFO ../src/env/axi4_scoreboard.sv(219) @ 2675000: uvm_test_top.env.scb [axi4_scoreboard] [REF_MEM_WRITE] Addr=0x7e78482b Data=0x49
# UVM_INFO ../src/env/axi4_scoreboard.sv(219) @ 2675000: uvm_test_top.env.scb [axi4_scoreboard] [REF_MEM_WRITE] Addr=0x7e78482c Data=0xe3
# UVM_INFO ../src/env/axi4_scoreboard.sv(219) @ 2675000: uvm_test_top.env.scb [axi4_scoreboard] [REF_MEM_WRITE] Addr=0x7e78482f Data=0xd5
# UVM_INFO ../src/env/axi4_scoreboard.sv(219) @ 2675000: uvm_test_top.env.scb [axi4_scoreboard] [REF_MEM_WRITE] Addr=0x7e784830 Data=0xed
# UVM_INFO ../src/env/axi4_scoreboard.sv(219) @ 2675000: uvm_test_top.env.scb [axi4_scoreboard] [REF_MEM_WRITE] Addr=0x7e784832 Data=0x02
# UVM_INFO ../src/env/axi4_scoreboard.sv(219) @ 2675000: uvm_test_top.env.scb [axi4_scoreboard] [REF_MEM_WRITE] Addr=0x7e784836 Data=0xa4
# UVM_INFO ../src/env/axi4_scoreboard.sv(219) @ 2675000: uvm_test_top.env.scb [axi4_scoreboard] [REF_MEM_WRITE] Addr=0x7e784837 Data=0x99
# UVM_INFO ../src/env/axi4_scoreboard.sv(219) @ 2675000: uvm_test_top.env.scb [axi4_scoreboard] [REF_MEM_WRITE] Addr=0x7e784839 Data=0x50
# UVM_INFO ../src/env/axi4_scoreboard.sv(219) @ 2675000: uvm_test_top.env.scb [axi4_scoreboard] [REF_MEM_WRITE] Addr=0x7e78483a Data=0x79
# UVM_INFO verilog_src/uvm-1.1d/src/base/uvm_objection.svh(1268) @ 2675000: reporter [TEST_DONE] 'run' phase is ready to proceed to the 'extract' phase
# UVM_INFO ../src/env/axi4_scoreboard.sv(360) @ 2675000: uvm_test_top.env.scb [axi4_scoreboard] 
# ========================================
#          SCOREBOARD SUMMARY
# ========================================
#   Master transactions : 20
#   Slave transactions  : 20
#   Matches             : 20
#   Mismatches          : 0
#   Unmatched master WR : 0
#   Unmatched master RD : 0
#   Unmatched slave  WR : 0
#   Unmatched slave  RD : 0
# ========================================
#   RESULT : PASS
# ========================================
# UVM_INFO ../src/test/axi4_base_test.sv(91) @ 2675000: uvm_test_top [axi4_wr_rd_test] 
# === TEST PASSED ===
# 
# 
# --- UVM Report Summary ---
# 
# ** Report counts by severity
# UVM_INFO :  421
# UVM_WARNING :    0
# UVM_ERROR :    0
# UVM_FATAL :    0
# ** Report counts by id
# [Questa UVM]     3
# [RNTST]     1
# [TB_TOP]     2
# [TEST_DONE]     1
# [TOP_TB]     1
# [UVMTOP]     1
# [axi4_master_agent]     1
# [axi4_master_driver]    41
# [axi4_master_monitor]    51
# [axi4_scoreboard]   188
# [axi4_slave_agent]     1
# [axi4_slave_driver]    41
# [axi4_slave_monitor]    51
# [axi4_vip_env]     5
# [axi4_wr_rd_test]    13
# [axi4_write_read_back_seq]    20
# ** Note: $finish    : /cadtools/mentor/Questa_10.6b/questasim/linux_x86_64/../verilog_src/uvm-1.1d/src/base/uvm_root.svh(430)
#    Time: 2675 ns  Iteration: 59  Instance: /tb_top
# Saving coverage database on exit...
# End time: 12:59:00 on Jun 11,2026, Elapsed time: 0:00:44
# Errors: 0, Warnings: 0
