# vsim -c -coverage -sv_seed 40188881 "+UVM_TESTNAME=axi4_unaligned_test" "+UVM_VERBOSITY=UVM_HIGH" "+DUMP_VCD" -l ./report/logs/axi4_unaligned_test_run_2_seed_40188881.log -do "coverage save -onexit ./report/coverage/axi4_unaligned_test_run_2_seed_40188881.ucdb; run -all; quit -f" opt_tb_top 
# Start time: 11:26:23 on Jun 05,2026
# //  Questa Sim-64
# //  Version 10.6b linux_x86_64 May 25 2017
# //
# //  Copyright 1991-2017 Mentor Graphics Corporation
# //  All Rights Reserved.
# //
# //  QuestaSim and its associated documentation contain trade
# //  secrets and commercial or financial information that are the property of
# //  Mentor Graphics Corporation and are privileged, confidential,
# //  and exempt from disclosure under the Freedom of Information Act,
# //  5 U.S.C. Section 552. Furthermore, this information
# //  is prohibited from disclosure under the Trade Secrets Act,
# //  18 U.S.C. Section 1905.
# //
# Loading sv_std.std
# Loading work.axi4_if(fast)
# Loading mtiUvm.uvm_pkg
# Loading work.axi4_pkg(fast)
# Loading work.axi4_test_pkg(fast)
# Loading work.tb_top(fast)
# Loading work.axi4_if(fast)
# Loading work.axi4_sva(fast)
# Loading mtiUvm.questa_uvm_pkg(fast)
# Loading /cadtools/mentor/Questa_10.6b/questasim/uvm-1.1d/linux_x86_64/uvm_dpi.so
# coverage save -onexit ./report/coverage/axi4_unaligned_test_run_2_seed_40188881.ucdb
#  run -all
# ----------------------------------------------------------------
# UVM-1.1d
# (C) 2007-2013 Mentor Graphics Corporation
# (C) 2007-2013 Cadence Design Systems, Inc.
# (C) 2006-2013 Synopsys, Inc.
# (C) 2011-2013 Cypress Semiconductor Corp.
# ----------------------------------------------------------------
# 
#   ***********       IMPORTANT RELEASE NOTES         ************
# 
#   You are using a version of the UVM library that has been compiled
#   with `UVM_NO_DEPRECATED undefined.
#   See http://www.eda.org/svdb/view.php?id=3313 for more details.
# 
#   You are using a version of the UVM library that has been compiled
#   with `UVM_OBJECT_MUST_HAVE_CONSTRUCTOR undefined.
#   See http://www.eda.org/svdb/view.php?id=3770 for more details.
# 
#       (Specify +UVM_NO_RELNOTES to turn off this notice)
# 
# UVM_INFO verilog_src/questa_uvm_pkg-1.2/src/questa_uvm_pkg.sv(215) @ 0: reporter [Questa UVM] QUESTA_UVM-1.2.3
# UVM_INFO verilog_src/questa_uvm_pkg-1.2/src/questa_uvm_pkg.sv(217) @ 0: reporter [Questa UVM]  questa_uvm::init(+struct)
# UVM_INFO ../src/tb_top.sv(128) @ 0: reporter [TB_TOP] Virtual interface set in config_db
# UVM_INFO @ 0: reporter [RNTST] Running test axi4_unaligned_test...
# UVM_INFO ../src/tb_top.sv(142) @ 0: reporter [TB_TOP] Waveform VCD dumping enabled (axi4_vip.vcd)
# UVM_INFO ../src/env/axi4_vip_env.sv(83) @ 0: uvm_test_top.env [axi4_vip_env] slave_vif not set - reusing master_vif (passthrough mode)
# UVM_INFO ../src/env/axi4_vip_env.sv(93) @ 0: uvm_test_top.env [axi4_vip_env] Scoreboard created
# UVM_INFO ../src/env/axi4_vip_env.sv(100) @ 0: uvm_test_top.env [axi4_vip_env] Coverage collectors created
# UVM_INFO ../src/mst/axi4_master_agent.sv(69) @ 0: uvm_test_top.env.master_agent [axi4_master_agent] ACTIVE mode - driver + sequencer created
# UVM_INFO ../src/slv/axi4_slave_agent.sv(82) @ 0: uvm_test_top.env.slave_agent [axi4_slave_agent] ACTIVE mode — ready_delay=[0:0] resp_delay=[0:0]
# UVM_INFO ../src/env/axi4_vip_env.sv(116) @ 0: uvm_test_top.env [axi4_vip_env] Scoreboard connected: master_mon.ap -> scb, slave_mon.ap -> scb
# UVM_INFO ../src/env/axi4_vip_env.sv(124) @ 0: uvm_test_top.env [axi4_vip_env] Coverage connected: master_mon.ap -> master_cov, slave_mon.ap -> slave_cov
# UVM_INFO @ 0: reporter [UVMTOP] UVM testbench topology:
# ---------------------------------------------------------------
# Name                       Type                     Size  Value
# ---------------------------------------------------------------
# uvm_test_top               axi4_unaligned_test      -     @473 
#   env                      axi4_vip_env             -     @488 
#     master_agent           axi4_master_agent        -     @503 
#       drv                  axi4_master_driver       -     @567 
#         rsp_port           uvm_analysis_port        -     @582 
#         seq_item_port      uvm_seq_item_pull_port   -     @574 
#       mon                  axi4_master_monitor      -     @559 
#         ap                 uvm_analysis_port        -     @700 
#       sqr                  axi4_master_sequencer    -     @590 
#         rsp_export         uvm_analysis_export      -     @597 
#         seq_item_export    uvm_seq_item_pull_imp    -     @691 
#         arbitration_queue  array                    0     -    
#         lock_queue         array                    0     -    
#         num_last_reqs      integral                 32    'd1  
#         num_last_rsps      integral                 32    'd1  
#     master_cov             axi4_coverage            -     @524 
#       analysis_imp         uvm_analysis_imp         -     @531 
#     scb                    axi4_scoreboard          -     @517 
#       master_export        uvm_analysis_imp_master  -     @714 
#       slave_export         uvm_analysis_imp_slave   -     @722 
#     slave_agent            axi4_slave_agent         -     @510 
#       drv                  axi4_slave_driver        -     @753 
#         rsp_port           uvm_analysis_port        -     @768 
#         seq_item_port      uvm_seq_item_pull_port   -     @760 
#       mon                  axi4_slave_monitor       -     @735 
#         ap                 uvm_analysis_port        -     @890 
#       sqr                  axi4_slave_sequencer     -     @776 
#         rsp_export         uvm_analysis_export      -     @783 
#         seq_item_export    uvm_seq_item_pull_imp    -     @877 
#         arbitration_queue  array                    0     -    
#         lock_queue         array                    0     -    
#         num_last_reqs      integral                 32    'd1  
#         num_last_rsps      integral                 32    'd1  
#     slave_cov              axi4_coverage            -     @539 
#       analysis_imp         uvm_analysis_imp         -     @546 
# ---------------------------------------------------------------
# 
# UVM_INFO verilog_src/questa_uvm_pkg-1.2/src/questa_uvm_pkg.sv(277) @ 0: reporter [Questa UVM] End Of Elaboration
# UVM_INFO ../src/test/axi4_unaligned_test.sv(24) @ 0: uvm_test_top [axi4_unaligned_test] Starting unaligned access test
# UVM_INFO ../src/seq/axi4_unaligned_seq.sv(25) @ 0: uvm_test_top.env.master_agent.sqr@@unalign_seq [axi4_unaligned_seq] Starting unaligned access sequence: 40 transactions
# UVM_INFO ../src/tb_top.sv(49) @ 95000: reporter [TOP_TB] Reset de-asserted
# UVM_INFO ../src/slv/axi4_slave_driver.sv(70) @ 95000: uvm_test_top.env.slave_agent.drv [axi4_slave_driver] Reset deasserted - slave driver active
# UVM_INFO ../src/mst/axi4_master_driver.sv(46) @ 95000: uvm_test_top.env.master_agent.drv [axi4_master_driver] Reset deasserted - master driver active
# UVM_INFO ../src/mst/axi4_master_monitor.sv(77) @ 95000: uvm_test_top.env.master_agent.mon [axi4_master_monitor] Reset deasserted — monitor active
# UVM_INFO ../src/slv/axi4_slave_monitor.sv(71) @ 95000: uvm_test_top.env.slave_agent.mon [axi4_slave_monitor] Reset deasserted — monitor active
# UVM_INFO ../src/mst/axi4_master_driver.sv(55) @ 95000: uvm_test_top.env.master_agent.drv [axi4_master_driver] Driving AXI4_WRITE  ID=0x3  ADDR=0x84300605  LEN=62
# UVM_INFO ../src/mst/axi4_master_driver.sv(106) @ 95000: uvm_test_top.env.master_agent.drv [axi4_master_driver] Write order: W -> AW (W first)
# UVM_INFO ../src/slv/axi4_slave_driver.sv(165) @ 135000: uvm_test_top.env.slave_agent.drv [axi4_slave_driver] AW received: ID=0x3 ADDR=0x84300605 LEN=62 LOCK=AXI4_LOCK_EXCLUSIVE
# UVM_INFO ../src/slv/axi4_slave_monitor.sv(116) @ 135000: uvm_test_top.env.slave_agent.mon [axi4_slave_monitor] AW received: ID=0x3 ADDR=0x84300605 LEN=62
# UVM_INFO ../src/mst/axi4_master_monitor.sv(124) @ 135000: uvm_test_top.env.master_agent.mon [axi4_master_monitor] AW observed: ID=0x3 ADDR=0x84300605 LEN=62
# UVM_INFO ../src/mst/axi4_master_monitor.sv(184) @ 1345000: uvm_test_top.env.master_agent.mon [axi4_master_monitor] W data assembled: ID=0x3 ADDR=0x84300605 63 beats
# UVM_INFO ../src/slv/axi4_slave_monitor.sv(167) @ 1345000: uvm_test_top.env.slave_agent.mon [axi4_slave_monitor] W data assembled: ID=0x3 ADDR=0x84300605 63 beats
# UVM_INFO ../src/mst/axi4_master_driver.sv(197) @ 1375000: uvm_test_top.env.master_agent.drv [axi4_master_driver] Write response: AXI4_RESP_OKAY
# UVM_INFO ../src/slv/axi4_slave_driver.sv(261) @ 1375000: uvm_test_top.env.slave_agent.drv [axi4_slave_driver] Write complete: ID=0x3 ADDR=0x84300605 RESP=AXI4_RESP_OKAY  63 beats processed
# UVM_INFO ../src/slv/axi4_slave_monitor.sv(189) @ 1375000: uvm_test_top.env.slave_agent.mon [axi4_slave_monitor] Write response sent: ID=0x3 ADDR=0x84300605 RESP=AXI4_RESP_OKAY
# UVM_INFO ../src/env/axi4_scoreboard.sv(103) @ 1375000: uvm_test_top.env.scb [axi4_scoreboard] Slave AXI4_WRITE received: ID=0x3 ADDR=0x84300605 LEN=62
# UVM_INFO ../src/mst/axi4_master_monitor.sv(210) @ 1375000: uvm_test_top.env.master_agent.mon [axi4_master_monitor] Write complete: ID=0x3 ADDR=0x84300605 RESP=AXI4_RESP_OKAY
# UVM_INFO ../src/env/axi4_scoreboard.sv(82) @ 1375000: uvm_test_top.env.scb [axi4_scoreboard] Master AXI4_WRITE received: ID=0x3 ADDR=0x84300605 LEN=62
# UVM_INFO ../src/env/axi4_scoreboard.sv(154) @ 1375000: uvm_test_top.env.scb [axi4_scoreboard] [WRITE] MATCH #1: ID=0x3 ADDR=0x84300605 LEN=62
# UVM_INFO ../src/seq/axi4_unaligned_seq.sv(51) @ 1375000: uvm_test_top.env.master_agent.sqr@@unalign_seq [axi4_unaligned_seq] [1/40] Unaligned AXI4_WRITE: ADDR=0x84300605 SIZE=AXI4_SIZE_2B BURST=AXI4_BURST_INCR (AlignmentOffset=1)
# UVM_INFO ../src/mst/axi4_master_driver.sv(55) @ 1375000: uvm_test_top.env.master_agent.drv [axi4_master_driver] Driving AXI4_WRITE  ID=0xc  ADDR=0x363459f2  LEN=2
# UVM_INFO ../src/mst/axi4_master_driver.sv(101) @ 1375000: uvm_test_top.env.master_agent.drv [axi4_master_driver] Write order: AW -> W (sequential)
# UVM_INFO ../src/slv/axi4_slave_driver.sv(165) @ 1405000: uvm_test_top.env.slave_agent.drv [axi4_slave_driver] AW received: ID=0xc ADDR=0x363459f2 LEN=2 LOCK=AXI4_LOCK_EXCLUSIVE
# UVM_INFO ../src/mst/axi4_master_monitor.sv(124) @ 1405000: uvm_test_top.env.master_agent.mon [axi4_master_monitor] AW observed: ID=0xc ADDR=0x363459f2 LEN=2
# UVM_INFO ../src/slv/axi4_slave_monitor.sv(116) @ 1405000: uvm_test_top.env.slave_agent.mon [axi4_slave_monitor] AW received: ID=0xc ADDR=0x363459f2 LEN=2
# UVM_INFO ../src/mst/axi4_master_monitor.sv(184) @ 1465000: uvm_test_top.env.master_agent.mon [axi4_master_monitor] W data assembled: ID=0xc ADDR=0x363459f2 3 beats
# UVM_INFO ../src/slv/axi4_slave_monitor.sv(167) @ 1465000: uvm_test_top.env.slave_agent.mon [axi4_slave_monitor] W data assembled: ID=0xc ADDR=0x363459f2 3 beats
# UVM_INFO ../src/mst/axi4_master_driver.sv(197) @ 1495000: uvm_test_top.env.master_agent.drv [axi4_master_driver] Write response: AXI4_RESP_OKAY
# UVM_INFO ../src/slv/axi4_slave_driver.sv(261) @ 1495000: uvm_test_top.env.slave_agent.drv [axi4_slave_driver] Write complete: ID=0xc ADDR=0x363459f2 RESP=AXI4_RESP_OKAY  3 beats processed
# UVM_INFO ../src/slv/axi4_slave_monitor.sv(189) @ 1495000: uvm_test_top.env.slave_agent.mon [axi4_slave_monitor] Write response sent: ID=0xc ADDR=0x363459f2 RESP=AXI4_RESP_OKAY
# UVM_INFO ../src/env/axi4_scoreboard.sv(103) @ 1495000: uvm_test_top.env.scb [axi4_scoreboard] Slave AXI4_WRITE received: ID=0xc ADDR=0x363459f2 LEN=2
# UVM_INFO ../src/mst/axi4_master_monitor.sv(210) @ 1495000: uvm_test_top.env.master_agent.mon [axi4_master_monitor] Write complete: ID=0xc ADDR=0x363459f2 RESP=AXI4_RESP_OKAY
# UVM_INFO ../src/env/axi4_scoreboard.sv(82) @ 1495000: uvm_test_top.env.scb [axi4_scoreboard] Master AXI4_WRITE received: ID=0xc ADDR=0x363459f2 LEN=2
# UVM_INFO ../src/env/axi4_scoreboard.sv(154) @ 1495000: uvm_test_top.env.scb [axi4_scoreboard] [WRITE] MATCH #2: ID=0xc ADDR=0x363459f2 LEN=2
# UVM_INFO ../src/seq/axi4_unaligned_seq.sv(51) @ 1495000: uvm_test_top.env.master_agent.sqr@@unalign_seq [axi4_unaligned_seq] [2/40] Unaligned AXI4_WRITE: ADDR=0x363459f2 SIZE=AXI4_SIZE_4B BURST=AXI4_BURST_FIXED (AlignmentOffset=2)
# UVM_INFO ../src/mst/axi4_master_driver.sv(55) @ 1495000: uvm_test_top.env.master_agent.drv [axi4_master_driver] Driving AXI4_WRITE  ID=0xe  ADDR=0x6cd1620b  LEN=197
# UVM_INFO ../src/mst/axi4_master_driver.sv(101) @ 1495000: uvm_test_top.env.master_agent.drv [axi4_master_driver] Write order: AW -> W (sequential)
# UVM_INFO ../src/slv/axi4_slave_driver.sv(165) @ 1525000: uvm_test_top.env.slave_agent.drv [axi4_slave_driver] AW received: ID=0xe ADDR=0x6cd1620b LEN=197 LOCK=AXI4_LOCK_NORMAL
# UVM_INFO ../src/mst/axi4_master_monitor.sv(124) @ 1525000: uvm_test_top.env.master_agent.mon [axi4_master_monitor] AW observed: ID=0xe ADDR=0x6cd1620b LEN=197
# UVM_INFO ../src/slv/axi4_slave_monitor.sv(116) @ 1525000: uvm_test_top.env.slave_agent.mon [axi4_slave_monitor] AW received: ID=0xe ADDR=0x6cd1620b LEN=197
# UVM_INFO ../src/mst/axi4_master_monitor.sv(184) @ 5485000: uvm_test_top.env.master_agent.mon [axi4_master_monitor] W data assembled: ID=0xe ADDR=0x6cd1620b 198 beats
# UVM_INFO ../src/slv/axi4_slave_monitor.sv(167) @ 5485000: uvm_test_top.env.slave_agent.mon [axi4_slave_monitor] W data assembled: ID=0xe ADDR=0x6cd1620b 198 beats
# UVM_INFO ../src/mst/axi4_master_driver.sv(197) @ 5515000: uvm_test_top.env.master_agent.drv [axi4_master_driver] Write response: AXI4_RESP_OKAY
# UVM_INFO ../src/slv/axi4_slave_driver.sv(261) @ 5515000: uvm_test_top.env.slave_agent.drv [axi4_slave_driver] Write complete: ID=0xe ADDR=0x6cd1620b RESP=AXI4_RESP_OKAY  198 beats processed
# UVM_INFO ../src/slv/axi4_slave_monitor.sv(189) @ 5515000: uvm_test_top.env.slave_agent.mon [axi4_slave_monitor] Write response sent: ID=0xe ADDR=0x6cd1620b RESP=AXI4_RESP_OKAY
# UVM_INFO ../src/env/axi4_scoreboard.sv(103) @ 5515000: uvm_test_top.env.scb [axi4_scoreboard] Slave AXI4_WRITE received: ID=0xe ADDR=0x6cd1620b LEN=197
# UVM_INFO ../src/mst/axi4_master_monitor.sv(210) @ 5515000: uvm_test_top.env.master_agent.mon [axi4_master_monitor] Write complete: ID=0xe ADDR=0x6cd1620b RESP=AXI4_RESP_OKAY
# UVM_INFO ../src/env/axi4_scoreboard.sv(82) @ 5515000: uvm_test_top.env.scb [axi4_scoreboard] Master AXI4_WRITE received: ID=0xe ADDR=0x6cd1620b LEN=197
# UVM_INFO ../src/env/axi4_scoreboard.sv(154) @ 5515000: uvm_test_top.env.scb [axi4_scoreboard] [WRITE] MATCH #3: ID=0xe ADDR=0x6cd1620b LEN=197
# UVM_INFO ../src/seq/axi4_unaligned_seq.sv(51) @ 5515000: uvm_test_top.env.master_agent.sqr@@unalign_seq [axi4_unaligned_seq] [3/40] Unaligned AXI4_WRITE: ADDR=0x6cd1620b SIZE=AXI4_SIZE_4B BURST=AXI4_BURST_INCR (AlignmentOffset=3)
# UVM_INFO ../src/mst/axi4_master_driver.sv(55) @ 5515000: uvm_test_top.env.master_agent.drv [axi4_master_driver] Driving AXI4_WRITE  ID=0x0  ADDR=0xbae840cf  LEN=183
# UVM_INFO ../src/mst/axi4_master_driver.sv(94) @ 5515000: uvm_test_top.env.master_agent.drv [axi4_master_driver] Write order: AW || W (parallel)
# UVM_INFO ../src/slv/axi4_slave_driver.sv(165) @ 5545000: uvm_test_top.env.slave_agent.drv [axi4_slave_driver] AW received: ID=0x0 ADDR=0xbae840cf LEN=183 LOCK=AXI4_LOCK_EXCLUSIVE
# UVM_INFO ../src/mst/axi4_master_monitor.sv(124) @ 5545000: uvm_test_top.env.master_agent.mon [axi4_master_monitor] AW observed: ID=0x0 ADDR=0xbae840cf LEN=183
# UVM_INFO ../src/slv/axi4_slave_monitor.sv(116) @ 5545000: uvm_test_top.env.slave_agent.mon [axi4_slave_monitor] AW received: ID=0x0 ADDR=0xbae840cf LEN=183
# UVM_INFO ../src/slv/axi4_slave_monitor.sv(167) @ 9195000: uvm_test_top.env.slave_agent.mon [axi4_slave_monitor] W data assembled: ID=0x0 ADDR=0xbae840cf 184 beats
# UVM_INFO ../src/mst/axi4_master_monitor.sv(184) @ 9195000: uvm_test_top.env.master_agent.mon [axi4_master_monitor] W data assembled: ID=0x0 ADDR=0xbae840cf 184 beats
# UVM_INFO ../src/mst/axi4_master_driver.sv(197) @ 9225000: uvm_test_top.env.master_agent.drv [axi4_master_driver] Write response: AXI4_RESP_OKAY
# UVM_INFO ../src/slv/axi4_slave_driver.sv(261) @ 9225000: uvm_test_top.env.slave_agent.drv [axi4_slave_driver] Write complete: ID=0x0 ADDR=0xbae840cf RESP=AXI4_RESP_OKAY  184 beats processed
# UVM_INFO ../src/mst/axi4_master_monitor.sv(210) @ 9225000: uvm_test_top.env.master_agent.mon [axi4_master_monitor] Write complete: ID=0x0 ADDR=0xbae840cf RESP=AXI4_RESP_OKAY
# UVM_INFO ../src/env/axi4_scoreboard.sv(82) @ 9225000: uvm_test_top.env.scb [axi4_scoreboard] Master AXI4_WRITE received: ID=0x0 ADDR=0xbae840cf LEN=183
# UVM_INFO ../src/slv/axi4_slave_monitor.sv(189) @ 9225000: uvm_test_top.env.slave_agent.mon [axi4_slave_monitor] Write response sent: ID=0x0 ADDR=0xbae840cf RESP=AXI4_RESP_OKAY
# UVM_INFO ../src/env/axi4_scoreboard.sv(103) @ 9225000: uvm_test_top.env.scb [axi4_scoreboard] Slave AXI4_WRITE received: ID=0x0 ADDR=0xbae840cf LEN=183
# UVM_INFO ../src/env/axi4_scoreboard.sv(154) @ 9225000: uvm_test_top.env.scb [axi4_scoreboard] [WRITE] MATCH #4: ID=0x0 ADDR=0xbae840cf LEN=183
# UVM_INFO ../src/seq/axi4_unaligned_seq.sv(51) @ 9225000: uvm_test_top.env.master_agent.sqr@@unalign_seq [axi4_unaligned_seq] [4/40] Unaligned AXI4_WRITE: ADDR=0xbae840cf SIZE=AXI4_SIZE_4B BURST=AXI4_BURST_INCR (AlignmentOffset=3)
# UVM_INFO ../src/mst/axi4_master_driver.sv(55) @ 9225000: uvm_test_top.env.master_agent.drv [axi4_master_driver] Driving AXI4_READ  ID=0x1  ADDR=0x421db2b6  LEN=2
# UVM_INFO ../src/slv/axi4_slave_driver.sv(300) @ 9255000: uvm_test_top.env.slave_agent.drv [axi4_slave_driver] AR received: ID=0x1 ADDR=0x421db2b6 LEN=2 LOCK=AXI4_LOCK_EXCLUSIVE
# UVM_INFO ../src/slv/axi4_slave_monitor.sv(224) @ 9255000: uvm_test_top.env.slave_agent.mon [axi4_slave_monitor] AR received: ID=0x1 ADDR=0x421db2b6 LEN=2
# UVM_INFO ../src/mst/axi4_master_monitor.sv(246) @ 9255000: uvm_test_top.env.master_agent.mon [axi4_master_monitor] AR observed: ID=0x1 ADDR=0x421db2b6 LEN=2
# UVM_INFO ../src/mst/axi4_master_driver.sv(254) @ 9315000: uvm_test_top.env.master_agent.drv [axi4_master_driver] Read complete: 3 beats received
# UVM_INFO ../src/slv/axi4_slave_driver.sv(349) @ 9315000: uvm_test_top.env.slave_agent.drv [axi4_slave_driver] Read complete: ID=0x1 ADDR=0x421db2b6 RESP=AXI4_RESP_EXOKAY  3 beats sent
# UVM_INFO ../src/slv/axi4_slave_monitor.sv(287) @ 9315000: uvm_test_top.env.slave_agent.mon [axi4_slave_monitor] Read data sent: ID=0x1 ADDR=0x421db2b6 3 beats
# UVM_INFO ../src/env/axi4_scoreboard.sv(103) @ 9315000: uvm_test_top.env.scb [axi4_scoreboard] Slave AXI4_READ received: ID=0x1 ADDR=0x421db2b6 LEN=2
# UVM_INFO ../src/mst/axi4_master_monitor.sv(314) @ 9315000: uvm_test_top.env.master_agent.mon [axi4_master_monitor] Read complete: ID=0x1 ADDR=0x421db2b6 3 beats
# UVM_INFO ../src/env/axi4_scoreboard.sv(82) @ 9315000: uvm_test_top.env.scb [axi4_scoreboard] Master AXI4_READ received: ID=0x1 ADDR=0x421db2b6 LEN=2
# UVM_INFO ../src/env/axi4_scoreboard.sv(154) @ 9315000: uvm_test_top.env.scb [axi4_scoreboard] [READ] MATCH #5: ID=0x1 ADDR=0x421db2b6 LEN=2
# UVM_INFO ../src/seq/axi4_unaligned_seq.sv(51) @ 9315000: uvm_test_top.env.master_agent.sqr@@unalign_seq [axi4_unaligned_seq] [5/40] Unaligned AXI4_READ: ADDR=0x421db2b6 SIZE=AXI4_SIZE_4B BURST=AXI4_BURST_FIXED (AlignmentOffset=2)
# UVM_INFO ../src/mst/axi4_master_driver.sv(55) @ 9315000: uvm_test_top.env.master_agent.drv [axi4_master_driver] Driving AXI4_WRITE  ID=0xa  ADDR=0x6af10a0e  LEN=91
# UVM_INFO ../src/mst/axi4_master_driver.sv(94) @ 9315000: uvm_test_top.env.master_agent.drv [axi4_master_driver] Write order: AW || W (parallel)
# UVM_INFO ../src/slv/axi4_slave_driver.sv(165) @ 9345000: uvm_test_top.env.slave_agent.drv [axi4_slave_driver] AW received: ID=0xa ADDR=0x6af10a0e LEN=91 LOCK=AXI4_LOCK_NORMAL
# UVM_INFO ../src/mst/axi4_master_monitor.sv(124) @ 9345000: uvm_test_top.env.master_agent.mon [axi4_master_monitor] AW observed: ID=0xa ADDR=0x6af10a0e LEN=91
# UVM_INFO ../src/slv/axi4_slave_monitor.sv(116) @ 9345000: uvm_test_top.env.slave_agent.mon [axi4_slave_monitor] AW received: ID=0xa ADDR=0x6af10a0e LEN=91
# UVM_INFO ../src/slv/axi4_slave_monitor.sv(167) @ 11155000: uvm_test_top.env.slave_agent.mon [axi4_slave_monitor] W data assembled: ID=0xa ADDR=0x6af10a0e 92 beats
# UVM_INFO ../src/mst/axi4_master_monitor.sv(184) @ 11155000: uvm_test_top.env.master_agent.mon [axi4_master_monitor] W data assembled: ID=0xa ADDR=0x6af10a0e 92 beats
# UVM_INFO ../src/mst/axi4_master_driver.sv(197) @ 11185000: uvm_test_top.env.master_agent.drv [axi4_master_driver] Write response: AXI4_RESP_OKAY
# UVM_INFO ../src/slv/axi4_slave_driver.sv(261) @ 11185000: uvm_test_top.env.slave_agent.drv [axi4_slave_driver] Write complete: ID=0xa ADDR=0x6af10a0e RESP=AXI4_RESP_OKAY  92 beats processed
# UVM_INFO ../src/mst/axi4_master_monitor.sv(210) @ 11185000: uvm_test_top.env.master_agent.mon [axi4_master_monitor] Write complete: ID=0xa ADDR=0x6af10a0e RESP=AXI4_RESP_OKAY
# UVM_INFO ../src/env/axi4_scoreboard.sv(82) @ 11185000: uvm_test_top.env.scb [axi4_scoreboard] Master AXI4_WRITE received: ID=0xa ADDR=0x6af10a0e LEN=91
# UVM_INFO ../src/slv/axi4_slave_monitor.sv(189) @ 11185000: uvm_test_top.env.slave_agent.mon [axi4_slave_monitor] Write response sent: ID=0xa ADDR=0x6af10a0e RESP=AXI4_RESP_OKAY
# UVM_INFO ../src/env/axi4_scoreboard.sv(103) @ 11185000: uvm_test_top.env.scb [axi4_scoreboard] Slave AXI4_WRITE received: ID=0xa ADDR=0x6af10a0e LEN=91
# UVM_INFO ../src/env/axi4_scoreboard.sv(154) @ 11185000: uvm_test_top.env.scb [axi4_scoreboard] [WRITE] MATCH #6: ID=0xa ADDR=0x6af10a0e LEN=91
# UVM_INFO ../src/seq/axi4_unaligned_seq.sv(51) @ 11185000: uvm_test_top.env.master_agent.sqr@@unalign_seq [axi4_unaligned_seq] [6/40] Unaligned AXI4_WRITE: ADDR=0x6af10a0e SIZE=AXI4_SIZE_4B BURST=AXI4_BURST_INCR (AlignmentOffset=2)
# UVM_INFO ../src/mst/axi4_master_driver.sv(55) @ 11185000: uvm_test_top.env.master_agent.drv [axi4_master_driver] Driving AXI4_READ  ID=0x1  ADDR=0x8b13ab4b  LEN=14
# UVM_INFO ../src/slv/axi4_slave_driver.sv(300) @ 11215000: uvm_test_top.env.slave_agent.drv [axi4_slave_driver] AR received: ID=0x1 ADDR=0x8b13ab4b LEN=14 LOCK=AXI4_LOCK_EXCLUSIVE
# UVM_INFO ../src/slv/axi4_slave_monitor.sv(224) @ 11215000: uvm_test_top.env.slave_agent.mon [axi4_slave_monitor] AR received: ID=0x1 ADDR=0x8b13ab4b LEN=14
# UVM_INFO ../src/mst/axi4_master_monitor.sv(246) @ 11215000: uvm_test_top.env.master_agent.mon [axi4_master_monitor] AR observed: ID=0x1 ADDR=0x8b13ab4b LEN=14
# UVM_INFO ../src/mst/axi4_master_driver.sv(254) @ 11515000: uvm_test_top.env.master_agent.drv [axi4_master_driver] Read complete: 15 beats received
# UVM_INFO ../src/slv/axi4_slave_driver.sv(349) @ 11515000: uvm_test_top.env.slave_agent.drv [axi4_slave_driver] Read complete: ID=0x1 ADDR=0x8b13ab4b RESP=AXI4_RESP_EXOKAY  15 beats sent
# UVM_INFO ../src/slv/axi4_slave_monitor.sv(287) @ 11515000: uvm_test_top.env.slave_agent.mon [axi4_slave_monitor] Read data sent: ID=0x1 ADDR=0x8b13ab4b 15 beats
# UVM_INFO ../src/env/axi4_scoreboard.sv(103) @ 11515000: uvm_test_top.env.scb [axi4_scoreboard] Slave AXI4_READ received: ID=0x1 ADDR=0x8b13ab4b LEN=14
# UVM_INFO ../src/mst/axi4_master_monitor.sv(314) @ 11515000: uvm_test_top.env.master_agent.mon [axi4_master_monitor] Read complete: ID=0x1 ADDR=0x8b13ab4b 15 beats
# UVM_INFO ../src/env/axi4_scoreboard.sv(82) @ 11515000: uvm_test_top.env.scb [axi4_scoreboard] Master AXI4_READ received: ID=0x1 ADDR=0x8b13ab4b LEN=14
# UVM_INFO ../src/env/axi4_scoreboard.sv(154) @ 11515000: uvm_test_top.env.scb [axi4_scoreboard] [READ] MATCH #7: ID=0x1 ADDR=0x8b13ab4b LEN=14
# UVM_INFO ../src/seq/axi4_unaligned_seq.sv(51) @ 11515000: uvm_test_top.env.master_agent.sqr@@unalign_seq [axi4_unaligned_seq] [7/40] Unaligned AXI4_READ: ADDR=0x8b13ab4b SIZE=AXI4_SIZE_4B BURST=AXI4_BURST_FIXED (AlignmentOffset=3)
# UVM_INFO ../src/mst/axi4_master_driver.sv(55) @ 11515000: uvm_test_top.env.master_agent.drv [axi4_master_driver] Driving AXI4_WRITE  ID=0xc  ADDR=0x59c5bcad  LEN=7
# UVM_INFO ../src/mst/axi4_master_driver.sv(94) @ 11515000: uvm_test_top.env.master_agent.drv [axi4_master_driver] Write order: AW || W (parallel)
# UVM_INFO ../src/slv/axi4_slave_driver.sv(165) @ 11545000: uvm_test_top.env.slave_agent.drv [axi4_slave_driver] AW received: ID=0xc ADDR=0x59c5bcad LEN=7 LOCK=AXI4_LOCK_NORMAL
# UVM_INFO ../src/mst/axi4_master_monitor.sv(124) @ 11545000: uvm_test_top.env.master_agent.mon [axi4_master_monitor] AW observed: ID=0xc ADDR=0x59c5bcad LEN=7
# UVM_INFO ../src/slv/axi4_slave_monitor.sv(116) @ 11545000: uvm_test_top.env.slave_agent.mon [axi4_slave_monitor] AW received: ID=0xc ADDR=0x59c5bcad LEN=7
# UVM_INFO ../src/slv/axi4_slave_monitor.sv(167) @ 11675000: uvm_test_top.env.slave_agent.mon [axi4_slave_monitor] W data assembled: ID=0xc ADDR=0x59c5bcad 8 beats
# UVM_INFO ../src/mst/axi4_master_monitor.sv(184) @ 11675000: uvm_test_top.env.master_agent.mon [axi4_master_monitor] W data assembled: ID=0xc ADDR=0x59c5bcad 8 beats
# UVM_INFO ../src/mst/axi4_master_driver.sv(197) @ 11705000: uvm_test_top.env.master_agent.drv [axi4_master_driver] Write response: AXI4_RESP_OKAY
# UVM_INFO ../src/slv/axi4_slave_driver.sv(261) @ 11705000: uvm_test_top.env.slave_agent.drv [axi4_slave_driver] Write complete: ID=0xc ADDR=0x59c5bcad RESP=AXI4_RESP_OKAY  8 beats processed
# UVM_INFO ../src/mst/axi4_master_monitor.sv(210) @ 11705000: uvm_test_top.env.master_agent.mon [axi4_master_monitor] Write complete: ID=0xc ADDR=0x59c5bcad RESP=AXI4_RESP_OKAY
# UVM_INFO ../src/env/axi4_scoreboard.sv(82) @ 11705000: uvm_test_top.env.scb [axi4_scoreboard] Master AXI4_WRITE received: ID=0xc ADDR=0x59c5bcad LEN=7
# UVM_INFO ../src/slv/axi4_slave_monitor.sv(189) @ 11705000: uvm_test_top.env.slave_agent.mon [axi4_slave_monitor] Write response sent: ID=0xc ADDR=0x59c5bcad RESP=AXI4_RESP_OKAY
# UVM_INFO ../src/env/axi4_scoreboard.sv(103) @ 11705000: uvm_test_top.env.scb [axi4_scoreboard] Slave AXI4_WRITE received: ID=0xc ADDR=0x59c5bcad LEN=7
# UVM_INFO ../src/env/axi4_scoreboard.sv(154) @ 11705000: uvm_test_top.env.scb [axi4_scoreboard] [WRITE] MATCH #8: ID=0xc ADDR=0x59c5bcad LEN=7
# UVM_INFO ../src/seq/axi4_unaligned_seq.sv(51) @ 11705000: uvm_test_top.env.master_agent.sqr@@unalign_seq [axi4_unaligned_seq] [8/40] Unaligned AXI4_WRITE: ADDR=0x59c5bcad SIZE=AXI4_SIZE_2B BURST=AXI4_BURST_INCR (AlignmentOffset=1)
# UVM_INFO ../src/mst/axi4_master_driver.sv(55) @ 11705000: uvm_test_top.env.master_agent.drv [axi4_master_driver] Driving AXI4_READ  ID=0xd  ADDR=0x1099097d  LEN=250
# UVM_INFO ../src/slv/axi4_slave_driver.sv(300) @ 11735000: uvm_test_top.env.slave_agent.drv [axi4_slave_driver] AR received: ID=0xd ADDR=0x1099097d LEN=250 LOCK=AXI4_LOCK_NORMAL
# UVM_INFO ../src/slv/axi4_slave_monitor.sv(224) @ 11735000: uvm_test_top.env.slave_agent.mon [axi4_slave_monitor] AR received: ID=0xd ADDR=0x1099097d LEN=250
# UVM_INFO ../src/mst/axi4_master_monitor.sv(246) @ 11735000: uvm_test_top.env.master_agent.mon [axi4_master_monitor] AR observed: ID=0xd ADDR=0x1099097d LEN=250
# UVM_INFO ../src/mst/axi4_master_driver.sv(254) @ 16755000: uvm_test_top.env.master_agent.drv [axi4_master_driver] Read complete: 251 beats received
# UVM_INFO ../src/slv/axi4_slave_driver.sv(349) @ 16755000: uvm_test_top.env.slave_agent.drv [axi4_slave_driver] Read complete: ID=0xd ADDR=0x1099097d RESP=AXI4_RESP_OKAY  251 beats sent
# UVM_INFO ../src/slv/axi4_slave_monitor.sv(287) @ 16755000: uvm_test_top.env.slave_agent.mon [axi4_slave_monitor] Read data sent: ID=0xd ADDR=0x1099097d 251 beats
# UVM_INFO ../src/env/axi4_scoreboard.sv(103) @ 16755000: uvm_test_top.env.scb [axi4_scoreboard] Slave AXI4_READ received: ID=0xd ADDR=0x1099097d LEN=250
# UVM_INFO ../src/mst/axi4_master_monitor.sv(314) @ 16755000: uvm_test_top.env.master_agent.mon [axi4_master_monitor] Read complete: ID=0xd ADDR=0x1099097d 251 beats
# UVM_INFO ../src/env/axi4_scoreboard.sv(82) @ 16755000: uvm_test_top.env.scb [axi4_scoreboard] Master AXI4_READ received: ID=0xd ADDR=0x1099097d LEN=250
# UVM_INFO ../src/env/axi4_scoreboard.sv(154) @ 16755000: uvm_test_top.env.scb [axi4_scoreboard] [READ] MATCH #9: ID=0xd ADDR=0x1099097d LEN=250
# UVM_INFO ../src/seq/axi4_unaligned_seq.sv(51) @ 16755000: uvm_test_top.env.master_agent.sqr@@unalign_seq [axi4_unaligned_seq] [9/40] Unaligned AXI4_READ: ADDR=0x1099097d SIZE=AXI4_SIZE_4B BURST=AXI4_BURST_INCR (AlignmentOffset=1)
# UVM_INFO ../src/mst/axi4_master_driver.sv(55) @ 16755000: uvm_test_top.env.master_agent.drv [axi4_master_driver] Driving AXI4_WRITE  ID=0x0  ADDR=0x3c844ff3  LEN=1
# UVM_INFO ../src/mst/axi4_master_driver.sv(94) @ 16755000: uvm_test_top.env.master_agent.drv [axi4_master_driver] Write order: AW || W (parallel)
# UVM_INFO ../src/slv/axi4_slave_driver.sv(165) @ 16785000: uvm_test_top.env.slave_agent.drv [axi4_slave_driver] AW received: ID=0x0 ADDR=0x3c844ff3 LEN=1 LOCK=AXI4_LOCK_NORMAL
# UVM_INFO ../src/mst/axi4_master_monitor.sv(124) @ 16785000: uvm_test_top.env.master_agent.mon [axi4_master_monitor] AW observed: ID=0x0 ADDR=0x3c844ff3 LEN=1
# UVM_INFO ../src/slv/axi4_slave_monitor.sv(116) @ 16785000: uvm_test_top.env.slave_agent.mon [axi4_slave_monitor] AW received: ID=0x0 ADDR=0x3c844ff3 LEN=1
# UVM_INFO ../src/slv/axi4_slave_monitor.sv(167) @ 16795000: uvm_test_top.env.slave_agent.mon [axi4_slave_monitor] W data assembled: ID=0x0 ADDR=0x3c844ff3 2 beats
# UVM_INFO ../src/mst/axi4_master_monitor.sv(184) @ 16795000: uvm_test_top.env.master_agent.mon [axi4_master_monitor] W data assembled: ID=0x0 ADDR=0x3c844ff3 2 beats
# UVM_INFO ../src/mst/axi4_master_driver.sv(197) @ 16825000: uvm_test_top.env.master_agent.drv [axi4_master_driver] Write response: AXI4_RESP_OKAY
# UVM_INFO ../src/slv/axi4_slave_driver.sv(261) @ 16825000: uvm_test_top.env.slave_agent.drv [axi4_slave_driver] Write complete: ID=0x0 ADDR=0x3c844ff3 RESP=AXI4_RESP_OKAY  2 beats processed
# UVM_INFO ../src/mst/axi4_master_monitor.sv(210) @ 16825000: uvm_test_top.env.master_agent.mon [axi4_master_monitor] Write complete: ID=0x0 ADDR=0x3c844ff3 RESP=AXI4_RESP_OKAY
# UVM_INFO ../src/env/axi4_scoreboard.sv(82) @ 16825000: uvm_test_top.env.scb [axi4_scoreboard] Master AXI4_WRITE received: ID=0x0 ADDR=0x3c844ff3 LEN=1
# UVM_INFO ../src/slv/axi4_slave_monitor.sv(189) @ 16825000: uvm_test_top.env.slave_agent.mon [axi4_slave_monitor] Write response sent: ID=0x0 ADDR=0x3c844ff3 RESP=AXI4_RESP_OKAY
# UVM_INFO ../src/env/axi4_scoreboard.sv(103) @ 16825000: uvm_test_top.env.scb [axi4_scoreboard] Slave AXI4_WRITE received: ID=0x0 ADDR=0x3c844ff3 LEN=1
# UVM_INFO ../src/env/axi4_scoreboard.sv(154) @ 16825000: uvm_test_top.env.scb [axi4_scoreboard] [WRITE] MATCH #10: ID=0x0 ADDR=0x3c844ff3 LEN=1
# UVM_INFO ../src/seq/axi4_unaligned_seq.sv(51) @ 16825000: uvm_test_top.env.master_agent.sqr@@unalign_seq [axi4_unaligned_seq] [10/40] Unaligned AXI4_WRITE: ADDR=0x3c844ff3 SIZE=AXI4_SIZE_2B BURST=AXI4_BURST_FIXED (AlignmentOffset=1)
# UVM_INFO ../src/mst/axi4_master_driver.sv(55) @ 16825000: uvm_test_top.env.master_agent.drv [axi4_master_driver] Driving AXI4_READ  ID=0x0  ADDR=0x636b4bb2  LEN=107
# UVM_INFO ../src/slv/axi4_slave_driver.sv(300) @ 16855000: uvm_test_top.env.slave_agent.drv [axi4_slave_driver] AR received: ID=0x0 ADDR=0x636b4bb2 LEN=107 LOCK=AXI4_LOCK_EXCLUSIVE
# UVM_INFO ../src/slv/axi4_slave_monitor.sv(224) @ 16855000: uvm_test_top.env.slave_agent.mon [axi4_slave_monitor] AR received: ID=0x0 ADDR=0x636b4bb2 LEN=107
# UVM_INFO ../src/mst/axi4_master_monitor.sv(246) @ 16855000: uvm_test_top.env.master_agent.mon [axi4_master_monitor] AR observed: ID=0x0 ADDR=0x636b4bb2 LEN=107
# UVM_INFO ../src/mst/axi4_master_driver.sv(254) @ 19015000: uvm_test_top.env.master_agent.drv [axi4_master_driver] Read complete: 108 beats received
# UVM_INFO ../src/slv/axi4_slave_driver.sv(349) @ 19015000: uvm_test_top.env.slave_agent.drv [axi4_slave_driver] Read complete: ID=0x0 ADDR=0x636b4bb2 RESP=AXI4_RESP_EXOKAY  108 beats sent
# UVM_INFO ../src/slv/axi4_slave_monitor.sv(287) @ 19015000: uvm_test_top.env.slave_agent.mon [axi4_slave_monitor] Read data sent: ID=0x0 ADDR=0x636b4bb2 108 beats
# UVM_INFO ../src/env/axi4_scoreboard.sv(103) @ 19015000: uvm_test_top.env.scb [axi4_scoreboard] Slave AXI4_READ received: ID=0x0 ADDR=0x636b4bb2 LEN=107
# UVM_INFO ../src/mst/axi4_master_monitor.sv(314) @ 19015000: uvm_test_top.env.master_agent.mon [axi4_master_monitor] Read complete: ID=0x0 ADDR=0x636b4bb2 108 beats
# UVM_INFO ../src/env/axi4_scoreboard.sv(82) @ 19015000: uvm_test_top.env.scb [axi4_scoreboard] Master AXI4_READ received: ID=0x0 ADDR=0x636b4bb2 LEN=107
# UVM_INFO ../src/env/axi4_scoreboard.sv(154) @ 19015000: uvm_test_top.env.scb [axi4_scoreboard] [READ] MATCH #11: ID=0x0 ADDR=0x636b4bb2 LEN=107
# UVM_INFO ../src/seq/axi4_unaligned_seq.sv(51) @ 19015000: uvm_test_top.env.master_agent.sqr@@unalign_seq [axi4_unaligned_seq] [11/40] Unaligned AXI4_READ: ADDR=0x636b4bb2 SIZE=AXI4_SIZE_4B BURST=AXI4_BURST_INCR (AlignmentOffset=2)
# UVM_INFO ../src/mst/axi4_master_driver.sv(55) @ 19015000: uvm_test_top.env.master_agent.drv [axi4_master_driver] Driving AXI4_READ  ID=0x8  ADDR=0xca3e31dd  LEN=67
# UVM_INFO ../src/slv/axi4_slave_driver.sv(300) @ 19045000: uvm_test_top.env.slave_agent.drv [axi4_slave_driver] AR received: ID=0x8 ADDR=0xca3e31dd LEN=67 LOCK=AXI4_LOCK_NORMAL
# UVM_INFO ../src/mst/axi4_master_monitor.sv(246) @ 19045000: uvm_test_top.env.master_agent.mon [axi4_master_monitor] AR observed: ID=0x8 ADDR=0xca3e31dd LEN=67
# UVM_INFO ../src/slv/axi4_slave_monitor.sv(224) @ 19045000: uvm_test_top.env.slave_agent.mon [axi4_slave_monitor] AR received: ID=0x8 ADDR=0xca3e31dd LEN=67
# UVM_INFO ../src/mst/axi4_master_driver.sv(254) @ 20405000: uvm_test_top.env.master_agent.drv [axi4_master_driver] Read complete: 68 beats received
# UVM_INFO ../src/slv/axi4_slave_driver.sv(349) @ 20405000: uvm_test_top.env.slave_agent.drv [axi4_slave_driver] Read complete: ID=0x8 ADDR=0xca3e31dd RESP=AXI4_RESP_OKAY  68 beats sent
# UVM_INFO ../src/mst/axi4_master_monitor.sv(314) @ 20405000: uvm_test_top.env.master_agent.mon [axi4_master_monitor] Read complete: ID=0x8 ADDR=0xca3e31dd 68 beats
# UVM_INFO ../src/env/axi4_scoreboard.sv(82) @ 20405000: uvm_test_top.env.scb [axi4_scoreboard] Master AXI4_READ received: ID=0x8 ADDR=0xca3e31dd LEN=67
# UVM_INFO ../src/slv/axi4_slave_monitor.sv(287) @ 20405000: uvm_test_top.env.slave_agent.mon [axi4_slave_monitor] Read data sent: ID=0x8 ADDR=0xca3e31dd 68 beats
# UVM_INFO ../src/env/axi4_scoreboard.sv(103) @ 20405000: uvm_test_top.env.scb [axi4_scoreboard] Slave AXI4_READ received: ID=0x8 ADDR=0xca3e31dd LEN=67
# UVM_INFO ../src/env/axi4_scoreboard.sv(154) @ 20405000: uvm_test_top.env.scb [axi4_scoreboard] [READ] MATCH #12: ID=0x8 ADDR=0xca3e31dd LEN=67
# UVM_INFO ../src/seq/axi4_unaligned_seq.sv(51) @ 20405000: uvm_test_top.env.master_agent.sqr@@unalign_seq [axi4_unaligned_seq] [12/40] Unaligned AXI4_READ: ADDR=0xca3e31dd SIZE=AXI4_SIZE_2B BURST=AXI4_BURST_INCR (AlignmentOffset=1)
# UVM_INFO ../src/mst/axi4_master_driver.sv(55) @ 20405000: uvm_test_top.env.master_agent.drv [axi4_master_driver] Driving AXI4_READ  ID=0x7  ADDR=0x4edefd42  LEN=202
# UVM_INFO ../src/slv/axi4_slave_driver.sv(300) @ 20435000: uvm_test_top.env.slave_agent.drv [axi4_slave_driver] AR received: ID=0x7 ADDR=0x4edefd42 LEN=202 LOCK=AXI4_LOCK_EXCLUSIVE
# UVM_INFO ../src/slv/axi4_slave_monitor.sv(224) @ 20435000: uvm_test_top.env.slave_agent.mon [axi4_slave_monitor] AR received: ID=0x7 ADDR=0x4edefd42 LEN=202
# UVM_INFO ../src/mst/axi4_master_monitor.sv(246) @ 20435000: uvm_test_top.env.master_agent.mon [axi4_master_monitor] AR observed: ID=0x7 ADDR=0x4edefd42 LEN=202
# UVM_INFO ../src/mst/axi4_master_driver.sv(254) @ 24495000: uvm_test_top.env.master_agent.drv [axi4_master_driver] Read complete: 203 beats received
# UVM_INFO ../src/slv/axi4_slave_driver.sv(349) @ 24495000: uvm_test_top.env.slave_agent.drv [axi4_slave_driver] Read complete: ID=0x7 ADDR=0x4edefd42 RESP=AXI4_RESP_EXOKAY  203 beats sent
# UVM_INFO ../src/slv/axi4_slave_monitor.sv(287) @ 24495000: uvm_test_top.env.slave_agent.mon [axi4_slave_monitor] Read data sent: ID=0x7 ADDR=0x4edefd42 203 beats
# UVM_INFO ../src/env/axi4_scoreboard.sv(103) @ 24495000: uvm_test_top.env.scb [axi4_scoreboard] Slave AXI4_READ received: ID=0x7 ADDR=0x4edefd42 LEN=202
# UVM_INFO ../src/mst/axi4_master_monitor.sv(314) @ 24495000: uvm_test_top.env.master_agent.mon [axi4_master_monitor] Read complete: ID=0x7 ADDR=0x4edefd42 203 beats
# UVM_INFO ../src/env/axi4_scoreboard.sv(82) @ 24495000: uvm_test_top.env.scb [axi4_scoreboard] Master AXI4_READ received: ID=0x7 ADDR=0x4edefd42 LEN=202
# UVM_INFO ../src/env/axi4_scoreboard.sv(154) @ 24495000: uvm_test_top.env.scb [axi4_scoreboard] [READ] MATCH #13: ID=0x7 ADDR=0x4edefd42 LEN=202
# UVM_INFO ../src/seq/axi4_unaligned_seq.sv(51) @ 24495000: uvm_test_top.env.master_agent.sqr@@unalign_seq [axi4_unaligned_seq] [13/40] Unaligned AXI4_READ: ADDR=0x4edefd42 SIZE=AXI4_SIZE_4B BURST=AXI4_BURST_INCR (AlignmentOffset=2)
# UVM_INFO ../src/mst/axi4_master_driver.sv(55) @ 24495000: uvm_test_top.env.master_agent.drv [axi4_master_driver] Driving AXI4_WRITE  ID=0xc  ADDR=0xccf9513f  LEN=189
# UVM_INFO ../src/mst/axi4_master_driver.sv(101) @ 24495000: uvm_test_top.env.master_agent.drv [axi4_master_driver] Write order: AW -> W (sequential)
# UVM_INFO ../src/slv/axi4_slave_driver.sv(165) @ 24525000: uvm_test_top.env.slave_agent.drv [axi4_slave_driver] AW received: ID=0xc ADDR=0xccf9513f LEN=189 LOCK=AXI4_LOCK_EXCLUSIVE
# UVM_INFO ../src/mst/axi4_master_monitor.sv(124) @ 24525000: uvm_test_top.env.master_agent.mon [axi4_master_monitor] AW observed: ID=0xc ADDR=0xccf9513f LEN=189
# UVM_INFO ../src/slv/axi4_slave_monitor.sv(116) @ 24525000: uvm_test_top.env.slave_agent.mon [axi4_slave_monitor] AW received: ID=0xc ADDR=0xccf9513f LEN=189
# UVM_INFO ../src/mst/axi4_master_monitor.sv(184) @ 28325000: uvm_test_top.env.master_agent.mon [axi4_master_monitor] W data assembled: ID=0xc ADDR=0xccf9513f 190 beats
# UVM_INFO ../src/slv/axi4_slave_monitor.sv(167) @ 28325000: uvm_test_top.env.slave_agent.mon [axi4_slave_monitor] W data assembled: ID=0xc ADDR=0xccf9513f 190 beats
# UVM_INFO ../src/mst/axi4_master_driver.sv(197) @ 28355000: uvm_test_top.env.master_agent.drv [axi4_master_driver] Write response: AXI4_RESP_OKAY
# UVM_INFO ../src/slv/axi4_slave_driver.sv(261) @ 28355000: uvm_test_top.env.slave_agent.drv [axi4_slave_driver] Write complete: ID=0xc ADDR=0xccf9513f RESP=AXI4_RESP_OKAY  190 beats processed
# UVM_INFO ../src/slv/axi4_slave_monitor.sv(189) @ 28355000: uvm_test_top.env.slave_agent.mon [axi4_slave_monitor] Write response sent: ID=0xc ADDR=0xccf9513f RESP=AXI4_RESP_OKAY
# UVM_INFO ../src/env/axi4_scoreboard.sv(103) @ 28355000: uvm_test_top.env.scb [axi4_scoreboard] Slave AXI4_WRITE received: ID=0xc ADDR=0xccf9513f LEN=189
# UVM_INFO ../src/mst/axi4_master_monitor.sv(210) @ 28355000: uvm_test_top.env.master_agent.mon [axi4_master_monitor] Write complete: ID=0xc ADDR=0xccf9513f RESP=AXI4_RESP_OKAY
# UVM_INFO ../src/env/axi4_scoreboard.sv(82) @ 28355000: uvm_test_top.env.scb [axi4_scoreboard] Master AXI4_WRITE received: ID=0xc ADDR=0xccf9513f LEN=189
# UVM_INFO ../src/env/axi4_scoreboard.sv(154) @ 28355000: uvm_test_top.env.scb [axi4_scoreboard] [WRITE] MATCH #14: ID=0xc ADDR=0xccf9513f LEN=189
# UVM_INFO ../src/seq/axi4_unaligned_seq.sv(51) @ 28355000: uvm_test_top.env.master_agent.sqr@@unalign_seq [axi4_unaligned_seq] [14/40] Unaligned AXI4_WRITE: ADDR=0xccf9513f SIZE=AXI4_SIZE_4B BURST=AXI4_BURST_INCR (AlignmentOffset=3)
# UVM_INFO ../src/mst/axi4_master_driver.sv(55) @ 28355000: uvm_test_top.env.master_agent.drv [axi4_master_driver] Driving AXI4_READ  ID=0x1  ADDR=0x01e950c2  LEN=109
# UVM_INFO ../src/slv/axi4_slave_driver.sv(300) @ 28385000: uvm_test_top.env.slave_agent.drv [axi4_slave_driver] AR received: ID=0x1 ADDR=0x01e950c2 LEN=109 LOCK=AXI4_LOCK_NORMAL
# UVM_INFO ../src/mst/axi4_master_monitor.sv(246) @ 28385000: uvm_test_top.env.master_agent.mon [axi4_master_monitor] AR observed: ID=0x1 ADDR=0x01e950c2 LEN=109
# UVM_INFO ../src/slv/axi4_slave_monitor.sv(224) @ 28385000: uvm_test_top.env.slave_agent.mon [axi4_slave_monitor] AR received: ID=0x1 ADDR=0x01e950c2 LEN=109
# UVM_INFO ../src/mst/axi4_master_driver.sv(254) @ 30585000: uvm_test_top.env.master_agent.drv [axi4_master_driver] Read complete: 110 beats received
# UVM_INFO ../src/slv/axi4_slave_driver.sv(349) @ 30585000: uvm_test_top.env.slave_agent.drv [axi4_slave_driver] Read complete: ID=0x1 ADDR=0x01e950c2 RESP=AXI4_RESP_OKAY  110 beats sent
# UVM_INFO ../src/mst/axi4_master_monitor.sv(314) @ 30585000: uvm_test_top.env.master_agent.mon [axi4_master_monitor] Read complete: ID=0x1 ADDR=0x01e950c2 110 beats
# UVM_INFO ../src/env/axi4_scoreboard.sv(82) @ 30585000: uvm_test_top.env.scb [axi4_scoreboard] Master AXI4_READ received: ID=0x1 ADDR=0x01e950c2 LEN=109
# UVM_INFO ../src/slv/axi4_slave_monitor.sv(287) @ 30585000: uvm_test_top.env.slave_agent.mon [axi4_slave_monitor] Read data sent: ID=0x1 ADDR=0x01e950c2 110 beats
# UVM_INFO ../src/env/axi4_scoreboard.sv(103) @ 30585000: uvm_test_top.env.scb [axi4_scoreboard] Slave AXI4_READ received: ID=0x1 ADDR=0x01e950c2 LEN=109
# UVM_INFO ../src/env/axi4_scoreboard.sv(154) @ 30585000: uvm_test_top.env.scb [axi4_scoreboard] [READ] MATCH #15: ID=0x1 ADDR=0x01e950c2 LEN=109
# UVM_INFO ../src/seq/axi4_unaligned_seq.sv(51) @ 30585000: uvm_test_top.env.master_agent.sqr@@unalign_seq [axi4_unaligned_seq] [15/40] Unaligned AXI4_READ: ADDR=0x01e950c2 SIZE=AXI4_SIZE_4B BURST=AXI4_BURST_INCR (AlignmentOffset=2)
# UVM_INFO ../src/mst/axi4_master_driver.sv(55) @ 30585000: uvm_test_top.env.master_agent.drv [axi4_master_driver] Driving AXI4_WRITE  ID=0x2  ADDR=0xbe0745a1  LEN=97
# UVM_INFO ../src/mst/axi4_master_driver.sv(94) @ 30585000: uvm_test_top.env.master_agent.drv [axi4_master_driver] Write order: AW || W (parallel)
# UVM_INFO ../src/slv/axi4_slave_driver.sv(165) @ 30615000: uvm_test_top.env.slave_agent.drv [axi4_slave_driver] AW received: ID=0x2 ADDR=0xbe0745a1 LEN=97 LOCK=AXI4_LOCK_EXCLUSIVE
# UVM_INFO ../src/slv/axi4_slave_monitor.sv(116) @ 30615000: uvm_test_top.env.slave_agent.mon [axi4_slave_monitor] AW received: ID=0x2 ADDR=0xbe0745a1 LEN=97
# UVM_INFO ../src/mst/axi4_master_monitor.sv(124) @ 30615000: uvm_test_top.env.master_agent.mon [axi4_master_monitor] AW observed: ID=0x2 ADDR=0xbe0745a1 LEN=97
# UVM_INFO ../src/mst/axi4_master_monitor.sv(184) @ 32545000: uvm_test_top.env.master_agent.mon [axi4_master_monitor] W data assembled: ID=0x2 ADDR=0xbe0745a1 98 beats
# UVM_INFO ../src/slv/axi4_slave_monitor.sv(167) @ 32545000: uvm_test_top.env.slave_agent.mon [axi4_slave_monitor] W data assembled: ID=0x2 ADDR=0xbe0745a1 98 beats
# UVM_INFO ../src/mst/axi4_master_driver.sv(197) @ 32575000: uvm_test_top.env.master_agent.drv [axi4_master_driver] Write response: AXI4_RESP_OKAY
# UVM_INFO ../src/slv/axi4_slave_driver.sv(261) @ 32575000: uvm_test_top.env.slave_agent.drv [axi4_slave_driver] Write complete: ID=0x2 ADDR=0xbe0745a1 RESP=AXI4_RESP_OKAY  98 beats processed
# UVM_INFO ../src/slv/axi4_slave_monitor.sv(189) @ 32575000: uvm_test_top.env.slave_agent.mon [axi4_slave_monitor] Write response sent: ID=0x2 ADDR=0xbe0745a1 RESP=AXI4_RESP_OKAY
# UVM_INFO ../src/env/axi4_scoreboard.sv(103) @ 32575000: uvm_test_top.env.scb [axi4_scoreboard] Slave AXI4_WRITE received: ID=0x2 ADDR=0xbe0745a1 LEN=97
# UVM_INFO ../src/mst/axi4_master_monitor.sv(210) @ 32575000: uvm_test_top.env.master_agent.mon [axi4_master_monitor] Write complete: ID=0x2 ADDR=0xbe0745a1 RESP=AXI4_RESP_OKAY
# UVM_INFO ../src/env/axi4_scoreboard.sv(82) @ 32575000: uvm_test_top.env.scb [axi4_scoreboard] Master AXI4_WRITE received: ID=0x2 ADDR=0xbe0745a1 LEN=97
# UVM_INFO ../src/env/axi4_scoreboard.sv(154) @ 32575000: uvm_test_top.env.scb [axi4_scoreboard] [WRITE] MATCH #16: ID=0x2 ADDR=0xbe0745a1 LEN=97
# UVM_INFO ../src/seq/axi4_unaligned_seq.sv(51) @ 32575000: uvm_test_top.env.master_agent.sqr@@unalign_seq [axi4_unaligned_seq] [16/40] Unaligned AXI4_WRITE: ADDR=0xbe0745a1 SIZE=AXI4_SIZE_2B BURST=AXI4_BURST_INCR (AlignmentOffset=1)
# UVM_INFO ../src/mst/axi4_master_driver.sv(55) @ 32575000: uvm_test_top.env.master_agent.drv [axi4_master_driver] Driving AXI4_WRITE  ID=0x2  ADDR=0x9a548a86  LEN=234
# UVM_INFO ../src/mst/axi4_master_driver.sv(94) @ 32575000: uvm_test_top.env.master_agent.drv [axi4_master_driver] Write order: AW || W (parallel)
# UVM_INFO ../src/slv/axi4_slave_driver.sv(165) @ 32605000: uvm_test_top.env.slave_agent.drv [axi4_slave_driver] AW received: ID=0x2 ADDR=0x9a548a86 LEN=234 LOCK=AXI4_LOCK_NORMAL
# UVM_INFO ../src/mst/axi4_master_monitor.sv(124) @ 32605000: uvm_test_top.env.master_agent.mon [axi4_master_monitor] AW observed: ID=0x2 ADDR=0x9a548a86 LEN=234
# UVM_INFO ../src/slv/axi4_slave_monitor.sv(116) @ 32605000: uvm_test_top.env.slave_agent.mon [axi4_slave_monitor] AW received: ID=0x2 ADDR=0x9a548a86 LEN=234
# UVM_INFO ../src/slv/axi4_slave_monitor.sv(167) @ 37275000: uvm_test_top.env.slave_agent.mon [axi4_slave_monitor] W data assembled: ID=0x2 ADDR=0x9a548a86 235 beats
# UVM_INFO ../src/mst/axi4_master_monitor.sv(184) @ 37275000: uvm_test_top.env.master_agent.mon [axi4_master_monitor] W data assembled: ID=0x2 ADDR=0x9a548a86 235 beats
# UVM_INFO ../src/mst/axi4_master_driver.sv(197) @ 37305000: uvm_test_top.env.master_agent.drv [axi4_master_driver] Write response: AXI4_RESP_OKAY
# UVM_INFO ../src/slv/axi4_slave_driver.sv(261) @ 37305000: uvm_test_top.env.slave_agent.drv [axi4_slave_driver] Write complete: ID=0x2 ADDR=0x9a548a86 RESP=AXI4_RESP_OKAY  235 beats processed
# UVM_INFO ../src/mst/axi4_master_monitor.sv(210) @ 37305000: uvm_test_top.env.master_agent.mon [axi4_master_monitor] Write complete: ID=0x2 ADDR=0x9a548a86 RESP=AXI4_RESP_OKAY
# UVM_INFO ../src/env/axi4_scoreboard.sv(82) @ 37305000: uvm_test_top.env.scb [axi4_scoreboard] Master AXI4_WRITE received: ID=0x2 ADDR=0x9a548a86 LEN=234
# UVM_INFO ../src/slv/axi4_slave_monitor.sv(189) @ 37305000: uvm_test_top.env.slave_agent.mon [axi4_slave_monitor] Write response sent: ID=0x2 ADDR=0x9a548a86 RESP=AXI4_RESP_OKAY
# UVM_INFO ../src/env/axi4_scoreboard.sv(103) @ 37305000: uvm_test_top.env.scb [axi4_scoreboard] Slave AXI4_WRITE received: ID=0x2 ADDR=0x9a548a86 LEN=234
# UVM_INFO ../src/env/axi4_scoreboard.sv(154) @ 37305000: uvm_test_top.env.scb [axi4_scoreboard] [WRITE] MATCH #17: ID=0x2 ADDR=0x9a548a86 LEN=234
# UVM_INFO ../src/seq/axi4_unaligned_seq.sv(51) @ 37305000: uvm_test_top.env.master_agent.sqr@@unalign_seq [axi4_unaligned_seq] [17/40] Unaligned AXI4_WRITE: ADDR=0x9a548a86 SIZE=AXI4_SIZE_4B BURST=AXI4_BURST_INCR (AlignmentOffset=2)
# UVM_INFO ../src/mst/axi4_master_driver.sv(55) @ 37305000: uvm_test_top.env.master_agent.drv [axi4_master_driver] Driving AXI4_READ  ID=0xc  ADDR=0x0ec57732  LEN=56
# UVM_INFO ../src/slv/axi4_slave_driver.sv(300) @ 37335000: uvm_test_top.env.slave_agent.drv [axi4_slave_driver] AR received: ID=0xc ADDR=0x0ec57732 LEN=56 LOCK=AXI4_LOCK_NORMAL
# UVM_INFO ../src/slv/axi4_slave_monitor.sv(224) @ 37335000: uvm_test_top.env.slave_agent.mon [axi4_slave_monitor] AR received: ID=0xc ADDR=0x0ec57732 LEN=56
# UVM_INFO ../src/mst/axi4_master_monitor.sv(246) @ 37335000: uvm_test_top.env.master_agent.mon [axi4_master_monitor] AR observed: ID=0xc ADDR=0x0ec57732 LEN=56
# UVM_INFO ../src/mst/axi4_master_driver.sv(254) @ 38475000: uvm_test_top.env.master_agent.drv [axi4_master_driver] Read complete: 57 beats received
# UVM_INFO ../src/slv/axi4_slave_driver.sv(349) @ 38475000: uvm_test_top.env.slave_agent.drv [axi4_slave_driver] Read complete: ID=0xc ADDR=0x0ec57732 RESP=AXI4_RESP_OKAY  57 beats sent
# UVM_INFO ../src/slv/axi4_slave_monitor.sv(287) @ 38475000: uvm_test_top.env.slave_agent.mon [axi4_slave_monitor] Read data sent: ID=0xc ADDR=0x0ec57732 57 beats
# UVM_INFO ../src/env/axi4_scoreboard.sv(103) @ 38475000: uvm_test_top.env.scb [axi4_scoreboard] Slave AXI4_READ received: ID=0xc ADDR=0x0ec57732 LEN=56
# UVM_INFO ../src/mst/axi4_master_monitor.sv(314) @ 38475000: uvm_test_top.env.master_agent.mon [axi4_master_monitor] Read complete: ID=0xc ADDR=0x0ec57732 57 beats
# UVM_INFO ../src/env/axi4_scoreboard.sv(82) @ 38475000: uvm_test_top.env.scb [axi4_scoreboard] Master AXI4_READ received: ID=0xc ADDR=0x0ec57732 LEN=56
# UVM_INFO ../src/env/axi4_scoreboard.sv(154) @ 38475000: uvm_test_top.env.scb [axi4_scoreboard] [READ] MATCH #18: ID=0xc ADDR=0x0ec57732 LEN=56
# UVM_INFO ../src/seq/axi4_unaligned_seq.sv(51) @ 38475000: uvm_test_top.env.master_agent.sqr@@unalign_seq [axi4_unaligned_seq] [18/40] Unaligned AXI4_READ: ADDR=0x0ec57732 SIZE=AXI4_SIZE_4B BURST=AXI4_BURST_INCR (AlignmentOffset=2)
# UVM_INFO ../src/mst/axi4_master_driver.sv(55) @ 38475000: uvm_test_top.env.master_agent.drv [axi4_master_driver] Driving AXI4_WRITE  ID=0x9  ADDR=0x947bdacd  LEN=210
# UVM_INFO ../src/mst/axi4_master_driver.sv(106) @ 38475000: uvm_test_top.env.master_agent.drv [axi4_master_driver] Write order: W -> AW (W first)
# UVM_INFO ../src/slv/axi4_slave_driver.sv(165) @ 38555000: uvm_test_top.env.slave_agent.drv [axi4_slave_driver] AW received: ID=0x9 ADDR=0x947bdacd LEN=210 LOCK=AXI4_LOCK_NORMAL
# UVM_INFO ../src/slv/axi4_slave_monitor.sv(116) @ 38555000: uvm_test_top.env.slave_agent.mon [axi4_slave_monitor] AW received: ID=0x9 ADDR=0x947bdacd LEN=210
# UVM_INFO ../src/mst/axi4_master_monitor.sv(124) @ 38555000: uvm_test_top.env.master_agent.mon [axi4_master_monitor] AW observed: ID=0x9 ADDR=0x947bdacd LEN=210
# UVM_INFO ../src/slv/axi4_slave_monitor.sv(167) @ 42695000: uvm_test_top.env.slave_agent.mon [axi4_slave_monitor] W data assembled: ID=0x9 ADDR=0x947bdacd 211 beats
# UVM_INFO ../src/mst/axi4_master_monitor.sv(184) @ 42695000: uvm_test_top.env.master_agent.mon [axi4_master_monitor] W data assembled: ID=0x9 ADDR=0x947bdacd 211 beats
# UVM_INFO ../src/mst/axi4_master_driver.sv(197) @ 42725000: uvm_test_top.env.master_agent.drv [axi4_master_driver] Write response: AXI4_RESP_OKAY
# UVM_INFO ../src/slv/axi4_slave_driver.sv(261) @ 42725000: uvm_test_top.env.slave_agent.drv [axi4_slave_driver] Write complete: ID=0x9 ADDR=0x947bdacd RESP=AXI4_RESP_OKAY  211 beats processed
# UVM_INFO ../src/mst/axi4_master_monitor.sv(210) @ 42725000: uvm_test_top.env.master_agent.mon [axi4_master_monitor] Write complete: ID=0x9 ADDR=0x947bdacd RESP=AXI4_RESP_OKAY
# UVM_INFO ../src/env/axi4_scoreboard.sv(82) @ 42725000: uvm_test_top.env.scb [axi4_scoreboard] Master AXI4_WRITE received: ID=0x9 ADDR=0x947bdacd LEN=210
# UVM_INFO ../src/slv/axi4_slave_monitor.sv(189) @ 42725000: uvm_test_top.env.slave_agent.mon [axi4_slave_monitor] Write response sent: ID=0x9 ADDR=0x947bdacd RESP=AXI4_RESP_OKAY
# UVM_INFO ../src/env/axi4_scoreboard.sv(103) @ 42725000: uvm_test_top.env.scb [axi4_scoreboard] Slave AXI4_WRITE received: ID=0x9 ADDR=0x947bdacd LEN=210
# UVM_INFO ../src/env/axi4_scoreboard.sv(154) @ 42725000: uvm_test_top.env.scb [axi4_scoreboard] [WRITE] MATCH #19: ID=0x9 ADDR=0x947bdacd LEN=210
# UVM_INFO ../src/seq/axi4_unaligned_seq.sv(51) @ 42725000: uvm_test_top.env.master_agent.sqr@@unalign_seq [axi4_unaligned_seq] [19/40] Unaligned AXI4_WRITE: ADDR=0x947bdacd SIZE=AXI4_SIZE_4B BURST=AXI4_BURST_INCR (AlignmentOffset=1)
# UVM_INFO ../src/mst/axi4_master_driver.sv(55) @ 42725000: uvm_test_top.env.master_agent.drv [axi4_master_driver] Driving AXI4_WRITE  ID=0x4  ADDR=0x94a4e183  LEN=120
# UVM_INFO ../src/mst/axi4_master_driver.sv(101) @ 42725000: uvm_test_top.env.master_agent.drv [axi4_master_driver] Write order: AW -> W (sequential)
# UVM_INFO ../src/slv/axi4_slave_driver.sv(165) @ 42755000: uvm_test_top.env.slave_agent.drv [axi4_slave_driver] AW received: ID=0x4 ADDR=0x94a4e183 LEN=120 LOCK=AXI4_LOCK_EXCLUSIVE
# UVM_INFO ../src/slv/axi4_slave_monitor.sv(116) @ 42755000: uvm_test_top.env.slave_agent.mon [axi4_slave_monitor] AW received: ID=0x4 ADDR=0x94a4e183 LEN=120
# UVM_INFO ../src/mst/axi4_master_monitor.sv(124) @ 42755000: uvm_test_top.env.master_agent.mon [axi4_master_monitor] AW observed: ID=0x4 ADDR=0x94a4e183 LEN=120
# UVM_INFO ../src/slv/axi4_slave_monitor.sv(167) @ 45175000: uvm_test_top.env.slave_agent.mon [axi4_slave_monitor] W data assembled: ID=0x4 ADDR=0x94a4e183 121 beats
# UVM_INFO ../src/mst/axi4_master_monitor.sv(184) @ 45175000: uvm_test_top.env.master_agent.mon [axi4_master_monitor] W data assembled: ID=0x4 ADDR=0x94a4e183 121 beats
# UVM_INFO ../src/mst/axi4_master_driver.sv(197) @ 45205000: uvm_test_top.env.master_agent.drv [axi4_master_driver] Write response: AXI4_RESP_OKAY
# UVM_INFO ../src/slv/axi4_slave_driver.sv(261) @ 45205000: uvm_test_top.env.slave_agent.drv [axi4_slave_driver] Write complete: ID=0x4 ADDR=0x94a4e183 RESP=AXI4_RESP_OKAY  121 beats processed
# UVM_INFO ../src/mst/axi4_master_monitor.sv(210) @ 45205000: uvm_test_top.env.master_agent.mon [axi4_master_monitor] Write complete: ID=0x4 ADDR=0x94a4e183 RESP=AXI4_RESP_OKAY
# UVM_INFO ../src/env/axi4_scoreboard.sv(82) @ 45205000: uvm_test_top.env.scb [axi4_scoreboard] Master AXI4_WRITE received: ID=0x4 ADDR=0x94a4e183 LEN=120
# UVM_INFO ../src/slv/axi4_slave_monitor.sv(189) @ 45205000: uvm_test_top.env.slave_agent.mon [axi4_slave_monitor] Write response sent: ID=0x4 ADDR=0x94a4e183 RESP=AXI4_RESP_OKAY
# UVM_INFO ../src/env/axi4_scoreboard.sv(103) @ 45205000: uvm_test_top.env.scb [axi4_scoreboard] Slave AXI4_WRITE received: ID=0x4 ADDR=0x94a4e183 LEN=120
# UVM_INFO ../src/env/axi4_scoreboard.sv(154) @ 45205000: uvm_test_top.env.scb [axi4_scoreboard] [WRITE] MATCH #20: ID=0x4 ADDR=0x94a4e183 LEN=120
# UVM_INFO ../src/seq/axi4_unaligned_seq.sv(51) @ 45205000: uvm_test_top.env.master_agent.sqr@@unalign_seq [axi4_unaligned_seq] [20/40] Unaligned AXI4_WRITE: ADDR=0x94a4e183 SIZE=AXI4_SIZE_4B BURST=AXI4_BURST_INCR (AlignmentOffset=3)
# UVM_INFO ../src/mst/axi4_master_driver.sv(55) @ 45205000: uvm_test_top.env.master_agent.drv [axi4_master_driver] Driving AXI4_WRITE  ID=0x7  ADDR=0xba2a9091  LEN=152
# UVM_INFO ../src/mst/axi4_master_driver.sv(94) @ 45205000: uvm_test_top.env.master_agent.drv [axi4_master_driver] Write order: AW || W (parallel)
# UVM_INFO ../src/slv/axi4_slave_driver.sv(165) @ 45235000: uvm_test_top.env.slave_agent.drv [axi4_slave_driver] AW received: ID=0x7 ADDR=0xba2a9091 LEN=152 LOCK=AXI4_LOCK_EXCLUSIVE
# UVM_INFO ../src/slv/axi4_slave_monitor.sv(116) @ 45235000: uvm_test_top.env.slave_agent.mon [axi4_slave_monitor] AW received: ID=0x7 ADDR=0xba2a9091 LEN=152
# UVM_INFO ../src/mst/axi4_master_monitor.sv(124) @ 45235000: uvm_test_top.env.master_agent.mon [axi4_master_monitor] AW observed: ID=0x7 ADDR=0xba2a9091 LEN=152
# UVM_INFO ../src/mst/axi4_master_monitor.sv(184) @ 48265000: uvm_test_top.env.master_agent.mon [axi4_master_monitor] W data assembled: ID=0x7 ADDR=0xba2a9091 153 beats
# UVM_INFO ../src/slv/axi4_slave_monitor.sv(167) @ 48265000: uvm_test_top.env.slave_agent.mon [axi4_slave_monitor] W data assembled: ID=0x7 ADDR=0xba2a9091 153 beats
# UVM_INFO ../src/mst/axi4_master_driver.sv(197) @ 48295000: uvm_test_top.env.master_agent.drv [axi4_master_driver] Write response: AXI4_RESP_OKAY
# UVM_INFO ../src/slv/axi4_slave_driver.sv(261) @ 48295000: uvm_test_top.env.slave_agent.drv [axi4_slave_driver] Write complete: ID=0x7 ADDR=0xba2a9091 RESP=AXI4_RESP_OKAY  153 beats processed
# UVM_INFO ../src/slv/axi4_slave_monitor.sv(189) @ 48295000: uvm_test_top.env.slave_agent.mon [axi4_slave_monitor] Write response sent: ID=0x7 ADDR=0xba2a9091 RESP=AXI4_RESP_OKAY
# UVM_INFO ../src/env/axi4_scoreboard.sv(103) @ 48295000: uvm_test_top.env.scb [axi4_scoreboard] Slave AXI4_WRITE received: ID=0x7 ADDR=0xba2a9091 LEN=152
# UVM_INFO ../src/mst/axi4_master_monitor.sv(210) @ 48295000: uvm_test_top.env.master_agent.mon [axi4_master_monitor] Write complete: ID=0x7 ADDR=0xba2a9091 RESP=AXI4_RESP_OKAY
# UVM_INFO ../src/env/axi4_scoreboard.sv(82) @ 48295000: uvm_test_top.env.scb [axi4_scoreboard] Master AXI4_WRITE received: ID=0x7 ADDR=0xba2a9091 LEN=152
# UVM_INFO ../src/env/axi4_scoreboard.sv(154) @ 48295000: uvm_test_top.env.scb [axi4_scoreboard] [WRITE] MATCH #21: ID=0x7 ADDR=0xba2a9091 LEN=152
# UVM_INFO ../src/seq/axi4_unaligned_seq.sv(51) @ 48295000: uvm_test_top.env.master_agent.sqr@@unalign_seq [axi4_unaligned_seq] [21/40] Unaligned AXI4_WRITE: ADDR=0xba2a9091 SIZE=AXI4_SIZE_4B BURST=AXI4_BURST_INCR (AlignmentOffset=1)
# UVM_INFO ../src/mst/axi4_master_driver.sv(55) @ 48295000: uvm_test_top.env.master_agent.drv [axi4_master_driver] Driving AXI4_READ  ID=0x1  ADDR=0x3706d439  LEN=13
# UVM_INFO ../src/slv/axi4_slave_driver.sv(300) @ 48325000: uvm_test_top.env.slave_agent.drv [axi4_slave_driver] AR received: ID=0x1 ADDR=0x3706d439 LEN=13 LOCK=AXI4_LOCK_EXCLUSIVE
# UVM_INFO ../src/mst/axi4_master_monitor.sv(246) @ 48325000: uvm_test_top.env.master_agent.mon [axi4_master_monitor] AR observed: ID=0x1 ADDR=0x3706d439 LEN=13
# UVM_INFO ../src/slv/axi4_slave_monitor.sv(224) @ 48325000: uvm_test_top.env.slave_agent.mon [axi4_slave_monitor] AR received: ID=0x1 ADDR=0x3706d439 LEN=13
# UVM_INFO ../src/mst/axi4_master_driver.sv(254) @ 48605000: uvm_test_top.env.master_agent.drv [axi4_master_driver] Read complete: 14 beats received
# UVM_INFO ../src/slv/axi4_slave_driver.sv(349) @ 48605000: uvm_test_top.env.slave_agent.drv [axi4_slave_driver] Read complete: ID=0x1 ADDR=0x3706d439 RESP=AXI4_RESP_EXOKAY  14 beats sent
# UVM_INFO ../src/mst/axi4_master_monitor.sv(314) @ 48605000: uvm_test_top.env.master_agent.mon [axi4_master_monitor] Read complete: ID=0x1 ADDR=0x3706d439 14 beats
# UVM_INFO ../src/env/axi4_scoreboard.sv(82) @ 48605000: uvm_test_top.env.scb [axi4_scoreboard] Master AXI4_READ received: ID=0x1 ADDR=0x3706d439 LEN=13
# UVM_INFO ../src/slv/axi4_slave_monitor.sv(287) @ 48605000: uvm_test_top.env.slave_agent.mon [axi4_slave_monitor] Read data sent: ID=0x1 ADDR=0x3706d439 14 beats
# UVM_INFO ../src/env/axi4_scoreboard.sv(103) @ 48605000: uvm_test_top.env.scb [axi4_scoreboard] Slave AXI4_READ received: ID=0x1 ADDR=0x3706d439 LEN=13
# UVM_INFO ../src/env/axi4_scoreboard.sv(154) @ 48605000: uvm_test_top.env.scb [axi4_scoreboard] [READ] MATCH #22: ID=0x1 ADDR=0x3706d439 LEN=13
# UVM_INFO ../src/seq/axi4_unaligned_seq.sv(51) @ 48605000: uvm_test_top.env.master_agent.sqr@@unalign_seq [axi4_unaligned_seq] [22/40] Unaligned AXI4_READ: ADDR=0x3706d439 SIZE=AXI4_SIZE_4B BURST=AXI4_BURST_FIXED (AlignmentOffset=1)
# UVM_INFO ../src/mst/axi4_master_driver.sv(55) @ 48605000: uvm_test_top.env.master_agent.drv [axi4_master_driver] Driving AXI4_WRITE  ID=0xc  ADDR=0x5d4b9226  LEN=52
# UVM_INFO ../src/mst/axi4_master_driver.sv(94) @ 48605000: uvm_test_top.env.master_agent.drv [axi4_master_driver] Write order: AW || W (parallel)
# UVM_INFO ../src/slv/axi4_slave_driver.sv(165) @ 48635000: uvm_test_top.env.slave_agent.drv [axi4_slave_driver] AW received: ID=0xc ADDR=0x5d4b9226 LEN=52 LOCK=AXI4_LOCK_EXCLUSIVE
# UVM_INFO ../src/slv/axi4_slave_monitor.sv(116) @ 48635000: uvm_test_top.env.slave_agent.mon [axi4_slave_monitor] AW received: ID=0xc ADDR=0x5d4b9226 LEN=52
# UVM_INFO ../src/mst/axi4_master_monitor.sv(124) @ 48635000: uvm_test_top.env.master_agent.mon [axi4_master_monitor] AW observed: ID=0xc ADDR=0x5d4b9226 LEN=52
# UVM_INFO ../src/mst/axi4_master_monitor.sv(184) @ 49665000: uvm_test_top.env.master_agent.mon [axi4_master_monitor] W data assembled: ID=0xc ADDR=0x5d4b9226 53 beats
# UVM_INFO ../src/slv/axi4_slave_monitor.sv(167) @ 49665000: uvm_test_top.env.slave_agent.mon [axi4_slave_monitor] W data assembled: ID=0xc ADDR=0x5d4b9226 53 beats
# UVM_INFO ../src/mst/axi4_master_driver.sv(197) @ 49695000: uvm_test_top.env.master_agent.drv [axi4_master_driver] Write response: AXI4_RESP_OKAY
# UVM_INFO ../src/slv/axi4_slave_driver.sv(261) @ 49695000: uvm_test_top.env.slave_agent.drv [axi4_slave_driver] Write complete: ID=0xc ADDR=0x5d4b9226 RESP=AXI4_RESP_OKAY  53 beats processed
# UVM_INFO ../src/slv/axi4_slave_monitor.sv(189) @ 49695000: uvm_test_top.env.slave_agent.mon [axi4_slave_monitor] Write response sent: ID=0xc ADDR=0x5d4b9226 RESP=AXI4_RESP_OKAY
# UVM_INFO ../src/env/axi4_scoreboard.sv(103) @ 49695000: uvm_test_top.env.scb [axi4_scoreboard] Slave AXI4_WRITE received: ID=0xc ADDR=0x5d4b9226 LEN=52
# UVM_INFO ../src/mst/axi4_master_monitor.sv(210) @ 49695000: uvm_test_top.env.master_agent.mon [axi4_master_monitor] Write complete: ID=0xc ADDR=0x5d4b9226 RESP=AXI4_RESP_OKAY
# UVM_INFO ../src/env/axi4_scoreboard.sv(82) @ 49695000: uvm_test_top.env.scb [axi4_scoreboard] Master AXI4_WRITE received: ID=0xc ADDR=0x5d4b9226 LEN=52
# UVM_INFO ../src/env/axi4_scoreboard.sv(154) @ 49695000: uvm_test_top.env.scb [axi4_scoreboard] [WRITE] MATCH #23: ID=0xc ADDR=0x5d4b9226 LEN=52
# UVM_INFO ../src/seq/axi4_unaligned_seq.sv(51) @ 49695000: uvm_test_top.env.master_agent.sqr@@unalign_seq [axi4_unaligned_seq] [23/40] Unaligned AXI4_WRITE: ADDR=0x5d4b9226 SIZE=AXI4_SIZE_4B BURST=AXI4_BURST_INCR (AlignmentOffset=2)
# UVM_INFO ../src/mst/axi4_master_driver.sv(55) @ 49695000: uvm_test_top.env.master_agent.drv [axi4_master_driver] Driving AXI4_WRITE  ID=0x9  ADDR=0x457297c1  LEN=188
# UVM_INFO ../src/mst/axi4_master_driver.sv(94) @ 49695000: uvm_test_top.env.master_agent.drv [axi4_master_driver] Write order: AW || W (parallel)
# UVM_INFO ../src/slv/axi4_slave_driver.sv(165) @ 49725000: uvm_test_top.env.slave_agent.drv [axi4_slave_driver] AW received: ID=0x9 ADDR=0x457297c1 LEN=188 LOCK=AXI4_LOCK_EXCLUSIVE
# UVM_INFO ../src/mst/axi4_master_monitor.sv(124) @ 49725000: uvm_test_top.env.master_agent.mon [axi4_master_monitor] AW observed: ID=0x9 ADDR=0x457297c1 LEN=188
# UVM_INFO ../src/slv/axi4_slave_monitor.sv(116) @ 49725000: uvm_test_top.env.slave_agent.mon [axi4_slave_monitor] AW received: ID=0x9 ADDR=0x457297c1 LEN=188
# UVM_INFO ../src/slv/axi4_slave_monitor.sv(167) @ 53475000: uvm_test_top.env.slave_agent.mon [axi4_slave_monitor] W data assembled: ID=0x9 ADDR=0x457297c1 189 beats
# UVM_INFO ../src/mst/axi4_master_monitor.sv(184) @ 53475000: uvm_test_top.env.master_agent.mon [axi4_master_monitor] W data assembled: ID=0x9 ADDR=0x457297c1 189 beats
# UVM_INFO ../src/mst/axi4_master_driver.sv(197) @ 53505000: uvm_test_top.env.master_agent.drv [axi4_master_driver] Write response: AXI4_RESP_OKAY
# UVM_INFO ../src/slv/axi4_slave_driver.sv(261) @ 53505000: uvm_test_top.env.slave_agent.drv [axi4_slave_driver] Write complete: ID=0x9 ADDR=0x457297c1 RESP=AXI4_RESP_OKAY  189 beats processed
# UVM_INFO ../src/mst/axi4_master_monitor.sv(210) @ 53505000: uvm_test_top.env.master_agent.mon [axi4_master_monitor] Write complete: ID=0x9 ADDR=0x457297c1 RESP=AXI4_RESP_OKAY
# UVM_INFO ../src/env/axi4_scoreboard.sv(82) @ 53505000: uvm_test_top.env.scb [axi4_scoreboard] Master AXI4_WRITE received: ID=0x9 ADDR=0x457297c1 LEN=188
# UVM_INFO ../src/slv/axi4_slave_monitor.sv(189) @ 53505000: uvm_test_top.env.slave_agent.mon [axi4_slave_monitor] Write response sent: ID=0x9 ADDR=0x457297c1 RESP=AXI4_RESP_OKAY
# UVM_INFO ../src/env/axi4_scoreboard.sv(103) @ 53505000: uvm_test_top.env.scb [axi4_scoreboard] Slave AXI4_WRITE received: ID=0x9 ADDR=0x457297c1 LEN=188
# UVM_INFO ../src/env/axi4_scoreboard.sv(154) @ 53505000: uvm_test_top.env.scb [axi4_scoreboard] [WRITE] MATCH #24: ID=0x9 ADDR=0x457297c1 LEN=188
# UVM_INFO ../src/seq/axi4_unaligned_seq.sv(51) @ 53505000: uvm_test_top.env.master_agent.sqr@@unalign_seq [axi4_unaligned_seq] [24/40] Unaligned AXI4_WRITE: ADDR=0x457297c1 SIZE=AXI4_SIZE_4B BURST=AXI4_BURST_INCR (AlignmentOffset=1)
# UVM_INFO ../src/mst/axi4_master_driver.sv(55) @ 53505000: uvm_test_top.env.master_agent.drv [axi4_master_driver] Driving AXI4_WRITE  ID=0x0  ADDR=0x401f02ef  LEN=78
# UVM_INFO ../src/mst/axi4_master_driver.sv(94) @ 53505000: uvm_test_top.env.master_agent.drv [axi4_master_driver] Write order: AW || W (parallel)
# UVM_INFO ../src/slv/axi4_slave_driver.sv(165) @ 53535000: uvm_test_top.env.slave_agent.drv [axi4_slave_driver] AW received: ID=0x0 ADDR=0x401f02ef LEN=78 LOCK=AXI4_LOCK_EXCLUSIVE
# UVM_INFO ../src/slv/axi4_slave_monitor.sv(116) @ 53535000: uvm_test_top.env.slave_agent.mon [axi4_slave_monitor] AW received: ID=0x0 ADDR=0x401f02ef LEN=78
# UVM_INFO ../src/mst/axi4_master_monitor.sv(124) @ 53535000: uvm_test_top.env.master_agent.mon [axi4_master_monitor] AW observed: ID=0x0 ADDR=0x401f02ef LEN=78
# UVM_INFO ../src/mst/axi4_master_monitor.sv(184) @ 55085000: uvm_test_top.env.master_agent.mon [axi4_master_monitor] W data assembled: ID=0x0 ADDR=0x401f02ef 79 beats
# UVM_INFO ../src/slv/axi4_slave_monitor.sv(167) @ 55085000: uvm_test_top.env.slave_agent.mon [axi4_slave_monitor] W data assembled: ID=0x0 ADDR=0x401f02ef 79 beats
# UVM_INFO ../src/mst/axi4_master_driver.sv(197) @ 55115000: uvm_test_top.env.master_agent.drv [axi4_master_driver] Write response: AXI4_RESP_OKAY
# UVM_INFO ../src/slv/axi4_slave_driver.sv(261) @ 55115000: uvm_test_top.env.slave_agent.drv [axi4_slave_driver] Write complete: ID=0x0 ADDR=0x401f02ef RESP=AXI4_RESP_OKAY  79 beats processed
# UVM_INFO ../src/slv/axi4_slave_monitor.sv(189) @ 55115000: uvm_test_top.env.slave_agent.mon [axi4_slave_monitor] Write response sent: ID=0x0 ADDR=0x401f02ef RESP=AXI4_RESP_OKAY
# UVM_INFO ../src/env/axi4_scoreboard.sv(103) @ 55115000: uvm_test_top.env.scb [axi4_scoreboard] Slave AXI4_WRITE received: ID=0x0 ADDR=0x401f02ef LEN=78
# UVM_INFO ../src/mst/axi4_master_monitor.sv(210) @ 55115000: uvm_test_top.env.master_agent.mon [axi4_master_monitor] Write complete: ID=0x0 ADDR=0x401f02ef RESP=AXI4_RESP_OKAY
# UVM_INFO ../src/env/axi4_scoreboard.sv(82) @ 55115000: uvm_test_top.env.scb [axi4_scoreboard] Master AXI4_WRITE received: ID=0x0 ADDR=0x401f02ef LEN=78
# UVM_INFO ../src/env/axi4_scoreboard.sv(154) @ 55115000: uvm_test_top.env.scb [axi4_scoreboard] [WRITE] MATCH #25: ID=0x0 ADDR=0x401f02ef LEN=78
# UVM_INFO ../src/seq/axi4_unaligned_seq.sv(51) @ 55115000: uvm_test_top.env.master_agent.sqr@@unalign_seq [axi4_unaligned_seq] [25/40] Unaligned AXI4_WRITE: ADDR=0x401f02ef SIZE=AXI4_SIZE_2B BURST=AXI4_BURST_INCR (AlignmentOffset=1)
# UVM_INFO ../src/mst/axi4_master_driver.sv(55) @ 55115000: uvm_test_top.env.master_agent.drv [axi4_master_driver] Driving AXI4_WRITE  ID=0x2  ADDR=0x88e2b2f2  LEN=9
# UVM_INFO ../src/mst/axi4_master_driver.sv(94) @ 55115000: uvm_test_top.env.master_agent.drv [axi4_master_driver] Write order: AW || W (parallel)
# UVM_INFO ../src/slv/axi4_slave_driver.sv(165) @ 55145000: uvm_test_top.env.slave_agent.drv [axi4_slave_driver] AW received: ID=0x2 ADDR=0x88e2b2f2 LEN=9 LOCK=AXI4_LOCK_NORMAL
# UVM_INFO ../src/mst/axi4_master_monitor.sv(124) @ 55145000: uvm_test_top.env.master_agent.mon [axi4_master_monitor] AW observed: ID=0x2 ADDR=0x88e2b2f2 LEN=9
# UVM_INFO ../src/slv/axi4_slave_monitor.sv(116) @ 55145000: uvm_test_top.env.slave_agent.mon [axi4_slave_monitor] AW received: ID=0x2 ADDR=0x88e2b2f2 LEN=9
# UVM_INFO ../src/slv/axi4_slave_monitor.sv(167) @ 55315000: uvm_test_top.env.slave_agent.mon [axi4_slave_monitor] W data assembled: ID=0x2 ADDR=0x88e2b2f2 10 beats
# UVM_INFO ../src/mst/axi4_master_monitor.sv(184) @ 55315000: uvm_test_top.env.master_agent.mon [axi4_master_monitor] W data assembled: ID=0x2 ADDR=0x88e2b2f2 10 beats
# UVM_INFO ../src/mst/axi4_master_driver.sv(197) @ 55345000: uvm_test_top.env.master_agent.drv [axi4_master_driver] Write response: AXI4_RESP_OKAY
# UVM_INFO ../src/slv/axi4_slave_driver.sv(261) @ 55345000: uvm_test_top.env.slave_agent.drv [axi4_slave_driver] Write complete: ID=0x2 ADDR=0x88e2b2f2 RESP=AXI4_RESP_OKAY  10 beats processed
# UVM_INFO ../src/mst/axi4_master_monitor.sv(210) @ 55345000: uvm_test_top.env.master_agent.mon [axi4_master_monitor] Write complete: ID=0x2 ADDR=0x88e2b2f2 RESP=AXI4_RESP_OKAY
# UVM_INFO ../src/env/axi4_scoreboard.sv(82) @ 55345000: uvm_test_top.env.scb [axi4_scoreboard] Master AXI4_WRITE received: ID=0x2 ADDR=0x88e2b2f2 LEN=9
# UVM_INFO ../src/slv/axi4_slave_monitor.sv(189) @ 55345000: uvm_test_top.env.slave_agent.mon [axi4_slave_monitor] Write response sent: ID=0x2 ADDR=0x88e2b2f2 RESP=AXI4_RESP_OKAY
# UVM_INFO ../src/env/axi4_scoreboard.sv(103) @ 55345000: uvm_test_top.env.scb [axi4_scoreboard] Slave AXI4_WRITE received: ID=0x2 ADDR=0x88e2b2f2 LEN=9
# UVM_INFO ../src/env/axi4_scoreboard.sv(154) @ 55345000: uvm_test_top.env.scb [axi4_scoreboard] [WRITE] MATCH #26: ID=0x2 ADDR=0x88e2b2f2 LEN=9
# UVM_INFO ../src/seq/axi4_unaligned_seq.sv(51) @ 55345000: uvm_test_top.env.master_agent.sqr@@unalign_seq [axi4_unaligned_seq] [26/40] Unaligned AXI4_WRITE: ADDR=0x88e2b2f2 SIZE=AXI4_SIZE_4B BURST=AXI4_BURST_INCR (AlignmentOffset=2)
# UVM_INFO ../src/mst/axi4_master_driver.sv(55) @ 55345000: uvm_test_top.env.master_agent.drv [axi4_master_driver] Driving AXI4_READ  ID=0xd  ADDR=0x1d5417a7  LEN=15
# UVM_INFO ../src/slv/axi4_slave_driver.sv(300) @ 55375000: uvm_test_top.env.slave_agent.drv [axi4_slave_driver] AR received: ID=0xd ADDR=0x1d5417a7 LEN=15 LOCK=AXI4_LOCK_EXCLUSIVE
# UVM_INFO ../src/slv/axi4_slave_monitor.sv(224) @ 55375000: uvm_test_top.env.slave_agent.mon [axi4_slave_monitor] AR received: ID=0xd ADDR=0x1d5417a7 LEN=15
# UVM_INFO ../src/mst/axi4_master_monitor.sv(246) @ 55375000: uvm_test_top.env.master_agent.mon [axi4_master_monitor] AR observed: ID=0xd ADDR=0x1d5417a7 LEN=15
# UVM_INFO ../src/mst/axi4_master_driver.sv(254) @ 55695000: uvm_test_top.env.master_agent.drv [axi4_master_driver] Read complete: 16 beats received
# UVM_INFO ../src/slv/axi4_slave_driver.sv(349) @ 55695000: uvm_test_top.env.slave_agent.drv [axi4_slave_driver] Read complete: ID=0xd ADDR=0x1d5417a7 RESP=AXI4_RESP_EXOKAY  16 beats sent
# UVM_INFO ../src/slv/axi4_slave_monitor.sv(287) @ 55695000: uvm_test_top.env.slave_agent.mon [axi4_slave_monitor] Read data sent: ID=0xd ADDR=0x1d5417a7 16 beats
# UVM_INFO ../src/env/axi4_scoreboard.sv(103) @ 55695000: uvm_test_top.env.scb [axi4_scoreboard] Slave AXI4_READ received: ID=0xd ADDR=0x1d5417a7 LEN=15
# UVM_INFO ../src/mst/axi4_master_monitor.sv(314) @ 55695000: uvm_test_top.env.master_agent.mon [axi4_master_monitor] Read complete: ID=0xd ADDR=0x1d5417a7 16 beats
# UVM_INFO ../src/env/axi4_scoreboard.sv(82) @ 55695000: uvm_test_top.env.scb [axi4_scoreboard] Master AXI4_READ received: ID=0xd ADDR=0x1d5417a7 LEN=15
# UVM_INFO ../src/env/axi4_scoreboard.sv(154) @ 55695000: uvm_test_top.env.scb [axi4_scoreboard] [READ] MATCH #27: ID=0xd ADDR=0x1d5417a7 LEN=15
# UVM_INFO ../src/seq/axi4_unaligned_seq.sv(51) @ 55695000: uvm_test_top.env.master_agent.sqr@@unalign_seq [axi4_unaligned_seq] [27/40] Unaligned AXI4_READ: ADDR=0x1d5417a7 SIZE=AXI4_SIZE_4B BURST=AXI4_BURST_FIXED (AlignmentOffset=3)
# UVM_INFO ../src/mst/axi4_master_driver.sv(55) @ 55695000: uvm_test_top.env.master_agent.drv [axi4_master_driver] Driving AXI4_WRITE  ID=0x2  ADDR=0x09471c0e  LEN=185
# UVM_INFO ../src/mst/axi4_master_driver.sv(94) @ 55695000: uvm_test_top.env.master_agent.drv [axi4_master_driver] Write order: AW || W (parallel)
# UVM_INFO ../src/slv/axi4_slave_driver.sv(165) @ 55725000: uvm_test_top.env.slave_agent.drv [axi4_slave_driver] AW received: ID=0x2 ADDR=0x09471c0e LEN=185 LOCK=AXI4_LOCK_EXCLUSIVE
# UVM_INFO ../src/mst/axi4_master_monitor.sv(124) @ 55725000: uvm_test_top.env.master_agent.mon [axi4_master_monitor] AW observed: ID=0x2 ADDR=0x09471c0e LEN=185
# UVM_INFO ../src/slv/axi4_slave_monitor.sv(116) @ 55725000: uvm_test_top.env.slave_agent.mon [axi4_slave_monitor] AW received: ID=0x2 ADDR=0x09471c0e LEN=185
# UVM_INFO ../src/slv/axi4_slave_monitor.sv(167) @ 59415000: uvm_test_top.env.slave_agent.mon [axi4_slave_monitor] W data assembled: ID=0x2 ADDR=0x09471c0e 186 beats
# UVM_INFO ../src/mst/axi4_master_monitor.sv(184) @ 59415000: uvm_test_top.env.master_agent.mon [axi4_master_monitor] W data assembled: ID=0x2 ADDR=0x09471c0e 186 beats
# UVM_INFO ../src/mst/axi4_master_driver.sv(197) @ 59445000: uvm_test_top.env.master_agent.drv [axi4_master_driver] Write response: AXI4_RESP_OKAY
# UVM_INFO ../src/slv/axi4_slave_driver.sv(261) @ 59445000: uvm_test_top.env.slave_agent.drv [axi4_slave_driver] Write complete: ID=0x2 ADDR=0x09471c0e RESP=AXI4_RESP_OKAY  186 beats processed
# UVM_INFO ../src/mst/axi4_master_monitor.sv(210) @ 59445000: uvm_test_top.env.master_agent.mon [axi4_master_monitor] Write complete: ID=0x2 ADDR=0x09471c0e RESP=AXI4_RESP_OKAY
# UVM_INFO ../src/env/axi4_scoreboard.sv(82) @ 59445000: uvm_test_top.env.scb [axi4_scoreboard] Master AXI4_WRITE received: ID=0x2 ADDR=0x09471c0e LEN=185
# UVM_INFO ../src/slv/axi4_slave_monitor.sv(189) @ 59445000: uvm_test_top.env.slave_agent.mon [axi4_slave_monitor] Write response sent: ID=0x2 ADDR=0x09471c0e RESP=AXI4_RESP_OKAY
# UVM_INFO ../src/env/axi4_scoreboard.sv(103) @ 59445000: uvm_test_top.env.scb [axi4_scoreboard] Slave AXI4_WRITE received: ID=0x2 ADDR=0x09471c0e LEN=185
# UVM_INFO ../src/env/axi4_scoreboard.sv(154) @ 59445000: uvm_test_top.env.scb [axi4_scoreboard] [WRITE] MATCH #28: ID=0x2 ADDR=0x09471c0e LEN=185
# UVM_INFO ../src/seq/axi4_unaligned_seq.sv(51) @ 59445000: uvm_test_top.env.master_agent.sqr@@unalign_seq [axi4_unaligned_seq] [28/40] Unaligned AXI4_WRITE: ADDR=0x09471c0e SIZE=AXI4_SIZE_4B BURST=AXI4_BURST_INCR (AlignmentOffset=2)
# UVM_INFO ../src/mst/axi4_master_driver.sv(55) @ 59445000: uvm_test_top.env.master_agent.drv [axi4_master_driver] Driving AXI4_WRITE  ID=0x9  ADDR=0x2cd999ea  LEN=138
# UVM_INFO ../src/mst/axi4_master_driver.sv(94) @ 59445000: uvm_test_top.env.master_agent.drv [axi4_master_driver] Write order: AW || W (parallel)
# UVM_INFO ../src/slv/axi4_slave_driver.sv(165) @ 59475000: uvm_test_top.env.slave_agent.drv [axi4_slave_driver] AW received: ID=0x9 ADDR=0x2cd999ea LEN=138 LOCK=AXI4_LOCK_EXCLUSIVE
# UVM_INFO ../src/slv/axi4_slave_monitor.sv(116) @ 59475000: uvm_test_top.env.slave_agent.mon [axi4_slave_monitor] AW received: ID=0x9 ADDR=0x2cd999ea LEN=138
# UVM_INFO ../src/mst/axi4_master_monitor.sv(124) @ 59475000: uvm_test_top.env.master_agent.mon [axi4_master_monitor] AW observed: ID=0x9 ADDR=0x2cd999ea LEN=138
# UVM_INFO ../src/mst/axi4_master_monitor.sv(184) @ 62225000: uvm_test_top.env.master_agent.mon [axi4_master_monitor] W data assembled: ID=0x9 ADDR=0x2cd999ea 139 beats
# UVM_INFO ../src/slv/axi4_slave_monitor.sv(167) @ 62225000: uvm_test_top.env.slave_agent.mon [axi4_slave_monitor] W data assembled: ID=0x9 ADDR=0x2cd999ea 139 beats
# UVM_INFO ../src/mst/axi4_master_driver.sv(197) @ 62255000: uvm_test_top.env.master_agent.drv [axi4_master_driver] Write response: AXI4_RESP_OKAY
# UVM_INFO ../src/slv/axi4_slave_driver.sv(261) @ 62255000: uvm_test_top.env.slave_agent.drv [axi4_slave_driver] Write complete: ID=0x9 ADDR=0x2cd999ea RESP=AXI4_RESP_OKAY  139 beats processed
# UVM_INFO ../src/slv/axi4_slave_monitor.sv(189) @ 62255000: uvm_test_top.env.slave_agent.mon [axi4_slave_monitor] Write response sent: ID=0x9 ADDR=0x2cd999ea RESP=AXI4_RESP_OKAY
# UVM_INFO ../src/env/axi4_scoreboard.sv(103) @ 62255000: uvm_test_top.env.scb [axi4_scoreboard] Slave AXI4_WRITE received: ID=0x9 ADDR=0x2cd999ea LEN=138
# UVM_INFO ../src/mst/axi4_master_monitor.sv(210) @ 62255000: uvm_test_top.env.master_agent.mon [axi4_master_monitor] Write complete: ID=0x9 ADDR=0x2cd999ea RESP=AXI4_RESP_OKAY
# UVM_INFO ../src/env/axi4_scoreboard.sv(82) @ 62255000: uvm_test_top.env.scb [axi4_scoreboard] Master AXI4_WRITE received: ID=0x9 ADDR=0x2cd999ea LEN=138
# UVM_INFO ../src/env/axi4_scoreboard.sv(154) @ 62255000: uvm_test_top.env.scb [axi4_scoreboard] [WRITE] MATCH #29: ID=0x9 ADDR=0x2cd999ea LEN=138
# UVM_INFO ../src/seq/axi4_unaligned_seq.sv(51) @ 62255000: uvm_test_top.env.master_agent.sqr@@unalign_seq [axi4_unaligned_seq] [29/40] Unaligned AXI4_WRITE: ADDR=0x2cd999ea SIZE=AXI4_SIZE_4B BURST=AXI4_BURST_INCR (AlignmentOffset=2)
# UVM_INFO ../src/mst/axi4_master_driver.sv(55) @ 62255000: uvm_test_top.env.master_agent.drv [axi4_master_driver] Driving AXI4_READ  ID=0x0  ADDR=0x2491948e  LEN=102
# UVM_INFO ../src/slv/axi4_slave_driver.sv(300) @ 62285000: uvm_test_top.env.slave_agent.drv [axi4_slave_driver] AR received: ID=0x0 ADDR=0x2491948e LEN=102 LOCK=AXI4_LOCK_EXCLUSIVE
# UVM_INFO ../src/mst/axi4_master_monitor.sv(246) @ 62285000: uvm_test_top.env.master_agent.mon [axi4_master_monitor] AR observed: ID=0x0 ADDR=0x2491948e LEN=102
# UVM_INFO ../src/slv/axi4_slave_monitor.sv(224) @ 62285000: uvm_test_top.env.slave_agent.mon [axi4_slave_monitor] AR received: ID=0x0 ADDR=0x2491948e LEN=102
# UVM_INFO ../src/mst/axi4_master_driver.sv(254) @ 64345000: uvm_test_top.env.master_agent.drv [axi4_master_driver] Read complete: 103 beats received
# UVM_INFO ../src/slv/axi4_slave_driver.sv(349) @ 64345000: uvm_test_top.env.slave_agent.drv [axi4_slave_driver] Read complete: ID=0x0 ADDR=0x2491948e RESP=AXI4_RESP_EXOKAY  103 beats sent
# UVM_INFO ../src/mst/axi4_master_monitor.sv(314) @ 64345000: uvm_test_top.env.master_agent.mon [axi4_master_monitor] Read complete: ID=0x0 ADDR=0x2491948e 103 beats
# UVM_INFO ../src/env/axi4_scoreboard.sv(82) @ 64345000: uvm_test_top.env.scb [axi4_scoreboard] Master AXI4_READ received: ID=0x0 ADDR=0x2491948e LEN=102
# UVM_INFO ../src/slv/axi4_slave_monitor.sv(287) @ 64345000: uvm_test_top.env.slave_agent.mon [axi4_slave_monitor] Read data sent: ID=0x0 ADDR=0x2491948e 103 beats
# UVM_INFO ../src/env/axi4_scoreboard.sv(103) @ 64345000: uvm_test_top.env.scb [axi4_scoreboard] Slave AXI4_READ received: ID=0x0 ADDR=0x2491948e LEN=102
# UVM_INFO ../src/env/axi4_scoreboard.sv(154) @ 64345000: uvm_test_top.env.scb [axi4_scoreboard] [READ] MATCH #30: ID=0x0 ADDR=0x2491948e LEN=102
# UVM_INFO ../src/seq/axi4_unaligned_seq.sv(51) @ 64345000: uvm_test_top.env.master_agent.sqr@@unalign_seq [axi4_unaligned_seq] [30/40] Unaligned AXI4_READ: ADDR=0x2491948e SIZE=AXI4_SIZE_4B BURST=AXI4_BURST_INCR (AlignmentOffset=2)
# UVM_INFO ../src/mst/axi4_master_driver.sv(55) @ 64345000: uvm_test_top.env.master_agent.drv [axi4_master_driver] Driving AXI4_READ  ID=0x0  ADDR=0xb2421751  LEN=7
# UVM_INFO ../src/slv/axi4_slave_driver.sv(300) @ 64375000: uvm_test_top.env.slave_agent.drv [axi4_slave_driver] AR received: ID=0x0 ADDR=0xb2421751 LEN=7 LOCK=AXI4_LOCK_NORMAL
# UVM_INFO ../src/slv/axi4_slave_monitor.sv(224) @ 64375000: uvm_test_top.env.slave_agent.mon [axi4_slave_monitor] AR received: ID=0x0 ADDR=0xb2421751 LEN=7
# UVM_INFO ../src/mst/axi4_master_monitor.sv(246) @ 64375000: uvm_test_top.env.master_agent.mon [axi4_master_monitor] AR observed: ID=0x0 ADDR=0xb2421751 LEN=7
# UVM_INFO ../src/mst/axi4_master_driver.sv(254) @ 64535000: uvm_test_top.env.master_agent.drv [axi4_master_driver] Read complete: 8 beats received
# UVM_INFO ../src/slv/axi4_slave_driver.sv(349) @ 64535000: uvm_test_top.env.slave_agent.drv [axi4_slave_driver] Read complete: ID=0x0 ADDR=0xb2421751 RESP=AXI4_RESP_OKAY  8 beats sent
# UVM_INFO ../src/slv/axi4_slave_monitor.sv(287) @ 64535000: uvm_test_top.env.slave_agent.mon [axi4_slave_monitor] Read data sent: ID=0x0 ADDR=0xb2421751 8 beats
# UVM_INFO ../src/env/axi4_scoreboard.sv(103) @ 64535000: uvm_test_top.env.scb [axi4_scoreboard] Slave AXI4_READ received: ID=0x0 ADDR=0xb2421751 LEN=7
# UVM_INFO ../src/mst/axi4_master_monitor.sv(314) @ 64535000: uvm_test_top.env.master_agent.mon [axi4_master_monitor] Read complete: ID=0x0 ADDR=0xb2421751 8 beats
# UVM_INFO ../src/env/axi4_scoreboard.sv(82) @ 64535000: uvm_test_top.env.scb [axi4_scoreboard] Master AXI4_READ received: ID=0x0 ADDR=0xb2421751 LEN=7
# UVM_INFO ../src/env/axi4_scoreboard.sv(154) @ 64535000: uvm_test_top.env.scb [axi4_scoreboard] [READ] MATCH #31: ID=0x0 ADDR=0xb2421751 LEN=7
# UVM_INFO ../src/seq/axi4_unaligned_seq.sv(51) @ 64535000: uvm_test_top.env.master_agent.sqr@@unalign_seq [axi4_unaligned_seq] [31/40] Unaligned AXI4_READ: ADDR=0xb2421751 SIZE=AXI4_SIZE_4B BURST=AXI4_BURST_INCR (AlignmentOffset=1)
# UVM_INFO ../src/mst/axi4_master_driver.sv(55) @ 64535000: uvm_test_top.env.master_agent.drv [axi4_master_driver] Driving AXI4_WRITE  ID=0x0  ADDR=0xda209129  LEN=205
# UVM_INFO ../src/mst/axi4_master_driver.sv(94) @ 64535000: uvm_test_top.env.master_agent.drv [axi4_master_driver] Write order: AW || W (parallel)
# UVM_INFO ../src/slv/axi4_slave_driver.sv(165) @ 64565000: uvm_test_top.env.slave_agent.drv [axi4_slave_driver] AW received: ID=0x0 ADDR=0xda209129 LEN=205 LOCK=AXI4_LOCK_NORMAL
# UVM_INFO ../src/mst/axi4_master_monitor.sv(124) @ 64565000: uvm_test_top.env.master_agent.mon [axi4_master_monitor] AW observed: ID=0x0 ADDR=0xda209129 LEN=205
# UVM_INFO ../src/slv/axi4_slave_monitor.sv(116) @ 64565000: uvm_test_top.env.slave_agent.mon [axi4_slave_monitor] AW received: ID=0x0 ADDR=0xda209129 LEN=205
# UVM_INFO ../src/slv/axi4_slave_monitor.sv(167) @ 68655000: uvm_test_top.env.slave_agent.mon [axi4_slave_monitor] W data assembled: ID=0x0 ADDR=0xda209129 206 beats
# UVM_INFO ../src/mst/axi4_master_monitor.sv(184) @ 68655000: uvm_test_top.env.master_agent.mon [axi4_master_monitor] W data assembled: ID=0x0 ADDR=0xda209129 206 beats
# UVM_INFO ../src/mst/axi4_master_driver.sv(197) @ 68685000: uvm_test_top.env.master_agent.drv [axi4_master_driver] Write response: AXI4_RESP_OKAY
# UVM_INFO ../src/slv/axi4_slave_driver.sv(261) @ 68685000: uvm_test_top.env.slave_agent.drv [axi4_slave_driver] Write complete: ID=0x0 ADDR=0xda209129 RESP=AXI4_RESP_OKAY  206 beats processed
# UVM_INFO ../src/mst/axi4_master_monitor.sv(210) @ 68685000: uvm_test_top.env.master_agent.mon [axi4_master_monitor] Write complete: ID=0x0 ADDR=0xda209129 RESP=AXI4_RESP_OKAY
# UVM_INFO ../src/env/axi4_scoreboard.sv(82) @ 68685000: uvm_test_top.env.scb [axi4_scoreboard] Master AXI4_WRITE received: ID=0x0 ADDR=0xda209129 LEN=205
# UVM_INFO ../src/slv/axi4_slave_monitor.sv(189) @ 68685000: uvm_test_top.env.slave_agent.mon [axi4_slave_monitor] Write response sent: ID=0x0 ADDR=0xda209129 RESP=AXI4_RESP_OKAY
# UVM_INFO ../src/env/axi4_scoreboard.sv(103) @ 68685000: uvm_test_top.env.scb [axi4_scoreboard] Slave AXI4_WRITE received: ID=0x0 ADDR=0xda209129 LEN=205
# UVM_INFO ../src/env/axi4_scoreboard.sv(154) @ 68685000: uvm_test_top.env.scb [axi4_scoreboard] [WRITE] MATCH #32: ID=0x0 ADDR=0xda209129 LEN=205
# UVM_INFO ../src/seq/axi4_unaligned_seq.sv(51) @ 68685000: uvm_test_top.env.master_agent.sqr@@unalign_seq [axi4_unaligned_seq] [32/40] Unaligned AXI4_WRITE: ADDR=0xda209129 SIZE=AXI4_SIZE_4B BURST=AXI4_BURST_INCR (AlignmentOffset=1)
# UVM_INFO ../src/mst/axi4_master_driver.sv(55) @ 68685000: uvm_test_top.env.master_agent.drv [axi4_master_driver] Driving AXI4_WRITE  ID=0xe  ADDR=0x12bd576e  LEN=209
# UVM_INFO ../src/mst/axi4_master_driver.sv(94) @ 68685000: uvm_test_top.env.master_agent.drv [axi4_master_driver] Write order: AW || W (parallel)
# UVM_INFO ../src/slv/axi4_slave_driver.sv(165) @ 68715000: uvm_test_top.env.slave_agent.drv [axi4_slave_driver] AW received: ID=0xe ADDR=0x12bd576e LEN=209 LOCK=AXI4_LOCK_EXCLUSIVE
# UVM_INFO ../src/slv/axi4_slave_monitor.sv(116) @ 68715000: uvm_test_top.env.slave_agent.mon [axi4_slave_monitor] AW received: ID=0xe ADDR=0x12bd576e LEN=209
# UVM_INFO ../src/mst/axi4_master_monitor.sv(124) @ 68715000: uvm_test_top.env.master_agent.mon [axi4_master_monitor] AW observed: ID=0xe ADDR=0x12bd576e LEN=209
# UVM_INFO ../src/mst/axi4_master_monitor.sv(184) @ 72885000: uvm_test_top.env.master_agent.mon [axi4_master_monitor] W data assembled: ID=0xe ADDR=0x12bd576e 210 beats
# UVM_INFO ../src/slv/axi4_slave_monitor.sv(167) @ 72885000: uvm_test_top.env.slave_agent.mon [axi4_slave_monitor] W data assembled: ID=0xe ADDR=0x12bd576e 210 beats
# UVM_INFO ../src/mst/axi4_master_driver.sv(197) @ 72915000: uvm_test_top.env.master_agent.drv [axi4_master_driver] Write response: AXI4_RESP_OKAY
# UVM_INFO ../src/slv/axi4_slave_driver.sv(261) @ 72915000: uvm_test_top.env.slave_agent.drv [axi4_slave_driver] Write complete: ID=0xe ADDR=0x12bd576e RESP=AXI4_RESP_OKAY  210 beats processed
# UVM_INFO ../src/slv/axi4_slave_monitor.sv(189) @ 72915000: uvm_test_top.env.slave_agent.mon [axi4_slave_monitor] Write response sent: ID=0xe ADDR=0x12bd576e RESP=AXI4_RESP_OKAY
# UVM_INFO ../src/env/axi4_scoreboard.sv(103) @ 72915000: uvm_test_top.env.scb [axi4_scoreboard] Slave AXI4_WRITE received: ID=0xe ADDR=0x12bd576e LEN=209
# UVM_INFO ../src/mst/axi4_master_monitor.sv(210) @ 72915000: uvm_test_top.env.master_agent.mon [axi4_master_monitor] Write complete: ID=0xe ADDR=0x12bd576e RESP=AXI4_RESP_OKAY
# UVM_INFO ../src/env/axi4_scoreboard.sv(82) @ 72915000: uvm_test_top.env.scb [axi4_scoreboard] Master AXI4_WRITE received: ID=0xe ADDR=0x12bd576e LEN=209
# UVM_INFO ../src/env/axi4_scoreboard.sv(154) @ 72915000: uvm_test_top.env.scb [axi4_scoreboard] [WRITE] MATCH #33: ID=0xe ADDR=0x12bd576e LEN=209
# UVM_INFO ../src/seq/axi4_unaligned_seq.sv(51) @ 72915000: uvm_test_top.env.master_agent.sqr@@unalign_seq [axi4_unaligned_seq] [33/40] Unaligned AXI4_WRITE: ADDR=0x12bd576e SIZE=AXI4_SIZE_4B BURST=AXI4_BURST_INCR (AlignmentOffset=2)
# UVM_INFO ../src/mst/axi4_master_driver.sv(55) @ 72915000: uvm_test_top.env.master_agent.drv [axi4_master_driver] Driving AXI4_READ  ID=0xa  ADDR=0x8bcfa175  LEN=234
# UVM_INFO ../src/slv/axi4_slave_driver.sv(300) @ 72945000: uvm_test_top.env.slave_agent.drv [axi4_slave_driver] AR received: ID=0xa ADDR=0x8bcfa175 LEN=234 LOCK=AXI4_LOCK_NORMAL
# UVM_INFO ../src/mst/axi4_master_monitor.sv(246) @ 72945000: uvm_test_top.env.master_agent.mon [axi4_master_monitor] AR observed: ID=0xa ADDR=0x8bcfa175 LEN=234
# UVM_INFO ../src/slv/axi4_slave_monitor.sv(224) @ 72945000: uvm_test_top.env.slave_agent.mon [axi4_slave_monitor] AR received: ID=0xa ADDR=0x8bcfa175 LEN=234
# UVM_INFO ../src/mst/axi4_master_driver.sv(254) @ 77645000: uvm_test_top.env.master_agent.drv [axi4_master_driver] Read complete: 235 beats received
# UVM_INFO ../src/slv/axi4_slave_driver.sv(349) @ 77645000: uvm_test_top.env.slave_agent.drv [axi4_slave_driver] Read complete: ID=0xa ADDR=0x8bcfa175 RESP=AXI4_RESP_OKAY  235 beats sent
# UVM_INFO ../src/mst/axi4_master_monitor.sv(314) @ 77645000: uvm_test_top.env.master_agent.mon [axi4_master_monitor] Read complete: ID=0xa ADDR=0x8bcfa175 235 beats
# UVM_INFO ../src/env/axi4_scoreboard.sv(82) @ 77645000: uvm_test_top.env.scb [axi4_scoreboard] Master AXI4_READ received: ID=0xa ADDR=0x8bcfa175 LEN=234
# UVM_INFO ../src/slv/axi4_slave_monitor.sv(287) @ 77645000: uvm_test_top.env.slave_agent.mon [axi4_slave_monitor] Read data sent: ID=0xa ADDR=0x8bcfa175 235 beats
# UVM_INFO ../src/env/axi4_scoreboard.sv(103) @ 77645000: uvm_test_top.env.scb [axi4_scoreboard] Slave AXI4_READ received: ID=0xa ADDR=0x8bcfa175 LEN=234
# UVM_INFO ../src/env/axi4_scoreboard.sv(154) @ 77645000: uvm_test_top.env.scb [axi4_scoreboard] [READ] MATCH #34: ID=0xa ADDR=0x8bcfa175 LEN=234
# UVM_INFO ../src/seq/axi4_unaligned_seq.sv(51) @ 77645000: uvm_test_top.env.master_agent.sqr@@unalign_seq [axi4_unaligned_seq] [34/40] Unaligned AXI4_READ: ADDR=0x8bcfa175 SIZE=AXI4_SIZE_2B BURST=AXI4_BURST_INCR (AlignmentOffset=1)
# UVM_INFO ../src/mst/axi4_master_driver.sv(55) @ 77645000: uvm_test_top.env.master_agent.drv [axi4_master_driver] Driving AXI4_WRITE  ID=0x3  ADDR=0x61a001af  LEN=152
# UVM_INFO ../src/mst/axi4_master_driver.sv(106) @ 77645000: uvm_test_top.env.master_agent.drv [axi4_master_driver] Write order: W -> AW (W first)
# UVM_INFO ../src/slv/axi4_slave_driver.sv(165) @ 77725000: uvm_test_top.env.slave_agent.drv [axi4_slave_driver] AW received: ID=0x3 ADDR=0x61a001af LEN=152 LOCK=AXI4_LOCK_NORMAL
# UVM_INFO ../src/mst/axi4_master_monitor.sv(124) @ 77725000: uvm_test_top.env.master_agent.mon [axi4_master_monitor] AW observed: ID=0x3 ADDR=0x61a001af LEN=152
# UVM_INFO ../src/slv/axi4_slave_monitor.sv(116) @ 77725000: uvm_test_top.env.slave_agent.mon [axi4_slave_monitor] AW received: ID=0x3 ADDR=0x61a001af LEN=152
# UVM_INFO ../src/mst/axi4_master_monitor.sv(184) @ 80705000: uvm_test_top.env.master_agent.mon [axi4_master_monitor] W data assembled: ID=0x3 ADDR=0x61a001af 153 beats
# UVM_INFO ../src/slv/axi4_slave_monitor.sv(167) @ 80705000: uvm_test_top.env.slave_agent.mon [axi4_slave_monitor] W data assembled: ID=0x3 ADDR=0x61a001af 153 beats
# UVM_INFO ../src/mst/axi4_master_driver.sv(197) @ 80735000: uvm_test_top.env.master_agent.drv [axi4_master_driver] Write response: AXI4_RESP_OKAY
# UVM_INFO ../src/slv/axi4_slave_driver.sv(261) @ 80735000: uvm_test_top.env.slave_agent.drv [axi4_slave_driver] Write complete: ID=0x3 ADDR=0x61a001af RESP=AXI4_RESP_OKAY  153 beats processed
# UVM_INFO ../src/slv/axi4_slave_monitor.sv(189) @ 80735000: uvm_test_top.env.slave_agent.mon [axi4_slave_monitor] Write response sent: ID=0x3 ADDR=0x61a001af RESP=AXI4_RESP_OKAY
# UVM_INFO ../src/env/axi4_scoreboard.sv(103) @ 80735000: uvm_test_top.env.scb [axi4_scoreboard] Slave AXI4_WRITE received: ID=0x3 ADDR=0x61a001af LEN=152
# UVM_INFO ../src/mst/axi4_master_monitor.sv(210) @ 80735000: uvm_test_top.env.master_agent.mon [axi4_master_monitor] Write complete: ID=0x3 ADDR=0x61a001af RESP=AXI4_RESP_OKAY
# UVM_INFO ../src/env/axi4_scoreboard.sv(82) @ 80735000: uvm_test_top.env.scb [axi4_scoreboard] Master AXI4_WRITE received: ID=0x3 ADDR=0x61a001af LEN=152
# UVM_INFO ../src/env/axi4_scoreboard.sv(154) @ 80735000: uvm_test_top.env.scb [axi4_scoreboard] [WRITE] MATCH #35: ID=0x3 ADDR=0x61a001af LEN=152
# UVM_INFO ../src/seq/axi4_unaligned_seq.sv(51) @ 80735000: uvm_test_top.env.master_agent.sqr@@unalign_seq [axi4_unaligned_seq] [35/40] Unaligned AXI4_WRITE: ADDR=0x61a001af SIZE=AXI4_SIZE_2B BURST=AXI4_BURST_INCR (AlignmentOffset=1)
# UVM_INFO ../src/mst/axi4_master_driver.sv(55) @ 80735000: uvm_test_top.env.master_agent.drv [axi4_master_driver] Driving AXI4_WRITE  ID=0xf  ADDR=0x90813233  LEN=43
# UVM_INFO ../src/mst/axi4_master_driver.sv(101) @ 80735000: uvm_test_top.env.master_agent.drv [axi4_master_driver] Write order: AW -> W (sequential)
# UVM_INFO ../src/slv/axi4_slave_driver.sv(165) @ 80765000: uvm_test_top.env.slave_agent.drv [axi4_slave_driver] AW received: ID=0xf ADDR=0x90813233 LEN=43 LOCK=AXI4_LOCK_NORMAL
# UVM_INFO ../src/mst/axi4_master_monitor.sv(124) @ 80765000: uvm_test_top.env.master_agent.mon [axi4_master_monitor] AW observed: ID=0xf ADDR=0x90813233 LEN=43
# UVM_INFO ../src/slv/axi4_slave_monitor.sv(116) @ 80765000: uvm_test_top.env.slave_agent.mon [axi4_slave_monitor] AW received: ID=0xf ADDR=0x90813233 LEN=43
# UVM_INFO ../src/mst/axi4_master_monitor.sv(184) @ 81645000: uvm_test_top.env.master_agent.mon [axi4_master_monitor] W data assembled: ID=0xf ADDR=0x90813233 44 beats
# UVM_INFO ../src/slv/axi4_slave_monitor.sv(167) @ 81645000: uvm_test_top.env.slave_agent.mon [axi4_slave_monitor] W data assembled: ID=0xf ADDR=0x90813233 44 beats
# UVM_INFO ../src/mst/axi4_master_driver.sv(197) @ 81675000: uvm_test_top.env.master_agent.drv [axi4_master_driver] Write response: AXI4_RESP_OKAY
# UVM_INFO ../src/slv/axi4_slave_driver.sv(261) @ 81675000: uvm_test_top.env.slave_agent.drv [axi4_slave_driver] Write complete: ID=0xf ADDR=0x90813233 RESP=AXI4_RESP_OKAY  44 beats processed
# UVM_INFO ../src/slv/axi4_slave_monitor.sv(189) @ 81675000: uvm_test_top.env.slave_agent.mon [axi4_slave_monitor] Write response sent: ID=0xf ADDR=0x90813233 RESP=AXI4_RESP_OKAY
# UVM_INFO ../src/env/axi4_scoreboard.sv(103) @ 81675000: uvm_test_top.env.scb [axi4_scoreboard] Slave AXI4_WRITE received: ID=0xf ADDR=0x90813233 LEN=43
# UVM_INFO ../src/mst/axi4_master_monitor.sv(210) @ 81675000: uvm_test_top.env.master_agent.mon [axi4_master_monitor] Write complete: ID=0xf ADDR=0x90813233 RESP=AXI4_RESP_OKAY
# UVM_INFO ../src/env/axi4_scoreboard.sv(82) @ 81675000: uvm_test_top.env.scb [axi4_scoreboard] Master AXI4_WRITE received: ID=0xf ADDR=0x90813233 LEN=43
# UVM_INFO ../src/env/axi4_scoreboard.sv(154) @ 81675000: uvm_test_top.env.scb [axi4_scoreboard] [WRITE] MATCH #36: ID=0xf ADDR=0x90813233 LEN=43
# UVM_INFO ../src/seq/axi4_unaligned_seq.sv(51) @ 81675000: uvm_test_top.env.master_agent.sqr@@unalign_seq [axi4_unaligned_seq] [36/40] Unaligned AXI4_WRITE: ADDR=0x90813233 SIZE=AXI4_SIZE_2B BURST=AXI4_BURST_INCR (AlignmentOffset=1)
# UVM_INFO ../src/mst/axi4_master_driver.sv(55) @ 81675000: uvm_test_top.env.master_agent.drv [axi4_master_driver] Driving AXI4_READ  ID=0x6  ADDR=0xa1e3070b  LEN=67
# UVM_INFO ../src/slv/axi4_slave_driver.sv(300) @ 81705000: uvm_test_top.env.slave_agent.drv [axi4_slave_driver] AR received: ID=0x6 ADDR=0xa1e3070b LEN=67 LOCK=AXI4_LOCK_NORMAL
# UVM_INFO ../src/mst/axi4_master_monitor.sv(246) @ 81705000: uvm_test_top.env.master_agent.mon [axi4_master_monitor] AR observed: ID=0x6 ADDR=0xa1e3070b LEN=67
# UVM_INFO ../src/slv/axi4_slave_monitor.sv(224) @ 81705000: uvm_test_top.env.slave_agent.mon [axi4_slave_monitor] AR received: ID=0x6 ADDR=0xa1e3070b LEN=67
# UVM_INFO ../src/mst/axi4_master_driver.sv(254) @ 83065000: uvm_test_top.env.master_agent.drv [axi4_master_driver] Read complete: 68 beats received
# UVM_INFO ../src/slv/axi4_slave_driver.sv(349) @ 83065000: uvm_test_top.env.slave_agent.drv [axi4_slave_driver] Read complete: ID=0x6 ADDR=0xa1e3070b RESP=AXI4_RESP_OKAY  68 beats sent
# UVM_INFO ../src/mst/axi4_master_monitor.sv(314) @ 83065000: uvm_test_top.env.master_agent.mon [axi4_master_monitor] Read complete: ID=0x6 ADDR=0xa1e3070b 68 beats
# UVM_INFO ../src/env/axi4_scoreboard.sv(82) @ 83065000: uvm_test_top.env.scb [axi4_scoreboard] Master AXI4_READ received: ID=0x6 ADDR=0xa1e3070b LEN=67
# UVM_INFO ../src/slv/axi4_slave_monitor.sv(287) @ 83065000: uvm_test_top.env.slave_agent.mon [axi4_slave_monitor] Read data sent: ID=0x6 ADDR=0xa1e3070b 68 beats
# UVM_INFO ../src/env/axi4_scoreboard.sv(103) @ 83065000: uvm_test_top.env.scb [axi4_scoreboard] Slave AXI4_READ received: ID=0x6 ADDR=0xa1e3070b LEN=67
# UVM_INFO ../src/env/axi4_scoreboard.sv(154) @ 83065000: uvm_test_top.env.scb [axi4_scoreboard] [READ] MATCH #37: ID=0x6 ADDR=0xa1e3070b LEN=67
# UVM_INFO ../src/seq/axi4_unaligned_seq.sv(51) @ 83065000: uvm_test_top.env.master_agent.sqr@@unalign_seq [axi4_unaligned_seq] [37/40] Unaligned AXI4_READ: ADDR=0xa1e3070b SIZE=AXI4_SIZE_4B BURST=AXI4_BURST_INCR (AlignmentOffset=3)
# UVM_INFO ../src/mst/axi4_master_driver.sv(55) @ 83065000: uvm_test_top.env.master_agent.drv [axi4_master_driver] Driving AXI4_WRITE  ID=0xc  ADDR=0x466ae11b  LEN=15
# UVM_INFO ../src/mst/axi4_master_driver.sv(94) @ 83065000: uvm_test_top.env.master_agent.drv [axi4_master_driver] Write order: AW || W (parallel)
# UVM_INFO ../src/slv/axi4_slave_driver.sv(165) @ 83095000: uvm_test_top.env.slave_agent.drv [axi4_slave_driver] AW received: ID=0xc ADDR=0x466ae11b LEN=15 LOCK=AXI4_LOCK_NORMAL
# UVM_INFO ../src/slv/axi4_slave_monitor.sv(116) @ 83095000: uvm_test_top.env.slave_agent.mon [axi4_slave_monitor] AW received: ID=0xc ADDR=0x466ae11b LEN=15
# UVM_INFO ../src/mst/axi4_master_monitor.sv(124) @ 83095000: uvm_test_top.env.master_agent.mon [axi4_master_monitor] AW observed: ID=0xc ADDR=0x466ae11b LEN=15
# UVM_INFO ../src/mst/axi4_master_monitor.sv(184) @ 83385000: uvm_test_top.env.master_agent.mon [axi4_master_monitor] W data assembled: ID=0xc ADDR=0x466ae11b 16 beats
# UVM_INFO ../src/slv/axi4_slave_monitor.sv(167) @ 83385000: uvm_test_top.env.slave_agent.mon [axi4_slave_monitor] W data assembled: ID=0xc ADDR=0x466ae11b 16 beats
# UVM_INFO ../src/mst/axi4_master_driver.sv(197) @ 83415000: uvm_test_top.env.master_agent.drv [axi4_master_driver] Write response: AXI4_RESP_OKAY
# UVM_INFO ../src/slv/axi4_slave_driver.sv(261) @ 83415000: uvm_test_top.env.slave_agent.drv [axi4_slave_driver] Write complete: ID=0xc ADDR=0x466ae11b RESP=AXI4_RESP_OKAY  16 beats processed
# UVM_INFO ../src/slv/axi4_slave_monitor.sv(189) @ 83415000: uvm_test_top.env.slave_agent.mon [axi4_slave_monitor] Write response sent: ID=0xc ADDR=0x466ae11b RESP=AXI4_RESP_OKAY
# UVM_INFO ../src/env/axi4_scoreboard.sv(103) @ 83415000: uvm_test_top.env.scb [axi4_scoreboard] Slave AXI4_WRITE received: ID=0xc ADDR=0x466ae11b LEN=15
# UVM_INFO ../src/mst/axi4_master_monitor.sv(210) @ 83415000: uvm_test_top.env.master_agent.mon [axi4_master_monitor] Write complete: ID=0xc ADDR=0x466ae11b RESP=AXI4_RESP_OKAY
# UVM_INFO ../src/env/axi4_scoreboard.sv(82) @ 83415000: uvm_test_top.env.scb [axi4_scoreboard] Master AXI4_WRITE received: ID=0xc ADDR=0x466ae11b LEN=15
# UVM_INFO ../src/env/axi4_scoreboard.sv(154) @ 83415000: uvm_test_top.env.scb [axi4_scoreboard] [WRITE] MATCH #38: ID=0xc ADDR=0x466ae11b LEN=15
# UVM_INFO ../src/seq/axi4_unaligned_seq.sv(51) @ 83415000: uvm_test_top.env.master_agent.sqr@@unalign_seq [axi4_unaligned_seq] [38/40] Unaligned AXI4_WRITE: ADDR=0x466ae11b SIZE=AXI4_SIZE_2B BURST=AXI4_BURST_FIXED (AlignmentOffset=1)
# UVM_INFO ../src/mst/axi4_master_driver.sv(55) @ 83415000: uvm_test_top.env.master_agent.drv [axi4_master_driver] Driving AXI4_WRITE  ID=0xf  ADDR=0x1a0f220d  LEN=41
# UVM_INFO ../src/mst/axi4_master_driver.sv(94) @ 83415000: uvm_test_top.env.master_agent.drv [axi4_master_driver] Write order: AW || W (parallel)
# UVM_INFO ../src/slv/axi4_slave_driver.sv(165) @ 83445000: uvm_test_top.env.slave_agent.drv [axi4_slave_driver] AW received: ID=0xf ADDR=0x1a0f220d LEN=41 LOCK=AXI4_LOCK_NORMAL
# UVM_INFO ../src/mst/axi4_master_monitor.sv(124) @ 83445000: uvm_test_top.env.master_agent.mon [axi4_master_monitor] AW observed: ID=0xf ADDR=0x1a0f220d LEN=41
# UVM_INFO ../src/slv/axi4_slave_monitor.sv(116) @ 83445000: uvm_test_top.env.slave_agent.mon [axi4_slave_monitor] AW received: ID=0xf ADDR=0x1a0f220d LEN=41
# UVM_INFO ../src/slv/axi4_slave_monitor.sv(167) @ 84255000: uvm_test_top.env.slave_agent.mon [axi4_slave_monitor] W data assembled: ID=0xf ADDR=0x1a0f220d 42 beats
# UVM_INFO ../src/mst/axi4_master_monitor.sv(184) @ 84255000: uvm_test_top.env.master_agent.mon [axi4_master_monitor] W data assembled: ID=0xf ADDR=0x1a0f220d 42 beats
# UVM_INFO ../src/mst/axi4_master_driver.sv(197) @ 84285000: uvm_test_top.env.master_agent.drv [axi4_master_driver] Write response: AXI4_RESP_OKAY
# UVM_INFO ../src/slv/axi4_slave_driver.sv(261) @ 84285000: uvm_test_top.env.slave_agent.drv [axi4_slave_driver] Write complete: ID=0xf ADDR=0x1a0f220d RESP=AXI4_RESP_OKAY  42 beats processed
# UVM_INFO ../src/mst/axi4_master_monitor.sv(210) @ 84285000: uvm_test_top.env.master_agent.mon [axi4_master_monitor] Write complete: ID=0xf ADDR=0x1a0f220d RESP=AXI4_RESP_OKAY
# UVM_INFO ../src/env/axi4_scoreboard.sv(82) @ 84285000: uvm_test_top.env.scb [axi4_scoreboard] Master AXI4_WRITE received: ID=0xf ADDR=0x1a0f220d LEN=41
# UVM_INFO ../src/slv/axi4_slave_monitor.sv(189) @ 84285000: uvm_test_top.env.slave_agent.mon [axi4_slave_monitor] Write response sent: ID=0xf ADDR=0x1a0f220d RESP=AXI4_RESP_OKAY
# UVM_INFO ../src/env/axi4_scoreboard.sv(103) @ 84285000: uvm_test_top.env.scb [axi4_scoreboard] Slave AXI4_WRITE received: ID=0xf ADDR=0x1a0f220d LEN=41
# UVM_INFO ../src/env/axi4_scoreboard.sv(154) @ 84285000: uvm_test_top.env.scb [axi4_scoreboard] [WRITE] MATCH #39: ID=0xf ADDR=0x1a0f220d LEN=41
# UVM_INFO ../src/seq/axi4_unaligned_seq.sv(51) @ 84285000: uvm_test_top.env.master_agent.sqr@@unalign_seq [axi4_unaligned_seq] [39/40] Unaligned AXI4_WRITE: ADDR=0x1a0f220d SIZE=AXI4_SIZE_4B BURST=AXI4_BURST_INCR (AlignmentOffset=1)
# UVM_INFO ../src/mst/axi4_master_driver.sv(55) @ 84285000: uvm_test_top.env.master_agent.drv [axi4_master_driver] Driving AXI4_WRITE  ID=0xa  ADDR=0x13622b6b  LEN=159
# UVM_INFO ../src/mst/axi4_master_driver.sv(94) @ 84285000: uvm_test_top.env.master_agent.drv [axi4_master_driver] Write order: AW || W (parallel)
# UVM_INFO ../src/slv/axi4_slave_driver.sv(165) @ 84315000: uvm_test_top.env.slave_agent.drv [axi4_slave_driver] AW received: ID=0xa ADDR=0x13622b6b LEN=159 LOCK=AXI4_LOCK_EXCLUSIVE
# UVM_INFO ../src/slv/axi4_slave_monitor.sv(116) @ 84315000: uvm_test_top.env.slave_agent.mon [axi4_slave_monitor] AW received: ID=0xa ADDR=0x13622b6b LEN=159
# UVM_INFO ../src/mst/axi4_master_monitor.sv(124) @ 84315000: uvm_test_top.env.master_agent.mon [axi4_master_monitor] AW observed: ID=0xa ADDR=0x13622b6b LEN=159
# UVM_INFO ../src/mst/axi4_master_monitor.sv(184) @ 87485000: uvm_test_top.env.master_agent.mon [axi4_master_monitor] W data assembled: ID=0xa ADDR=0x13622b6b 160 beats
# UVM_INFO ../src/slv/axi4_slave_monitor.sv(167) @ 87485000: uvm_test_top.env.slave_agent.mon [axi4_slave_monitor] W data assembled: ID=0xa ADDR=0x13622b6b 160 beats
