# vsim -c -coverage -sv_seed 47073675 "+UVM_TESTNAME=axi4_cache_prot_test" "+UVM_VERBOSITY=UVM_HIGH" "+DUMP_VCD" -l ./report/logs/axi4_cache_prot_test_run_3_seed_47073675.log -do "coverage save -onexit ./report/coverage/axi4_cache_prot_test_run_3_seed_47073675.ucdb; run -all; quit -f" opt_tb_top 
# Start time: 14:08:15 on Jun 11,2026
# //  Questa Sim-64
# //  Version 10.6b linux_x86_64 May 25 2017
# //
# //  Copyright 1991-2017 Mentor Graphics Corporation
# //  All Rights Reserved.
# //
# //  QuestaSim and its associated documentation contain trade
# //  secrets and commercial or financial information that are the property of
# //  Mentor Graphics Corporation and are privileged, confidential,
# //  and exempt from disclosure under the Freedom of Information Act,
# //  5 U.S.C. Section 552. Furthermore, this information
# //  is prohibited from disclosure under the Trade Secrets Act,
# //  18 U.S.C. Section 1905.
# //
# Loading sv_std.std
# Loading work.axi4_if(fast)
# Loading mtiUvm.uvm_pkg
# Loading work.axi4_pkg(fast)
# Loading work.axi4_test_pkg(fast)
# Loading work.tb_top(fast)
# Loading work.axi4_if(fast)
# Loading work.axi4_sva(fast)
# Loading mtiUvm.questa_uvm_pkg(fast)
# Loading /cadtools/mentor/Questa_10.6b/questasim/uvm-1.1d/linux_x86_64/uvm_dpi.so
# coverage save -onexit ./report/coverage/axi4_cache_prot_test_run_3_seed_47073675.ucdb
#  run -all
# ----------------------------------------------------------------
# UVM-1.1d
# (C) 2007-2013 Mentor Graphics Corporation
# (C) 2007-2013 Cadence Design Systems, Inc.
# (C) 2006-2013 Synopsys, Inc.
# (C) 2011-2013 Cypress Semiconductor Corp.
# ----------------------------------------------------------------
# 
#   ***********       IMPORTANT RELEASE NOTES         ************
# 
#   You are using a version of the UVM library that has been compiled
#   with `UVM_NO_DEPRECATED undefined.
#   See http://www.eda.org/svdb/view.php?id=3313 for more details.
# 
#   You are using a version of the UVM library that has been compiled
#   with `UVM_OBJECT_MUST_HAVE_CONSTRUCTOR undefined.
#   See http://www.eda.org/svdb/view.php?id=3770 for more details.
# 
#       (Specify +UVM_NO_RELNOTES to turn off this notice)
# 
# UVM_INFO verilog_src/questa_uvm_pkg-1.2/src/questa_uvm_pkg.sv(215) @ 0: reporter [Questa UVM] QUESTA_UVM-1.2.3
# UVM_INFO verilog_src/questa_uvm_pkg-1.2/src/questa_uvm_pkg.sv(217) @ 0: reporter [Questa UVM]  questa_uvm::init(+struct)
# UVM_INFO ../src/tb_top.sv(128) @ 0: reporter [TB_TOP] Virtual interface set in config_db
# UVM_INFO @ 0: reporter [RNTST] Running test axi4_cache_prot_test...
# UVM_INFO ../src/tb_top.sv(142) @ 0: reporter [TB_TOP] Waveform VCD dumping enabled (axi4_vip.vcd)
# UVM_INFO ../src/env/axi4_vip_env.sv(83) @ 0: uvm_test_top.env [axi4_vip_env] slave_vif not set - reusing master_vif (passthrough mode)
# UVM_INFO ../src/env/axi4_vip_env.sv(93) @ 0: uvm_test_top.env [axi4_vip_env] Scoreboard created
# UVM_INFO ../src/env/axi4_vip_env.sv(100) @ 0: uvm_test_top.env [axi4_vip_env] Coverage collectors created
# UVM_INFO ../src/mst/axi4_master_agent.sv(69) @ 0: uvm_test_top.env.master_agent [axi4_master_agent] ACTIVE mode - driver + sequencer created
# UVM_INFO ../src/slv/axi4_slave_agent.sv(82) @ 0: uvm_test_top.env.slave_agent [axi4_slave_agent] ACTIVE mode — ready_delay=[0:0] resp_delay=[0:0]
# UVM_INFO ../src/env/axi4_vip_env.sv(116) @ 0: uvm_test_top.env [axi4_vip_env] Scoreboard connected: master_mon.ap -> scb, slave_mon.ap -> scb
# UVM_INFO ../src/env/axi4_vip_env.sv(124) @ 0: uvm_test_top.env [axi4_vip_env] Coverage connected: master_mon.ap -> master_cov, slave_mon.ap -> slave_cov
# UVM_INFO @ 0: reporter [UVMTOP] UVM testbench topology:
# ---------------------------------------------------------------
# Name                       Type                     Size  Value
# ---------------------------------------------------------------
# uvm_test_top               axi4_cache_prot_test     -     @473 
#   env                      axi4_vip_env             -     @488 
#     master_agent           axi4_master_agent        -     @503 
#       drv                  axi4_master_driver       -     @567 
#         rsp_port           uvm_analysis_port        -     @582 
#         seq_item_port      uvm_seq_item_pull_port   -     @574 
#       mon                  axi4_master_monitor      -     @559 
#         ap                 uvm_analysis_port        -     @700 
#       sqr                  axi4_master_sequencer    -     @590 
#         rsp_export         uvm_analysis_export      -     @597 
#         seq_item_export    uvm_seq_item_pull_imp    -     @691 
#         arbitration_queue  array                    0     -    
#         lock_queue         array                    0     -    
#         num_last_reqs      integral                 32    'd1  
#         num_last_rsps      integral                 32    'd1  
#     master_cov             axi4_coverage            -     @524 
#       analysis_imp         uvm_analysis_imp         -     @531 
#     scb                    axi4_scoreboard          -     @517 
#       master_export        uvm_analysis_imp_master  -     @714 
#       slave_export         uvm_analysis_imp_slave   -     @722 
#     slave_agent            axi4_slave_agent         -     @510 
#       drv                  axi4_slave_driver        -     @753 
#         rsp_port           uvm_analysis_port        -     @768 
#         seq_item_port      uvm_seq_item_pull_port   -     @760 
#       mon                  axi4_slave_monitor       -     @735 
#         ap                 uvm_analysis_port        -     @892 
#       sqr                  axi4_slave_sequencer     -     @776 
#         rsp_export         uvm_analysis_export      -     @783 
#         seq_item_export    uvm_seq_item_pull_imp    -     @877 
#         arbitration_queue  array                    0     -    
#         lock_queue         array                    0     -    
#         num_last_reqs      integral                 32    'd1  
#         num_last_rsps      integral                 32    'd1  
#     slave_cov              axi4_coverage            -     @539 
#       analysis_imp         uvm_analysis_imp         -     @546 
# ---------------------------------------------------------------
# 
# UVM_INFO verilog_src/questa_uvm_pkg-1.2/src/questa_uvm_pkg.sv(277) @ 0: reporter [Questa UVM] End Of Elaboration
# UVM_INFO ../src/test/axi4_cache_prot_test.sv(24) @ 0: uvm_test_top [axi4_cache_prot_test] Starting cache and protection attributes sweep test
# UVM_INFO ../src/seq/axi4_cache_prot_seq.sv(25) @ 0: uvm_test_top.env.master_agent.sqr@@cp_seq [axi4_cache_prot_seq] Starting cache and prot attribute sweep sequence
# UVM_INFO ../src/tb_top.sv(49) @ 95000: reporter [TOP_TB] Reset de-asserted
# UVM_INFO ../src/slv/axi4_slave_driver.sv(122) @ 95000: uvm_test_top.env.slave_agent.drv [axi4_slave_driver] Reset deasserted - slave driver active
# UVM_INFO ../src/mst/axi4_master_driver.sv(64) @ 95000: uvm_test_top.env.master_agent.drv [axi4_master_driver] Reset deasserted - master driver active
# UVM_INFO ../src/mst/axi4_master_monitor.sv(77) @ 95000: uvm_test_top.env.master_agent.mon [axi4_master_monitor] Reset deasserted - monitor active
# UVM_INFO ../src/slv/axi4_slave_monitor.sv(71) @ 95000: uvm_test_top.env.slave_agent.mon [axi4_slave_monitor] Reset deasserted - monitor active
# UVM_INFO ../src/mst/axi4_master_driver.sv(73) @ 95000: uvm_test_top.env.master_agent.drv [axi4_master_driver] Driving AXI4_WRITE  ID=0xd  ADDR=0xba0d56bd  LEN=51
# UVM_INFO ../src/mst/axi4_master_driver.sv(73) @ 95000: uvm_test_top.env.master_agent.drv [axi4_master_driver] Driving AXI4_READ  ID=0x8  ADDR=0xde701bb6  LEN=157
# UVM_INFO ../src/seq/axi4_cache_prot_seq.sv(60) @ 95000: uvm_test_top.env.master_agent.sqr@@cp_seq [axi4_cache_prot_seq] [1/16] Swept CACHE=0b0000 PROT=0b000 (Write & Read)
# UVM_INFO ../src/mst/axi4_master_driver.sv(73) @ 95000: uvm_test_top.env.master_agent.drv [axi4_master_driver] Driving AXI4_WRITE  ID=0x6  ADDR=0xd077dbfc  LEN=3
# UVM_INFO ../src/mst/axi4_master_driver.sv(73) @ 95000: uvm_test_top.env.master_agent.drv [axi4_master_driver] Driving AXI4_READ  ID=0x1  ADDR=0x1e8199be  LEN=3
# UVM_INFO ../src/seq/axi4_cache_prot_seq.sv(60) @ 95000: uvm_test_top.env.master_agent.sqr@@cp_seq [axi4_cache_prot_seq] [2/16] Swept CACHE=0b0001 PROT=0b001 (Write & Read)
# UVM_INFO ../src/mst/axi4_master_driver.sv(73) @ 95000: uvm_test_top.env.master_agent.drv [axi4_master_driver] Driving AXI4_WRITE  ID=0xc  ADDR=0x78127035  LEN=147
# UVM_INFO ../src/mst/axi4_master_driver.sv(73) @ 95000: uvm_test_top.env.master_agent.drv [axi4_master_driver] Driving AXI4_READ  ID=0xb  ADDR=0xaff92d57  LEN=120
# UVM_INFO ../src/seq/axi4_cache_prot_seq.sv(60) @ 95000: uvm_test_top.env.master_agent.sqr@@cp_seq [axi4_cache_prot_seq] [3/16] Swept CACHE=0b0010 PROT=0b010 (Write & Read)
# UVM_INFO ../src/mst/axi4_master_driver.sv(73) @ 95000: uvm_test_top.env.master_agent.drv [axi4_master_driver] Driving AXI4_WRITE  ID=0x7  ADDR=0x03b85d4d  LEN=107
# UVM_INFO ../src/mst/axi4_master_driver.sv(73) @ 95000: uvm_test_top.env.master_agent.drv [axi4_master_driver] Driving AXI4_READ  ID=0x7  ADDR=0xbd69e727  LEN=156
# UVM_INFO ../src/seq/axi4_cache_prot_seq.sv(60) @ 95000: uvm_test_top.env.master_agent.sqr@@cp_seq [axi4_cache_prot_seq] [4/16] Swept CACHE=0b0011 PROT=0b011 (Write & Read)
# UVM_INFO ../src/mst/axi4_master_driver.sv(73) @ 95000: uvm_test_top.env.master_agent.drv [axi4_master_driver] Driving AXI4_WRITE  ID=0x2  ADDR=0xc341f626  LEN=216
# UVM_INFO ../src/mst/axi4_master_driver.sv(73) @ 95000: uvm_test_top.env.master_agent.drv [axi4_master_driver] Driving AXI4_READ  ID=0x6  ADDR=0xc1a7000f  LEN=13
# UVM_INFO ../src/seq/axi4_cache_prot_seq.sv(60) @ 95000: uvm_test_top.env.master_agent.sqr@@cp_seq [axi4_cache_prot_seq] [5/16] Swept CACHE=0b0100 PROT=0b100 (Write & Read)
# UVM_INFO ../src/mst/axi4_master_driver.sv(73) @ 95000: uvm_test_top.env.master_agent.drv [axi4_master_driver] Driving AXI4_WRITE  ID=0xc  ADDR=0x98b9c6cc  LEN=1
# UVM_INFO ../src/mst/axi4_master_driver.sv(73) @ 95000: uvm_test_top.env.master_agent.drv [axi4_master_driver] Driving AXI4_READ  ID=0x2  ADDR=0x70796737  LEN=253
# UVM_INFO ../src/seq/axi4_cache_prot_seq.sv(60) @ 95000: uvm_test_top.env.master_agent.sqr@@cp_seq [axi4_cache_prot_seq] [6/16] Swept CACHE=0b0101 PROT=0b101 (Write & Read)
# UVM_INFO ../src/mst/axi4_master_driver.sv(73) @ 95000: uvm_test_top.env.master_agent.drv [axi4_master_driver] Driving AXI4_WRITE  ID=0x5  ADDR=0xb58021fc  LEN=15
# UVM_INFO ../src/mst/axi4_master_driver.sv(73) @ 95000: uvm_test_top.env.master_agent.drv [axi4_master_driver] Driving AXI4_READ  ID=0x3  ADDR=0x9cf3faf9  LEN=160
# UVM_INFO ../src/seq/axi4_cache_prot_seq.sv(60) @ 95000: uvm_test_top.env.master_agent.sqr@@cp_seq [axi4_cache_prot_seq] [7/16] Swept CACHE=0b0110 PROT=0b110 (Write & Read)
# UVM_INFO ../src/mst/axi4_master_driver.sv(73) @ 95000: uvm_test_top.env.master_agent.drv [axi4_master_driver] Driving AXI4_WRITE  ID=0xa  ADDR=0xc496f070  LEN=58
# UVM_INFO ../src/mst/axi4_master_driver.sv(73) @ 95000: uvm_test_top.env.master_agent.drv [axi4_master_driver] Driving AXI4_READ  ID=0x6  ADDR=0x5632bcc2  LEN=13
# UVM_INFO ../src/seq/axi4_cache_prot_seq.sv(60) @ 95000: uvm_test_top.env.master_agent.sqr@@cp_seq [axi4_cache_prot_seq] [8/16] Swept CACHE=0b0111 PROT=0b111 (Write & Read)
# UVM_INFO ../src/mst/axi4_master_driver.sv(73) @ 95000: uvm_test_top.env.master_agent.drv [axi4_master_driver] Driving AXI4_WRITE  ID=0x0  ADDR=0x0d6649eb  LEN=7
# UVM_INFO ../src/mst/axi4_master_driver.sv(73) @ 95000: uvm_test_top.env.master_agent.drv [axi4_master_driver] Driving AXI4_READ  ID=0x4  ADDR=0x6934b2a1  LEN=28
# UVM_INFO ../src/seq/axi4_cache_prot_seq.sv(60) @ 95000: uvm_test_top.env.master_agent.sqr@@cp_seq [axi4_cache_prot_seq] [9/16] Swept CACHE=0b1000 PROT=0b000 (Write & Read)
# UVM_INFO ../src/mst/axi4_master_driver.sv(73) @ 95000: uvm_test_top.env.master_agent.drv [axi4_master_driver] Driving AXI4_WRITE  ID=0x5  ADDR=0x09ce7c8c  LEN=1
# UVM_INFO ../src/mst/axi4_master_driver.sv(73) @ 95000: uvm_test_top.env.master_agent.drv [axi4_master_driver] Driving AXI4_READ  ID=0xc  ADDR=0x419dec0c  LEN=59
# UVM_INFO ../src/seq/axi4_cache_prot_seq.sv(60) @ 95000: uvm_test_top.env.master_agent.sqr@@cp_seq [axi4_cache_prot_seq] [10/16] Swept CACHE=0b1001 PROT=0b001 (Write & Read)
# UVM_INFO ../src/mst/axi4_master_driver.sv(73) @ 95000: uvm_test_top.env.master_agent.drv [axi4_master_driver] Driving AXI4_WRITE  ID=0xf  ADDR=0x459d187a  LEN=7
# UVM_INFO ../src/mst/axi4_master_driver.sv(73) @ 95000: uvm_test_top.env.master_agent.drv [axi4_master_driver] Driving AXI4_READ  ID=0xb  ADDR=0x27c09687  LEN=2
# UVM_INFO ../src/seq/axi4_cache_prot_seq.sv(60) @ 95000: uvm_test_top.env.master_agent.sqr@@cp_seq [axi4_cache_prot_seq] [11/16] Swept CACHE=0b1010 PROT=0b010 (Write & Read)
# UVM_INFO ../src/mst/axi4_master_driver.sv(73) @ 95000: uvm_test_top.env.master_agent.drv [axi4_master_driver] Driving AXI4_WRITE  ID=0x2  ADDR=0xa8d3a9a7  LEN=3
# UVM_INFO ../src/mst/axi4_master_driver.sv(73) @ 95000: uvm_test_top.env.master_agent.drv [axi4_master_driver] Driving AXI4_READ  ID=0xf  ADDR=0x8fa59acc  LEN=79
# UVM_INFO ../src/seq/axi4_cache_prot_seq.sv(60) @ 95000: uvm_test_top.env.master_agent.sqr@@cp_seq [axi4_cache_prot_seq] [12/16] Swept CACHE=0b1011 PROT=0b011 (Write & Read)
# UVM_INFO ../src/mst/axi4_master_driver.sv(73) @ 95000: uvm_test_top.env.master_agent.drv [axi4_master_driver] Driving AXI4_WRITE  ID=0xc  ADDR=0x05a40133  LEN=1
# UVM_INFO ../src/mst/axi4_master_driver.sv(73) @ 95000: uvm_test_top.env.master_agent.drv [axi4_master_driver] Driving AXI4_READ  ID=0xe  ADDR=0x0884bcd6  LEN=15
# UVM_INFO ../src/seq/axi4_cache_prot_seq.sv(60) @ 95000: uvm_test_top.env.master_agent.sqr@@cp_seq [axi4_cache_prot_seq] [13/16] Swept CACHE=0b1100 PROT=0b100 (Write & Read)
# UVM_INFO ../src/mst/axi4_master_driver.sv(73) @ 95000: uvm_test_top.env.master_agent.drv [axi4_master_driver] Driving AXI4_WRITE  ID=0xd  ADDR=0x421de768  LEN=51
# UVM_INFO ../src/mst/axi4_master_driver.sv(73) @ 95000: uvm_test_top.env.master_agent.drv [axi4_master_driver] Driving AXI4_READ  ID=0x4  ADDR=0x442c4aca  LEN=32
# UVM_INFO ../src/seq/axi4_cache_prot_seq.sv(60) @ 95000: uvm_test_top.env.master_agent.sqr@@cp_seq [axi4_cache_prot_seq] [14/16] Swept CACHE=0b1101 PROT=0b101 (Write & Read)
# UVM_INFO ../src/mst/axi4_master_driver.sv(73) @ 95000: uvm_test_top.env.master_agent.drv [axi4_master_driver] Driving AXI4_WRITE  ID=0xc  ADDR=0xc87a99ac  LEN=0
# UVM_INFO ../src/mst/axi4_master_driver.sv(73) @ 95000: uvm_test_top.env.master_agent.drv [axi4_master_driver] Driving AXI4_READ  ID=0xd  ADDR=0xce1244af  LEN=115
# UVM_INFO ../src/seq/axi4_cache_prot_seq.sv(60) @ 95000: uvm_test_top.env.master_agent.sqr@@cp_seq [axi4_cache_prot_seq] [15/16] Swept CACHE=0b1110 PROT=0b110 (Write & Read)
# UVM_INFO ../src/mst/axi4_master_driver.sv(73) @ 95000: uvm_test_top.env.master_agent.drv [axi4_master_driver] Driving AXI4_WRITE  ID=0xf  ADDR=0x79178b5c  LEN=7
# UVM_INFO ../src/mst/axi4_master_driver.sv(73) @ 95000: uvm_test_top.env.master_agent.drv [axi4_master_driver] Driving AXI4_READ  ID=0x5  ADDR=0x7c7c5ba2  LEN=1
# UVM_INFO ../src/seq/axi4_cache_prot_seq.sv(60) @ 95000: uvm_test_top.env.master_agent.sqr@@cp_seq [axi4_cache_prot_seq] [16/16] Swept CACHE=0b1111 PROT=0b111 (Write & Read)
# UVM_INFO ../src/seq/axi4_cache_prot_seq.sv(63) @ 95000: uvm_test_top.env.master_agent.sqr@@cp_seq [axi4_cache_prot_seq] Cache and prot attribute sweep sequence complete
# UVM_INFO ../src/slv/axi4_slave_driver.sv(358) @ 115000: uvm_test_top.env.slave_agent.drv [axi4_slave_driver] AR received: ID=0x8 ADDR=0xde701bb6 LEN=157 LOCK=AXI4_LOCK_EXCLUSIVE
# UVM_INFO ../src/slv/axi4_slave_driver.sv(212) @ 115000: uvm_test_top.env.slave_agent.drv [axi4_slave_driver] AW received: ID=0xd ADDR=0xba0d56bd LEN=51 LOCK=AXI4_LOCK_NORMAL
# UVM_INFO ../src/slv/axi4_slave_monitor.sv(224) @ 115000: uvm_test_top.env.slave_agent.mon [axi4_slave_monitor] AR received: ID=0x8 ADDR=0xde701bb6 LEN=157
# UVM_INFO ../src/slv/axi4_slave_monitor.sv(116) @ 115000: uvm_test_top.env.slave_agent.mon [axi4_slave_monitor] AW received: ID=0xd ADDR=0xba0d56bd LEN=51
# UVM_INFO ../src/mst/axi4_master_monitor.sv(246) @ 115000: uvm_test_top.env.master_agent.mon [axi4_master_monitor] AR observed: ID=0x8 ADDR=0xde701bb6 LEN=157
# UVM_INFO ../src/mst/axi4_master_monitor.sv(124) @ 115000: uvm_test_top.env.master_agent.mon [axi4_master_monitor] AW observed: ID=0xd ADDR=0xba0d56bd LEN=51
# UVM_INFO ../src/slv/axi4_slave_driver.sv(212) @ 145000: uvm_test_top.env.slave_agent.drv [axi4_slave_driver] AW received: ID=0x6 ADDR=0xd077dbfc LEN=3 LOCK=AXI4_LOCK_NORMAL
# UVM_INFO ../src/slv/axi4_slave_driver.sv(358) @ 145000: uvm_test_top.env.slave_agent.drv [axi4_slave_driver] AR received: ID=0x1 ADDR=0x1e8199be LEN=3 LOCK=AXI4_LOCK_EXCLUSIVE
# UVM_INFO ../src/mst/axi4_master_monitor.sv(124) @ 145000: uvm_test_top.env.master_agent.mon [axi4_master_monitor] AW observed: ID=0x6 ADDR=0xd077dbfc LEN=3
# UVM_INFO ../src/mst/axi4_master_monitor.sv(246) @ 145000: uvm_test_top.env.master_agent.mon [axi4_master_monitor] AR observed: ID=0x1 ADDR=0x1e8199be LEN=3
# UVM_INFO ../src/slv/axi4_slave_monitor.sv(116) @ 145000: uvm_test_top.env.slave_agent.mon [axi4_slave_monitor] AW received: ID=0x6 ADDR=0xd077dbfc LEN=3
# UVM_INFO ../src/slv/axi4_slave_monitor.sv(224) @ 145000: uvm_test_top.env.slave_agent.mon [axi4_slave_monitor] AR received: ID=0x1 ADDR=0x1e8199be LEN=3
# UVM_INFO ../src/slv/axi4_slave_driver.sv(358) @ 175000: uvm_test_top.env.slave_agent.drv [axi4_slave_driver] AR received: ID=0xb ADDR=0xaff92d57 LEN=120 LOCK=AXI4_LOCK_NORMAL
# UVM_INFO ../src/slv/axi4_slave_driver.sv(212) @ 175000: uvm_test_top.env.slave_agent.drv [axi4_slave_driver] AW received: ID=0xc ADDR=0x78127035 LEN=147 LOCK=AXI4_LOCK_NORMAL
# UVM_INFO ../src/slv/axi4_slave_monitor.sv(224) @ 175000: uvm_test_top.env.slave_agent.mon [axi4_slave_monitor] AR received: ID=0xb ADDR=0xaff92d57 LEN=120
# UVM_INFO ../src/slv/axi4_slave_monitor.sv(116) @ 175000: uvm_test_top.env.slave_agent.mon [axi4_slave_monitor] AW received: ID=0xc ADDR=0x78127035 LEN=147
# UVM_INFO ../src/mst/axi4_master_monitor.sv(246) @ 175000: uvm_test_top.env.master_agent.mon [axi4_master_monitor] AR observed: ID=0xb ADDR=0xaff92d57 LEN=120
# UVM_INFO ../src/mst/axi4_master_monitor.sv(124) @ 175000: uvm_test_top.env.master_agent.mon [axi4_master_monitor] AW observed: ID=0xc ADDR=0x78127035 LEN=147
# UVM_INFO ../src/slv/axi4_slave_driver.sv(212) @ 205000: uvm_test_top.env.slave_agent.drv [axi4_slave_driver] AW received: ID=0x7 ADDR=0x03b85d4d LEN=107 LOCK=AXI4_LOCK_NORMAL
# UVM_INFO ../src/slv/axi4_slave_driver.sv(358) @ 205000: uvm_test_top.env.slave_agent.drv [axi4_slave_driver] AR received: ID=0x7 ADDR=0xbd69e727 LEN=156 LOCK=AXI4_LOCK_NORMAL
# UVM_INFO ../src/mst/axi4_master_monitor.sv(124) @ 205000: uvm_test_top.env.master_agent.mon [axi4_master_monitor] AW observed: ID=0x7 ADDR=0x03b85d4d LEN=107
# UVM_INFO ../src/mst/axi4_master_monitor.sv(246) @ 205000: uvm_test_top.env.master_agent.mon [axi4_master_monitor] AR observed: ID=0x7 ADDR=0xbd69e727 LEN=156
# UVM_INFO ../src/slv/axi4_slave_monitor.sv(116) @ 205000: uvm_test_top.env.slave_agent.mon [axi4_slave_monitor] AW received: ID=0x7 ADDR=0x03b85d4d LEN=107
# UVM_INFO ../src/slv/axi4_slave_monitor.sv(224) @ 205000: uvm_test_top.env.slave_agent.mon [axi4_slave_monitor] AR received: ID=0x7 ADDR=0xbd69e727 LEN=156
# UVM_INFO ../src/slv/axi4_slave_driver.sv(358) @ 235000: uvm_test_top.env.slave_agent.drv [axi4_slave_driver] AR received: ID=0x6 ADDR=0xc1a7000f LEN=13 LOCK=AXI4_LOCK_NORMAL
# UVM_INFO ../src/slv/axi4_slave_monitor.sv(224) @ 235000: uvm_test_top.env.slave_agent.mon [axi4_slave_monitor] AR received: ID=0x6 ADDR=0xc1a7000f LEN=13
# UVM_INFO ../src/mst/axi4_master_monitor.sv(246) @ 235000: uvm_test_top.env.master_agent.mon [axi4_master_monitor] AR observed: ID=0x6 ADDR=0xc1a7000f LEN=13
# UVM_INFO ../src/slv/axi4_slave_driver.sv(358) @ 265000: uvm_test_top.env.slave_agent.drv [axi4_slave_driver] AR received: ID=0x2 ADDR=0x70796737 LEN=253 LOCK=AXI4_LOCK_EXCLUSIVE
# UVM_INFO ../src/mst/axi4_master_monitor.sv(246) @ 265000: uvm_test_top.env.master_agent.mon [axi4_master_monitor] AR observed: ID=0x2 ADDR=0x70796737 LEN=253
# UVM_INFO ../src/slv/axi4_slave_monitor.sv(224) @ 265000: uvm_test_top.env.slave_agent.mon [axi4_slave_monitor] AR received: ID=0x2 ADDR=0x70796737 LEN=253
# UVM_INFO ../src/slv/axi4_slave_driver.sv(358) @ 295000: uvm_test_top.env.slave_agent.drv [axi4_slave_driver] AR received: ID=0x3 ADDR=0x9cf3faf9 LEN=160 LOCK=AXI4_LOCK_NORMAL
# UVM_INFO ../src/slv/axi4_slave_monitor.sv(224) @ 295000: uvm_test_top.env.slave_agent.mon [axi4_slave_monitor] AR received: ID=0x3 ADDR=0x9cf3faf9 LEN=160
# UVM_INFO ../src/mst/axi4_master_monitor.sv(246) @ 295000: uvm_test_top.env.master_agent.mon [axi4_master_monitor] AR observed: ID=0x3 ADDR=0x9cf3faf9 LEN=160
# UVM_INFO ../src/slv/axi4_slave_driver.sv(358) @ 325000: uvm_test_top.env.slave_agent.drv [axi4_slave_driver] AR received: ID=0x6 ADDR=0x5632bcc2 LEN=13 LOCK=AXI4_LOCK_EXCLUSIVE
# UVM_INFO ../src/mst/axi4_master_monitor.sv(246) @ 325000: uvm_test_top.env.master_agent.mon [axi4_master_monitor] AR observed: ID=0x6 ADDR=0x5632bcc2 LEN=13
# UVM_INFO ../src/slv/axi4_slave_monitor.sv(224) @ 325000: uvm_test_top.env.slave_agent.mon [axi4_slave_monitor] AR received: ID=0x6 ADDR=0x5632bcc2 LEN=13
# UVM_INFO ../src/slv/axi4_slave_driver.sv(358) @ 355000: uvm_test_top.env.slave_agent.drv [axi4_slave_driver] AR received: ID=0x4 ADDR=0x6934b2a1 LEN=28 LOCK=AXI4_LOCK_NORMAL
# UVM_INFO ../src/slv/axi4_slave_monitor.sv(224) @ 355000: uvm_test_top.env.slave_agent.mon [axi4_slave_monitor] AR received: ID=0x4 ADDR=0x6934b2a1 LEN=28
# UVM_INFO ../src/mst/axi4_master_monitor.sv(246) @ 355000: uvm_test_top.env.master_agent.mon [axi4_master_monitor] AR observed: ID=0x4 ADDR=0x6934b2a1 LEN=28
# UVM_INFO ../src/slv/axi4_slave_driver.sv(358) @ 385000: uvm_test_top.env.slave_agent.drv [axi4_slave_driver] AR received: ID=0xc ADDR=0x419dec0c LEN=59 LOCK=AXI4_LOCK_EXCLUSIVE
# UVM_INFO ../src/mst/axi4_master_monitor.sv(246) @ 385000: uvm_test_top.env.master_agent.mon [axi4_master_monitor] AR observed: ID=0xc ADDR=0x419dec0c LEN=59
# UVM_INFO ../src/slv/axi4_slave_monitor.sv(224) @ 385000: uvm_test_top.env.slave_agent.mon [axi4_slave_monitor] AR received: ID=0xc ADDR=0x419dec0c LEN=59
# UVM_INFO ../src/slv/axi4_slave_driver.sv(358) @ 415000: uvm_test_top.env.slave_agent.drv [axi4_slave_driver] AR received: ID=0xb ADDR=0x27c09687 LEN=2 LOCK=AXI4_LOCK_NORMAL
# UVM_INFO ../src/slv/axi4_slave_monitor.sv(224) @ 415000: uvm_test_top.env.slave_agent.mon [axi4_slave_monitor] AR received: ID=0xb ADDR=0x27c09687 LEN=2
# UVM_INFO ../src/mst/axi4_master_monitor.sv(246) @ 415000: uvm_test_top.env.master_agent.mon [axi4_master_monitor] AR observed: ID=0xb ADDR=0x27c09687 LEN=2
# UVM_INFO ../src/slv/axi4_slave_driver.sv(358) @ 445000: uvm_test_top.env.slave_agent.drv [axi4_slave_driver] AR received: ID=0xf ADDR=0x8fa59acc LEN=79 LOCK=AXI4_LOCK_EXCLUSIVE
# UVM_INFO ../src/mst/axi4_master_monitor.sv(246) @ 445000: uvm_test_top.env.master_agent.mon [axi4_master_monitor] AR observed: ID=0xf ADDR=0x8fa59acc LEN=79
# UVM_INFO ../src/slv/axi4_slave_monitor.sv(224) @ 445000: uvm_test_top.env.slave_agent.mon [axi4_slave_monitor] AR received: ID=0xf ADDR=0x8fa59acc LEN=79
# UVM_INFO ../src/slv/axi4_slave_driver.sv(358) @ 475000: uvm_test_top.env.slave_agent.drv [axi4_slave_driver] AR received: ID=0xe ADDR=0x0884bcd6 LEN=15 LOCK=AXI4_LOCK_EXCLUSIVE
# UVM_INFO ../src/slv/axi4_slave_monitor.sv(224) @ 475000: uvm_test_top.env.slave_agent.mon [axi4_slave_monitor] AR received: ID=0xe ADDR=0x0884bcd6 LEN=15
# UVM_INFO ../src/mst/axi4_master_monitor.sv(246) @ 475000: uvm_test_top.env.master_agent.mon [axi4_master_monitor] AR observed: ID=0xe ADDR=0x0884bcd6 LEN=15
# UVM_INFO ../src/slv/axi4_slave_driver.sv(358) @ 505000: uvm_test_top.env.slave_agent.drv [axi4_slave_driver] AR received: ID=0x4 ADDR=0x442c4aca LEN=32 LOCK=AXI4_LOCK_EXCLUSIVE
# UVM_INFO ../src/mst/axi4_master_monitor.sv(246) @ 505000: uvm_test_top.env.master_agent.mon [axi4_master_monitor] AR observed: ID=0x4 ADDR=0x442c4aca LEN=32
# UVM_INFO ../src/slv/axi4_slave_monitor.sv(224) @ 505000: uvm_test_top.env.slave_agent.mon [axi4_slave_monitor] AR received: ID=0x4 ADDR=0x442c4aca LEN=32
# UVM_INFO ../src/slv/axi4_slave_driver.sv(358) @ 535000: uvm_test_top.env.slave_agent.drv [axi4_slave_driver] AR received: ID=0xd ADDR=0xce1244af LEN=115 LOCK=AXI4_LOCK_EXCLUSIVE
# UVM_INFO ../src/slv/axi4_slave_monitor.sv(224) @ 535000: uvm_test_top.env.slave_agent.mon [axi4_slave_monitor] AR received: ID=0xd ADDR=0xce1244af LEN=115
# UVM_INFO ../src/mst/axi4_master_monitor.sv(246) @ 535000: uvm_test_top.env.master_agent.mon [axi4_master_monitor] AR observed: ID=0xd ADDR=0xce1244af LEN=115
# UVM_INFO ../src/slv/axi4_slave_driver.sv(358) @ 565000: uvm_test_top.env.slave_agent.drv [axi4_slave_driver] AR received: ID=0x5 ADDR=0x7c7c5ba2 LEN=1 LOCK=AXI4_LOCK_EXCLUSIVE
# UVM_INFO ../src/mst/axi4_master_monitor.sv(246) @ 565000: uvm_test_top.env.master_agent.mon [axi4_master_monitor] AR observed: ID=0x5 ADDR=0x7c7c5ba2 LEN=1
# UVM_INFO ../src/slv/axi4_slave_monitor.sv(224) @ 565000: uvm_test_top.env.slave_agent.mon [axi4_slave_monitor] AR received: ID=0x5 ADDR=0x7c7c5ba2 LEN=1
# UVM_INFO ../src/test/axi4_cache_prot_test.sv(32) @ 1095000: uvm_test_top [axi4_cache_prot_test] Cache and protection sweep test complete
# UVM_INFO ../src/mst/axi4_master_monitor.sv(184) @ 1125000: uvm_test_top.env.master_agent.mon [axi4_master_monitor] W data assembled: ID=0xd ADDR=0xba0d56bd 52 beats
# UVM_INFO ../src/slv/axi4_slave_monitor.sv(167) @ 1125000: uvm_test_top.env.slave_agent.mon [axi4_slave_monitor] W data assembled: ID=0xd ADDR=0xba0d56bd 52 beats
# UVM_INFO ../src/mst/axi4_master_driver.sv(289) @ 1155000: uvm_test_top.env.master_agent.drv [axi4_master_driver] Master driver received B response: ID=0xd RESP=AXI4_RESP_OKAY
# UVM_INFO ../src/slv/axi4_slave_driver.sv(320) @ 1155000: uvm_test_top.env.slave_agent.drv [axi4_slave_driver] Write complete: ID=0xd RESP=AXI4_RESP_OKAY
# UVM_INFO ../src/slv/axi4_slave_monitor.sv(189) @ 1155000: uvm_test_top.env.slave_agent.mon [axi4_slave_monitor] Write response sent: ID=0xd ADDR=0xba0d56bd RESP=AXI4_RESP_OKAY
# UVM_INFO ../src/env/axi4_scoreboard.sv(108) @ 1155000: uvm_test_top.env.scb [axi4_scoreboard] Slave AXI4_WRITE received: ID=0xd ADDR=0xba0d56bd LEN=51
# UVM_INFO ../src/mst/axi4_master_monitor.sv(210) @ 1155000: uvm_test_top.env.master_agent.mon [axi4_master_monitor] Write complete: ID=0xd ADDR=0xba0d56bd RESP=AXI4_RESP_OKAY
# UVM_INFO ../src/env/axi4_scoreboard.sv(87) @ 1155000: uvm_test_top.env.scb [axi4_scoreboard] Master AXI4_WRITE received: ID=0xd ADDR=0xba0d56bd LEN=51
# UVM_INFO ../src/env/axi4_scoreboard.sv(291) @ 1155000: uvm_test_top.env.scb [axi4_scoreboard] [WRITE] MATCH #1: ID=0xd ADDR=0xba0d56bd LEN=51
# UVM_INFO ../src/env/axi4_scoreboard.sv(219) @ 1155000: uvm_test_top.env.scb [axi4_scoreboard] [REF_MEM_WRITE] Addr=0xba0d56bc Data=0x54
# UVM_INFO ../src/env/axi4_scoreboard.sv(219) @ 1155000: uvm_test_top.env.scb [axi4_scoreboard] [REF_MEM_WRITE] Addr=0xba0d56bd Data=0xcc
# UVM_INFO ../src/env/axi4_scoreboard.sv(219) @ 1155000: uvm_test_top.env.scb [axi4_scoreboard] [REF_MEM_WRITE] Addr=0xba0d56bf Data=0x82
# UVM_INFO ../src/env/axi4_scoreboard.sv(219) @ 1155000: uvm_test_top.env.scb [axi4_scoreboard] [REF_MEM_WRITE] Addr=0xba0d56c0 Data=0x62
# UVM_INFO ../src/env/axi4_scoreboard.sv(219) @ 1155000: uvm_test_top.env.scb [axi4_scoreboard] [REF_MEM_WRITE] Addr=0xba0d56c1 Data=0xb0
# UVM_INFO ../src/env/axi4_scoreboard.sv(219) @ 1155000: uvm_test_top.env.scb [axi4_scoreboard] [REF_MEM_WRITE] Addr=0xba0d56c4 Data=0xcd
# UVM_INFO ../src/env/axi4_scoreboard.sv(219) @ 1155000: uvm_test_top.env.scb [axi4_scoreboard] [REF_MEM_WRITE] Addr=0xba0d56c6 Data=0x6e
# UVM_INFO ../src/env/axi4_scoreboard.sv(219) @ 1155000: uvm_test_top.env.scb [axi4_scoreboard] [REF_MEM_WRITE] Addr=0xba0d56c9 Data=0xcb
# UVM_INFO ../src/env/axi4_scoreboard.sv(219) @ 1155000: uvm_test_top.env.scb [axi4_scoreboard] [REF_MEM_WRITE] Addr=0xba0d56ca Data=0xa6
# UVM_INFO ../src/env/axi4_scoreboard.sv(219) @ 1155000: uvm_test_top.env.scb [axi4_scoreboard] [REF_MEM_WRITE] Addr=0xba0d56cd Data=0x5d
# UVM_INFO ../src/env/axi4_scoreboard.sv(219) @ 1155000: uvm_test_top.env.scb [axi4_scoreboard] [REF_MEM_WRITE] Addr=0xba0d56ce Data=0x11
# UVM_INFO ../src/env/axi4_scoreboard.sv(219) @ 1155000: uvm_test_top.env.scb [axi4_scoreboard] [REF_MEM_WRITE] Addr=0xba0d56cf Data=0x4f
# UVM_INFO ../src/env/axi4_scoreboard.sv(219) @ 1155000: uvm_test_top.env.scb [axi4_scoreboard] [REF_MEM_WRITE] Addr=0xba0d56d1 Data=0x24
# UVM_INFO ../src/env/axi4_scoreboard.sv(219) @ 1155000: uvm_test_top.env.scb [axi4_scoreboard] [REF_MEM_WRITE] Addr=0xba0d56d2 Data=0x7e
# UVM_INFO ../src/env/axi4_scoreboard.sv(219) @ 1155000: uvm_test_top.env.scb [axi4_scoreboard] [REF_MEM_WRITE] Addr=0xba0d56d5 Data=0x13
# UVM_INFO ../src/env/axi4_scoreboard.sv(219) @ 1155000: uvm_test_top.env.scb [axi4_scoreboard] [REF_MEM_WRITE] Addr=0xba0d56d6 Data=0xba
# UVM_INFO ../src/env/axi4_scoreboard.sv(219) @ 1155000: uvm_test_top.env.scb [axi4_scoreboard] [REF_MEM_WRITE] Addr=0xba0d56d7 Data=0x75
# UVM_INFO ../src/env/axi4_scoreboard.sv(219) @ 1155000: uvm_test_top.env.scb [axi4_scoreboard] [REF_MEM_WRITE] Addr=0xba0d56da Data=0xfe
# UVM_INFO ../src/env/axi4_scoreboard.sv(219) @ 1155000: uvm_test_top.env.scb [axi4_scoreboard] [REF_MEM_WRITE] Addr=0xba0d56dd Data=0xf0
# UVM_INFO ../src/env/axi4_scoreboard.sv(219) @ 1155000: uvm_test_top.env.scb [axi4_scoreboard] [REF_MEM_WRITE] Addr=0xba0d56de Data=0xd4
# UVM_INFO ../src/env/axi4_scoreboard.sv(219) @ 1155000: uvm_test_top.env.scb [axi4_scoreboard] [REF_MEM_WRITE] Addr=0xba0d56df Data=0x84
# UVM_INFO ../src/env/axi4_scoreboard.sv(219) @ 1155000: uvm_test_top.env.scb [axi4_scoreboard] [REF_MEM_WRITE] Addr=0xba0d56e2 Data=0x2c
# UVM_INFO ../src/env/axi4_scoreboard.sv(219) @ 1155000: uvm_test_top.env.scb [axi4_scoreboard] [REF_MEM_WRITE] Addr=0xba0d56e5 Data=0xb8
# UVM_INFO ../src/env/axi4_scoreboard.sv(219) @ 1155000: uvm_test_top.env.scb [axi4_scoreboard] [REF_MEM_WRITE] Addr=0xba0d56e6 Data=0xe9
# UVM_INFO ../src/env/axi4_scoreboard.sv(219) @ 1155000: uvm_test_top.env.scb [axi4_scoreboard] [REF_MEM_WRITE] Addr=0xba0d56e8 Data=0xa5
# UVM_INFO ../src/env/axi4_scoreboard.sv(219) @ 1155000: uvm_test_top.env.scb [axi4_scoreboard] [REF_MEM_WRITE] Addr=0xba0d56e9 Data=0xed
# UVM_INFO ../src/env/axi4_scoreboard.sv(219) @ 1155000: uvm_test_top.env.scb [axi4_scoreboard] [REF_MEM_WRITE] Addr=0xba0d56ea Data=0xee
# UVM_INFO ../src/env/axi4_scoreboard.sv(219) @ 1155000: uvm_test_top.env.scb [axi4_scoreboard] [REF_MEM_WRITE] Addr=0xba0d56eb Data=0xad
# UVM_INFO ../src/env/axi4_scoreboard.sv(219) @ 1155000: uvm_test_top.env.scb [axi4_scoreboard] [REF_MEM_WRITE] Addr=0xba0d56f0 Data=0x49
# UVM_INFO ../src/env/axi4_scoreboard.sv(219) @ 1155000: uvm_test_top.env.scb [axi4_scoreboard] [REF_MEM_WRITE] Addr=0xba0d56f3 Data=0xdc
# UVM_INFO ../src/env/axi4_scoreboard.sv(219) @ 1155000: uvm_test_top.env.scb [axi4_scoreboard] [REF_MEM_WRITE] Addr=0xba0d56f7 Data=0x6c
# UVM_INFO ../src/env/axi4_scoreboard.sv(219) @ 1155000: uvm_test_top.env.scb [axi4_scoreboard] [REF_MEM_WRITE] Addr=0xba0d56f8 Data=0xa4
# UVM_INFO ../src/env/axi4_scoreboard.sv(219) @ 1155000: uvm_test_top.env.scb [axi4_scoreboard] [REF_MEM_WRITE] Addr=0xba0d56f9 Data=0xb0
# UVM_INFO ../src/env/axi4_scoreboard.sv(219) @ 1155000: uvm_test_top.env.scb [axi4_scoreboard] [REF_MEM_WRITE] Addr=0xba0d56fa Data=0x30
# UVM_INFO ../src/env/axi4_scoreboard.sv(219) @ 1155000: uvm_test_top.env.scb [axi4_scoreboard] [REF_MEM_WRITE] Addr=0xba0d56fb Data=0x61
# UVM_INFO ../src/env/axi4_scoreboard.sv(219) @ 1155000: uvm_test_top.env.scb [axi4_scoreboard] [REF_MEM_WRITE] Addr=0xba0d56fd Data=0x3d
# UVM_INFO ../src/env/axi4_scoreboard.sv(219) @ 1155000: uvm_test_top.env.scb [axi4_scoreboard] [REF_MEM_WRITE] Addr=0xba0d56ff Data=0x6f
# UVM_INFO ../src/env/axi4_scoreboard.sv(219) @ 1155000: uvm_test_top.env.scb [axi4_scoreboard] [REF_MEM_WRITE] Addr=0xba0d5700 Data=0xca
# UVM_INFO ../src/env/axi4_scoreboard.sv(219) @ 1155000: uvm_test_top.env.scb [axi4_scoreboard] [REF_MEM_WRITE] Addr=0xba0d5701 Data=0x7b
# UVM_INFO ../src/env/axi4_scoreboard.sv(219) @ 1155000: uvm_test_top.env.scb [axi4_scoreboard] [REF_MEM_WRITE] Addr=0xba0d5703 Data=0x88
# UVM_INFO ../src/env/axi4_scoreboard.sv(219) @ 1155000: uvm_test_top.env.scb [axi4_scoreboard] [REF_MEM_WRITE] Addr=0xba0d5707 Data=0x0f
# UVM_INFO ../src/env/axi4_scoreboard.sv(219) @ 1155000: uvm_test_top.env.scb [axi4_scoreboard] [REF_MEM_WRITE] Addr=0xba0d5708 Data=0x25
# UVM_INFO ../src/env/axi4_scoreboard.sv(219) @ 1155000: uvm_test_top.env.scb [axi4_scoreboard] [REF_MEM_WRITE] Addr=0xba0d5709 Data=0xa2
# UVM_INFO ../src/env/axi4_scoreboard.sv(219) @ 1155000: uvm_test_top.env.scb [axi4_scoreboard] [REF_MEM_WRITE] Addr=0xba0d570a Data=0x0b
# UVM_INFO ../src/env/axi4_scoreboard.sv(219) @ 1155000: uvm_test_top.env.scb [axi4_scoreboard] [REF_MEM_WRITE] Addr=0xba0d570d Data=0x5a
# UVM_INFO ../src/env/axi4_scoreboard.sv(219) @ 1155000: uvm_test_top.env.scb [axi4_scoreboard] [REF_MEM_WRITE] Addr=0xba0d5711 Data=0x9c
# UVM_INFO ../src/env/axi4_scoreboard.sv(219) @ 1155000: uvm_test_top.env.scb [axi4_scoreboard] [REF_MEM_WRITE] Addr=0xba0d5712 Data=0xd2
# UVM_INFO ../src/env/axi4_scoreboard.sv(219) @ 1155000: uvm_test_top.env.scb [axi4_scoreboard] [REF_MEM_WRITE] Addr=0xba0d5714 Data=0xb8
# UVM_INFO ../src/env/axi4_scoreboard.sv(219) @ 1155000: uvm_test_top.env.scb [axi4_scoreboard] [REF_MEM_WRITE] Addr=0xba0d5716 Data=0x59
# UVM_INFO ../src/env/axi4_scoreboard.sv(219) @ 1155000: uvm_test_top.env.scb [axi4_scoreboard] [REF_MEM_WRITE] Addr=0xba0d5717 Data=0x83
# UVM_INFO ../src/env/axi4_scoreboard.sv(219) @ 1155000: uvm_test_top.env.scb [axi4_scoreboard] [REF_MEM_WRITE] Addr=0xba0d571c Data=0x83
# UVM_INFO ../src/env/axi4_scoreboard.sv(219) @ 1155000: uvm_test_top.env.scb [axi4_scoreboard] [REF_MEM_WRITE] Addr=0xba0d571d Data=0x2d
# UVM_INFO ../src/env/axi4_scoreboard.sv(219) @ 1155000: uvm_test_top.env.scb [axi4_scoreboard] [REF_MEM_WRITE] Addr=0xba0d5722 Data=0x65
# UVM_INFO ../src/env/axi4_scoreboard.sv(219) @ 1155000: uvm_test_top.env.scb [axi4_scoreboard] [REF_MEM_WRITE] Addr=0xba0d5723 Data=0x3d
# UVM_INFO ../src/env/axi4_scoreboard.sv(219) @ 1155000: uvm_test_top.env.scb [axi4_scoreboard] [REF_MEM_WRITE] Addr=0xba0d5725 Data=0xf9
# UVM_INFO ../src/env/axi4_scoreboard.sv(219) @ 1155000: uvm_test_top.env.scb [axi4_scoreboard] [REF_MEM_WRITE] Addr=0xba0d5728 Data=0xea
# UVM_INFO ../src/env/axi4_scoreboard.sv(219) @ 1155000: uvm_test_top.env.scb [axi4_scoreboard] [REF_MEM_WRITE] Addr=0xba0d572d Data=0x1f
# UVM_INFO ../src/env/axi4_scoreboard.sv(219) @ 1155000: uvm_test_top.env.scb [axi4_scoreboard] [REF_MEM_WRITE] Addr=0xba0d572f Data=0xf3
# UVM_INFO ../src/env/axi4_scoreboard.sv(219) @ 1155000: uvm_test_top.env.scb [axi4_scoreboard] [REF_MEM_WRITE] Addr=0xba0d5731 Data=0x15
# UVM_INFO ../src/env/axi4_scoreboard.sv(219) @ 1155000: uvm_test_top.env.scb [axi4_scoreboard] [REF_MEM_WRITE] Addr=0xba0d5732 Data=0x1a
# UVM_INFO ../src/env/axi4_scoreboard.sv(219) @ 1155000: uvm_test_top.env.scb [axi4_scoreboard] [REF_MEM_WRITE] Addr=0xba0d5737 Data=0x52
# UVM_INFO ../src/env/axi4_scoreboard.sv(219) @ 1155000: uvm_test_top.env.scb [axi4_scoreboard] [REF_MEM_WRITE] Addr=0xba0d5738 Data=0xfe
# UVM_INFO ../src/env/axi4_scoreboard.sv(219) @ 1155000: uvm_test_top.env.scb [axi4_scoreboard] [REF_MEM_WRITE] Addr=0xba0d5739 Data=0x83
# UVM_INFO ../src/env/axi4_scoreboard.sv(219) @ 1155000: uvm_test_top.env.scb [axi4_scoreboard] [REF_MEM_WRITE] Addr=0xba0d573a Data=0xa4
# UVM_INFO ../src/env/axi4_scoreboard.sv(219) @ 1155000: uvm_test_top.env.scb [axi4_scoreboard] [REF_MEM_WRITE] Addr=0xba0d573b Data=0xb5
# UVM_INFO ../src/env/axi4_scoreboard.sv(219) @ 1155000: uvm_test_top.env.scb [axi4_scoreboard] [REF_MEM_WRITE] Addr=0xba0d573c Data=0x63
# UVM_INFO ../src/env/axi4_scoreboard.sv(219) @ 1155000: uvm_test_top.env.scb [axi4_scoreboard] [REF_MEM_WRITE] Addr=0xba0d573d Data=0x5b
# UVM_INFO ../src/env/axi4_scoreboard.sv(219) @ 1155000: uvm_test_top.env.scb [axi4_scoreboard] [REF_MEM_WRITE] Addr=0xba0d573f Data=0xc2
# UVM_INFO ../src/env/axi4_scoreboard.sv(219) @ 1155000: uvm_test_top.env.scb [axi4_scoreboard] [REF_MEM_WRITE] Addr=0xba0d5742 Data=0x71
# UVM_INFO ../src/env/axi4_scoreboard.sv(219) @ 1155000: uvm_test_top.env.scb [axi4_scoreboard] [REF_MEM_WRITE] Addr=0xba0d5743 Data=0x4f
# UVM_INFO ../src/env/axi4_scoreboard.sv(219) @ 1155000: uvm_test_top.env.scb [axi4_scoreboard] [REF_MEM_WRITE] Addr=0xba0d5746 Data=0xe4
# UVM_INFO ../src/env/axi4_scoreboard.sv(219) @ 1155000: uvm_test_top.env.scb [axi4_scoreboard] [REF_MEM_WRITE] Addr=0xba0d5748 Data=0x35
# UVM_INFO ../src/env/axi4_scoreboard.sv(219) @ 1155000: uvm_test_top.env.scb [axi4_scoreboard] [REF_MEM_WRITE] Addr=0xba0d5749 Data=0xf5
# UVM_INFO ../src/env/axi4_scoreboard.sv(219) @ 1155000: uvm_test_top.env.scb [axi4_scoreboard] [REF_MEM_WRITE] Addr=0xba0d574b Data=0xc3
# UVM_INFO ../src/env/axi4_scoreboard.sv(219) @ 1155000: uvm_test_top.env.scb [axi4_scoreboard] [REF_MEM_WRITE] Addr=0xba0d574c Data=0xd8
# UVM_INFO ../src/env/axi4_scoreboard.sv(219) @ 1155000: uvm_test_top.env.scb [axi4_scoreboard] [REF_MEM_WRITE] Addr=0xba0d574f Data=0x9f
# UVM_INFO ../src/env/axi4_scoreboard.sv(219) @ 1155000: uvm_test_top.env.scb [axi4_scoreboard] [REF_MEM_WRITE] Addr=0xba0d5750 Data=0xc3
# UVM_INFO ../src/env/axi4_scoreboard.sv(219) @ 1155000: uvm_test_top.env.scb [axi4_scoreboard] [REF_MEM_WRITE] Addr=0xba0d5752 Data=0x99
# UVM_INFO ../src/env/axi4_scoreboard.sv(219) @ 1155000: uvm_test_top.env.scb [axi4_scoreboard] [REF_MEM_WRITE] Addr=0xba0d5753 Data=0x2d
# UVM_INFO ../src/env/axi4_scoreboard.sv(219) @ 1155000: uvm_test_top.env.scb [axi4_scoreboard] [REF_MEM_WRITE] Addr=0xba0d5754 Data=0xe6
# UVM_INFO ../src/env/axi4_scoreboard.sv(219) @ 1155000: uvm_test_top.env.scb [axi4_scoreboard] [REF_MEM_WRITE] Addr=0xba0d575a Data=0xf5
# UVM_INFO ../src/env/axi4_scoreboard.sv(219) @ 1155000: uvm_test_top.env.scb [axi4_scoreboard] [REF_MEM_WRITE] Addr=0xba0d575e Data=0xdc
# UVM_INFO ../src/env/axi4_scoreboard.sv(219) @ 1155000: uvm_test_top.env.scb [axi4_scoreboard] [REF_MEM_WRITE] Addr=0xba0d5761 Data=0xce
# UVM_INFO ../src/env/axi4_scoreboard.sv(219) @ 1155000: uvm_test_top.env.scb [axi4_scoreboard] [REF_MEM_WRITE] Addr=0xba0d5763 Data=0x0c
# UVM_INFO ../src/env/axi4_scoreboard.sv(219) @ 1155000: uvm_test_top.env.scb [axi4_scoreboard] [REF_MEM_WRITE] Addr=0xba0d5764 Data=0xb3
# UVM_INFO ../src/env/axi4_scoreboard.sv(219) @ 1155000: uvm_test_top.env.scb [axi4_scoreboard] [REF_MEM_WRITE] Addr=0xba0d5767 Data=0x29
# UVM_INFO ../src/env/axi4_scoreboard.sv(219) @ 1155000: uvm_test_top.env.scb [axi4_scoreboard] [REF_MEM_WRITE] Addr=0xba0d576b Data=0xf3
# UVM_INFO ../src/env/axi4_scoreboard.sv(219) @ 1155000: uvm_test_top.env.scb [axi4_scoreboard] [REF_MEM_WRITE] Addr=0xba0d576f Data=0x39
# UVM_INFO ../src/env/axi4_scoreboard.sv(219) @ 1155000: uvm_test_top.env.scb [axi4_scoreboard] [REF_MEM_WRITE] Addr=0xba0d5774 Data=0x4d
# UVM_INFO ../src/env/axi4_scoreboard.sv(219) @ 1155000: uvm_test_top.env.scb [axi4_scoreboard] [REF_MEM_WRITE] Addr=0xba0d5775 Data=0x44
# UVM_INFO ../src/env/axi4_scoreboard.sv(219) @ 1155000: uvm_test_top.env.scb [axi4_scoreboard] [REF_MEM_WRITE] Addr=0xba0d5777 Data=0x9e
# UVM_INFO ../src/env/axi4_scoreboard.sv(219) @ 1155000: uvm_test_top.env.scb [axi4_scoreboard] [REF_MEM_WRITE] Addr=0xba0d5778 Data=0x66
# UVM_INFO ../src/env/axi4_scoreboard.sv(219) @ 1155000: uvm_test_top.env.scb [axi4_scoreboard] [REF_MEM_WRITE] Addr=0xba0d577c Data=0x4d
# UVM_INFO ../src/env/axi4_scoreboard.sv(219) @ 1155000: uvm_test_top.env.scb [axi4_scoreboard] [REF_MEM_WRITE] Addr=0xba0d577d Data=0x0d
# UVM_INFO ../src/env/axi4_scoreboard.sv(219) @ 1155000: uvm_test_top.env.scb [axi4_scoreboard] [REF_MEM_WRITE] Addr=0xba0d577e Data=0xaa
# UVM_INFO ../src/env/axi4_scoreboard.sv(219) @ 1155000: uvm_test_top.env.scb [axi4_scoreboard] [REF_MEM_WRITE] Addr=0xba0d577f Data=0x88
# UVM_INFO ../src/env/axi4_scoreboard.sv(219) @ 1155000: uvm_test_top.env.scb [axi4_scoreboard] [REF_MEM_WRITE] Addr=0xba0d5781 Data=0xa9
# UVM_INFO ../src/env/axi4_scoreboard.sv(219) @ 1155000: uvm_test_top.env.scb [axi4_scoreboard] [REF_MEM_WRITE] Addr=0xba0d5783 Data=0x99
# UVM_INFO ../src/env/axi4_scoreboard.sv(219) @ 1155000: uvm_test_top.env.scb [axi4_scoreboard] [REF_MEM_WRITE] Addr=0xba0d5784 Data=0x8c
# UVM_INFO ../src/env/axi4_scoreboard.sv(219) @ 1155000: uvm_test_top.env.scb [axi4_scoreboard] [REF_MEM_WRITE] Addr=0xba0d5788 Data=0xd2
# UVM_INFO ../src/env/axi4_scoreboard.sv(219) @ 1155000: uvm_test_top.env.scb [axi4_scoreboard] [REF_MEM_WRITE] Addr=0xba0d5789 Data=0x98
# UVM_INFO ../src/env/axi4_scoreboard.sv(219) @ 1155000: uvm_test_top.env.scb [axi4_scoreboard] [REF_MEM_WRITE] Addr=0xba0d578a Data=0xe4
# UVM_INFO ../src/env/axi4_scoreboard.sv(219) @ 1155000: uvm_test_top.env.scb [axi4_scoreboard] [REF_MEM_WRITE] Addr=0xba0d578b Data=0xc4
# UVM_INFO ../src/mst/axi4_master_monitor.sv(184) @ 1205000: uvm_test_top.env.master_agent.mon [axi4_master_monitor] W data assembled: ID=0x6 ADDR=0xd077dbfc 4 beats
# UVM_INFO ../src/slv/axi4_slave_monitor.sv(167) @ 1205000: uvm_test_top.env.slave_agent.mon [axi4_slave_monitor] W data assembled: ID=0x6 ADDR=0xd077dbfc 4 beats
# UVM_INFO ../src/mst/axi4_master_driver.sv(289) @ 1235000: uvm_test_top.env.master_agent.drv [axi4_master_driver] Master driver received B response: ID=0x6 RESP=AXI4_RESP_OKAY
# UVM_INFO ../src/slv/axi4_slave_driver.sv(320) @ 1235000: uvm_test_top.env.slave_agent.drv [axi4_slave_driver] Write complete: ID=0x6 RESP=AXI4_RESP_OKAY
# UVM_INFO ../src/slv/axi4_slave_monitor.sv(189) @ 1235000: uvm_test_top.env.slave_agent.mon [axi4_slave_monitor] Write response sent: ID=0x6 ADDR=0xd077dbfc RESP=AXI4_RESP_OKAY
# UVM_INFO ../src/env/axi4_scoreboard.sv(108) @ 1235000: uvm_test_top.env.scb [axi4_scoreboard] Slave AXI4_WRITE received: ID=0x6 ADDR=0xd077dbfc LEN=3
# UVM_INFO ../src/mst/axi4_master_monitor.sv(210) @ 1235000: uvm_test_top.env.master_agent.mon [axi4_master_monitor] Write complete: ID=0x6 ADDR=0xd077dbfc RESP=AXI4_RESP_OKAY
# UVM_INFO ../src/env/axi4_scoreboard.sv(87) @ 1235000: uvm_test_top.env.scb [axi4_scoreboard] Master AXI4_WRITE received: ID=0x6 ADDR=0xd077dbfc LEN=3
# UVM_INFO ../src/env/axi4_scoreboard.sv(291) @ 1235000: uvm_test_top.env.scb [axi4_scoreboard] [WRITE] MATCH #2: ID=0x6 ADDR=0xd077dbfc LEN=3
# UVM_INFO ../src/env/axi4_scoreboard.sv(219) @ 1235000: uvm_test_top.env.scb [axi4_scoreboard] [REF_MEM_WRITE] Addr=0xd077dbfc Data=0xce
# UVM_INFO ../src/env/axi4_scoreboard.sv(219) @ 1235000: uvm_test_top.env.scb [axi4_scoreboard] [REF_MEM_WRITE] Addr=0xd077dbff Data=0x35
# UVM_INFO ../src/env/axi4_scoreboard.sv(219) @ 1235000: uvm_test_top.env.scb [axi4_scoreboard] [REF_MEM_WRITE] Addr=0xd077dbfc Data=0x8c
# UVM_INFO ../src/env/axi4_scoreboard.sv(219) @ 1235000: uvm_test_top.env.scb [axi4_scoreboard] [REF_MEM_WRITE] Addr=0xd077dbfc Data=0xa4
# UVM_INFO ../src/env/axi4_scoreboard.sv(219) @ 1235000: uvm_test_top.env.scb [axi4_scoreboard] [REF_MEM_WRITE] Addr=0xd077dbfd Data=0xfb
# UVM_INFO ../src/env/axi4_scoreboard.sv(219) @ 1235000: uvm_test_top.env.scb [axi4_scoreboard] [REF_MEM_WRITE] Addr=0xd077dbfe Data=0xb1
# UVM_INFO ../src/env/axi4_scoreboard.sv(219) @ 1235000: uvm_test_top.env.scb [axi4_scoreboard] [REF_MEM_WRITE] Addr=0xd077dbff Data=0x3b
# UVM_INFO ../src/mst/axi4_master_driver.sv(348) @ 3275000: uvm_test_top.env.master_agent.drv [axi4_master_driver] Master driver received all R beats for ID=0x8
# UVM_INFO ../src/slv/axi4_slave_driver.sv(464) @ 3275000: uvm_test_top.env.slave_agent.drv [axi4_slave_driver] Read complete: ID=0x8 ADDR=0xde701bb6 RESP=AXI4_RESP_EXOKAY  158 beats sent
# UVM_INFO ../src/slv/axi4_slave_monitor.sv(287) @ 3275000: uvm_test_top.env.slave_agent.mon [axi4_slave_monitor] Read data sent: ID=0x8 ADDR=0xde701bb6 158 beats
# UVM_INFO ../src/env/axi4_scoreboard.sv(108) @ 3275000: uvm_test_top.env.scb [axi4_scoreboard] Slave AXI4_READ received: ID=0x8 ADDR=0xde701bb6 LEN=157
# UVM_INFO ../src/mst/axi4_master_monitor.sv(314) @ 3275000: uvm_test_top.env.master_agent.mon [axi4_master_monitor] Read complete: ID=0x8 ADDR=0xde701bb6 158 beats
# UVM_INFO ../src/env/axi4_scoreboard.sv(87) @ 3275000: uvm_test_top.env.scb [axi4_scoreboard] Master AXI4_READ received: ID=0x8 ADDR=0xde701bb6 LEN=157
# UVM_INFO ../src/env/axi4_scoreboard.sv(291) @ 3275000: uvm_test_top.env.scb [axi4_scoreboard] [READ] MATCH #3: ID=0x8 ADDR=0xde701bb6 LEN=157
# UVM_INFO ../src/mst/axi4_master_driver.sv(348) @ 3355000: uvm_test_top.env.master_agent.drv [axi4_master_driver] Master driver received all R beats for ID=0x1
# UVM_INFO ../src/slv/axi4_slave_driver.sv(464) @ 3355000: uvm_test_top.env.slave_agent.drv [axi4_slave_driver] Read complete: ID=0x1 ADDR=0x1e8199be RESP=AXI4_RESP_EXOKAY  4 beats sent
# UVM_INFO ../src/slv/axi4_slave_monitor.sv(287) @ 3355000: uvm_test_top.env.slave_agent.mon [axi4_slave_monitor] Read data sent: ID=0x1 ADDR=0x1e8199be 4 beats
# UVM_INFO ../src/env/axi4_scoreboard.sv(108) @ 3355000: uvm_test_top.env.scb [axi4_scoreboard] Slave AXI4_READ received: ID=0x1 ADDR=0x1e8199be LEN=3
# UVM_INFO ../src/mst/axi4_master_monitor.sv(314) @ 3355000: uvm_test_top.env.master_agent.mon [axi4_master_monitor] Read complete: ID=0x1 ADDR=0x1e8199be 4 beats
# UVM_INFO ../src/env/axi4_scoreboard.sv(87) @ 3355000: uvm_test_top.env.scb [axi4_scoreboard] Master AXI4_READ received: ID=0x1 ADDR=0x1e8199be LEN=3
# UVM_INFO ../src/env/axi4_scoreboard.sv(291) @ 3355000: uvm_test_top.env.scb [axi4_scoreboard] [READ] MATCH #4: ID=0x1 ADDR=0x1e8199be LEN=3
# UVM_INFO ../src/mst/axi4_master_monitor.sv(184) @ 4165000: uvm_test_top.env.master_agent.mon [axi4_master_monitor] W data assembled: ID=0xc ADDR=0x78127035 148 beats
# UVM_INFO ../src/slv/axi4_slave_monitor.sv(167) @ 4165000: uvm_test_top.env.slave_agent.mon [axi4_slave_monitor] W data assembled: ID=0xc ADDR=0x78127035 148 beats
# UVM_INFO ../src/mst/axi4_master_driver.sv(289) @ 4195000: uvm_test_top.env.master_agent.drv [axi4_master_driver] Master driver received B response: ID=0xc RESP=AXI4_RESP_OKAY
# UVM_INFO ../src/slv/axi4_slave_driver.sv(320) @ 4195000: uvm_test_top.env.slave_agent.drv [axi4_slave_driver] Write complete: ID=0xc RESP=AXI4_RESP_OKAY
# UVM_INFO ../src/slv/axi4_slave_monitor.sv(189) @ 4195000: uvm_test_top.env.slave_agent.mon [axi4_slave_monitor] Write response sent: ID=0xc ADDR=0x78127035 RESP=AXI4_RESP_OKAY
# UVM_INFO ../src/env/axi4_scoreboard.sv(108) @ 4195000: uvm_test_top.env.scb [axi4_scoreboard] Slave AXI4_WRITE received: ID=0xc ADDR=0x78127035 LEN=147
# UVM_INFO ../src/mst/axi4_master_monitor.sv(210) @ 4195000: uvm_test_top.env.master_agent.mon [axi4_master_monitor] Write complete: ID=0xc ADDR=0x78127035 RESP=AXI4_RESP_OKAY
# UVM_INFO ../src/env/axi4_scoreboard.sv(87) @ 4195000: uvm_test_top.env.scb [axi4_scoreboard] Master AXI4_WRITE received: ID=0xc ADDR=0x78127035 LEN=147
# UVM_INFO ../src/env/axi4_scoreboard.sv(291) @ 4195000: uvm_test_top.env.scb [axi4_scoreboard] [WRITE] MATCH #5: ID=0xc ADDR=0x78127035 LEN=147
# UVM_INFO ../src/env/axi4_scoreboard.sv(219) @ 4195000: uvm_test_top.env.scb [axi4_scoreboard] [REF_MEM_WRITE] Addr=0x78127037 Data=0x9f
# UVM_INFO ../src/env/axi4_scoreboard.sv(219) @ 4195000: uvm_test_top.env.scb [axi4_scoreboard] [REF_MEM_WRITE] Addr=0x78127038 Data=0x4b
# UVM_INFO ../src/env/axi4_scoreboard.sv(219) @ 4195000: uvm_test_top.env.scb [axi4_scoreboard] [REF_MEM_WRITE] Addr=0x7812703a Data=0x7b
# UVM_INFO ../src/env/axi4_scoreboard.sv(219) @ 4195000: uvm_test_top.env.scb [axi4_scoreboard] [REF_MEM_WRITE] Addr=0x7812703b Data=0xfb
# UVM_INFO ../src/env/axi4_scoreboard.sv(219) @ 4195000: uvm_test_top.env.scb [axi4_scoreboard] [REF_MEM_WRITE] Addr=0x78127038 Data=0x06
# UVM_INFO ../src/env/axi4_scoreboard.sv(219) @ 4195000: uvm_test_top.env.scb [axi4_scoreboard] [REF_MEM_WRITE] Addr=0x78127039 Data=0x97
# UVM_INFO ../src/env/axi4_scoreboard.sv(219) @ 4195000: uvm_test_top.env.scb [axi4_scoreboard] [REF_MEM_WRITE] Addr=0x78127039 Data=0xfe
# UVM_INFO ../src/env/axi4_scoreboard.sv(219) @ 4195000: uvm_test_top.env.scb [axi4_scoreboard] [REF_MEM_WRITE] Addr=0x7812703b Data=0xfb
# UVM_INFO ../src/env/axi4_scoreboard.sv(219) @ 4195000: uvm_test_top.env.scb [axi4_scoreboard] [REF_MEM_WRITE] Addr=0x7812703c Data=0x3e
# UVM_INFO ../src/env/axi4_scoreboard.sv(219) @ 4195000: uvm_test_top.env.scb [axi4_scoreboard] [REF_MEM_WRITE] Addr=0x7812703f Data=0x7b
# UVM_INFO ../src/env/axi4_scoreboard.sv(219) @ 4195000: uvm_test_top.env.scb [axi4_scoreboard] [REF_MEM_WRITE] Addr=0x7812703c Data=0x61
# UVM_INFO ../src/env/axi4_scoreboard.sv(219) @ 4195000: uvm_test_top.env.scb [axi4_scoreboard] [REF_MEM_WRITE] Addr=0x7812703d Data=0xe3
# UVM_INFO ../src/env/axi4_scoreboard.sv(219) @ 4195000: uvm_test_top.env.scb [axi4_scoreboard] [REF_MEM_WRITE] Addr=0x7812703f Data=0x62
# UVM_INFO ../src/env/axi4_scoreboard.sv(219) @ 4195000: uvm_test_top.env.scb [axi4_scoreboard] [REF_MEM_WRITE] Addr=0x7812703c Data=0xe3
# UVM_INFO ../src/env/axi4_scoreboard.sv(219) @ 4195000: uvm_test_top.env.scb [axi4_scoreboard] [REF_MEM_WRITE] Addr=0x7812703e Data=0x49
# UVM_INFO ../src/env/axi4_scoreboard.sv(219) @ 4195000: uvm_test_top.env.scb [axi4_scoreboard] [REF_MEM_WRITE] Addr=0x7812703f Data=0xcb
# UVM_INFO ../src/env/axi4_scoreboard.sv(219) @ 4195000: uvm_test_top.env.scb [axi4_scoreboard] [REF_MEM_WRITE] Addr=0x7812703d Data=0xeb
# UVM_INFO ../src/env/axi4_scoreboard.sv(219) @ 4195000: uvm_test_top.env.scb [axi4_scoreboard] [REF_MEM_WRITE] Addr=0x7812703f Data=0x6a
# UVM_INFO ../src/env/axi4_scoreboard.sv(219) @ 4195000: uvm_test_top.env.scb [axi4_scoreboard] [REF_MEM_WRITE] Addr=0x78127040 Data=0xcd
# UVM_INFO ../src/env/axi4_scoreboard.sv(219) @ 4195000: uvm_test_top.env.scb [axi4_scoreboard] [REF_MEM_WRITE] Addr=0x78127041 Data=0x0a
# UVM_INFO ../src/env/axi4_scoreboard.sv(219) @ 4195000: uvm_test_top.env.scb [axi4_scoreboard] [REF_MEM_WRITE] Addr=0x78127042 Data=0x7a
# UVM_INFO ../src/env/axi4_scoreboard.sv(219) @ 4195000: uvm_test_top.env.scb [axi4_scoreboard] [REF_MEM_WRITE] Addr=0x78127040 Data=0x35
# UVM_INFO ../src/env/axi4_scoreboard.sv(219) @ 4195000: uvm_test_top.env.scb [axi4_scoreboard] [REF_MEM_WRITE] Addr=0x78127041 Data=0x62
# UVM_INFO ../src/env/axi4_scoreboard.sv(219) @ 4195000: uvm_test_top.env.scb [axi4_scoreboard] [REF_MEM_WRITE] Addr=0x78127040 Data=0xcb
# UVM_INFO ../src/env/axi4_scoreboard.sv(219) @ 4195000: uvm_test_top.env.scb [axi4_scoreboard] [REF_MEM_WRITE] Addr=0x78127042 Data=0xb3
# UVM_INFO ../src/env/axi4_scoreboard.sv(219) @ 4195000: uvm_test_top.env.scb [axi4_scoreboard] [REF_MEM_WRITE] Addr=0x78127043 Data=0x42
# UVM_INFO ../src/env/axi4_scoreboard.sv(219) @ 4195000: uvm_test_top.env.scb [axi4_scoreboard] [REF_MEM_WRITE] Addr=0x78127040 Data=0x3f
# UVM_INFO ../src/env/axi4_scoreboard.sv(219) @ 4195000: uvm_test_top.env.scb [axi4_scoreboard] [REF_MEM_WRITE] Addr=0x78127041 Data=0x48
# UVM_INFO ../src/env/axi4_scoreboard.sv(219) @ 4195000: uvm_test_top.env.scb [axi4_scoreboard] [REF_MEM_WRITE] Addr=0x78127043 Data=0xc7
# UVM_INFO ../src/env/axi4_scoreboard.sv(219) @ 4195000: uvm_test_top.env.scb [axi4_scoreboard] [REF_MEM_WRITE] Addr=0x78127044 Data=0xa7
# UVM_INFO ../src/env/axi4_scoreboard.sv(219) @ 4195000: uvm_test_top.env.scb [axi4_scoreboard] [REF_MEM_WRITE] Addr=0x78127045 Data=0xeb
# UVM_INFO ../src/env/axi4_scoreboard.sv(219) @ 4195000: uvm_test_top.env.scb [axi4_scoreboard] [REF_MEM_WRITE] Addr=0x78127044 Data=0x3f
# UVM_INFO ../src/env/axi4_scoreboard.sv(219) @ 4195000: uvm_test_top.env.scb [axi4_scoreboard] [REF_MEM_WRITE] Addr=0x78127046 Data=0x25
# UVM_INFO ../src/env/axi4_scoreboard.sv(219) @ 4195000: uvm_test_top.env.scb [axi4_scoreboard] [REF_MEM_WRITE] Addr=0x78127044 Data=0x52
# UVM_INFO ../src/env/axi4_scoreboard.sv(219) @ 4195000: uvm_test_top.env.scb [axi4_scoreboard] [REF_MEM_WRITE] Addr=0x78127045 Data=0x27
# UVM_INFO ../src/env/axi4_scoreboard.sv(219) @ 4195000: uvm_test_top.env.scb [axi4_scoreboard] [REF_MEM_WRITE] Addr=0x78127047 Data=0x62
# UVM_INFO ../src/env/axi4_scoreboard.sv(219) @ 4195000: uvm_test_top.env.scb [axi4_scoreboard] [REF_MEM_WRITE] Addr=0x78127048 Data=0xcf
# UVM_INFO ../src/env/axi4_scoreboard.sv(219) @ 4195000: uvm_test_top.env.scb [axi4_scoreboard] [REF_MEM_WRITE] Addr=0x7812704b Data=0x26
# UVM_INFO ../src/env/axi4_scoreboard.sv(219) @ 4195000: uvm_test_top.env.scb [axi4_scoreboard] [REF_MEM_WRITE] Addr=0x78127048 Data=0x95
# UVM_INFO ../src/env/axi4_scoreboard.sv(219) @ 4195000: uvm_test_top.env.scb [axi4_scoreboard] [REF_MEM_WRITE] Addr=0x78127048 Data=0xfc
# UVM_INFO ../src/env/axi4_scoreboard.sv(219) @ 4195000: uvm_test_top.env.scb [axi4_scoreboard] [REF_MEM_WRITE] Addr=0x78127049 Data=0x6c
# UVM_INFO ../src/env/axi4_scoreboard.sv(219) @ 4195000: uvm_test_top.env.scb [axi4_scoreboard] [REF_MEM_WRITE] Addr=0x7812704b Data=0x23
# UVM_INFO ../src/env/axi4_scoreboard.sv(219) @ 4195000: uvm_test_top.env.scb [axi4_scoreboard] [REF_MEM_WRITE] Addr=0x78127048 Data=0x9a
# UVM_INFO ../src/env/axi4_scoreboard.sv(219) @ 4195000: uvm_test_top.env.scb [axi4_scoreboard] [REF_MEM_WRITE] Addr=0x78127049 Data=0x8d
# UVM_INFO ../src/env/axi4_scoreboard.sv(219) @ 4195000: uvm_test_top.env.scb [axi4_scoreboard] [REF_MEM_WRITE] Addr=0x7812704c Data=0x92
# UVM_INFO ../src/env/axi4_scoreboard.sv(219) @ 4195000: uvm_test_top.env.scb [axi4_scoreboard] [REF_MEM_WRITE] Addr=0x7812704f Data=0xc5
# UVM_INFO ../src/env/axi4_scoreboard.sv(219) @ 4195000: uvm_test_top.env.scb [axi4_scoreboard] [REF_MEM_WRITE] Addr=0x7812704c Data=0xbd
# UVM_INFO ../src/env/axi4_scoreboard.sv(219) @ 4195000: uvm_test_top.env.scb [axi4_scoreboard] [REF_MEM_WRITE] Addr=0x7812704d Data=0xde
# UVM_INFO ../src/env/axi4_scoreboard.sv(219) @ 4195000: uvm_test_top.env.scb [axi4_scoreboard] [REF_MEM_WRITE] Addr=0x7812704f Data=0x93
# UVM_INFO ../src/env/axi4_scoreboard.sv(219) @ 4195000: uvm_test_top.env.scb [axi4_scoreboard] [REF_MEM_WRITE] Addr=0x7812704d Data=0xe4
# UVM_INFO ../src/env/axi4_scoreboard.sv(219) @ 4195000: uvm_test_top.env.scb [axi4_scoreboard] [REF_MEM_WRITE] Addr=0x7812704e Data=0x1b
# UVM_INFO ../src/env/axi4_scoreboard.sv(219) @ 4195000: uvm_test_top.env.scb [axi4_scoreboard] [REF_MEM_WRITE] Addr=0x7812704f Data=0xfd
# UVM_INFO ../src/env/axi4_scoreboard.sv(219) @ 4195000: uvm_test_top.env.scb [axi4_scoreboard] [REF_MEM_WRITE] Addr=0x7812704c Data=0x3e
# UVM_INFO ../src/env/axi4_scoreboard.sv(219) @ 4195000: uvm_test_top.env.scb [axi4_scoreboard] [REF_MEM_WRITE] Addr=0x7812704e Data=0xef
# UVM_INFO ../src/env/axi4_scoreboard.sv(219) @ 4195000: uvm_test_top.env.scb [axi4_scoreboard] [REF_MEM_WRITE] Addr=0x78127050 Data=0xe7
# UVM_INFO ../src/env/axi4_scoreboard.sv(219) @ 4195000: uvm_test_top.env.scb [axi4_scoreboard] [REF_MEM_WRITE] Addr=0x78127051 Data=0xfd
# UVM_INFO ../src/env/axi4_scoreboard.sv(219) @ 4195000: uvm_test_top.env.scb [axi4_scoreboard] [REF_MEM_WRITE] Addr=0x78127052 Data=0x35
# UVM_INFO ../src/env/axi4_scoreboard.sv(219) @ 4195000: uvm_test_top.env.scb [axi4_scoreboard] [REF_MEM_WRITE] Addr=0x78127052 Data=0x24
# UVM_INFO ../src/env/axi4_scoreboard.sv(219) @ 4195000: uvm_test_top.env.scb [axi4_scoreboard] [REF_MEM_WRITE] Addr=0x78127050 Data=0xd4
# UVM_INFO ../src/env/axi4_scoreboard.sv(219) @ 4195000: uvm_test_top.env.scb [axi4_scoreboard] [REF_MEM_WRITE] Addr=0x78127052 Data=0x64
# UVM_INFO ../src/env/axi4_scoreboard.sv(219) @ 4195000: uvm_test_top.env.scb [axi4_scoreboard] [REF_MEM_WRITE] Addr=0x78127053 Data=0x71
# UVM_INFO ../src/env/axi4_scoreboard.sv(219) @ 4195000: uvm_test_top.env.scb [axi4_scoreboard] [REF_MEM_WRITE] Addr=0x78127050 Data=0x84
# UVM_INFO ../src/env/axi4_scoreboard.sv(219) @ 4195000: uvm_test_top.env.scb [axi4_scoreboard] [REF_MEM_WRITE] Addr=0x78127052 Data=0xa1
# UVM_INFO ../src/env/axi4_scoreboard.sv(219) @ 4195000: uvm_test_top.env.scb [axi4_scoreboard] [REF_MEM_WRITE] Addr=0x78127055 Data=0xc5
# UVM_INFO ../src/env/axi4_scoreboard.sv(219) @ 4195000: uvm_test_top.env.scb [axi4_scoreboard] [REF_MEM_WRITE] Addr=0x78127057 Data=0x2f
# UVM_INFO ../src/env/axi4_scoreboard.sv(219) @ 4195000: uvm_test_top.env.scb [axi4_scoreboard] [REF_MEM_WRITE] Addr=0x78127054 Data=0xe0
# UVM_INFO ../src/env/axi4_scoreboard.sv(219) @ 4195000: uvm_test_top.env.scb [axi4_scoreboard] [REF_MEM_WRITE] Addr=0x78127055 Data=0xbc
# UVM_INFO ../src/env/axi4_scoreboard.sv(219) @ 4195000: uvm_test_top.env.scb [axi4_scoreboard] [REF_MEM_WRITE] Addr=0x78127056 Data=0xf3
# UVM_INFO ../src/env/axi4_scoreboard.sv(219) @ 4195000: uvm_test_top.env.scb [axi4_scoreboard] [REF_MEM_WRITE] Addr=0x7812705a Data=0x0d
# UVM_INFO ../src/env/axi4_scoreboard.sv(219) @ 4195000: uvm_test_top.env.scb [axi4_scoreboard] [REF_MEM_WRITE] Addr=0x7812705b Data=0xf0
# UVM_INFO ../src/env/axi4_scoreboard.sv(219) @ 4195000: uvm_test_top.env.scb [axi4_scoreboard] [REF_MEM_WRITE] Addr=0x78127058 Data=0x07
# UVM_INFO ../src/env/axi4_scoreboard.sv(219) @ 4195000: uvm_test_top.env.scb [axi4_scoreboard] [REF_MEM_WRITE] Addr=0x7812705b Data=0xaf
# UVM_INFO ../src/env/axi4_scoreboard.sv(219) @ 4195000: uvm_test_top.env.scb [axi4_scoreboard] [REF_MEM_WRITE] Addr=0x78127058 Data=0x5b
# UVM_INFO ../src/env/axi4_scoreboard.sv(219) @ 4195000: uvm_test_top.env.scb [axi4_scoreboard] [REF_MEM_WRITE] Addr=0x7812705b Data=0xdc
# UVM_INFO ../src/env/axi4_scoreboard.sv(219) @ 4195000: uvm_test_top.env.scb [axi4_scoreboard] [REF_MEM_WRITE] Addr=0x7812705a Data=0x8f
# UVM_INFO ../src/env/axi4_scoreboard.sv(219) @ 4195000: uvm_test_top.env.scb [axi4_scoreboard] [REF_MEM_WRITE] Addr=0x7812705b Data=0xc2
# UVM_INFO ../src/env/axi4_scoreboard.sv(219) @ 4195000: uvm_test_top.env.scb [axi4_scoreboard] [REF_MEM_WRITE] Addr=0x7812705c Data=0xa1
# UVM_INFO ../src/env/axi4_scoreboard.sv(219) @ 4195000: uvm_test_top.env.scb [axi4_scoreboard] [REF_MEM_WRITE] Addr=0x7812705d Data=0xa0
# UVM_INFO ../src/env/axi4_scoreboard.sv(219) @ 4195000: uvm_test_top.env.scb [axi4_scoreboard] [REF_MEM_WRITE] Addr=0x7812705e Data=0x2b
# UVM_INFO ../src/env/axi4_scoreboard.sv(219) @ 4195000: uvm_test_top.env.scb [axi4_scoreboard] [REF_MEM_WRITE] Addr=0x7812705f Data=0x6e
# UVM_INFO ../src/env/axi4_scoreboard.sv(219) @ 4195000: uvm_test_top.env.scb [axi4_scoreboard] [REF_MEM_WRITE] Addr=0x7812705c Data=0x74
# UVM_INFO ../src/env/axi4_scoreboard.sv(219) @ 4195000: uvm_test_top.env.scb [axi4_scoreboard] [REF_MEM_WRITE] Addr=0x7812705c Data=0xc4
# UVM_INFO ../src/env/axi4_scoreboard.sv(219) @ 4195000: uvm_test_top.env.scb [axi4_scoreboard] [REF_MEM_WRITE] Addr=0x7812705d Data=0xd3
# UVM_INFO ../src/env/axi4_scoreboard.sv(219) @ 4195000: uvm_test_top.env.scb [axi4_scoreboard] [REF_MEM_WRITE] Addr=0x78127063 Data=0xac
# UVM_INFO ../src/env/axi4_scoreboard.sv(219) @ 4195000: uvm_test_top.env.scb [axi4_scoreboard] [REF_MEM_WRITE] Addr=0x78127060 Data=0xfe
# UVM_INFO ../src/env/axi4_scoreboard.sv(219) @ 4195000: uvm_test_top.env.scb [axi4_scoreboard] [REF_MEM_WRITE] Addr=0x78127062 Data=0xad
# UVM_INFO ../src/env/axi4_scoreboard.sv(219) @ 4195000: uvm_test_top.env.scb [axi4_scoreboard] [REF_MEM_WRITE] Addr=0x78127060 Data=0x69
# UVM_INFO ../src/env/axi4_scoreboard.sv(219) @ 4195000: uvm_test_top.env.scb [axi4_scoreboard] [REF_MEM_WRITE] Addr=0x78127061 Data=0xe0
# UVM_INFO ../src/env/axi4_scoreboard.sv(219) @ 4195000: uvm_test_top.env.scb [axi4_scoreboard] [REF_MEM_WRITE] Addr=0x78127063 Data=0x92
# UVM_INFO ../src/env/axi4_scoreboard.sv(219) @ 4195000: uvm_test_top.env.scb [axi4_scoreboard] [REF_MEM_WRITE] Addr=0x78127062 Data=0x3f
# UVM_INFO ../src/env/axi4_scoreboard.sv(219) @ 4195000: uvm_test_top.env.scb [axi4_scoreboard] [REF_MEM_WRITE] Addr=0x78127064 Data=0x8e
# UVM_INFO ../src/env/axi4_scoreboard.sv(219) @ 4195000: uvm_test_top.env.scb [axi4_scoreboard] [REF_MEM_WRITE] Addr=0x78127066 Data=0x4d
# UVM_INFO ../src/env/axi4_scoreboard.sv(219) @ 4195000: uvm_test_top.env.scb [axi4_scoreboard] [REF_MEM_WRITE] Addr=0x78127067 Data=0x62
# UVM_INFO ../src/env/axi4_scoreboard.sv(219) @ 4195000: uvm_test_top.env.scb [axi4_scoreboard] [REF_MEM_WRITE] Addr=0x78127065 Data=0x30
# UVM_INFO ../src/env/axi4_scoreboard.sv(219) @ 4195000: uvm_test_top.env.scb [axi4_scoreboard] [REF_MEM_WRITE] Addr=0x78127066 Data=0x4b
# UVM_INFO ../src/env/axi4_scoreboard.sv(219) @ 4195000: uvm_test_top.env.scb [axi4_scoreboard] [REF_MEM_WRITE] Addr=0x78127067 Data=0xa4
# UVM_INFO ../src/env/axi4_scoreboard.sv(219) @ 4195000: uvm_test_top.env.scb [axi4_scoreboard] [REF_MEM_WRITE] Addr=0x78127064 Data=0xf7
# UVM_INFO ../src/env/axi4_scoreboard.sv(219) @ 4195000: uvm_test_top.env.scb [axi4_scoreboard] [REF_MEM_WRITE] Addr=0x78127065 Data=0xff
# UVM_INFO ../src/env/axi4_scoreboard.sv(219) @ 4195000: uvm_test_top.env.scb [axi4_scoreboard] [REF_MEM_WRITE] Addr=0x78127064 Data=0x19
# UVM_INFO ../src/env/axi4_scoreboard.sv(219) @ 4195000: uvm_test_top.env.scb [axi4_scoreboard] [REF_MEM_WRITE] Addr=0x78127067 Data=0x4e
# UVM_INFO ../src/env/axi4_scoreboard.sv(219) @ 4195000: uvm_test_top.env.scb [axi4_scoreboard] [REF_MEM_WRITE] Addr=0x78127068 Data=0xa9
# UVM_INFO ../src/env/axi4_scoreboard.sv(219) @ 4195000: uvm_test_top.env.scb [axi4_scoreboard] [REF_MEM_WRITE] Addr=0x7812706a Data=0xc5
# UVM_INFO ../src/env/axi4_scoreboard.sv(219) @ 4195000: uvm_test_top.env.scb [axi4_scoreboard] [REF_MEM_WRITE] Addr=0x7812706b Data=0x80
# UVM_INFO ../src/env/axi4_scoreboard.sv(219) @ 4195000: uvm_test_top.env.scb [axi4_scoreboard] [REF_MEM_WRITE] Addr=0x7812706a Data=0x42
# UVM_INFO ../src/env/axi4_scoreboard.sv(219) @ 4195000: uvm_test_top.env.scb [axi4_scoreboard] [REF_MEM_WRITE] Addr=0x7812706b Data=0xbf
# UVM_INFO ../src/env/axi4_scoreboard.sv(219) @ 4195000: uvm_test_top.env.scb [axi4_scoreboard] [REF_MEM_WRITE] Addr=0x78127069 Data=0xe2
# UVM_INFO ../src/env/axi4_scoreboard.sv(219) @ 4195000: uvm_test_top.env.scb [axi4_scoreboard] [REF_MEM_WRITE] Addr=0x7812706a Data=0xce
# UVM_INFO ../src/env/axi4_scoreboard.sv(219) @ 4195000: uvm_test_top.env.scb [axi4_scoreboard] [REF_MEM_WRITE] Addr=0x78127068 Data=0x5d
# UVM_INFO ../src/env/axi4_scoreboard.sv(219) @ 4195000: uvm_test_top.env.scb [axi4_scoreboard] [REF_MEM_WRITE] Addr=0x78127069 Data=0xa3
# UVM_INFO ../src/env/axi4_scoreboard.sv(219) @ 4195000: uvm_test_top.env.scb [axi4_scoreboard] [REF_MEM_WRITE] Addr=0x7812706d Data=0x74
# UVM_INFO ../src/env/axi4_scoreboard.sv(219) @ 4195000: uvm_test_top.env.scb [axi4_scoreboard] [REF_MEM_WRITE] Addr=0x7812706e Data=0xbb
# UVM_INFO ../src/env/axi4_scoreboard.sv(219) @ 4195000: uvm_test_top.env.scb [axi4_scoreboard] [REF_MEM_WRITE] Addr=0x7812706c Data=0xf2
# UVM_INFO ../src/env/axi4_scoreboard.sv(219) @ 4195000: uvm_test_top.env.scb [axi4_scoreboard] [REF_MEM_WRITE] Addr=0x7812706f Data=0x4d
# UVM_INFO ../src/env/axi4_scoreboard.sv(219) @ 4195000: uvm_test_top.env.scb [axi4_scoreboard] [REF_MEM_WRITE] Addr=0x7812706d Data=0x00
# UVM_INFO ../src/env/axi4_scoreboard.sv(219) @ 4195000: uvm_test_top.env.scb [axi4_scoreboard] [REF_MEM_WRITE] Addr=0x7812706e Data=0x1b
# UVM_INFO ../src/env/axi4_scoreboard.sv(219) @ 4195000: uvm_test_top.env.scb [axi4_scoreboard] [REF_MEM_WRITE] Addr=0x7812706f Data=0xdd
# UVM_INFO ../src/env/axi4_scoreboard.sv(219) @ 4195000: uvm_test_top.env.scb [axi4_scoreboard] [REF_MEM_WRITE] Addr=0x7812706c Data=0x90
# UVM_INFO ../src/env/axi4_scoreboard.sv(219) @ 4195000: uvm_test_top.env.scb [axi4_scoreboard] [REF_MEM_WRITE] Addr=0x7812706e Data=0xc3
# UVM_INFO ../src/env/axi4_scoreboard.sv(219) @ 4195000: uvm_test_top.env.scb [axi4_scoreboard] [REF_MEM_WRITE] Addr=0x78127072 Data=0x30
# UVM_INFO ../src/env/axi4_scoreboard.sv(219) @ 4195000: uvm_test_top.env.scb [axi4_scoreboard] [REF_MEM_WRITE] Addr=0x78127071 Data=0x0c
# UVM_INFO ../src/env/axi4_scoreboard.sv(219) @ 4195000: uvm_test_top.env.scb [axi4_scoreboard] [REF_MEM_WRITE] Addr=0x78127073 Data=0xe5
# UVM_INFO ../src/env/axi4_scoreboard.sv(219) @ 4195000: uvm_test_top.env.scb [axi4_scoreboard] [REF_MEM_WRITE] Addr=0x78127070 Data=0xa4
# UVM_INFO ../src/env/axi4_scoreboard.sv(219) @ 4195000: uvm_test_top.env.scb [axi4_scoreboard] [REF_MEM_WRITE] Addr=0x78127071 Data=0x15
# UVM_INFO ../src/env/axi4_scoreboard.sv(219) @ 4195000: uvm_test_top.env.scb [axi4_scoreboard] [REF_MEM_WRITE] Addr=0x78127072 Data=0xab
# UVM_INFO ../src/env/axi4_scoreboard.sv(219) @ 4195000: uvm_test_top.env.scb [axi4_scoreboard] [REF_MEM_WRITE] Addr=0x78127075 Data=0xc9
# UVM_INFO ../src/env/axi4_scoreboard.sv(219) @ 4195000: uvm_test_top.env.scb [axi4_scoreboard] [REF_MEM_WRITE] Addr=0x78127076 Data=0x71
# UVM_INFO ../src/env/axi4_scoreboard.sv(219) @ 4195000: uvm_test_top.env.scb [axi4_scoreboard] [REF_MEM_WRITE] Addr=0x78127077 Data=0x44
# UVM_INFO ../src/env/axi4_scoreboard.sv(219) @ 4195000: uvm_test_top.env.scb [axi4_scoreboard] [REF_MEM_WRITE] Addr=0x78127075 Data=0x7d
# UVM_INFO ../src/env/axi4_scoreboard.sv(219) @ 4195000: uvm_test_top.env.scb [axi4_scoreboard] [REF_MEM_WRITE] Addr=0x78127074 Data=0xb7
# UVM_INFO ../src/env/axi4_scoreboard.sv(219) @ 4195000: uvm_test_top.env.scb [axi4_scoreboard] [REF_MEM_WRITE] Addr=0x78127074 Data=0xe5
# UVM_INFO ../src/env/axi4_scoreboard.sv(219) @ 4195000: uvm_test_top.env.scb [axi4_scoreboard] [REF_MEM_WRITE] Addr=0x78127075 Data=0x34
# UVM_INFO ../src/env/axi4_scoreboard.sv(219) @ 4195000: uvm_test_top.env.scb [axi4_scoreboard] [REF_MEM_WRITE] Addr=0x78127076 Data=0x6c
# UVM_INFO ../src/env/axi4_scoreboard.sv(219) @ 4195000: uvm_test_top.env.scb [axi4_scoreboard] [REF_MEM_WRITE] Addr=0x78127078 Data=0x69
# UVM_INFO ../src/env/axi4_scoreboard.sv(219) @ 4195000: uvm_test_top.env.scb [axi4_scoreboard] [REF_MEM_WRITE] Addr=0x78127079 Data=0xed
# UVM_INFO ../src/env/axi4_scoreboard.sv(219) @ 4195000: uvm_test_top.env.scb [axi4_scoreboard] [REF_MEM_WRITE] Addr=0x7812707b Data=0x8c
# UVM_INFO ../src/env/axi4_scoreboard.sv(219) @ 4195000: uvm_test_top.env.scb [axi4_scoreboard] [REF_MEM_WRITE] Addr=0x78127078 Data=0x08
# UVM_INFO ../src/env/axi4_scoreboard.sv(219) @ 4195000: uvm_test_top.env.scb [axi4_scoreboard] [REF_MEM_WRITE] Addr=0x78127079 Data=0x9b
# UVM_INFO ../src/env/axi4_scoreboard.sv(219) @ 4195000: uvm_test_top.env.scb [axi4_scoreboard] [REF_MEM_WRITE] Addr=0x7812707a Data=0x2c
# UVM_INFO ../src/env/axi4_scoreboard.sv(219) @ 4195000: uvm_test_top.env.scb [axi4_scoreboard] [REF_MEM_WRITE] Addr=0x7812707b Data=0xab
# UVM_INFO ../src/env/axi4_scoreboard.sv(219) @ 4195000: uvm_test_top.env.scb [axi4_scoreboard] [REF_MEM_WRITE] Addr=0x78127078 Data=0x91
# UVM_INFO ../src/env/axi4_scoreboard.sv(219) @ 4195000: uvm_test_top.env.scb [axi4_scoreboard] [REF_MEM_WRITE] Addr=0x78127078 Data=0x5c
# UVM_INFO ../src/env/axi4_scoreboard.sv(219) @ 4195000: uvm_test_top.env.scb [axi4_scoreboard] [REF_MEM_WRITE] Addr=0x78127079 Data=0xdc
# UVM_INFO ../src/env/axi4_scoreboard.sv(219) @ 4195000: uvm_test_top.env.scb [axi4_scoreboard] [REF_MEM_WRITE] Addr=0x7812707a Data=0x1c
# UVM_INFO ../src/env/axi4_scoreboard.sv(219) @ 4195000: uvm_test_top.env.scb [axi4_scoreboard] [REF_MEM_WRITE] Addr=0x7812707c Data=0x34
# UVM_INFO ../src/env/axi4_scoreboard.sv(219) @ 4195000: uvm_test_top.env.scb [axi4_scoreboard] [REF_MEM_WRITE] Addr=0x7812707d Data=0xa6
# UVM_INFO ../src/env/axi4_scoreboard.sv(219) @ 4195000: uvm_test_top.env.scb [axi4_scoreboard] [REF_MEM_WRITE] Addr=0x7812707f Data=0x7c
# UVM_INFO ../src/env/axi4_scoreboard.sv(219) @ 4195000: uvm_test_top.env.scb [axi4_scoreboard] [REF_MEM_WRITE] Addr=0x7812707f Data=0x93
# UVM_INFO ../src/env/axi4_scoreboard.sv(219) @ 4195000: uvm_test_top.env.scb [axi4_scoreboard] [REF_MEM_WRITE] Addr=0x7812707d Data=0x47
# UVM_INFO ../src/env/axi4_scoreboard.sv(219) @ 4195000: uvm_test_top.env.scb [axi4_scoreboard] [REF_MEM_WRITE] Addr=0x7812707f Data=0x0a
# UVM_INFO ../src/env/axi4_scoreboard.sv(219) @ 4195000: uvm_test_top.env.scb [axi4_scoreboard] [REF_MEM_WRITE] Addr=0x7812707c Data=0x8c
# UVM_INFO ../src/env/axi4_scoreboard.sv(219) @ 4195000: uvm_test_top.env.scb [axi4_scoreboard] [REF_MEM_WRITE] Addr=0x7812707e Data=0x67
# UVM_INFO ../src/env/axi4_scoreboard.sv(219) @ 4195000: uvm_test_top.env.scb [axi4_scoreboard] [REF_MEM_WRITE] Addr=0x7812707f Data=0xab
# UVM_INFO ../src/env/axi4_scoreboard.sv(219) @ 4195000: uvm_test_top.env.scb [axi4_scoreboard] [REF_MEM_WRITE] Addr=0x78127080 Data=0x1a
# UVM_INFO ../src/env/axi4_scoreboard.sv(219) @ 4195000: uvm_test_top.env.scb [axi4_scoreboard] [REF_MEM_WRITE] Addr=0x78127082 Data=0x31
# UVM_INFO ../src/env/axi4_scoreboard.sv(219) @ 4195000: uvm_test_top.env.scb [axi4_scoreboard] [REF_MEM_WRITE] Addr=0x78127083 Data=0xfa
# UVM_INFO ../src/env/axi4_scoreboard.sv(219) @ 4195000: uvm_test_top.env.scb [axi4_scoreboard] [REF_MEM_WRITE] Addr=0x78127082 Data=0x21
# UVM_INFO ../src/env/axi4_scoreboard.sv(219) @ 4195000: uvm_test_top.env.scb [axi4_scoreboard] [REF_MEM_WRITE] Addr=0x78127083 Data=0x1e
# UVM_INFO ../src/env/axi4_scoreboard.sv(219) @ 4195000: uvm_test_top.env.scb [axi4_scoreboard] [REF_MEM_WRITE] Addr=0x78127080 Data=0x3e
# UVM_INFO ../src/env/axi4_scoreboard.sv(219) @ 4195000: uvm_test_top.env.scb [axi4_scoreboard] [REF_MEM_WRITE] Addr=0x78127083 Data=0xf3
# UVM_INFO ../src/env/axi4_scoreboard.sv(219) @ 4195000: uvm_test_top.env.scb [axi4_scoreboard] [REF_MEM_WRITE] Addr=0x78127081 Data=0x48
# UVM_INFO ../src/env/axi4_scoreboard.sv(219) @ 4195000: uvm_test_top.env.scb [axi4_scoreboard] [REF_MEM_WRITE] Addr=0x78127082 Data=0x48
# UVM_INFO ../src/env/axi4_scoreboard.sv(219) @ 4195000: uvm_test_top.env.scb [axi4_scoreboard] [REF_MEM_WRITE] Addr=0x78127083 Data=0x3b
# UVM_INFO ../src/env/axi4_scoreboard.sv(219) @ 4195000: uvm_test_top.env.scb [axi4_scoreboard] [REF_MEM_WRITE] Addr=0x78127086 Data=0x47
# UVM_INFO ../src/env/axi4_scoreboard.sv(219) @ 4195000: uvm_test_top.env.scb [axi4_scoreboard] [REF_MEM_WRITE] Addr=0x78127085 Data=0xd4
# UVM_INFO ../src/env/axi4_scoreboard.sv(219) @ 4195000: uvm_test_top.env.scb [axi4_scoreboard] [REF_MEM_WRITE] Addr=0x78127087 Data=0xdf
# UVM_INFO ../src/env/axi4_scoreboard.sv(219) @ 4195000: uvm_test_top.env.scb [axi4_scoreboard] [REF_MEM_WRITE] Addr=0x78127084 Data=0xb4
# UVM_INFO ../src/env/axi4_scoreboard.sv(219) @ 4195000: uvm_test_top.env.scb [axi4_scoreboard] [REF_MEM_WRITE] Addr=0x78127086 Data=0x18
# UVM_INFO ../src/env/axi4_scoreboard.sv(219) @ 4195000: uvm_test_top.env.scb [axi4_scoreboard] [REF_MEM_WRITE] Addr=0x78127088 Data=0xbb
# UVM_INFO ../src/env/axi4_scoreboard.sv(219) @ 4195000: uvm_test_top.env.scb [axi4_scoreboard] [REF_MEM_WRITE] Addr=0x7812708a Data=0xe6
# UVM_INFO ../src/env/axi4_scoreboard.sv(219) @ 4195000: uvm_test_top.env.scb [axi4_scoreboard] [REF_MEM_WRITE] Addr=0x7812708b Data=0xe8
# UVM_INFO ../src/env/axi4_scoreboard.sv(219) @ 4195000: uvm_test_top.env.scb [axi4_scoreboard] [REF_MEM_WRITE] Addr=0x7812708a Data=0x82
# UVM_INFO ../src/env/axi4_scoreboard.sv(219) @ 4195000: uvm_test_top.env.scb [axi4_scoreboard] [REF_MEM_WRITE] Addr=0x78127088 Data=0xee
# UVM_INFO ../src/env/axi4_scoreboard.sv(219) @ 4195000: uvm_test_top.env.scb [axi4_scoreboard] [REF_MEM_WRITE] Addr=0x78127089 Data=0x69
# UVM_INFO ../src/env/axi4_scoreboard.sv(219) @ 4195000: uvm_test_top.env.scb [axi4_scoreboard] [REF_MEM_WRITE] Addr=0x7812708a Data=0xad
# UVM_INFO ../src/env/axi4_scoreboard.sv(219) @ 4195000: uvm_test_top.env.scb [axi4_scoreboard] [REF_MEM_WRITE] Addr=0x7812708b Data=0xb4
# UVM_INFO ../src/env/axi4_scoreboard.sv(219) @ 4195000: uvm_test_top.env.scb [axi4_scoreboard] [REF_MEM_WRITE] Addr=0x7812708b Data=0x3c
# UVM_INFO ../src/env/axi4_scoreboard.sv(219) @ 4195000: uvm_test_top.env.scb [axi4_scoreboard] [REF_MEM_WRITE] Addr=0x7812708c Data=0xbe
# UVM_INFO ../src/env/axi4_scoreboard.sv(219) @ 4195000: uvm_test_top.env.scb [axi4_scoreboard] [REF_MEM_WRITE] Addr=0x7812708d Data=0x29
# UVM_INFO ../src/env/axi4_scoreboard.sv(219) @ 4195000: uvm_test_top.env.scb [axi4_scoreboard] [REF_MEM_WRITE] Addr=0x7812708e Data=0x01
# UVM_INFO ../src/env/axi4_scoreboard.sv(219) @ 4195000: uvm_test_top.env.scb [axi4_scoreboard] [REF_MEM_WRITE] Addr=0x7812708f Data=0xf7
# UVM_INFO ../src/env/axi4_scoreboard.sv(219) @ 4195000: uvm_test_top.env.scb [axi4_scoreboard] [REF_MEM_WRITE] Addr=0x7812708d Data=0x33
# UVM_INFO ../src/env/axi4_scoreboard.sv(219) @ 4195000: uvm_test_top.env.scb [axi4_scoreboard] [REF_MEM_WRITE] Addr=0x7812708f Data=0xb9
# UVM_INFO ../src/env/axi4_scoreboard.sv(219) @ 4195000: uvm_test_top.env.scb [axi4_scoreboard] [REF_MEM_WRITE] Addr=0x7812708c Data=0xe0
# UVM_INFO ../src/env/axi4_scoreboard.sv(219) @ 4195000: uvm_test_top.env.scb [axi4_scoreboard] [REF_MEM_WRITE] Addr=0x7812708d Data=0xa3
# UVM_INFO ../src/env/axi4_scoreboard.sv(219) @ 4195000: uvm_test_top.env.scb [axi4_scoreboard] [REF_MEM_WRITE] Addr=0x78127091 Data=0xf6
# UVM_INFO ../src/env/axi4_scoreboard.sv(219) @ 4195000: uvm_test_top.env.scb [axi4_scoreboard] [REF_MEM_WRITE] Addr=0x78127093 Data=0x39
# UVM_INFO ../src/env/axi4_scoreboard.sv(219) @ 4195000: uvm_test_top.env.scb [axi4_scoreboard] [REF_MEM_WRITE] Addr=0x78127090 Data=0xa9
# UVM_INFO ../src/env/axi4_scoreboard.sv(219) @ 4195000: uvm_test_top.env.scb [axi4_scoreboard] [REF_MEM_WRITE] Addr=0x78127090 Data=0xc6
# UVM_INFO ../src/env/axi4_scoreboard.sv(219) @ 4195000: uvm_test_top.env.scb [axi4_scoreboard] [REF_MEM_WRITE] Addr=0x78127091 Data=0xe7
# UVM_INFO ../src/env/axi4_scoreboard.sv(219) @ 4195000: uvm_test_top.env.scb [axi4_scoreboard] [REF_MEM_WRITE] Addr=0x78127093 Data=0x1a
# UVM_INFO ../src/env/axi4_scoreboard.sv(219) @ 4195000: uvm_test_top.env.scb [axi4_scoreboard] [REF_MEM_WRITE] Addr=0x78127090 Data=0x2b
# UVM_INFO ../src/env/axi4_scoreboard.sv(219) @ 4195000: uvm_test_top.env.scb [axi4_scoreboard] [REF_MEM_WRITE] Addr=0x78127093 Data=0xfa
# UVM_INFO ../src/env/axi4_scoreboard.sv(219) @ 4195000: uvm_test_top.env.scb [axi4_scoreboard] [REF_MEM_WRITE] Addr=0x78127094 Data=0xce
# UVM_INFO ../src/env/axi4_scoreboard.sv(219) @ 4195000: uvm_test_top.env.scb [axi4_scoreboard] [REF_MEM_WRITE] Addr=0x78127097 Data=0xea
# UVM_INFO ../src/env/axi4_scoreboard.sv(219) @ 4195000: uvm_test_top.env.scb [axi4_scoreboard] [REF_MEM_WRITE] Addr=0x78127096 Data=0x10
# UVM_INFO ../src/env/axi4_scoreboard.sv(219) @ 4195000: uvm_test_top.env.scb [axi4_scoreboard] [REF_MEM_WRITE] Addr=0x78127097 Data=0xce
# UVM_INFO ../src/env/axi4_scoreboard.sv(219) @ 4195000: uvm_test_top.env.scb [axi4_scoreboard] [REF_MEM_WRITE] Addr=0x78127097 Data=0xcf
# UVM_INFO ../src/env/axi4_scoreboard.sv(219) @ 4195000: uvm_test_top.env.scb [axi4_scoreboard] [REF_MEM_WRITE] Addr=0x78127094 Data=0x76
# UVM_INFO ../src/env/axi4_scoreboard.sv(219) @ 4195000: uvm_test_top.env.scb [axi4_scoreboard] [REF_MEM_WRITE] Addr=0x78127095 Data=0xf0
# UVM_INFO ../src/env/axi4_scoreboard.sv(219) @ 4195000: uvm_test_top.env.scb [axi4_scoreboard] [REF_MEM_WRITE] Addr=0x78127097 Data=0x2a
# UVM_INFO ../src/env/axi4_scoreboard.sv(219) @ 4195000: uvm_test_top.env.scb [axi4_scoreboard] [REF_MEM_WRITE] Addr=0x78127099 Data=0x45
# UVM_INFO ../src/env/axi4_scoreboard.sv(219) @ 4195000: uvm_test_top.env.scb [axi4_scoreboard] [REF_MEM_WRITE] Addr=0x7812709a Data=0xdd
# UVM_INFO ../src/env/axi4_scoreboard.sv(219) @ 4195000: uvm_test_top.env.scb [axi4_scoreboard] [REF_MEM_WRITE] Addr=0x78127099 Data=0xfb
# UVM_INFO ../src/env/axi4_scoreboard.sv(219) @ 4195000: uvm_test_top.env.scb [axi4_scoreboard] [REF_MEM_WRITE] Addr=0x7812709a Data=0x0e
# UVM_INFO ../src/env/axi4_scoreboard.sv(219) @ 4195000: uvm_test_top.env.scb [axi4_scoreboard] [REF_MEM_WRITE] Addr=0x78127098 Data=0x07
# UVM_INFO ../src/env/axi4_scoreboard.sv(219) @ 4195000: uvm_test_top.env.scb [axi4_scoreboard] [REF_MEM_WRITE] Addr=0x7812709a Data=0xc5
# UVM_INFO ../src/env/axi4_scoreboard.sv(219) @ 4195000: uvm_test_top.env.scb [axi4_scoreboard] [REF_MEM_WRITE] Addr=0x78127099 Data=0xf7
# UVM_INFO ../src/env/axi4_scoreboard.sv(219) @ 4195000: uvm_test_top.env.scb [axi4_scoreboard] [REF_MEM_WRITE] Addr=0x7812709c Data=0x99
# UVM_INFO ../src/env/axi4_scoreboard.sv(219) @ 4195000: uvm_test_top.env.scb [axi4_scoreboard] [REF_MEM_WRITE] Addr=0x7812709e Data=0x91
# UVM_INFO ../src/env/axi4_scoreboard.sv(219) @ 4195000: uvm_test_top.env.scb [axi4_scoreboard] [REF_MEM_WRITE] Addr=0x7812709d Data=0xde
# UVM_INFO ../src/env/axi4_scoreboard.sv(219) @ 4195000: uvm_test_top.env.scb [axi4_scoreboard] [REF_MEM_WRITE] Addr=0x7812709e Data=0xbd
# UVM_INFO ../src/env/axi4_scoreboard.sv(219) @ 4195000: uvm_test_top.env.scb [axi4_scoreboard] [REF_MEM_WRITE] Addr=0x7812709f Data=0x60
# UVM_INFO ../src/env/axi4_scoreboard.sv(219) @ 4195000: uvm_test_top.env.scb [axi4_scoreboard] [REF_MEM_WRITE] Addr=0x7812709c Data=0xe5
# UVM_INFO ../src/env/axi4_scoreboard.sv(219) @ 4195000: uvm_test_top.env.scb [axi4_scoreboard] [REF_MEM_WRITE] Addr=0x7812709d Data=0x03
# UVM_INFO ../src/env/axi4_scoreboard.sv(219) @ 4195000: uvm_test_top.env.scb [axi4_scoreboard] [REF_MEM_WRITE] Addr=0x7812709e Data=0xd7
# UVM_INFO ../src/env/axi4_scoreboard.sv(219) @ 4195000: uvm_test_top.env.scb [axi4_scoreboard] [REF_MEM_WRITE] Addr=0x7812709c Data=0x78
# UVM_INFO ../src/env/axi4_scoreboard.sv(219) @ 4195000: uvm_test_top.env.scb [axi4_scoreboard] [REF_MEM_WRITE] Addr=0x7812709d Data=0x6d
# UVM_INFO ../src/env/axi4_scoreboard.sv(219) @ 4195000: uvm_test_top.env.scb [axi4_scoreboard] [REF_MEM_WRITE] Addr=0x7812709f Data=0xc3
# UVM_INFO ../src/env/axi4_scoreboard.sv(219) @ 4195000: uvm_test_top.env.scb [axi4_scoreboard] [REF_MEM_WRITE] Addr=0x781270a1 Data=0xb5
# UVM_INFO ../src/env/axi4_scoreboard.sv(219) @ 4195000: uvm_test_top.env.scb [axi4_scoreboard] [REF_MEM_WRITE] Addr=0x781270a2 Data=0xe2
# UVM_INFO ../src/env/axi4_scoreboard.sv(219) @ 4195000: uvm_test_top.env.scb [axi4_scoreboard] [REF_MEM_WRITE] Addr=0x781270a1 Data=0xaf
# UVM_INFO ../src/env/axi4_scoreboard.sv(219) @ 4195000: uvm_test_top.env.scb [axi4_scoreboard] [REF_MEM_WRITE] Addr=0x781270a2 Data=0xfa
# UVM_INFO ../src/env/axi4_scoreboard.sv(219) @ 4195000: uvm_test_top.env.scb [axi4_scoreboard] [REF_MEM_WRITE] Addr=0x781270a0 Data=0x34
# UVM_INFO ../src/env/axi4_scoreboard.sv(219) @ 4195000: uvm_test_top.env.scb [axi4_scoreboard] [REF_MEM_WRITE] Addr=0x781270a2 Data=0x0a
# UVM_INFO ../src/env/axi4_scoreboard.sv(219) @ 4195000: uvm_test_top.env.scb [axi4_scoreboard] [REF_MEM_WRITE] Addr=0x781270a3 Data=0xe0
# UVM_INFO ../src/env/axi4_scoreboard.sv(219) @ 4195000: uvm_test_top.env.scb [axi4_scoreboard] [REF_MEM_WRITE] Addr=0x781270a4 Data=0x77
# UVM_INFO ../src/env/axi4_scoreboard.sv(219) @ 4195000: uvm_test_top.env.scb [axi4_scoreboard] [REF_MEM_WRITE] Addr=0x781270a5 Data=0x0f
# UVM_INFO ../src/env/axi4_scoreboard.sv(219) @ 4195000: uvm_test_top.env.scb [axi4_scoreboard] [REF_MEM_WRITE] Addr=0x781270a4 Data=0x6e
# UVM_INFO ../src/env/axi4_scoreboard.sv(219) @ 4195000: uvm_test_top.env.scb [axi4_scoreboard] [REF_MEM_WRITE] Addr=0x781270a6 Data=0xaa
# UVM_INFO ../src/env/axi4_scoreboard.sv(219) @ 4195000: uvm_test_top.env.scb [axi4_scoreboard] [REF_MEM_WRITE] Addr=0x781270a7 Data=0x01
# UVM_INFO ../src/env/axi4_scoreboard.sv(219) @ 4195000: uvm_test_top.env.scb [axi4_scoreboard] [REF_MEM_WRITE] Addr=0x781270a4 Data=0xd9
# UVM_INFO ../src/env/axi4_scoreboard.sv(219) @ 4195000: uvm_test_top.env.scb [axi4_scoreboard] [REF_MEM_WRITE] Addr=0x781270a6 Data=0x4e
# UVM_INFO ../src/env/axi4_scoreboard.sv(219) @ 4195000: uvm_test_top.env.scb [axi4_scoreboard] [REF_MEM_WRITE] Addr=0x781270a7 Data=0xd3
# UVM_INFO ../src/env/axi4_scoreboard.sv(219) @ 4195000: uvm_test_top.env.scb [axi4_scoreboard] [REF_MEM_WRITE] Addr=0x781270a4 Data=0xba
# UVM_INFO ../src/env/axi4_scoreboard.sv(219) @ 4195000: uvm_test_top.env.scb [axi4_scoreboard] [REF_MEM_WRITE] Addr=0x781270a7 Data=0x73
# UVM_INFO ../src/env/axi4_scoreboard.sv(219) @ 4195000: uvm_test_top.env.scb [axi4_scoreboard] [REF_MEM_WRITE] Addr=0x781270a8 Data=0x74
# UVM_INFO ../src/env/axi4_scoreboard.sv(219) @ 4195000: uvm_test_top.env.scb [axi4_scoreboard] [REF_MEM_WRITE] Addr=0x781270a9 Data=0xb8
# UVM_INFO ../src/env/axi4_scoreboard.sv(219) @ 4195000: uvm_test_top.env.scb [axi4_scoreboard] [REF_MEM_WRITE] Addr=0x781270ab Data=0xa0
# UVM_INFO ../src/env/axi4_scoreboard.sv(219) @ 4195000: uvm_test_top.env.scb [axi4_scoreboard] [REF_MEM_WRITE] Addr=0x781270a9 Data=0xf5
# UVM_INFO ../src/env/axi4_scoreboard.sv(219) @ 4195000: uvm_test_top.env.scb [axi4_scoreboard] [REF_MEM_WRITE] Addr=0x781270aa Data=0x43
# UVM_INFO ../src/env/axi4_scoreboard.sv(219) @ 4195000: uvm_test_top.env.scb [axi4_scoreboard] [REF_MEM_WRITE] Addr=0x781270a8 Data=0x29
# UVM_INFO ../src/env/axi4_scoreboard.sv(219) @ 4195000: uvm_test_top.env.scb [axi4_scoreboard] [REF_MEM_WRITE] Addr=0x781270a9 Data=0x76
# UVM_INFO ../src/env/axi4_scoreboard.sv(219) @ 4195000: uvm_test_top.env.scb [axi4_scoreboard] [REF_MEM_WRITE] Addr=0x781270ab Data=0x9d
# UVM_INFO ../src/env/axi4_scoreboard.sv(219) @ 4195000: uvm_test_top.env.scb [axi4_scoreboard] [REF_MEM_WRITE] Addr=0x781270a8 Data=0x93
# UVM_INFO ../src/env/axi4_scoreboard.sv(219) @ 4195000: uvm_test_top.env.scb [axi4_scoreboard] [REF_MEM_WRITE] Addr=0x781270a9 Data=0xd4
# UVM_INFO ../src/env/axi4_scoreboard.sv(219) @ 4195000: uvm_test_top.env.scb [axi4_scoreboard] [REF_MEM_WRITE] Addr=0x781270ac Data=0x68
# UVM_INFO ../src/env/axi4_scoreboard.sv(219) @ 4195000: uvm_test_top.env.scb [axi4_scoreboard] [REF_MEM_WRITE] Addr=0x781270ae Data=0xec
# UVM_INFO ../src/env/axi4_scoreboard.sv(219) @ 4195000: uvm_test_top.env.scb [axi4_scoreboard] [REF_MEM_WRITE] Addr=0x781270ac Data=0x43
# UVM_INFO ../src/env/axi4_scoreboard.sv(219) @ 4195000: uvm_test_top.env.scb [axi4_scoreboard] [REF_MEM_WRITE] Addr=0x781270ad Data=0x0b
# UVM_INFO ../src/env/axi4_scoreboard.sv(219) @ 4195000: uvm_test_top.env.scb [axi4_scoreboard] [REF_MEM_WRITE] Addr=0x781270af Data=0xea
# UVM_INFO ../src/env/axi4_scoreboard.sv(219) @ 4195000: uvm_test_top.env.scb [axi4_scoreboard] [REF_MEM_WRITE] Addr=0x781270ae Data=0x6d
# UVM_INFO ../src/env/axi4_scoreboard.sv(219) @ 4195000: uvm_test_top.env.scb [axi4_scoreboard] [REF_MEM_WRITE] Addr=0x781270af Data=0x8c
# UVM_INFO ../src/env/axi4_scoreboard.sv(219) @ 4195000: uvm_test_top.env.scb [axi4_scoreboard] [REF_MEM_WRITE] Addr=0x781270b0 Data=0xa9
# UVM_INFO ../src/env/axi4_scoreboard.sv(219) @ 4195000: uvm_test_top.env.scb [axi4_scoreboard] [REF_MEM_WRITE] Addr=0x781270b2 Data=0xeb
# UVM_INFO ../src/env/axi4_scoreboard.sv(219) @ 4195000: uvm_test_top.env.scb [axi4_scoreboard] [REF_MEM_WRITE] Addr=0x781270b3 Data=0xd5
# UVM_INFO ../src/env/axi4_scoreboard.sv(219) @ 4195000: uvm_test_top.env.scb [axi4_scoreboard] [REF_MEM_WRITE] Addr=0x781270b0 Data=0x78
# UVM_INFO ../src/env/axi4_scoreboard.sv(219) @ 4195000: uvm_test_top.env.scb [axi4_scoreboard] [REF_MEM_WRITE] Addr=0x781270b1 Data=0x0c
# UVM_INFO ../src/env/axi4_scoreboard.sv(219) @ 4195000: uvm_test_top.env.scb [axi4_scoreboard] [REF_MEM_WRITE] Addr=0x781270b0 Data=0x62
# UVM_INFO ../src/env/axi4_scoreboard.sv(219) @ 4195000: uvm_test_top.env.scb [axi4_scoreboard] [REF_MEM_WRITE] Addr=0x781270b1 Data=0x5c
# UVM_INFO ../src/env/axi4_scoreboard.sv(219) @ 4195000: uvm_test_top.env.scb [axi4_scoreboard] [REF_MEM_WRITE] Addr=0x781270b2 Data=0xfe
# UVM_INFO ../src/env/axi4_scoreboard.sv(219) @ 4195000: uvm_test_top.env.scb [axi4_scoreboard] [REF_MEM_WRITE] Addr=0x781270b3 Data=0xf2
# UVM_INFO ../src/env/axi4_scoreboard.sv(219) @ 4195000: uvm_test_top.env.scb [axi4_scoreboard] [REF_MEM_WRITE] Addr=0x781270b6 Data=0xc3
# UVM_INFO ../src/env/axi4_scoreboard.sv(219) @ 4195000: uvm_test_top.env.scb [axi4_scoreboard] [REF_MEM_WRITE] Addr=0x781270b7 Data=0x90
# UVM_INFO ../src/env/axi4_scoreboard.sv(219) @ 4195000: uvm_test_top.env.scb [axi4_scoreboard] [REF_MEM_WRITE] Addr=0x781270b5 Data=0x3d
# UVM_INFO ../src/env/axi4_scoreboard.sv(219) @ 4195000: uvm_test_top.env.scb [axi4_scoreboard] [REF_MEM_WRITE] Addr=0x781270b4 Data=0xe1
# UVM_INFO ../src/env/axi4_scoreboard.sv(219) @ 4195000: uvm_test_top.env.scb [axi4_scoreboard] [REF_MEM_WRITE] Addr=0x781270b4 Data=0x0b
# UVM_INFO ../src/env/axi4_scoreboard.sv(219) @ 4195000: uvm_test_top.env.scb [axi4_scoreboard] [REF_MEM_WRITE] Addr=0x781270b5 Data=0x9a
# UVM_INFO ../src/env/axi4_scoreboard.sv(219) @ 4195000: uvm_test_top.env.scb [axi4_scoreboard] [REF_MEM_WRITE] Addr=0x781270b8 Data=0xeb
# UVM_INFO ../src/env/axi4_scoreboard.sv(219) @ 4195000: uvm_test_top.env.scb [axi4_scoreboard] [REF_MEM_WRITE] Addr=0x781270b9 Data=0x69
# UVM_INFO ../src/env/axi4_scoreboard.sv(219) @ 4195000: uvm_test_top.env.scb [axi4_scoreboard] [REF_MEM_WRITE] Addr=0x781270ba Data=0x11
# UVM_INFO ../src/env/axi4_scoreboard.sv(219) @ 4195000: uvm_test_top.env.scb [axi4_scoreboard] [REF_MEM_WRITE] Addr=0x781270bb Data=0x21
# UVM_INFO ../src/env/axi4_scoreboard.sv(219) @ 4195000: uvm_test_top.env.scb [axi4_scoreboard] [REF_MEM_WRITE] Addr=0x781270b9 Data=0xfe
# UVM_INFO ../src/env/axi4_scoreboard.sv(219) @ 4195000: uvm_test_top.env.scb [axi4_scoreboard] [REF_MEM_WRITE] Addr=0x781270b8 Data=0xc8
# UVM_INFO ../src/env/axi4_scoreboard.sv(219) @ 4195000: uvm_test_top.env.scb [axi4_scoreboard] [REF_MEM_WRITE] Addr=0x781270b9 Data=0xd2
# UVM_INFO ../src/env/axi4_scoreboard.sv(219) @ 4195000: uvm_test_top.env.scb [axi4_scoreboard] [REF_MEM_WRITE] Addr=0x781270b8 Data=0x19
# UVM_INFO ../src/env/axi4_scoreboard.sv(219) @ 4195000: uvm_test_top.env.scb [axi4_scoreboard] [REF_MEM_WRITE] Addr=0x781270ba Data=0xb0
# UVM_INFO ../src/env/axi4_scoreboard.sv(219) @ 4195000: uvm_test_top.env.scb [axi4_scoreboard] [REF_MEM_WRITE] Addr=0x781270bb Data=0xee
# UVM_INFO ../src/env/axi4_scoreboard.sv(219) @ 4195000: uvm_test_top.env.scb [axi4_scoreboard] [REF_MEM_WRITE] Addr=0x781270be Data=0xda
# UVM_INFO ../src/env/axi4_scoreboard.sv(219) @ 4195000: uvm_test_top.env.scb [axi4_scoreboard] [REF_MEM_WRITE] Addr=0x781270bf Data=0x52
# UVM_INFO ../src/env/axi4_scoreboard.sv(219) @ 4195000: uvm_test_top.env.scb [axi4_scoreboard] [REF_MEM_WRITE] Addr=0x781270bd Data=0x02
# UVM_INFO ../src/env/axi4_scoreboard.sv(219) @ 4195000: uvm_test_top.env.scb [axi4_scoreboard] [REF_MEM_WRITE] Addr=0x781270be Data=0x33
# UVM_INFO ../src/env/axi4_scoreboard.sv(219) @ 4195000: uvm_test_top.env.scb [axi4_scoreboard] [REF_MEM_WRITE] Addr=0x781270bf Data=0x89
# UVM_INFO ../src/env/axi4_scoreboard.sv(219) @ 4195000: uvm_test_top.env.scb [axi4_scoreboard] [REF_MEM_WRITE] Addr=0x781270bf Data=0xa3
# UVM_INFO ../src/env/axi4_scoreboard.sv(219) @ 4195000: uvm_test_top.env.scb [axi4_scoreboard] [REF_MEM_WRITE] Addr=0x781270bc Data=0x10
# UVM_INFO ../src/env/axi4_scoreboard.sv(219) @ 4195000: uvm_test_top.env.scb [axi4_scoreboard] [REF_MEM_WRITE] Addr=0x781270bd Data=0xe2
# UVM_INFO ../src/env/axi4_scoreboard.sv(219) @ 4195000: uvm_test_top.env.scb [axi4_scoreboard] [REF_MEM_WRITE] Addr=0x781270c2 Data=0x0f
# UVM_INFO ../src/env/axi4_scoreboard.sv(219) @ 4195000: uvm_test_top.env.scb [axi4_scoreboard] [REF_MEM_WRITE] Addr=0x781270c1 Data=0x18
# UVM_INFO ../src/env/axi4_scoreboard.sv(219) @ 4195000: uvm_test_top.env.scb [axi4_scoreboard] [REF_MEM_WRITE] Addr=0x781270c0 Data=0x6f
# UVM_INFO ../src/env/axi4_scoreboard.sv(219) @ 4195000: uvm_test_top.env.scb [axi4_scoreboard] [REF_MEM_WRITE] Addr=0x781270c1 Data=0x34
# UVM_INFO ../src/env/axi4_scoreboard.sv(219) @ 4195000: uvm_test_top.env.scb [axi4_scoreboard] [REF_MEM_WRITE] Addr=0x781270c2 Data=0x66
# UVM_INFO ../src/env/axi4_scoreboard.sv(219) @ 4195000: uvm_test_top.env.scb [axi4_scoreboard] [REF_MEM_WRITE] Addr=0x781270c3 Data=0x94
# UVM_INFO ../src/env/axi4_scoreboard.sv(219) @ 4195000: uvm_test_top.env.scb [axi4_scoreboard] [REF_MEM_WRITE] Addr=0x781270c4 Data=0x24
# UVM_INFO ../src/env/axi4_scoreboard.sv(219) @ 4195000: uvm_test_top.env.scb [axi4_scoreboard] [REF_MEM_WRITE] Addr=0x781270c5 Data=0x64
# UVM_INFO ../src/env/axi4_scoreboard.sv(219) @ 4195000: uvm_test_top.env.scb [axi4_scoreboard] [REF_MEM_WRITE] Addr=0x781270c6 Data=0x4a
# UVM_INFO ../src/env/axi4_scoreboard.sv(219) @ 4195000: uvm_test_top.env.scb [axi4_scoreboard] [REF_MEM_WRITE] Addr=0x781270c4 Data=0xdb
# UVM_INFO ../src/env/axi4_scoreboard.sv(219) @ 4195000: uvm_test_top.env.scb [axi4_scoreboard] [REF_MEM_WRITE] Addr=0x781270c6 Data=0x18
# UVM_INFO ../src/env/axi4_scoreboard.sv(219) @ 4195000: uvm_test_top.env.scb [axi4_scoreboard] [REF_MEM_WRITE] Addr=0x781270c5 Data=0xf7
# UVM_INFO ../src/env/axi4_scoreboard.sv(219) @ 4195000: uvm_test_top.env.scb [axi4_scoreboard] [REF_MEM_WRITE] Addr=0x781270c6 Data=0xa7
# UVM_INFO ../src/env/axi4_scoreboard.sv(219) @ 4195000: uvm_test_top.env.scb [axi4_scoreboard] [REF_MEM_WRITE] Addr=0x781270c7 Data=0xe9
# UVM_INFO ../src/env/axi4_scoreboard.sv(219) @ 4195000: uvm_test_top.env.scb [axi4_scoreboard] [REF_MEM_WRITE] Addr=0x781270c4 Data=0xc4
# UVM_INFO ../src/env/axi4_scoreboard.sv(219) @ 4195000: uvm_test_top.env.scb [axi4_scoreboard] [REF_MEM_WRITE] Addr=0x781270c7 Data=0x70
# UVM_INFO ../src/env/axi4_scoreboard.sv(219) @ 4195000: uvm_test_top.env.scb [axi4_scoreboard] [REF_MEM_WRITE] Addr=0x781270c8 Data=0xaa
# UVM_INFO ../src/env/axi4_scoreboard.sv(219) @ 4195000: uvm_test_top.env.scb [axi4_scoreboard] [REF_MEM_WRITE] Addr=0x781270c9 Data=0xbc
# UVM_INFO ../src/mst/axi4_master_driver.sv(348) @ 5775000: uvm_test_top.env.master_agent.drv [axi4_master_driver] Master driver received all R beats for ID=0xb
# UVM_INFO ../src/slv/axi4_slave_driver.sv(464) @ 5775000: uvm_test_top.env.slave_agent.drv [axi4_slave_driver] Read complete: ID=0xb ADDR=0xaff92d57 RESP=AXI4_RESP_OKAY  121 beats sent
# UVM_INFO ../src/slv/axi4_slave_monitor.sv(287) @ 5775000: uvm_test_top.env.slave_agent.mon [axi4_slave_monitor] Read data sent: ID=0xb ADDR=0xaff92d57 121 beats
# UVM_INFO ../src/env/axi4_scoreboard.sv(108) @ 5775000: uvm_test_top.env.scb [axi4_scoreboard] Slave AXI4_READ received: ID=0xb ADDR=0xaff92d57 LEN=120
# UVM_INFO ../src/mst/axi4_master_monitor.sv(314) @ 5775000: uvm_test_top.env.master_agent.mon [axi4_master_monitor] Read complete: ID=0xb ADDR=0xaff92d57 121 beats
# UVM_INFO ../src/env/axi4_scoreboard.sv(87) @ 5775000: uvm_test_top.env.scb [axi4_scoreboard] Master AXI4_READ received: ID=0xb ADDR=0xaff92d57 LEN=120
# UVM_INFO ../src/env/axi4_scoreboard.sv(291) @ 5775000: uvm_test_top.env.scb [axi4_scoreboard] [READ] MATCH #6: ID=0xb ADDR=0xaff92d57 LEN=120
# UVM_INFO ../src/mst/axi4_master_monitor.sv(184) @ 6325000: uvm_test_top.env.master_agent.mon [axi4_master_monitor] W data assembled: ID=0x7 ADDR=0x03b85d4d 108 beats
# UVM_INFO ../src/slv/axi4_slave_monitor.sv(167) @ 6325000: uvm_test_top.env.slave_agent.mon [axi4_slave_monitor] W data assembled: ID=0x7 ADDR=0x03b85d4d 108 beats
# UVM_INFO ../src/mst/axi4_master_driver.sv(289) @ 6355000: uvm_test_top.env.master_agent.drv [axi4_master_driver] Master driver received B response: ID=0x7 RESP=AXI4_RESP_OKAY
# UVM_INFO ../src/slv/axi4_slave_driver.sv(320) @ 6355000: uvm_test_top.env.slave_agent.drv [axi4_slave_driver] Write complete: ID=0x7 RESP=AXI4_RESP_OKAY
# UVM_INFO ../src/slv/axi4_slave_monitor.sv(189) @ 6355000: uvm_test_top.env.slave_agent.mon [axi4_slave_monitor] Write response sent: ID=0x7 ADDR=0x03b85d4d RESP=AXI4_RESP_OKAY
# UVM_INFO ../src/env/axi4_scoreboard.sv(108) @ 6355000: uvm_test_top.env.scb [axi4_scoreboard] Slave AXI4_WRITE received: ID=0x7 ADDR=0x03b85d4d LEN=107
# UVM_INFO ../src/mst/axi4_master_monitor.sv(210) @ 6355000: uvm_test_top.env.master_agent.mon [axi4_master_monitor] Write complete: ID=0x7 ADDR=0x03b85d4d RESP=AXI4_RESP_OKAY
# UVM_INFO ../src/env/axi4_scoreboard.sv(87) @ 6355000: uvm_test_top.env.scb [axi4_scoreboard] Master AXI4_WRITE received: ID=0x7 ADDR=0x03b85d4d LEN=107
# UVM_INFO ../src/env/axi4_scoreboard.sv(291) @ 6355000: uvm_test_top.env.scb [axi4_scoreboard] [WRITE] MATCH #7: ID=0x7 ADDR=0x03b85d4d LEN=107
# UVM_INFO ../src/env/axi4_scoreboard.sv(219) @ 6355000: uvm_test_top.env.scb [axi4_scoreboard] [REF_MEM_WRITE] Addr=0x03b85d4c Data=0xd1
# UVM_INFO ../src/env/axi4_scoreboard.sv(219) @ 6355000: uvm_test_top.env.scb [axi4_scoreboard] [REF_MEM_WRITE] Addr=0x03b85d4f Data=0xda
# UVM_INFO ../src/env/axi4_scoreboard.sv(219) @ 6355000: uvm_test_top.env.scb [axi4_scoreboard] [REF_MEM_WRITE] Addr=0x03b85d4c Data=0xca
# UVM_INFO ../src/env/axi4_scoreboard.sv(219) @ 6355000: uvm_test_top.env.scb [axi4_scoreboard] [REF_MEM_WRITE] Addr=0x03b85d4e Data=0x31
# UVM_INFO ../src/env/axi4_scoreboard.sv(219) @ 6355000: uvm_test_top.env.scb [axi4_scoreboard] [REF_MEM_WRITE] Addr=0x03b85d50 Data=0x5d
# UVM_INFO ../src/env/axi4_scoreboard.sv(219) @ 6355000: uvm_test_top.env.scb [axi4_scoreboard] [REF_MEM_WRITE] Addr=0x03b85d53 Data=0x46
# UVM_INFO ../src/env/axi4_scoreboard.sv(219) @ 6355000: uvm_test_top.env.scb [axi4_scoreboard] [REF_MEM_WRITE] Addr=0x03b85d52 Data=0x1c
# UVM_INFO ../src/env/axi4_scoreboard.sv(219) @ 6355000: uvm_test_top.env.scb [axi4_scoreboard] [REF_MEM_WRITE] Addr=0x03b85d56 Data=0x40
# UVM_INFO ../src/env/axi4_scoreboard.sv(219) @ 6355000: uvm_test_top.env.scb [axi4_scoreboard] [REF_MEM_WRITE] Addr=0x03b85d57 Data=0x72
# UVM_INFO ../src/env/axi4_scoreboard.sv(219) @ 6355000: uvm_test_top.env.scb [axi4_scoreboard] [REF_MEM_WRITE] Addr=0x03b85d59 Data=0xde
# UVM_INFO ../src/env/axi4_scoreboard.sv(219) @ 6355000: uvm_test_top.env.scb [axi4_scoreboard] [REF_MEM_WRITE] Addr=0x03b85d5a Data=0xdf
# UVM_INFO ../src/env/axi4_scoreboard.sv(219) @ 6355000: uvm_test_top.env.scb [axi4_scoreboard] [REF_MEM_WRITE] Addr=0x03b85d59 Data=0x30
# UVM_INFO ../src/env/axi4_scoreboard.sv(219) @ 6355000: uvm_test_top.env.scb [axi4_scoreboard] [REF_MEM_WRITE] Addr=0x03b85d5a Data=0xab
# UVM_INFO ../src/env/axi4_scoreboard.sv(219) @ 6355000: uvm_test_top.env.scb [axi4_scoreboard] [REF_MEM_WRITE] Addr=0x03b85d5b Data=0x2a
# UVM_INFO ../src/env/axi4_scoreboard.sv(219) @ 6355000: uvm_test_top.env.scb [axi4_scoreboard] [REF_MEM_WRITE] Addr=0x03b85d5c Data=0x86
# UVM_INFO ../src/env/axi4_scoreboard.sv(219) @ 6355000: uvm_test_top.env.scb [axi4_scoreboard] [REF_MEM_WRITE] Addr=0x03b85d5f Data=0x5d
# UVM_INFO ../src/env/axi4_scoreboard.sv(219) @ 6355000: uvm_test_top.env.scb [axi4_scoreboard] [REF_MEM_WRITE] Addr=0x03b85d5d Data=0xf0
# UVM_INFO ../src/env/axi4_scoreboard.sv(219) @ 6355000: uvm_test_top.env.scb [axi4_scoreboard] [REF_MEM_WRITE] Addr=0x03b85d5e Data=0xc2
# UVM_INFO ../src/env/axi4_scoreboard.sv(219) @ 6355000: uvm_test_top.env.scb [axi4_scoreboard] [REF_MEM_WRITE] Addr=0x03b85d61 Data=0xa5
# UVM_INFO ../src/env/axi4_scoreboard.sv(219) @ 6355000: uvm_test_top.env.scb [axi4_scoreboard] [REF_MEM_WRITE] Addr=0x03b85d63 Data=0x86
# UVM_INFO ../src/env/axi4_scoreboard.sv(219) @ 6355000: uvm_test_top.env.scb [axi4_scoreboard] [REF_MEM_WRITE] Addr=0x03b85d63 Data=0x9c
# UVM_INFO ../src/env/axi4_scoreboard.sv(219) @ 6355000: uvm_test_top.env.scb [axi4_scoreboard] [REF_MEM_WRITE] Addr=0x03b85d66 Data=0x72
# UVM_INFO ../src/env/axi4_scoreboard.sv(219) @ 6355000: uvm_test_top.env.scb [axi4_scoreboard] [REF_MEM_WRITE] Addr=0x03b85d67 Data=0x83
# UVM_INFO ../src/env/axi4_scoreboard.sv(219) @ 6355000: uvm_test_top.env.scb [axi4_scoreboard] [REF_MEM_WRITE] Addr=0x03b85d65 Data=0x48
# UVM_INFO ../src/env/axi4_scoreboard.sv(219) @ 6355000: uvm_test_top.env.scb [axi4_scoreboard] [REF_MEM_WRITE] Addr=0x03b85d66 Data=0xb2
# UVM_INFO ../src/env/axi4_scoreboard.sv(219) @ 6355000: uvm_test_top.env.scb [axi4_scoreboard] [REF_MEM_WRITE] Addr=0x03b85d68 Data=0xa1
# UVM_INFO ../src/env/axi4_scoreboard.sv(219) @ 6355000: uvm_test_top.env.scb [axi4_scoreboard] [REF_MEM_WRITE] Addr=0x03b85d68 Data=0xcf
# UVM_INFO ../src/env/axi4_scoreboard.sv(219) @ 6355000: uvm_test_top.env.scb [axi4_scoreboard] [REF_MEM_WRITE] Addr=0x03b85d69 Data=0x62
# UVM_INFO ../src/env/axi4_scoreboard.sv(219) @ 6355000: uvm_test_top.env.scb [axi4_scoreboard] [REF_MEM_WRITE] Addr=0x03b85d6b Data=0x15
# UVM_INFO ../src/env/axi4_scoreboard.sv(219) @ 6355000: uvm_test_top.env.scb [axi4_scoreboard] [REF_MEM_WRITE] Addr=0x03b85d6c Data=0x48
# UVM_INFO ../src/env/axi4_scoreboard.sv(219) @ 6355000: uvm_test_top.env.scb [axi4_scoreboard] [REF_MEM_WRITE] Addr=0x03b85d6c Data=0x57
# UVM_INFO ../src/env/axi4_scoreboard.sv(219) @ 6355000: uvm_test_top.env.scb [axi4_scoreboard] [REF_MEM_WRITE] Addr=0x03b85d6d Data=0xeb
# UVM_INFO ../src/env/axi4_scoreboard.sv(219) @ 6355000: uvm_test_top.env.scb [axi4_scoreboard] [REF_MEM_WRITE] Addr=0x03b85d6e Data=0xfc
# UVM_INFO ../src/env/axi4_scoreboard.sv(219) @ 6355000: uvm_test_top.env.scb [axi4_scoreboard] [REF_MEM_WRITE] Addr=0x03b85d70 Data=0x98
# UVM_INFO ../src/env/axi4_scoreboard.sv(219) @ 6355000: uvm_test_top.env.scb [axi4_scoreboard] [REF_MEM_WRITE] Addr=0x03b85d71 Data=0x3b
# UVM_INFO ../src/env/axi4_scoreboard.sv(219) @ 6355000: uvm_test_top.env.scb [axi4_scoreboard] [REF_MEM_WRITE] Addr=0x03b85d72 Data=0x7a
# UVM_INFO ../src/env/axi4_scoreboard.sv(219) @ 6355000: uvm_test_top.env.scb [axi4_scoreboard] [REF_MEM_WRITE] Addr=0x03b85d72 Data=0x17
# UVM_INFO ../src/env/axi4_scoreboard.sv(219) @ 6355000: uvm_test_top.env.scb [axi4_scoreboard] [REF_MEM_WRITE] Addr=0x03b85d74 Data=0x24
# UVM_INFO ../src/env/axi4_scoreboard.sv(219) @ 6355000: uvm_test_top.env.scb [axi4_scoreboard] [REF_MEM_WRITE] Addr=0x03b85d75 Data=0xbb
# UVM_INFO ../src/env/axi4_scoreboard.sv(219) @ 6355000: uvm_test_top.env.scb [axi4_scoreboard] [REF_MEM_WRITE] Addr=0x03b85d76 Data=0x18
# UVM_INFO ../src/env/axi4_scoreboard.sv(219) @ 6355000: uvm_test_top.env.scb [axi4_scoreboard] [REF_MEM_WRITE] Addr=0x03b85d77 Data=0x4d
# UVM_INFO ../src/env/axi4_scoreboard.sv(219) @ 6355000: uvm_test_top.env.scb [axi4_scoreboard] [REF_MEM_WRITE] Addr=0x03b85d76 Data=0xe6
# UVM_INFO ../src/env/axi4_scoreboard.sv(219) @ 6355000: uvm_test_top.env.scb [axi4_scoreboard] [REF_MEM_WRITE] Addr=0x03b85d7a Data=0x56
# UVM_INFO ../src/env/axi4_scoreboard.sv(219) @ 6355000: uvm_test_top.env.scb [axi4_scoreboard] [REF_MEM_WRITE] Addr=0x03b85d78 Data=0xf8
# UVM_INFO ../src/env/axi4_scoreboard.sv(219) @ 6355000: uvm_test_top.env.scb [axi4_scoreboard] [REF_MEM_WRITE] Addr=0x03b85d79 Data=0x6b
# UVM_INFO ../src/env/axi4_scoreboard.sv(219) @ 6355000: uvm_test_top.env.scb [axi4_scoreboard] [REF_MEM_WRITE] Addr=0x03b85d7a Data=0x79
# UVM_INFO ../src/env/axi4_scoreboard.sv(219) @ 6355000: uvm_test_top.env.scb [axi4_scoreboard] [REF_MEM_WRITE] Addr=0x03b85d7c Data=0xdb
# UVM_INFO ../src/env/axi4_scoreboard.sv(219) @ 6355000: uvm_test_top.env.scb [axi4_scoreboard] [REF_MEM_WRITE] Addr=0x03b85d7d Data=0x03
# UVM_INFO ../src/env/axi4_scoreboard.sv(219) @ 6355000: uvm_test_top.env.scb [axi4_scoreboard] [REF_MEM_WRITE] Addr=0x03b85d7c Data=0x88
# UVM_INFO ../src/env/axi4_scoreboard.sv(219) @ 6355000: uvm_test_top.env.scb [axi4_scoreboard] [REF_MEM_WRITE] Addr=0x03b85d7f Data=0xf4
# UVM_INFO ../src/env/axi4_scoreboard.sv(219) @ 6355000: uvm_test_top.env.scb [axi4_scoreboard] [REF_MEM_WRITE] Addr=0x03b85d81 Data=0x9b
# UVM_INFO ../src/env/axi4_scoreboard.sv(219) @ 6355000: uvm_test_top.env.scb [axi4_scoreboard] [REF_MEM_WRITE] Addr=0x03b85d80 Data=0xf5
# UVM_INFO ../src/env/axi4_scoreboard.sv(219) @ 6355000: uvm_test_top.env.scb [axi4_scoreboard] [REF_MEM_WRITE] Addr=0x03b85d82 Data=0x08
# UVM_INFO ../src/env/axi4_scoreboard.sv(219) @ 6355000: uvm_test_top.env.scb [axi4_scoreboard] [REF_MEM_WRITE] Addr=0x03b85d83 Data=0x46
# UVM_INFO ../src/env/axi4_scoreboard.sv(219) @ 6355000: uvm_test_top.env.scb [axi4_scoreboard] [REF_MEM_WRITE] Addr=0x03b85d85 Data=0x43
# UVM_INFO ../src/env/axi4_scoreboard.sv(219) @ 6355000: uvm_test_top.env.scb [axi4_scoreboard] [REF_MEM_WRITE] Addr=0x03b85d86 Data=0xae
# UVM_INFO ../src/env/axi4_scoreboard.sv(219) @ 6355000: uvm_test_top.env.scb [axi4_scoreboard] [REF_MEM_WRITE] Addr=0x03b85d87 Data=0x0a
# UVM_INFO ../src/env/axi4_scoreboard.sv(219) @ 6355000: uvm_test_top.env.scb [axi4_scoreboard] [REF_MEM_WRITE] Addr=0x03b85d86 Data=0xc3
# UVM_INFO ../src/env/axi4_scoreboard.sv(219) @ 6355000: uvm_test_top.env.scb [axi4_scoreboard] [REF_MEM_WRITE] Addr=0x03b85d88 Data=0xde
