# vsim -c -coverage -sv_seed 49540158 "+UVM_TESTNAME=axi4_wr_rd_test" "+UVM_VERBOSITY=UVM_HIGH" "+DUMP_VCD" -l ./report/logs/axi4_wr_rd_test_run_3_seed_49540158.log -do "coverage save -onexit ./report/coverage/axi4_wr_rd_test_run_3_seed_49540158.ucdb; run -all; quit -f" opt_tb_top 
# Start time: 11:21:56 on Jun 05,2026
# //  Questa Sim-64
# //  Version 10.6b linux_x86_64 May 25 2017
# //
# //  Copyright 1991-2017 Mentor Graphics Corporation
# //  All Rights Reserved.
# //
# //  QuestaSim and its associated documentation contain trade
# //  secrets and commercial or financial information that are the property of
# //  Mentor Graphics Corporation and are privileged, confidential,
# //  and exempt from disclosure under the Freedom of Information Act,
# //  5 U.S.C. Section 552. Furthermore, this information
# //  is prohibited from disclosure under the Trade Secrets Act,
# //  18 U.S.C. Section 1905.
# //
# Loading sv_std.std
# Loading work.axi4_if(fast)
# Loading mtiUvm.uvm_pkg
# Loading work.axi4_pkg(fast)
# Loading work.axi4_test_pkg(fast)
# Loading work.tb_top(fast)
# Loading work.axi4_if(fast)
# Loading work.axi4_sva(fast)
# Loading mtiUvm.questa_uvm_pkg(fast)
# Loading /cadtools/mentor/Questa_10.6b/questasim/uvm-1.1d/linux_x86_64/uvm_dpi.so
# coverage save -onexit ./report/coverage/axi4_wr_rd_test_run_3_seed_49540158.ucdb
#  run -all
# ----------------------------------------------------------------
# UVM-1.1d
# (C) 2007-2013 Mentor Graphics Corporation
# (C) 2007-2013 Cadence Design Systems, Inc.
# (C) 2006-2013 Synopsys, Inc.
# (C) 2011-2013 Cypress Semiconductor Corp.
# ----------------------------------------------------------------
# 
#   ***********       IMPORTANT RELEASE NOTES         ************
# 
#   You are using a version of the UVM library that has been compiled
#   with `UVM_NO_DEPRECATED undefined.
#   See http://www.eda.org/svdb/view.php?id=3313 for more details.
# 
#   You are using a version of the UVM library that has been compiled
#   with `UVM_OBJECT_MUST_HAVE_CONSTRUCTOR undefined.
#   See http://www.eda.org/svdb/view.php?id=3770 for more details.
# 
#       (Specify +UVM_NO_RELNOTES to turn off this notice)
# 
# UVM_INFO verilog_src/questa_uvm_pkg-1.2/src/questa_uvm_pkg.sv(215) @ 0: reporter [Questa UVM] QUESTA_UVM-1.2.3
# UVM_INFO verilog_src/questa_uvm_pkg-1.2/src/questa_uvm_pkg.sv(217) @ 0: reporter [Questa UVM]  questa_uvm::init(+struct)
# UVM_INFO ../src/tb_top.sv(128) @ 0: reporter [TB_TOP] Virtual interface set in config_db
# UVM_INFO @ 0: reporter [RNTST] Running test axi4_wr_rd_test...
# UVM_INFO ../src/tb_top.sv(142) @ 0: reporter [TB_TOP] Waveform VCD dumping enabled (axi4_vip.vcd)
# UVM_INFO ../src/env/axi4_vip_env.sv(83) @ 0: uvm_test_top.env [axi4_vip_env] slave_vif not set - reusing master_vif (passthrough mode)
# UVM_INFO ../src/env/axi4_vip_env.sv(93) @ 0: uvm_test_top.env [axi4_vip_env] Scoreboard created
# UVM_INFO ../src/env/axi4_vip_env.sv(100) @ 0: uvm_test_top.env [axi4_vip_env] Coverage collectors created
# UVM_INFO ../src/mst/axi4_master_agent.sv(69) @ 0: uvm_test_top.env.master_agent [axi4_master_agent] ACTIVE mode - driver + sequencer created
# UVM_INFO ../src/slv/axi4_slave_agent.sv(82) @ 0: uvm_test_top.env.slave_agent [axi4_slave_agent] ACTIVE mode — ready_delay=[0:0] resp_delay=[0:0]
# UVM_INFO ../src/env/axi4_vip_env.sv(116) @ 0: uvm_test_top.env [axi4_vip_env] Scoreboard connected: master_mon.ap -> scb, slave_mon.ap -> scb
# UVM_INFO ../src/env/axi4_vip_env.sv(124) @ 0: uvm_test_top.env [axi4_vip_env] Coverage connected: master_mon.ap -> master_cov, slave_mon.ap -> slave_cov
# UVM_INFO @ 0: reporter [UVMTOP] UVM testbench topology:
# ---------------------------------------------------------------
# Name                       Type                     Size  Value
# ---------------------------------------------------------------
# uvm_test_top               axi4_wr_rd_test          -     @473 
#   env                      axi4_vip_env             -     @488 
#     master_agent           axi4_master_agent        -     @503 
#       drv                  axi4_master_driver       -     @567 
#         rsp_port           uvm_analysis_port        -     @582 
#         seq_item_port      uvm_seq_item_pull_port   -     @574 
#       mon                  axi4_master_monitor      -     @559 
#         ap                 uvm_analysis_port        -     @700 
#       sqr                  axi4_master_sequencer    -     @590 
#         rsp_export         uvm_analysis_export      -     @597 
#         seq_item_export    uvm_seq_item_pull_imp    -     @691 
#         arbitration_queue  array                    0     -    
#         lock_queue         array                    0     -    
#         num_last_reqs      integral                 32    'd1  
#         num_last_rsps      integral                 32    'd1  
#     master_cov             axi4_coverage            -     @524 
#       analysis_imp         uvm_analysis_imp         -     @531 
#     scb                    axi4_scoreboard          -     @517 
#       master_export        uvm_analysis_imp_master  -     @714 
#       slave_export         uvm_analysis_imp_slave   -     @722 
#     slave_agent            axi4_slave_agent         -     @510 
#       drv                  axi4_slave_driver        -     @753 
#         rsp_port           uvm_analysis_port        -     @768 
#         seq_item_port      uvm_seq_item_pull_port   -     @760 
#       mon                  axi4_slave_monitor       -     @735 
#         ap                 uvm_analysis_port        -     @890 
#       sqr                  axi4_slave_sequencer     -     @776 
#         rsp_export         uvm_analysis_export      -     @783 
#         seq_item_export    uvm_seq_item_pull_imp    -     @877 
#         arbitration_queue  array                    0     -    
#         lock_queue         array                    0     -    
#         num_last_reqs      integral                 32    'd1  
#         num_last_rsps      integral                 32    'd1  
#     slave_cov              axi4_coverage            -     @539 
#       analysis_imp         uvm_analysis_imp         -     @546 
# ---------------------------------------------------------------
# 
# UVM_INFO verilog_src/questa_uvm_pkg-1.2/src/questa_uvm_pkg.sv(277) @ 0: reporter [Questa UVM] End Of Elaboration
# UVM_INFO ../src/test/axi4_wr_rd_test.sv(37) @ 0: uvm_test_top [axi4_wr_rd_test] Starting 10 write-read-back iterations
# UVM_INFO ../src/test/axi4_wr_rd_test.sv(52) @ 0: uvm_test_top [axi4_wr_rd_test] [1/10] ADDR=0x9771d985 LEN=14 BURST=AXI4_BURST_INCR
# UVM_INFO ../src/tb_top.sv(49) @ 95000: reporter [TOP_TB] Reset de-asserted
# UVM_INFO ../src/slv/axi4_slave_driver.sv(70) @ 95000: uvm_test_top.env.slave_agent.drv [axi4_slave_driver] Reset deasserted - slave driver active
# UVM_INFO ../src/mst/axi4_master_driver.sv(46) @ 95000: uvm_test_top.env.master_agent.drv [axi4_master_driver] Reset deasserted - master driver active
# UVM_INFO ../src/mst/axi4_master_monitor.sv(77) @ 95000: uvm_test_top.env.master_agent.mon [axi4_master_monitor] Reset deasserted — monitor active
# UVM_INFO ../src/slv/axi4_slave_monitor.sv(71) @ 95000: uvm_test_top.env.slave_agent.mon [axi4_slave_monitor] Reset deasserted — monitor active
# UVM_INFO ../src/mst/axi4_master_driver.sv(55) @ 95000: uvm_test_top.env.master_agent.drv [axi4_master_driver] Driving AXI4_WRITE  ID=0x1  ADDR=0x9771d985  LEN=14
# UVM_INFO ../src/mst/axi4_master_driver.sv(94) @ 95000: uvm_test_top.env.master_agent.drv [axi4_master_driver] Write order: AW || W (parallel)
# UVM_INFO ../src/slv/axi4_slave_driver.sv(165) @ 115000: uvm_test_top.env.slave_agent.drv [axi4_slave_driver] AW received: ID=0x1 ADDR=0x9771d985 LEN=14 LOCK=AXI4_LOCK_EXCLUSIVE
# UVM_INFO ../src/slv/axi4_slave_monitor.sv(116) @ 115000: uvm_test_top.env.slave_agent.mon [axi4_slave_monitor] AW received: ID=0x1 ADDR=0x9771d985 LEN=14
# UVM_INFO ../src/mst/axi4_master_monitor.sv(124) @ 115000: uvm_test_top.env.master_agent.mon [axi4_master_monitor] AW observed: ID=0x1 ADDR=0x9771d985 LEN=14
# UVM_INFO ../src/mst/axi4_master_monitor.sv(184) @ 385000: uvm_test_top.env.master_agent.mon [axi4_master_monitor] W data assembled: ID=0x1 ADDR=0x9771d985 15 beats
# UVM_INFO ../src/slv/axi4_slave_monitor.sv(167) @ 385000: uvm_test_top.env.slave_agent.mon [axi4_slave_monitor] W data assembled: ID=0x1 ADDR=0x9771d985 15 beats
# UVM_INFO ../src/mst/axi4_master_driver.sv(197) @ 415000: uvm_test_top.env.master_agent.drv [axi4_master_driver] Write response: AXI4_RESP_OKAY
# UVM_INFO ../src/slv/axi4_slave_driver.sv(261) @ 415000: uvm_test_top.env.slave_agent.drv [axi4_slave_driver] Write complete: ID=0x1 ADDR=0x9771d985 RESP=AXI4_RESP_OKAY  15 beats processed
# UVM_INFO ../src/slv/axi4_slave_monitor.sv(189) @ 415000: uvm_test_top.env.slave_agent.mon [axi4_slave_monitor] Write response sent: ID=0x1 ADDR=0x9771d985 RESP=AXI4_RESP_OKAY
# UVM_INFO ../src/env/axi4_scoreboard.sv(103) @ 415000: uvm_test_top.env.scb [axi4_scoreboard] Slave AXI4_WRITE received: ID=0x1 ADDR=0x9771d985 LEN=14
# UVM_INFO ../src/mst/axi4_master_monitor.sv(210) @ 415000: uvm_test_top.env.master_agent.mon [axi4_master_monitor] Write complete: ID=0x1 ADDR=0x9771d985 RESP=AXI4_RESP_OKAY
# UVM_INFO ../src/env/axi4_scoreboard.sv(82) @ 415000: uvm_test_top.env.scb [axi4_scoreboard] Master AXI4_WRITE received: ID=0x1 ADDR=0x9771d985 LEN=14
# UVM_INFO ../src/env/axi4_scoreboard.sv(154) @ 415000: uvm_test_top.env.scb [axi4_scoreboard] [WRITE] MATCH #1: ID=0x1 ADDR=0x9771d985 LEN=14
# UVM_INFO ../src/seq/axi4_write_read_back_seq.sv(60) @ 415000: uvm_test_top.env.master_agent.sqr@@wr_rd_seq_0 [axi4_write_read_back_seq] Write phase: ADDR=0x9771d985 LEN=14 SIZE=AXI4_SIZE_4B BURST=AXI4_BURST_INCR
# UVM_INFO ../src/mst/axi4_master_driver.sv(55) @ 415000: uvm_test_top.env.master_agent.drv [axi4_master_driver] Driving AXI4_READ  ID=0x3  ADDR=0x9771d985  LEN=14
# UVM_INFO ../src/slv/axi4_slave_driver.sv(300) @ 445000: uvm_test_top.env.slave_agent.drv [axi4_slave_driver] AR received: ID=0x3 ADDR=0x9771d985 LEN=14 LOCK=AXI4_LOCK_NORMAL
# UVM_INFO ../src/mst/axi4_master_monitor.sv(246) @ 445000: uvm_test_top.env.master_agent.mon [axi4_master_monitor] AR observed: ID=0x3 ADDR=0x9771d985 LEN=14
# UVM_INFO ../src/slv/axi4_slave_monitor.sv(224) @ 445000: uvm_test_top.env.slave_agent.mon [axi4_slave_monitor] AR received: ID=0x3 ADDR=0x9771d985 LEN=14
# UVM_INFO ../src/mst/axi4_master_driver.sv(254) @ 745000: uvm_test_top.env.master_agent.drv [axi4_master_driver] Read complete: 15 beats received
# UVM_INFO ../src/slv/axi4_slave_driver.sv(349) @ 745000: uvm_test_top.env.slave_agent.drv [axi4_slave_driver] Read complete: ID=0x3 ADDR=0x9771d985 RESP=AXI4_RESP_OKAY  15 beats sent
# UVM_INFO ../src/mst/axi4_master_monitor.sv(314) @ 745000: uvm_test_top.env.master_agent.mon [axi4_master_monitor] Read complete: ID=0x3 ADDR=0x9771d985 15 beats
# UVM_INFO ../src/env/axi4_scoreboard.sv(82) @ 745000: uvm_test_top.env.scb [axi4_scoreboard] Master AXI4_READ received: ID=0x3 ADDR=0x9771d985 LEN=14
# UVM_INFO ../src/slv/axi4_slave_monitor.sv(287) @ 745000: uvm_test_top.env.slave_agent.mon [axi4_slave_monitor] Read data sent: ID=0x3 ADDR=0x9771d985 15 beats
# UVM_INFO ../src/env/axi4_scoreboard.sv(103) @ 745000: uvm_test_top.env.scb [axi4_scoreboard] Slave AXI4_READ received: ID=0x3 ADDR=0x9771d985 LEN=14
# UVM_INFO ../src/env/axi4_scoreboard.sv(154) @ 745000: uvm_test_top.env.scb [axi4_scoreboard] [READ] MATCH #2: ID=0x3 ADDR=0x9771d985 LEN=14
# UVM_INFO ../src/seq/axi4_write_read_back_seq.sv(80) @ 745000: uvm_test_top.env.master_agent.sqr@@wr_rd_seq_0 [axi4_write_read_back_seq] Read-back phase: ADDR=0x9771d985 LEN=14 - data integrity check via scoreboard
# UVM_INFO ../src/test/axi4_wr_rd_test.sv(52) @ 745000: uvm_test_top [axi4_wr_rd_test] [2/10] ADDR=0x5d484536 LEN=4 BURST=AXI4_BURST_INCR
# UVM_INFO ../src/mst/axi4_master_driver.sv(55) @ 745000: uvm_test_top.env.master_agent.drv [axi4_master_driver] Driving AXI4_WRITE  ID=0xd  ADDR=0x5d484536  LEN=4
# UVM_INFO ../src/mst/axi4_master_driver.sv(106) @ 745000: uvm_test_top.env.master_agent.drv [axi4_master_driver] Write order: W -> AW (W first)
# UVM_INFO ../src/slv/axi4_slave_driver.sv(165) @ 795000: uvm_test_top.env.slave_agent.drv [axi4_slave_driver] AW received: ID=0xd ADDR=0x5d484536 LEN=4 LOCK=AXI4_LOCK_EXCLUSIVE
# UVM_INFO ../src/slv/axi4_slave_monitor.sv(116) @ 795000: uvm_test_top.env.slave_agent.mon [axi4_slave_monitor] AW received: ID=0xd ADDR=0x5d484536 LEN=4
# UVM_INFO ../src/mst/axi4_master_monitor.sv(124) @ 795000: uvm_test_top.env.master_agent.mon [axi4_master_monitor] AW observed: ID=0xd ADDR=0x5d484536 LEN=4
# UVM_INFO ../src/mst/axi4_master_monitor.sv(184) @ 845000: uvm_test_top.env.master_agent.mon [axi4_master_monitor] W data assembled: ID=0xd ADDR=0x5d484536 5 beats
# UVM_INFO ../src/slv/axi4_slave_monitor.sv(167) @ 845000: uvm_test_top.env.slave_agent.mon [axi4_slave_monitor] W data assembled: ID=0xd ADDR=0x5d484536 5 beats
# UVM_INFO ../src/mst/axi4_master_driver.sv(197) @ 875000: uvm_test_top.env.master_agent.drv [axi4_master_driver] Write response: AXI4_RESP_OKAY
# UVM_INFO ../src/slv/axi4_slave_driver.sv(261) @ 875000: uvm_test_top.env.slave_agent.drv [axi4_slave_driver] Write complete: ID=0xd ADDR=0x5d484536 RESP=AXI4_RESP_OKAY  5 beats processed
# UVM_INFO ../src/slv/axi4_slave_monitor.sv(189) @ 875000: uvm_test_top.env.slave_agent.mon [axi4_slave_monitor] Write response sent: ID=0xd ADDR=0x5d484536 RESP=AXI4_RESP_OKAY
# UVM_INFO ../src/env/axi4_scoreboard.sv(103) @ 875000: uvm_test_top.env.scb [axi4_scoreboard] Slave AXI4_WRITE received: ID=0xd ADDR=0x5d484536 LEN=4
# UVM_INFO ../src/mst/axi4_master_monitor.sv(210) @ 875000: uvm_test_top.env.master_agent.mon [axi4_master_monitor] Write complete: ID=0xd ADDR=0x5d484536 RESP=AXI4_RESP_OKAY
# UVM_INFO ../src/env/axi4_scoreboard.sv(82) @ 875000: uvm_test_top.env.scb [axi4_scoreboard] Master AXI4_WRITE received: ID=0xd ADDR=0x5d484536 LEN=4
# UVM_INFO ../src/env/axi4_scoreboard.sv(154) @ 875000: uvm_test_top.env.scb [axi4_scoreboard] [WRITE] MATCH #3: ID=0xd ADDR=0x5d484536 LEN=4
# UVM_INFO ../src/seq/axi4_write_read_back_seq.sv(60) @ 875000: uvm_test_top.env.master_agent.sqr@@wr_rd_seq_1 [axi4_write_read_back_seq] Write phase: ADDR=0x5d484536 LEN=4 SIZE=AXI4_SIZE_4B BURST=AXI4_BURST_INCR
# UVM_INFO ../src/mst/axi4_master_driver.sv(55) @ 875000: uvm_test_top.env.master_agent.drv [axi4_master_driver] Driving AXI4_READ  ID=0xc  ADDR=0x5d484536  LEN=4
# UVM_INFO ../src/slv/axi4_slave_driver.sv(300) @ 905000: uvm_test_top.env.slave_agent.drv [axi4_slave_driver] AR received: ID=0xc ADDR=0x5d484536 LEN=4 LOCK=AXI4_LOCK_EXCLUSIVE
# UVM_INFO ../src/mst/axi4_master_monitor.sv(246) @ 905000: uvm_test_top.env.master_agent.mon [axi4_master_monitor] AR observed: ID=0xc ADDR=0x5d484536 LEN=4
# UVM_INFO ../src/slv/axi4_slave_monitor.sv(224) @ 905000: uvm_test_top.env.slave_agent.mon [axi4_slave_monitor] AR received: ID=0xc ADDR=0x5d484536 LEN=4
# UVM_INFO ../src/mst/axi4_master_driver.sv(254) @ 1005000: uvm_test_top.env.master_agent.drv [axi4_master_driver] Read complete: 5 beats received
# UVM_INFO ../src/slv/axi4_slave_driver.sv(349) @ 1005000: uvm_test_top.env.slave_agent.drv [axi4_slave_driver] Read complete: ID=0xc ADDR=0x5d484536 RESP=AXI4_RESP_EXOKAY  5 beats sent
# UVM_INFO ../src/mst/axi4_master_monitor.sv(314) @ 1005000: uvm_test_top.env.master_agent.mon [axi4_master_monitor] Read complete: ID=0xc ADDR=0x5d484536 5 beats
# UVM_INFO ../src/env/axi4_scoreboard.sv(82) @ 1005000: uvm_test_top.env.scb [axi4_scoreboard] Master AXI4_READ received: ID=0xc ADDR=0x5d484536 LEN=4
# UVM_INFO ../src/slv/axi4_slave_monitor.sv(287) @ 1005000: uvm_test_top.env.slave_agent.mon [axi4_slave_monitor] Read data sent: ID=0xc ADDR=0x5d484536 5 beats
# UVM_INFO ../src/env/axi4_scoreboard.sv(103) @ 1005000: uvm_test_top.env.scb [axi4_scoreboard] Slave AXI4_READ received: ID=0xc ADDR=0x5d484536 LEN=4
# UVM_INFO ../src/env/axi4_scoreboard.sv(154) @ 1005000: uvm_test_top.env.scb [axi4_scoreboard] [READ] MATCH #4: ID=0xc ADDR=0x5d484536 LEN=4
# UVM_INFO ../src/seq/axi4_write_read_back_seq.sv(80) @ 1005000: uvm_test_top.env.master_agent.sqr@@wr_rd_seq_1 [axi4_write_read_back_seq] Read-back phase: ADDR=0x5d484536 LEN=4 - data integrity check via scoreboard
# UVM_INFO ../src/test/axi4_wr_rd_test.sv(52) @ 1005000: uvm_test_top [axi4_wr_rd_test] [3/10] ADDR=0xd5909ca6 LEN=6 BURST=AXI4_BURST_INCR
# UVM_INFO ../src/mst/axi4_master_driver.sv(55) @ 1005000: uvm_test_top.env.master_agent.drv [axi4_master_driver] Driving AXI4_WRITE  ID=0xe  ADDR=0xd5909ca6  LEN=6
# UVM_INFO ../src/mst/axi4_master_driver.sv(106) @ 1005000: uvm_test_top.env.master_agent.drv [axi4_master_driver] Write order: W -> AW (W first)
# UVM_INFO ../src/slv/axi4_slave_driver.sv(165) @ 1085000: uvm_test_top.env.slave_agent.drv [axi4_slave_driver] AW received: ID=0xe ADDR=0xd5909ca6 LEN=6 LOCK=AXI4_LOCK_NORMAL
# UVM_INFO ../src/mst/axi4_master_monitor.sv(124) @ 1085000: uvm_test_top.env.master_agent.mon [axi4_master_monitor] AW observed: ID=0xe ADDR=0xd5909ca6 LEN=6
# UVM_INFO ../src/slv/axi4_slave_monitor.sv(116) @ 1085000: uvm_test_top.env.slave_agent.mon [axi4_slave_monitor] AW received: ID=0xe ADDR=0xd5909ca6 LEN=6
# UVM_INFO ../src/mst/axi4_master_monitor.sv(184) @ 1145000: uvm_test_top.env.master_agent.mon [axi4_master_monitor] W data assembled: ID=0xe ADDR=0xd5909ca6 7 beats
# UVM_INFO ../src/slv/axi4_slave_monitor.sv(167) @ 1145000: uvm_test_top.env.slave_agent.mon [axi4_slave_monitor] W data assembled: ID=0xe ADDR=0xd5909ca6 7 beats
# UVM_INFO ../src/mst/axi4_master_driver.sv(197) @ 1175000: uvm_test_top.env.master_agent.drv [axi4_master_driver] Write response: AXI4_RESP_OKAY
# UVM_INFO ../src/slv/axi4_slave_driver.sv(261) @ 1175000: uvm_test_top.env.slave_agent.drv [axi4_slave_driver] Write complete: ID=0xe ADDR=0xd5909ca6 RESP=AXI4_RESP_OKAY  7 beats processed
# UVM_INFO ../src/slv/axi4_slave_monitor.sv(189) @ 1175000: uvm_test_top.env.slave_agent.mon [axi4_slave_monitor] Write response sent: ID=0xe ADDR=0xd5909ca6 RESP=AXI4_RESP_OKAY
# UVM_INFO ../src/env/axi4_scoreboard.sv(103) @ 1175000: uvm_test_top.env.scb [axi4_scoreboard] Slave AXI4_WRITE received: ID=0xe ADDR=0xd5909ca6 LEN=6
# UVM_INFO ../src/mst/axi4_master_monitor.sv(210) @ 1175000: uvm_test_top.env.master_agent.mon [axi4_master_monitor] Write complete: ID=0xe ADDR=0xd5909ca6 RESP=AXI4_RESP_OKAY
# UVM_INFO ../src/env/axi4_scoreboard.sv(82) @ 1175000: uvm_test_top.env.scb [axi4_scoreboard] Master AXI4_WRITE received: ID=0xe ADDR=0xd5909ca6 LEN=6
# UVM_INFO ../src/env/axi4_scoreboard.sv(154) @ 1175000: uvm_test_top.env.scb [axi4_scoreboard] [WRITE] MATCH #5: ID=0xe ADDR=0xd5909ca6 LEN=6
# UVM_INFO ../src/seq/axi4_write_read_back_seq.sv(60) @ 1175000: uvm_test_top.env.master_agent.sqr@@wr_rd_seq_2 [axi4_write_read_back_seq] Write phase: ADDR=0xd5909ca6 LEN=6 SIZE=AXI4_SIZE_4B BURST=AXI4_BURST_INCR
# UVM_INFO ../src/mst/axi4_master_driver.sv(55) @ 1175000: uvm_test_top.env.master_agent.drv [axi4_master_driver] Driving AXI4_READ  ID=0x8  ADDR=0xd5909ca6  LEN=6
# UVM_INFO ../src/slv/axi4_slave_driver.sv(300) @ 1205000: uvm_test_top.env.slave_agent.drv [axi4_slave_driver] AR received: ID=0x8 ADDR=0xd5909ca6 LEN=6 LOCK=AXI4_LOCK_EXCLUSIVE
# UVM_INFO ../src/mst/axi4_master_monitor.sv(246) @ 1205000: uvm_test_top.env.master_agent.mon [axi4_master_monitor] AR observed: ID=0x8 ADDR=0xd5909ca6 LEN=6
# UVM_INFO ../src/slv/axi4_slave_monitor.sv(224) @ 1205000: uvm_test_top.env.slave_agent.mon [axi4_slave_monitor] AR received: ID=0x8 ADDR=0xd5909ca6 LEN=6
# UVM_INFO ../src/mst/axi4_master_driver.sv(254) @ 1345000: uvm_test_top.env.master_agent.drv [axi4_master_driver] Read complete: 7 beats received
# UVM_INFO ../src/slv/axi4_slave_driver.sv(349) @ 1345000: uvm_test_top.env.slave_agent.drv [axi4_slave_driver] Read complete: ID=0x8 ADDR=0xd5909ca6 RESP=AXI4_RESP_EXOKAY  7 beats sent
# UVM_INFO ../src/mst/axi4_master_monitor.sv(314) @ 1345000: uvm_test_top.env.master_agent.mon [axi4_master_monitor] Read complete: ID=0x8 ADDR=0xd5909ca6 7 beats
# UVM_INFO ../src/env/axi4_scoreboard.sv(82) @ 1345000: uvm_test_top.env.scb [axi4_scoreboard] Master AXI4_READ received: ID=0x8 ADDR=0xd5909ca6 LEN=6
# UVM_INFO ../src/slv/axi4_slave_monitor.sv(287) @ 1345000: uvm_test_top.env.slave_agent.mon [axi4_slave_monitor] Read data sent: ID=0x8 ADDR=0xd5909ca6 7 beats
# UVM_INFO ../src/env/axi4_scoreboard.sv(103) @ 1345000: uvm_test_top.env.scb [axi4_scoreboard] Slave AXI4_READ received: ID=0x8 ADDR=0xd5909ca6 LEN=6
# UVM_INFO ../src/env/axi4_scoreboard.sv(154) @ 1345000: uvm_test_top.env.scb [axi4_scoreboard] [READ] MATCH #6: ID=0x8 ADDR=0xd5909ca6 LEN=6
# UVM_INFO ../src/seq/axi4_write_read_back_seq.sv(80) @ 1345000: uvm_test_top.env.master_agent.sqr@@wr_rd_seq_2 [axi4_write_read_back_seq] Read-back phase: ADDR=0xd5909ca6 LEN=6 - data integrity check via scoreboard
# UVM_INFO ../src/test/axi4_wr_rd_test.sv(52) @ 1345000: uvm_test_top [axi4_wr_rd_test] [4/10] ADDR=0x04fe120c LEN=2 BURST=AXI4_BURST_INCR
# UVM_INFO ../src/mst/axi4_master_driver.sv(55) @ 1345000: uvm_test_top.env.master_agent.drv [axi4_master_driver] Driving AXI4_WRITE  ID=0x1  ADDR=0x04fe120c  LEN=2
# UVM_INFO ../src/mst/axi4_master_driver.sv(94) @ 1345000: uvm_test_top.env.master_agent.drv [axi4_master_driver] Write order: AW || W (parallel)
# UVM_INFO ../src/slv/axi4_slave_driver.sv(165) @ 1375000: uvm_test_top.env.slave_agent.drv [axi4_slave_driver] AW received: ID=0x1 ADDR=0x04fe120c LEN=2 LOCK=AXI4_LOCK_NORMAL
# UVM_INFO ../src/slv/axi4_slave_monitor.sv(116) @ 1375000: uvm_test_top.env.slave_agent.mon [axi4_slave_monitor] AW received: ID=0x1 ADDR=0x04fe120c LEN=2
# UVM_INFO ../src/mst/axi4_master_monitor.sv(124) @ 1375000: uvm_test_top.env.master_agent.mon [axi4_master_monitor] AW observed: ID=0x1 ADDR=0x04fe120c LEN=2
# UVM_INFO ../src/mst/axi4_master_monitor.sv(184) @ 1405000: uvm_test_top.env.master_agent.mon [axi4_master_monitor] W data assembled: ID=0x1 ADDR=0x04fe120c 3 beats
# UVM_INFO ../src/slv/axi4_slave_monitor.sv(167) @ 1405000: uvm_test_top.env.slave_agent.mon [axi4_slave_monitor] W data assembled: ID=0x1 ADDR=0x04fe120c 3 beats
# UVM_INFO ../src/mst/axi4_master_driver.sv(197) @ 1435000: uvm_test_top.env.master_agent.drv [axi4_master_driver] Write response: AXI4_RESP_OKAY
# UVM_INFO ../src/slv/axi4_slave_driver.sv(261) @ 1435000: uvm_test_top.env.slave_agent.drv [axi4_slave_driver] Write complete: ID=0x1 ADDR=0x04fe120c RESP=AXI4_RESP_OKAY  3 beats processed
# UVM_INFO ../src/slv/axi4_slave_monitor.sv(189) @ 1435000: uvm_test_top.env.slave_agent.mon [axi4_slave_monitor] Write response sent: ID=0x1 ADDR=0x04fe120c RESP=AXI4_RESP_OKAY
# UVM_INFO ../src/env/axi4_scoreboard.sv(103) @ 1435000: uvm_test_top.env.scb [axi4_scoreboard] Slave AXI4_WRITE received: ID=0x1 ADDR=0x04fe120c LEN=2
# UVM_INFO ../src/mst/axi4_master_monitor.sv(210) @ 1435000: uvm_test_top.env.master_agent.mon [axi4_master_monitor] Write complete: ID=0x1 ADDR=0x04fe120c RESP=AXI4_RESP_OKAY
# UVM_INFO ../src/env/axi4_scoreboard.sv(82) @ 1435000: uvm_test_top.env.scb [axi4_scoreboard] Master AXI4_WRITE received: ID=0x1 ADDR=0x04fe120c LEN=2
# UVM_INFO ../src/env/axi4_scoreboard.sv(154) @ 1435000: uvm_test_top.env.scb [axi4_scoreboard] [WRITE] MATCH #7: ID=0x1 ADDR=0x04fe120c LEN=2
# UVM_INFO ../src/seq/axi4_write_read_back_seq.sv(60) @ 1435000: uvm_test_top.env.master_agent.sqr@@wr_rd_seq_3 [axi4_write_read_back_seq] Write phase: ADDR=0x04fe120c LEN=2 SIZE=AXI4_SIZE_4B BURST=AXI4_BURST_INCR
# UVM_INFO ../src/mst/axi4_master_driver.sv(55) @ 1435000: uvm_test_top.env.master_agent.drv [axi4_master_driver] Driving AXI4_READ  ID=0x4  ADDR=0x04fe120c  LEN=2
# UVM_INFO ../src/slv/axi4_slave_driver.sv(300) @ 1465000: uvm_test_top.env.slave_agent.drv [axi4_slave_driver] AR received: ID=0x4 ADDR=0x04fe120c LEN=2 LOCK=AXI4_LOCK_NORMAL
# UVM_INFO ../src/mst/axi4_master_monitor.sv(246) @ 1465000: uvm_test_top.env.master_agent.mon [axi4_master_monitor] AR observed: ID=0x4 ADDR=0x04fe120c LEN=2
# UVM_INFO ../src/slv/axi4_slave_monitor.sv(224) @ 1465000: uvm_test_top.env.slave_agent.mon [axi4_slave_monitor] AR received: ID=0x4 ADDR=0x04fe120c LEN=2
# UVM_INFO ../src/mst/axi4_master_driver.sv(254) @ 1525000: uvm_test_top.env.master_agent.drv [axi4_master_driver] Read complete: 3 beats received
# UVM_INFO ../src/slv/axi4_slave_driver.sv(349) @ 1525000: uvm_test_top.env.slave_agent.drv [axi4_slave_driver] Read complete: ID=0x4 ADDR=0x04fe120c RESP=AXI4_RESP_OKAY  3 beats sent
# UVM_INFO ../src/mst/axi4_master_monitor.sv(314) @ 1525000: uvm_test_top.env.master_agent.mon [axi4_master_monitor] Read complete: ID=0x4 ADDR=0x04fe120c 3 beats
# UVM_INFO ../src/env/axi4_scoreboard.sv(82) @ 1525000: uvm_test_top.env.scb [axi4_scoreboard] Master AXI4_READ received: ID=0x4 ADDR=0x04fe120c LEN=2
# UVM_INFO ../src/slv/axi4_slave_monitor.sv(287) @ 1525000: uvm_test_top.env.slave_agent.mon [axi4_slave_monitor] Read data sent: ID=0x4 ADDR=0x04fe120c 3 beats
# UVM_INFO ../src/env/axi4_scoreboard.sv(103) @ 1525000: uvm_test_top.env.scb [axi4_scoreboard] Slave AXI4_READ received: ID=0x4 ADDR=0x04fe120c LEN=2
# UVM_INFO ../src/env/axi4_scoreboard.sv(154) @ 1525000: uvm_test_top.env.scb [axi4_scoreboard] [READ] MATCH #8: ID=0x4 ADDR=0x04fe120c LEN=2
# UVM_INFO ../src/seq/axi4_write_read_back_seq.sv(80) @ 1525000: uvm_test_top.env.master_agent.sqr@@wr_rd_seq_3 [axi4_write_read_back_seq] Read-back phase: ADDR=0x04fe120c LEN=2 - data integrity check via scoreboard
# UVM_INFO ../src/test/axi4_wr_rd_test.sv(52) @ 1525000: uvm_test_top [axi4_wr_rd_test] [5/10] ADDR=0x32c18692 LEN=6 BURST=AXI4_BURST_INCR
# UVM_INFO ../src/mst/axi4_master_driver.sv(55) @ 1525000: uvm_test_top.env.master_agent.drv [axi4_master_driver] Driving AXI4_WRITE  ID=0x3  ADDR=0x32c18692  LEN=6
# UVM_INFO ../src/mst/axi4_master_driver.sv(94) @ 1525000: uvm_test_top.env.master_agent.drv [axi4_master_driver] Write order: AW || W (parallel)
# UVM_INFO ../src/slv/axi4_slave_driver.sv(165) @ 1555000: uvm_test_top.env.slave_agent.drv [axi4_slave_driver] AW received: ID=0x3 ADDR=0x32c18692 LEN=6 LOCK=AXI4_LOCK_NORMAL
# UVM_INFO ../src/slv/axi4_slave_monitor.sv(116) @ 1555000: uvm_test_top.env.slave_agent.mon [axi4_slave_monitor] AW received: ID=0x3 ADDR=0x32c18692 LEN=6
# UVM_INFO ../src/mst/axi4_master_monitor.sv(124) @ 1555000: uvm_test_top.env.master_agent.mon [axi4_master_monitor] AW observed: ID=0x3 ADDR=0x32c18692 LEN=6
# UVM_INFO ../src/mst/axi4_master_monitor.sv(184) @ 1665000: uvm_test_top.env.master_agent.mon [axi4_master_monitor] W data assembled: ID=0x3 ADDR=0x32c18692 7 beats
# UVM_INFO ../src/slv/axi4_slave_monitor.sv(167) @ 1665000: uvm_test_top.env.slave_agent.mon [axi4_slave_monitor] W data assembled: ID=0x3 ADDR=0x32c18692 7 beats
# UVM_INFO ../src/mst/axi4_master_driver.sv(197) @ 1695000: uvm_test_top.env.master_agent.drv [axi4_master_driver] Write response: AXI4_RESP_OKAY
# UVM_INFO ../src/slv/axi4_slave_driver.sv(261) @ 1695000: uvm_test_top.env.slave_agent.drv [axi4_slave_driver] Write complete: ID=0x3 ADDR=0x32c18692 RESP=AXI4_RESP_OKAY  7 beats processed
# UVM_INFO ../src/slv/axi4_slave_monitor.sv(189) @ 1695000: uvm_test_top.env.slave_agent.mon [axi4_slave_monitor] Write response sent: ID=0x3 ADDR=0x32c18692 RESP=AXI4_RESP_OKAY
# UVM_INFO ../src/env/axi4_scoreboard.sv(103) @ 1695000: uvm_test_top.env.scb [axi4_scoreboard] Slave AXI4_WRITE received: ID=0x3 ADDR=0x32c18692 LEN=6
# UVM_INFO ../src/mst/axi4_master_monitor.sv(210) @ 1695000: uvm_test_top.env.master_agent.mon [axi4_master_monitor] Write complete: ID=0x3 ADDR=0x32c18692 RESP=AXI4_RESP_OKAY
# UVM_INFO ../src/env/axi4_scoreboard.sv(82) @ 1695000: uvm_test_top.env.scb [axi4_scoreboard] Master AXI4_WRITE received: ID=0x3 ADDR=0x32c18692 LEN=6
# UVM_INFO ../src/env/axi4_scoreboard.sv(154) @ 1695000: uvm_test_top.env.scb [axi4_scoreboard] [WRITE] MATCH #9: ID=0x3 ADDR=0x32c18692 LEN=6
# UVM_INFO ../src/seq/axi4_write_read_back_seq.sv(60) @ 1695000: uvm_test_top.env.master_agent.sqr@@wr_rd_seq_4 [axi4_write_read_back_seq] Write phase: ADDR=0x32c18692 LEN=6 SIZE=AXI4_SIZE_4B BURST=AXI4_BURST_INCR
# UVM_INFO ../src/mst/axi4_master_driver.sv(55) @ 1695000: uvm_test_top.env.master_agent.drv [axi4_master_driver] Driving AXI4_READ  ID=0x0  ADDR=0x32c18692  LEN=6
# UVM_INFO ../src/slv/axi4_slave_driver.sv(300) @ 1725000: uvm_test_top.env.slave_agent.drv [axi4_slave_driver] AR received: ID=0x0 ADDR=0x32c18692 LEN=6 LOCK=AXI4_LOCK_EXCLUSIVE
# UVM_INFO ../src/mst/axi4_master_monitor.sv(246) @ 1725000: uvm_test_top.env.master_agent.mon [axi4_master_monitor] AR observed: ID=0x0 ADDR=0x32c18692 LEN=6
# UVM_INFO ../src/slv/axi4_slave_monitor.sv(224) @ 1725000: uvm_test_top.env.slave_agent.mon [axi4_slave_monitor] AR received: ID=0x0 ADDR=0x32c18692 LEN=6
# UVM_INFO ../src/mst/axi4_master_driver.sv(254) @ 1865000: uvm_test_top.env.master_agent.drv [axi4_master_driver] Read complete: 7 beats received
# UVM_INFO ../src/slv/axi4_slave_driver.sv(349) @ 1865000: uvm_test_top.env.slave_agent.drv [axi4_slave_driver] Read complete: ID=0x0 ADDR=0x32c18692 RESP=AXI4_RESP_EXOKAY  7 beats sent
# UVM_INFO ../src/mst/axi4_master_monitor.sv(314) @ 1865000: uvm_test_top.env.master_agent.mon [axi4_master_monitor] Read complete: ID=0x0 ADDR=0x32c18692 7 beats
# UVM_INFO ../src/env/axi4_scoreboard.sv(82) @ 1865000: uvm_test_top.env.scb [axi4_scoreboard] Master AXI4_READ received: ID=0x0 ADDR=0x32c18692 LEN=6
# UVM_INFO ../src/slv/axi4_slave_monitor.sv(287) @ 1865000: uvm_test_top.env.slave_agent.mon [axi4_slave_monitor] Read data sent: ID=0x0 ADDR=0x32c18692 7 beats
# UVM_INFO ../src/env/axi4_scoreboard.sv(103) @ 1865000: uvm_test_top.env.scb [axi4_scoreboard] Slave AXI4_READ received: ID=0x0 ADDR=0x32c18692 LEN=6
# UVM_INFO ../src/env/axi4_scoreboard.sv(154) @ 1865000: uvm_test_top.env.scb [axi4_scoreboard] [READ] MATCH #10: ID=0x0 ADDR=0x32c18692 LEN=6
# UVM_INFO ../src/seq/axi4_write_read_back_seq.sv(80) @ 1865000: uvm_test_top.env.master_agent.sqr@@wr_rd_seq_4 [axi4_write_read_back_seq] Read-back phase: ADDR=0x32c18692 LEN=6 - data integrity check via scoreboard
# UVM_INFO ../src/test/axi4_wr_rd_test.sv(52) @ 1865000: uvm_test_top [axi4_wr_rd_test] [6/10] ADDR=0x37e18767 LEN=10 BURST=AXI4_BURST_INCR
# UVM_INFO ../src/mst/axi4_master_driver.sv(55) @ 1865000: uvm_test_top.env.master_agent.drv [axi4_master_driver] Driving AXI4_WRITE  ID=0x6  ADDR=0x37e18767  LEN=10
# UVM_INFO ../src/mst/axi4_master_driver.sv(106) @ 1865000: uvm_test_top.env.master_agent.drv [axi4_master_driver] Write order: W -> AW (W first)
# UVM_INFO ../src/slv/axi4_slave_driver.sv(165) @ 1925000: uvm_test_top.env.slave_agent.drv [axi4_slave_driver] AW received: ID=0x6 ADDR=0x37e18767 LEN=10 LOCK=AXI4_LOCK_NORMAL
# UVM_INFO ../src/mst/axi4_master_monitor.sv(124) @ 1925000: uvm_test_top.env.master_agent.mon [axi4_master_monitor] AW observed: ID=0x6 ADDR=0x37e18767 LEN=10
# UVM_INFO ../src/slv/axi4_slave_monitor.sv(116) @ 1925000: uvm_test_top.env.slave_agent.mon [axi4_slave_monitor] AW received: ID=0x6 ADDR=0x37e18767 LEN=10
# UVM_INFO ../src/mst/axi4_master_monitor.sv(184) @ 2085000: uvm_test_top.env.master_agent.mon [axi4_master_monitor] W data assembled: ID=0x6 ADDR=0x37e18767 11 beats
# UVM_INFO ../src/slv/axi4_slave_monitor.sv(167) @ 2085000: uvm_test_top.env.slave_agent.mon [axi4_slave_monitor] W data assembled: ID=0x6 ADDR=0x37e18767 11 beats
# UVM_INFO ../src/mst/axi4_master_driver.sv(197) @ 2115000: uvm_test_top.env.master_agent.drv [axi4_master_driver] Write response: AXI4_RESP_OKAY
# UVM_INFO ../src/slv/axi4_slave_driver.sv(261) @ 2115000: uvm_test_top.env.slave_agent.drv [axi4_slave_driver] Write complete: ID=0x6 ADDR=0x37e18767 RESP=AXI4_RESP_OKAY  11 beats processed
# UVM_INFO ../src/slv/axi4_slave_monitor.sv(189) @ 2115000: uvm_test_top.env.slave_agent.mon [axi4_slave_monitor] Write response sent: ID=0x6 ADDR=0x37e18767 RESP=AXI4_RESP_OKAY
# UVM_INFO ../src/env/axi4_scoreboard.sv(103) @ 2115000: uvm_test_top.env.scb [axi4_scoreboard] Slave AXI4_WRITE received: ID=0x6 ADDR=0x37e18767 LEN=10
# UVM_INFO ../src/mst/axi4_master_monitor.sv(210) @ 2115000: uvm_test_top.env.master_agent.mon [axi4_master_monitor] Write complete: ID=0x6 ADDR=0x37e18767 RESP=AXI4_RESP_OKAY
# UVM_INFO ../src/env/axi4_scoreboard.sv(82) @ 2115000: uvm_test_top.env.scb [axi4_scoreboard] Master AXI4_WRITE received: ID=0x6 ADDR=0x37e18767 LEN=10
# UVM_INFO ../src/env/axi4_scoreboard.sv(154) @ 2115000: uvm_test_top.env.scb [axi4_scoreboard] [WRITE] MATCH #11: ID=0x6 ADDR=0x37e18767 LEN=10
# UVM_INFO ../src/seq/axi4_write_read_back_seq.sv(60) @ 2115000: uvm_test_top.env.master_agent.sqr@@wr_rd_seq_5 [axi4_write_read_back_seq] Write phase: ADDR=0x37e18767 LEN=10 SIZE=AXI4_SIZE_4B BURST=AXI4_BURST_INCR
# UVM_INFO ../src/mst/axi4_master_driver.sv(55) @ 2115000: uvm_test_top.env.master_agent.drv [axi4_master_driver] Driving AXI4_READ  ID=0xc  ADDR=0x37e18767  LEN=10
# UVM_INFO ../src/slv/axi4_slave_driver.sv(300) @ 2145000: uvm_test_top.env.slave_agent.drv [axi4_slave_driver] AR received: ID=0xc ADDR=0x37e18767 LEN=10 LOCK=AXI4_LOCK_EXCLUSIVE
# UVM_INFO ../src/mst/axi4_master_monitor.sv(246) @ 2145000: uvm_test_top.env.master_agent.mon [axi4_master_monitor] AR observed: ID=0xc ADDR=0x37e18767 LEN=10
# UVM_INFO ../src/slv/axi4_slave_monitor.sv(224) @ 2145000: uvm_test_top.env.slave_agent.mon [axi4_slave_monitor] AR received: ID=0xc ADDR=0x37e18767 LEN=10
# UVM_INFO ../src/mst/axi4_master_driver.sv(254) @ 2365000: uvm_test_top.env.master_agent.drv [axi4_master_driver] Read complete: 11 beats received
# UVM_INFO ../src/slv/axi4_slave_driver.sv(349) @ 2365000: uvm_test_top.env.slave_agent.drv [axi4_slave_driver] Read complete: ID=0xc ADDR=0x37e18767 RESP=AXI4_RESP_EXOKAY  11 beats sent
# UVM_INFO ../src/mst/axi4_master_monitor.sv(314) @ 2365000: uvm_test_top.env.master_agent.mon [axi4_master_monitor] Read complete: ID=0xc ADDR=0x37e18767 11 beats
# UVM_INFO ../src/env/axi4_scoreboard.sv(82) @ 2365000: uvm_test_top.env.scb [axi4_scoreboard] Master AXI4_READ received: ID=0xc ADDR=0x37e18767 LEN=10
# UVM_INFO ../src/slv/axi4_slave_monitor.sv(287) @ 2365000: uvm_test_top.env.slave_agent.mon [axi4_slave_monitor] Read data sent: ID=0xc ADDR=0x37e18767 11 beats
# UVM_INFO ../src/env/axi4_scoreboard.sv(103) @ 2365000: uvm_test_top.env.scb [axi4_scoreboard] Slave AXI4_READ received: ID=0xc ADDR=0x37e18767 LEN=10
# UVM_INFO ../src/env/axi4_scoreboard.sv(154) @ 2365000: uvm_test_top.env.scb [axi4_scoreboard] [READ] MATCH #12: ID=0xc ADDR=0x37e18767 LEN=10
# UVM_INFO ../src/seq/axi4_write_read_back_seq.sv(80) @ 2365000: uvm_test_top.env.master_agent.sqr@@wr_rd_seq_5 [axi4_write_read_back_seq] Read-back phase: ADDR=0x37e18767 LEN=10 - data integrity check via scoreboard
# UVM_INFO ../src/test/axi4_wr_rd_test.sv(52) @ 2365000: uvm_test_top [axi4_wr_rd_test] [7/10] ADDR=0x83ed660c LEN=0 BURST=AXI4_BURST_INCR
# UVM_INFO ../src/mst/axi4_master_driver.sv(55) @ 2365000: uvm_test_top.env.master_agent.drv [axi4_master_driver] Driving AXI4_WRITE  ID=0xd  ADDR=0x83ed660c  LEN=0
# UVM_INFO ../src/mst/axi4_master_driver.sv(106) @ 2365000: uvm_test_top.env.master_agent.drv [axi4_master_driver] Write order: W -> AW (W first)
# UVM_INFO ../src/slv/axi4_slave_driver.sv(165) @ 2435000: uvm_test_top.env.slave_agent.drv [axi4_slave_driver] AW received: ID=0xd ADDR=0x83ed660c LEN=0 LOCK=AXI4_LOCK_NORMAL
# UVM_INFO ../src/slv/axi4_slave_monitor.sv(116) @ 2435000: uvm_test_top.env.slave_agent.mon [axi4_slave_monitor] AW received: ID=0xd ADDR=0x83ed660c LEN=0
# UVM_INFO ../src/mst/axi4_master_monitor.sv(124) @ 2435000: uvm_test_top.env.master_agent.mon [axi4_master_monitor] AW observed: ID=0xd ADDR=0x83ed660c LEN=0
# UVM_INFO ../src/slv/axi4_slave_monitor.sv(167) @ 2435000: uvm_test_top.env.slave_agent.mon [axi4_slave_monitor] W data assembled: ID=0xd ADDR=0x83ed660c 1 beats
# UVM_INFO ../src/mst/axi4_master_monitor.sv(184) @ 2435000: uvm_test_top.env.master_agent.mon [axi4_master_monitor] W data assembled: ID=0xd ADDR=0x83ed660c 1 beats
# UVM_INFO ../src/mst/axi4_master_driver.sv(197) @ 2455000: uvm_test_top.env.master_agent.drv [axi4_master_driver] Write response: AXI4_RESP_OKAY
# UVM_INFO ../src/slv/axi4_slave_driver.sv(261) @ 2455000: uvm_test_top.env.slave_agent.drv [axi4_slave_driver] Write complete: ID=0xd ADDR=0x83ed660c RESP=AXI4_RESP_OKAY  1 beats processed
# UVM_INFO ../src/slv/axi4_slave_monitor.sv(189) @ 2455000: uvm_test_top.env.slave_agent.mon [axi4_slave_monitor] Write response sent: ID=0xd ADDR=0x83ed660c RESP=AXI4_RESP_OKAY
# UVM_INFO ../src/env/axi4_scoreboard.sv(103) @ 2455000: uvm_test_top.env.scb [axi4_scoreboard] Slave AXI4_WRITE received: ID=0xd ADDR=0x83ed660c LEN=0
# UVM_INFO ../src/mst/axi4_master_monitor.sv(210) @ 2455000: uvm_test_top.env.master_agent.mon [axi4_master_monitor] Write complete: ID=0xd ADDR=0x83ed660c RESP=AXI4_RESP_OKAY
# UVM_INFO ../src/env/axi4_scoreboard.sv(82) @ 2455000: uvm_test_top.env.scb [axi4_scoreboard] Master AXI4_WRITE received: ID=0xd ADDR=0x83ed660c LEN=0
# UVM_INFO ../src/env/axi4_scoreboard.sv(154) @ 2455000: uvm_test_top.env.scb [axi4_scoreboard] [WRITE] MATCH #13: ID=0xd ADDR=0x83ed660c LEN=0
# UVM_INFO ../src/seq/axi4_write_read_back_seq.sv(60) @ 2455000: uvm_test_top.env.master_agent.sqr@@wr_rd_seq_6 [axi4_write_read_back_seq] Write phase: ADDR=0x83ed660c LEN=0 SIZE=AXI4_SIZE_4B BURST=AXI4_BURST_INCR
# UVM_INFO ../src/mst/axi4_master_driver.sv(55) @ 2455000: uvm_test_top.env.master_agent.drv [axi4_master_driver] Driving AXI4_READ  ID=0xe  ADDR=0x83ed660c  LEN=0
# UVM_INFO ../src/slv/axi4_slave_driver.sv(300) @ 2485000: uvm_test_top.env.slave_agent.drv [axi4_slave_driver] AR received: ID=0xe ADDR=0x83ed660c LEN=0 LOCK=AXI4_LOCK_NORMAL
# UVM_INFO ../src/mst/axi4_master_monitor.sv(246) @ 2485000: uvm_test_top.env.master_agent.mon [axi4_master_monitor] AR observed: ID=0xe ADDR=0x83ed660c LEN=0
# UVM_INFO ../src/slv/axi4_slave_monitor.sv(224) @ 2485000: uvm_test_top.env.slave_agent.mon [axi4_slave_monitor] AR received: ID=0xe ADDR=0x83ed660c LEN=0
# UVM_INFO ../src/mst/axi4_master_driver.sv(254) @ 2505000: uvm_test_top.env.master_agent.drv [axi4_master_driver] Read complete: 1 beats received
# UVM_INFO ../src/slv/axi4_slave_driver.sv(349) @ 2505000: uvm_test_top.env.slave_agent.drv [axi4_slave_driver] Read complete: ID=0xe ADDR=0x83ed660c RESP=AXI4_RESP_OKAY  1 beats sent
# UVM_INFO ../src/mst/axi4_master_monitor.sv(314) @ 2505000: uvm_test_top.env.master_agent.mon [axi4_master_monitor] Read complete: ID=0xe ADDR=0x83ed660c 1 beats
# UVM_INFO ../src/env/axi4_scoreboard.sv(82) @ 2505000: uvm_test_top.env.scb [axi4_scoreboard] Master AXI4_READ received: ID=0xe ADDR=0x83ed660c LEN=0
# UVM_INFO ../src/slv/axi4_slave_monitor.sv(287) @ 2505000: uvm_test_top.env.slave_agent.mon [axi4_slave_monitor] Read data sent: ID=0xe ADDR=0x83ed660c 1 beats
# UVM_INFO ../src/env/axi4_scoreboard.sv(103) @ 2505000: uvm_test_top.env.scb [axi4_scoreboard] Slave AXI4_READ received: ID=0xe ADDR=0x83ed660c LEN=0
# UVM_INFO ../src/env/axi4_scoreboard.sv(154) @ 2505000: uvm_test_top.env.scb [axi4_scoreboard] [READ] MATCH #14: ID=0xe ADDR=0x83ed660c LEN=0
# UVM_INFO ../src/seq/axi4_write_read_back_seq.sv(80) @ 2505000: uvm_test_top.env.master_agent.sqr@@wr_rd_seq_6 [axi4_write_read_back_seq] Read-back phase: ADDR=0x83ed660c LEN=0 - data integrity check via scoreboard
# UVM_INFO ../src/test/axi4_wr_rd_test.sv(52) @ 2505000: uvm_test_top [axi4_wr_rd_test] [8/10] ADDR=0x78573d50 LEN=2 BURST=AXI4_BURST_INCR
# UVM_INFO ../src/mst/axi4_master_driver.sv(55) @ 2505000: uvm_test_top.env.master_agent.drv [axi4_master_driver] Driving AXI4_WRITE  ID=0x5  ADDR=0x78573d50  LEN=2
# UVM_INFO ../src/mst/axi4_master_driver.sv(94) @ 2505000: uvm_test_top.env.master_agent.drv [axi4_master_driver] Write order: AW || W (parallel)
# UVM_INFO ../src/slv/axi4_slave_driver.sv(165) @ 2535000: uvm_test_top.env.slave_agent.drv [axi4_slave_driver] AW received: ID=0x5 ADDR=0x78573d50 LEN=2 LOCK=AXI4_LOCK_EXCLUSIVE
# UVM_INFO ../src/slv/axi4_slave_monitor.sv(116) @ 2535000: uvm_test_top.env.slave_agent.mon [axi4_slave_monitor] AW received: ID=0x5 ADDR=0x78573d50 LEN=2
# UVM_INFO ../src/mst/axi4_master_monitor.sv(124) @ 2535000: uvm_test_top.env.master_agent.mon [axi4_master_monitor] AW observed: ID=0x5 ADDR=0x78573d50 LEN=2
# UVM_INFO ../src/mst/axi4_master_monitor.sv(184) @ 2565000: uvm_test_top.env.master_agent.mon [axi4_master_monitor] W data assembled: ID=0x5 ADDR=0x78573d50 3 beats
# UVM_INFO ../src/slv/axi4_slave_monitor.sv(167) @ 2565000: uvm_test_top.env.slave_agent.mon [axi4_slave_monitor] W data assembled: ID=0x5 ADDR=0x78573d50 3 beats
# UVM_INFO ../src/mst/axi4_master_driver.sv(197) @ 2595000: uvm_test_top.env.master_agent.drv [axi4_master_driver] Write response: AXI4_RESP_OKAY
# UVM_INFO ../src/slv/axi4_slave_driver.sv(261) @ 2595000: uvm_test_top.env.slave_agent.drv [axi4_slave_driver] Write complete: ID=0x5 ADDR=0x78573d50 RESP=AXI4_RESP_OKAY  3 beats processed
# UVM_INFO ../src/slv/axi4_slave_monitor.sv(189) @ 2595000: uvm_test_top.env.slave_agent.mon [axi4_slave_monitor] Write response sent: ID=0x5 ADDR=0x78573d50 RESP=AXI4_RESP_OKAY
# UVM_INFO ../src/env/axi4_scoreboard.sv(103) @ 2595000: uvm_test_top.env.scb [axi4_scoreboard] Slave AXI4_WRITE received: ID=0x5 ADDR=0x78573d50 LEN=2
# UVM_INFO ../src/mst/axi4_master_monitor.sv(210) @ 2595000: uvm_test_top.env.master_agent.mon [axi4_master_monitor] Write complete: ID=0x5 ADDR=0x78573d50 RESP=AXI4_RESP_OKAY
# UVM_INFO ../src/env/axi4_scoreboard.sv(82) @ 2595000: uvm_test_top.env.scb [axi4_scoreboard] Master AXI4_WRITE received: ID=0x5 ADDR=0x78573d50 LEN=2
# UVM_INFO ../src/env/axi4_scoreboard.sv(154) @ 2595000: uvm_test_top.env.scb [axi4_scoreboard] [WRITE] MATCH #15: ID=0x5 ADDR=0x78573d50 LEN=2
# UVM_INFO ../src/seq/axi4_write_read_back_seq.sv(60) @ 2595000: uvm_test_top.env.master_agent.sqr@@wr_rd_seq_7 [axi4_write_read_back_seq] Write phase: ADDR=0x78573d50 LEN=2 SIZE=AXI4_SIZE_4B BURST=AXI4_BURST_INCR
# UVM_INFO ../src/mst/axi4_master_driver.sv(55) @ 2595000: uvm_test_top.env.master_agent.drv [axi4_master_driver] Driving AXI4_READ  ID=0xf  ADDR=0x78573d50  LEN=2
# UVM_INFO ../src/slv/axi4_slave_driver.sv(300) @ 2625000: uvm_test_top.env.slave_agent.drv [axi4_slave_driver] AR received: ID=0xf ADDR=0x78573d50 LEN=2 LOCK=AXI4_LOCK_EXCLUSIVE
# UVM_INFO ../src/mst/axi4_master_monitor.sv(246) @ 2625000: uvm_test_top.env.master_agent.mon [axi4_master_monitor] AR observed: ID=0xf ADDR=0x78573d50 LEN=2
# UVM_INFO ../src/slv/axi4_slave_monitor.sv(224) @ 2625000: uvm_test_top.env.slave_agent.mon [axi4_slave_monitor] AR received: ID=0xf ADDR=0x78573d50 LEN=2
# UVM_INFO ../src/mst/axi4_master_driver.sv(254) @ 2685000: uvm_test_top.env.master_agent.drv [axi4_master_driver] Read complete: 3 beats received
# UVM_INFO ../src/slv/axi4_slave_driver.sv(349) @ 2685000: uvm_test_top.env.slave_agent.drv [axi4_slave_driver] Read complete: ID=0xf ADDR=0x78573d50 RESP=AXI4_RESP_EXOKAY  3 beats sent
# UVM_INFO ../src/mst/axi4_master_monitor.sv(314) @ 2685000: uvm_test_top.env.master_agent.mon [axi4_master_monitor] Read complete: ID=0xf ADDR=0x78573d50 3 beats
# UVM_INFO ../src/env/axi4_scoreboard.sv(82) @ 2685000: uvm_test_top.env.scb [axi4_scoreboard] Master AXI4_READ received: ID=0xf ADDR=0x78573d50 LEN=2
# UVM_INFO ../src/slv/axi4_slave_monitor.sv(287) @ 2685000: uvm_test_top.env.slave_agent.mon [axi4_slave_monitor] Read data sent: ID=0xf ADDR=0x78573d50 3 beats
# UVM_INFO ../src/env/axi4_scoreboard.sv(103) @ 2685000: uvm_test_top.env.scb [axi4_scoreboard] Slave AXI4_READ received: ID=0xf ADDR=0x78573d50 LEN=2
# UVM_INFO ../src/env/axi4_scoreboard.sv(154) @ 2685000: uvm_test_top.env.scb [axi4_scoreboard] [READ] MATCH #16: ID=0xf ADDR=0x78573d50 LEN=2
# UVM_INFO ../src/seq/axi4_write_read_back_seq.sv(80) @ 2685000: uvm_test_top.env.master_agent.sqr@@wr_rd_seq_7 [axi4_write_read_back_seq] Read-back phase: ADDR=0x78573d50 LEN=2 - data integrity check via scoreboard
# UVM_INFO ../src/test/axi4_wr_rd_test.sv(52) @ 2685000: uvm_test_top [axi4_wr_rd_test] [9/10] ADDR=0xceec76e5 LEN=3 BURST=AXI4_BURST_INCR
# UVM_INFO ../src/mst/axi4_master_driver.sv(55) @ 2685000: uvm_test_top.env.master_agent.drv [axi4_master_driver] Driving AXI4_WRITE  ID=0x3  ADDR=0xceec76e5  LEN=3
# UVM_INFO ../src/mst/axi4_master_driver.sv(106) @ 2685000: uvm_test_top.env.master_agent.drv [axi4_master_driver] Write order: W -> AW (W first)
# UVM_INFO ../src/slv/axi4_slave_driver.sv(165) @ 2765000: uvm_test_top.env.slave_agent.drv [axi4_slave_driver] AW received: ID=0x3 ADDR=0xceec76e5 LEN=3 LOCK=AXI4_LOCK_NORMAL
# UVM_INFO ../src/mst/axi4_master_monitor.sv(124) @ 2765000: uvm_test_top.env.master_agent.mon [axi4_master_monitor] AW observed: ID=0x3 ADDR=0xceec76e5 LEN=3
# UVM_INFO ../src/slv/axi4_slave_monitor.sv(116) @ 2765000: uvm_test_top.env.slave_agent.mon [axi4_slave_monitor] AW received: ID=0x3 ADDR=0xceec76e5 LEN=3
# UVM_INFO ../src/mst/axi4_master_monitor.sv(184) @ 2765000: uvm_test_top.env.master_agent.mon [axi4_master_monitor] W data assembled: ID=0x3 ADDR=0xceec76e5 4 beats
# UVM_INFO ../src/slv/axi4_slave_monitor.sv(167) @ 2765000: uvm_test_top.env.slave_agent.mon [axi4_slave_monitor] W data assembled: ID=0x3 ADDR=0xceec76e5 4 beats
# UVM_INFO ../src/mst/axi4_master_driver.sv(197) @ 2795000: uvm_test_top.env.master_agent.drv [axi4_master_driver] Write response: AXI4_RESP_OKAY
# UVM_INFO ../src/slv/axi4_slave_driver.sv(261) @ 2795000: uvm_test_top.env.slave_agent.drv [axi4_slave_driver] Write complete: ID=0x3 ADDR=0xceec76e5 RESP=AXI4_RESP_OKAY  4 beats processed
# UVM_INFO ../src/slv/axi4_slave_monitor.sv(189) @ 2795000: uvm_test_top.env.slave_agent.mon [axi4_slave_monitor] Write response sent: ID=0x3 ADDR=0xceec76e5 RESP=AXI4_RESP_OKAY
# UVM_INFO ../src/env/axi4_scoreboard.sv(103) @ 2795000: uvm_test_top.env.scb [axi4_scoreboard] Slave AXI4_WRITE received: ID=0x3 ADDR=0xceec76e5 LEN=3
# UVM_INFO ../src/mst/axi4_master_monitor.sv(210) @ 2795000: uvm_test_top.env.master_agent.mon [axi4_master_monitor] Write complete: ID=0x3 ADDR=0xceec76e5 RESP=AXI4_RESP_OKAY
# UVM_INFO ../src/env/axi4_scoreboard.sv(82) @ 2795000: uvm_test_top.env.scb [axi4_scoreboard] Master AXI4_WRITE received: ID=0x3 ADDR=0xceec76e5 LEN=3
# UVM_INFO ../src/env/axi4_scoreboard.sv(154) @ 2795000: uvm_test_top.env.scb [axi4_scoreboard] [WRITE] MATCH #17: ID=0x3 ADDR=0xceec76e5 LEN=3
# UVM_INFO ../src/seq/axi4_write_read_back_seq.sv(60) @ 2795000: uvm_test_top.env.master_agent.sqr@@wr_rd_seq_8 [axi4_write_read_back_seq] Write phase: ADDR=0xceec76e5 LEN=3 SIZE=AXI4_SIZE_4B BURST=AXI4_BURST_INCR
# UVM_INFO ../src/mst/axi4_master_driver.sv(55) @ 2795000: uvm_test_top.env.master_agent.drv [axi4_master_driver] Driving AXI4_READ  ID=0x8  ADDR=0xceec76e5  LEN=3
# UVM_INFO ../src/slv/axi4_slave_driver.sv(300) @ 2825000: uvm_test_top.env.slave_agent.drv [axi4_slave_driver] AR received: ID=0x8 ADDR=0xceec76e5 LEN=3 LOCK=AXI4_LOCK_NORMAL
# UVM_INFO ../src/mst/axi4_master_monitor.sv(246) @ 2825000: uvm_test_top.env.master_agent.mon [axi4_master_monitor] AR observed: ID=0x8 ADDR=0xceec76e5 LEN=3
# UVM_INFO ../src/slv/axi4_slave_monitor.sv(224) @ 2825000: uvm_test_top.env.slave_agent.mon [axi4_slave_monitor] AR received: ID=0x8 ADDR=0xceec76e5 LEN=3
# UVM_INFO ../src/mst/axi4_master_driver.sv(254) @ 2905000: uvm_test_top.env.master_agent.drv [axi4_master_driver] Read complete: 4 beats received
# UVM_INFO ../src/slv/axi4_slave_driver.sv(349) @ 2905000: uvm_test_top.env.slave_agent.drv [axi4_slave_driver] Read complete: ID=0x8 ADDR=0xceec76e5 RESP=AXI4_RESP_OKAY  4 beats sent
# UVM_INFO ../src/mst/axi4_master_monitor.sv(314) @ 2905000: uvm_test_top.env.master_agent.mon [axi4_master_monitor] Read complete: ID=0x8 ADDR=0xceec76e5 4 beats
# UVM_INFO ../src/env/axi4_scoreboard.sv(82) @ 2905000: uvm_test_top.env.scb [axi4_scoreboard] Master AXI4_READ received: ID=0x8 ADDR=0xceec76e5 LEN=3
# UVM_INFO ../src/slv/axi4_slave_monitor.sv(287) @ 2905000: uvm_test_top.env.slave_agent.mon [axi4_slave_monitor] Read data sent: ID=0x8 ADDR=0xceec76e5 4 beats
# UVM_INFO ../src/env/axi4_scoreboard.sv(103) @ 2905000: uvm_test_top.env.scb [axi4_scoreboard] Slave AXI4_READ received: ID=0x8 ADDR=0xceec76e5 LEN=3
# UVM_INFO ../src/env/axi4_scoreboard.sv(154) @ 2905000: uvm_test_top.env.scb [axi4_scoreboard] [READ] MATCH #18: ID=0x8 ADDR=0xceec76e5 LEN=3
# UVM_INFO ../src/seq/axi4_write_read_back_seq.sv(80) @ 2905000: uvm_test_top.env.master_agent.sqr@@wr_rd_seq_8 [axi4_write_read_back_seq] Read-back phase: ADDR=0xceec76e5 LEN=3 - data integrity check via scoreboard
# UVM_INFO ../src/test/axi4_wr_rd_test.sv(52) @ 2905000: uvm_test_top [axi4_wr_rd_test] [10/10] ADDR=0x331ded16 LEN=4 BURST=AXI4_BURST_INCR
# UVM_INFO ../src/mst/axi4_master_driver.sv(55) @ 2905000: uvm_test_top.env.master_agent.drv [axi4_master_driver] Driving AXI4_WRITE  ID=0x2  ADDR=0x331ded16  LEN=4
# UVM_INFO ../src/mst/axi4_master_driver.sv(94) @ 2905000: uvm_test_top.env.master_agent.drv [axi4_master_driver] Write order: AW || W (parallel)
# UVM_INFO ../src/slv/axi4_slave_driver.sv(165) @ 2935000: uvm_test_top.env.slave_agent.drv [axi4_slave_driver] AW received: ID=0x2 ADDR=0x331ded16 LEN=4 LOCK=AXI4_LOCK_NORMAL
# UVM_INFO ../src/slv/axi4_slave_monitor.sv(116) @ 2935000: uvm_test_top.env.slave_agent.mon [axi4_slave_monitor] AW received: ID=0x2 ADDR=0x331ded16 LEN=4
# UVM_INFO ../src/mst/axi4_master_monitor.sv(124) @ 2935000: uvm_test_top.env.master_agent.mon [axi4_master_monitor] AW observed: ID=0x2 ADDR=0x331ded16 LEN=4
# UVM_INFO ../src/mst/axi4_master_monitor.sv(184) @ 3005000: uvm_test_top.env.master_agent.mon [axi4_master_monitor] W data assembled: ID=0x2 ADDR=0x331ded16 5 beats
# UVM_INFO ../src/slv/axi4_slave_monitor.sv(167) @ 3005000: uvm_test_top.env.slave_agent.mon [axi4_slave_monitor] W data assembled: ID=0x2 ADDR=0x331ded16 5 beats
# UVM_INFO ../src/mst/axi4_master_driver.sv(197) @ 3035000: uvm_test_top.env.master_agent.drv [axi4_master_driver] Write response: AXI4_RESP_OKAY
# UVM_INFO ../src/slv/axi4_slave_driver.sv(261) @ 3035000: uvm_test_top.env.slave_agent.drv [axi4_slave_driver] Write complete: ID=0x2 ADDR=0x331ded16 RESP=AXI4_RESP_OKAY  5 beats processed
# UVM_INFO ../src/slv/axi4_slave_monitor.sv(189) @ 3035000: uvm_test_top.env.slave_agent.mon [axi4_slave_monitor] Write response sent: ID=0x2 ADDR=0x331ded16 RESP=AXI4_RESP_OKAY
# UVM_INFO ../src/env/axi4_scoreboard.sv(103) @ 3035000: uvm_test_top.env.scb [axi4_scoreboard] Slave AXI4_WRITE received: ID=0x2 ADDR=0x331ded16 LEN=4
# UVM_INFO ../src/mst/axi4_master_monitor.sv(210) @ 3035000: uvm_test_top.env.master_agent.mon [axi4_master_monitor] Write complete: ID=0x2 ADDR=0x331ded16 RESP=AXI4_RESP_OKAY
# UVM_INFO ../src/env/axi4_scoreboard.sv(82) @ 3035000: uvm_test_top.env.scb [axi4_scoreboard] Master AXI4_WRITE received: ID=0x2 ADDR=0x331ded16 LEN=4
# UVM_INFO ../src/env/axi4_scoreboard.sv(154) @ 3035000: uvm_test_top.env.scb [axi4_scoreboard] [WRITE] MATCH #19: ID=0x2 ADDR=0x331ded16 LEN=4
# UVM_INFO ../src/seq/axi4_write_read_back_seq.sv(60) @ 3035000: uvm_test_top.env.master_agent.sqr@@wr_rd_seq_9 [axi4_write_read_back_seq] Write phase: ADDR=0x331ded16 LEN=4 SIZE=AXI4_SIZE_4B BURST=AXI4_BURST_INCR
# UVM_INFO ../src/mst/axi4_master_driver.sv(55) @ 3035000: uvm_test_top.env.master_agent.drv [axi4_master_driver] Driving AXI4_READ  ID=0x7  ADDR=0x331ded16  LEN=4
# UVM_INFO ../src/slv/axi4_slave_driver.sv(300) @ 3065000: uvm_test_top.env.slave_agent.drv [axi4_slave_driver] AR received: ID=0x7 ADDR=0x331ded16 LEN=4 LOCK=AXI4_LOCK_EXCLUSIVE
# UVM_INFO ../src/mst/axi4_master_monitor.sv(246) @ 3065000: uvm_test_top.env.master_agent.mon [axi4_master_monitor] AR observed: ID=0x7 ADDR=0x331ded16 LEN=4
# UVM_INFO ../src/slv/axi4_slave_monitor.sv(224) @ 3065000: uvm_test_top.env.slave_agent.mon [axi4_slave_monitor] AR received: ID=0x7 ADDR=0x331ded16 LEN=4
# UVM_INFO ../src/mst/axi4_master_driver.sv(254) @ 3165000: uvm_test_top.env.master_agent.drv [axi4_master_driver] Read complete: 5 beats received
# UVM_INFO ../src/slv/axi4_slave_driver.sv(349) @ 3165000: uvm_test_top.env.slave_agent.drv [axi4_slave_driver] Read complete: ID=0x7 ADDR=0x331ded16 RESP=AXI4_RESP_EXOKAY  5 beats sent
# UVM_INFO ../src/mst/axi4_master_monitor.sv(314) @ 3165000: uvm_test_top.env.master_agent.mon [axi4_master_monitor] Read complete: ID=0x7 ADDR=0x331ded16 5 beats
# UVM_INFO ../src/env/axi4_scoreboard.sv(82) @ 3165000: uvm_test_top.env.scb [axi4_scoreboard] Master AXI4_READ received: ID=0x7 ADDR=0x331ded16 LEN=4
# UVM_INFO ../src/slv/axi4_slave_monitor.sv(287) @ 3165000: uvm_test_top.env.slave_agent.mon [axi4_slave_monitor] Read data sent: ID=0x7 ADDR=0x331ded16 5 beats
# UVM_INFO ../src/env/axi4_scoreboard.sv(103) @ 3165000: uvm_test_top.env.scb [axi4_scoreboard] Slave AXI4_READ received: ID=0x7 ADDR=0x331ded16 LEN=4
# UVM_INFO ../src/env/axi4_scoreboard.sv(154) @ 3165000: uvm_test_top.env.scb [axi4_scoreboard] [READ] MATCH #20: ID=0x7 ADDR=0x331ded16 LEN=4
# UVM_INFO ../src/seq/axi4_write_read_back_seq.sv(80) @ 3165000: uvm_test_top.env.master_agent.sqr@@wr_rd_seq_9 [axi4_write_read_back_seq] Read-back phase: ADDR=0x331ded16 LEN=4 - data integrity check via scoreboard
# UVM_INFO ../src/test/axi4_wr_rd_test.sv(62) @ 3665000: uvm_test_top [axi4_wr_rd_test] 10 write-read-back iterations complete
# UVM_INFO verilog_src/uvm-1.1d/src/base/uvm_objection.svh(1268) @ 3665000: reporter [TEST_DONE] 'run' phase is ready to proceed to the 'extract' phase
# UVM_INFO ../src/env/axi4_scoreboard.sv(218) @ 3665000: uvm_test_top.env.scb [axi4_scoreboard] 
# ========================================
#          SCOREBOARD SUMMARY
# ========================================
#   Master transactions : 20
#   Slave transactions  : 20
#   Matches             : 20
#   Mismatches          : 0
#   Unmatched master WR : 0
#   Unmatched master RD : 0
#   Unmatched slave  WR : 0
#   Unmatched slave  RD : 0
# ========================================
#   RESULT : PASS
# ========================================
# UVM_INFO ../src/test/axi4_base_test.sv(91) @ 3665000: uvm_test_top [axi4_wr_rd_test] 
# === TEST PASSED ===
# 
# 
# --- UVM Report Summary ---
# 
# ** Report counts by severity
# UVM_INFO :  304
# UVM_WARNING :    0
# UVM_ERROR :    0
# UVM_FATAL :    0
# ** Report counts by id
# [Questa UVM]     3
# [RNTST]     1
# [TB_TOP]     2
# [TEST_DONE]     1
# [TOP_TB]     1
# [UVMTOP]     1
# [axi4_master_agent]     1
# [axi4_master_driver]    51
# [axi4_master_monitor]    51
# [axi4_scoreboard]    61
# [axi4_slave_agent]     1
# [axi4_slave_driver]    41
# [axi4_slave_monitor]    51
# [axi4_vip_env]     5
# [axi4_wr_rd_test]    13
# [axi4_write_read_back_seq]    20
# ** Note: $finish    : /cadtools/mentor/Questa_10.6b/questasim/linux_x86_64/../verilog_src/uvm-1.1d/src/base/uvm_root.svh(430)
#    Time: 3665 ns  Iteration: 55  Instance: /tb_top
# Saving coverage database on exit...
# End time: 11:22:39 on Jun 05,2026, Elapsed time: 0:00:43
# Errors: 0, Warnings: 0
