# vsim -c -coverage -sv_seed 48961731 "+UVM_TESTNAME=axi4_cache_prot_test" "+UVM_VERBOSITY=UVM_HIGH" "+DUMP_VCD" -l ./report/logs/axi4_cache_prot_test_run_4_seed_48961731.log -do "coverage save -onexit ./report/coverage/axi4_cache_prot_test_run_4_seed_48961731.ucdb; run -all; quit -f" opt_tb_top 
# Start time: 13:04:33 on Jun 11,2026
# //  Questa Sim-64
# //  Version 10.6b linux_x86_64 May 25 2017
# //
# //  Copyright 1991-2017 Mentor Graphics Corporation
# //  All Rights Reserved.
# //
# //  QuestaSim and its associated documentation contain trade
# //  secrets and commercial or financial information that are the property of
# //  Mentor Graphics Corporation and are privileged, confidential,
# //  and exempt from disclosure under the Freedom of Information Act,
# //  5 U.S.C. Section 552. Furthermore, this information
# //  is prohibited from disclosure under the Trade Secrets Act,
# //  18 U.S.C. Section 1905.
# //
# Loading sv_std.std
# Loading work.axi4_if(fast)
# Loading mtiUvm.uvm_pkg
# Loading work.axi4_pkg(fast)
# Loading work.axi4_test_pkg(fast)
# Loading work.tb_top(fast)
# Loading work.axi4_if(fast)
# Loading work.axi4_sva(fast)
# Loading mtiUvm.questa_uvm_pkg(fast)
# Loading /cadtools/mentor/Questa_10.6b/questasim/uvm-1.1d/linux_x86_64/uvm_dpi.so
# coverage save -onexit ./report/coverage/axi4_cache_prot_test_run_4_seed_48961731.ucdb
#  run -all
# ----------------------------------------------------------------
# UVM-1.1d
# (C) 2007-2013 Mentor Graphics Corporation
# (C) 2007-2013 Cadence Design Systems, Inc.
# (C) 2006-2013 Synopsys, Inc.
# (C) 2011-2013 Cypress Semiconductor Corp.
# ----------------------------------------------------------------
# 
#   ***********       IMPORTANT RELEASE NOTES         ************
# 
#   You are using a version of the UVM library that has been compiled
#   with `UVM_NO_DEPRECATED undefined.
#   See http://www.eda.org/svdb/view.php?id=3313 for more details.
# 
#   You are using a version of the UVM library that has been compiled
#   with `UVM_OBJECT_MUST_HAVE_CONSTRUCTOR undefined.
#   See http://www.eda.org/svdb/view.php?id=3770 for more details.
# 
#       (Specify +UVM_NO_RELNOTES to turn off this notice)
# 
# UVM_INFO verilog_src/questa_uvm_pkg-1.2/src/questa_uvm_pkg.sv(215) @ 0: reporter [Questa UVM] QUESTA_UVM-1.2.3
# UVM_INFO verilog_src/questa_uvm_pkg-1.2/src/questa_uvm_pkg.sv(217) @ 0: reporter [Questa UVM]  questa_uvm::init(+struct)
# UVM_INFO ../src/tb_top.sv(128) @ 0: reporter [TB_TOP] Virtual interface set in config_db
# UVM_INFO @ 0: reporter [RNTST] Running test axi4_cache_prot_test...
# UVM_INFO ../src/tb_top.sv(142) @ 0: reporter [TB_TOP] Waveform VCD dumping enabled (axi4_vip.vcd)
# UVM_INFO ../src/env/axi4_vip_env.sv(83) @ 0: uvm_test_top.env [axi4_vip_env] slave_vif not set - reusing master_vif (passthrough mode)
# UVM_INFO ../src/env/axi4_vip_env.sv(93) @ 0: uvm_test_top.env [axi4_vip_env] Scoreboard created
# UVM_INFO ../src/env/axi4_vip_env.sv(100) @ 0: uvm_test_top.env [axi4_vip_env] Coverage collectors created
# UVM_INFO ../src/mst/axi4_master_agent.sv(69) @ 0: uvm_test_top.env.master_agent [axi4_master_agent] ACTIVE mode - driver + sequencer created
# UVM_INFO ../src/slv/axi4_slave_agent.sv(82) @ 0: uvm_test_top.env.slave_agent [axi4_slave_agent] ACTIVE mode — ready_delay=[0:0] resp_delay=[0:0]
# UVM_INFO ../src/env/axi4_vip_env.sv(116) @ 0: uvm_test_top.env [axi4_vip_env] Scoreboard connected: master_mon.ap -> scb, slave_mon.ap -> scb
# UVM_INFO ../src/env/axi4_vip_env.sv(124) @ 0: uvm_test_top.env [axi4_vip_env] Coverage connected: master_mon.ap -> master_cov, slave_mon.ap -> slave_cov
# UVM_INFO @ 0: reporter [UVMTOP] UVM testbench topology:
# ---------------------------------------------------------------
# Name                       Type                     Size  Value
# ---------------------------------------------------------------
# uvm_test_top               axi4_cache_prot_test     -     @473 
#   env                      axi4_vip_env             -     @488 
#     master_agent           axi4_master_agent        -     @503 
#       drv                  axi4_master_driver       -     @567 
#         rsp_port           uvm_analysis_port        -     @582 
#         seq_item_port      uvm_seq_item_pull_port   -     @574 
#       mon                  axi4_master_monitor      -     @559 
#         ap                 uvm_analysis_port        -     @700 
#       sqr                  axi4_master_sequencer    -     @590 
#         rsp_export         uvm_analysis_export      -     @597 
#         seq_item_export    uvm_seq_item_pull_imp    -     @691 
#         arbitration_queue  array                    0     -    
#         lock_queue         array                    0     -    
#         num_last_reqs      integral                 32    'd1  
#         num_last_rsps      integral                 32    'd1  
#     master_cov             axi4_coverage            -     @524 
#       analysis_imp         uvm_analysis_imp         -     @531 
#     scb                    axi4_scoreboard          -     @517 
#       master_export        uvm_analysis_imp_master  -     @714 
#       slave_export         uvm_analysis_imp_slave   -     @722 
#     slave_agent            axi4_slave_agent         -     @510 
#       drv                  axi4_slave_driver        -     @753 
#         rsp_port           uvm_analysis_port        -     @768 
#         seq_item_port      uvm_seq_item_pull_port   -     @760 
#       mon                  axi4_slave_monitor       -     @735 
#         ap                 uvm_analysis_port        -     @892 
#       sqr                  axi4_slave_sequencer     -     @776 
#         rsp_export         uvm_analysis_export      -     @783 
#         seq_item_export    uvm_seq_item_pull_imp    -     @877 
#         arbitration_queue  array                    0     -    
#         lock_queue         array                    0     -    
#         num_last_reqs      integral                 32    'd1  
#         num_last_rsps      integral                 32    'd1  
#     slave_cov              axi4_coverage            -     @539 
#       analysis_imp         uvm_analysis_imp         -     @546 
# ---------------------------------------------------------------
# 
# UVM_INFO verilog_src/questa_uvm_pkg-1.2/src/questa_uvm_pkg.sv(277) @ 0: reporter [Questa UVM] End Of Elaboration
# UVM_INFO ../src/test/axi4_cache_prot_test.sv(24) @ 0: uvm_test_top [axi4_cache_prot_test] Starting cache and protection attributes sweep test
# UVM_INFO ../src/seq/axi4_cache_prot_seq.sv(22) @ 0: uvm_test_top.env.master_agent.sqr@@cp_seq [axi4_cache_prot_seq] Starting cache and prot attribute sweep sequence
# UVM_INFO ../src/tb_top.sv(49) @ 95000: reporter [TOP_TB] Reset de-asserted
# UVM_INFO ../src/slv/axi4_slave_driver.sv(122) @ 95000: uvm_test_top.env.slave_agent.drv [axi4_slave_driver] Reset deasserted - slave driver active
# UVM_INFO ../src/mst/axi4_master_driver.sv(64) @ 95000: uvm_test_top.env.master_agent.drv [axi4_master_driver] Reset deasserted - master driver active
# UVM_INFO ../src/mst/axi4_master_monitor.sv(77) @ 95000: uvm_test_top.env.master_agent.mon [axi4_master_monitor] Reset deasserted - monitor active
# UVM_INFO ../src/slv/axi4_slave_monitor.sv(71) @ 95000: uvm_test_top.env.slave_agent.mon [axi4_slave_monitor] Reset deasserted - monitor active
# UVM_INFO ../src/mst/axi4_master_driver.sv(73) @ 95000: uvm_test_top.env.master_agent.drv [axi4_master_driver] Driving AXI4_WRITE  ID=0x3  ADDR=0x33af70a1  LEN=199
# UVM_INFO ../src/mst/axi4_master_driver.sv(73) @ 95000: uvm_test_top.env.master_agent.drv [axi4_master_driver] Driving AXI4_READ  ID=0x1  ADDR=0x7c56249c  LEN=70
# UVM_INFO ../src/seq/axi4_cache_prot_seq.sv(57) @ 95000: uvm_test_top.env.master_agent.sqr@@cp_seq [axi4_cache_prot_seq] [1/16] Swept CACHE=0b0000 PROT=0b000 (Write & Read)
# UVM_INFO ../src/mst/axi4_master_driver.sv(73) @ 95000: uvm_test_top.env.master_agent.drv [axi4_master_driver] Driving AXI4_WRITE  ID=0x6  ADDR=0xba96fbb0  LEN=15
# UVM_INFO ../src/mst/axi4_master_driver.sv(73) @ 95000: uvm_test_top.env.master_agent.drv [axi4_master_driver] Driving AXI4_READ  ID=0x1  ADDR=0xdcea40ea  LEN=31
# UVM_INFO ../src/seq/axi4_cache_prot_seq.sv(57) @ 95000: uvm_test_top.env.master_agent.sqr@@cp_seq [axi4_cache_prot_seq] [2/16] Swept CACHE=0b0001 PROT=0b001 (Write & Read)
# UVM_INFO ../src/mst/axi4_master_driver.sv(73) @ 95000: uvm_test_top.env.master_agent.drv [axi4_master_driver] Driving AXI4_WRITE  ID=0x8  ADDR=0x1c8a3e28  LEN=223
# UVM_INFO ../src/mst/axi4_master_driver.sv(73) @ 95000: uvm_test_top.env.master_agent.drv [axi4_master_driver] Driving AXI4_READ  ID=0xb  ADDR=0xae092b5e  LEN=186
# UVM_INFO ../src/seq/axi4_cache_prot_seq.sv(57) @ 95000: uvm_test_top.env.master_agent.sqr@@cp_seq [axi4_cache_prot_seq] [3/16] Swept CACHE=0b0010 PROT=0b010 (Write & Read)
# UVM_INFO ../src/mst/axi4_master_driver.sv(73) @ 95000: uvm_test_top.env.master_agent.drv [axi4_master_driver] Driving AXI4_WRITE  ID=0x5  ADDR=0x12a216e6  LEN=215
# UVM_INFO ../src/mst/axi4_master_driver.sv(73) @ 95000: uvm_test_top.env.master_agent.drv [axi4_master_driver] Driving AXI4_READ  ID=0x5  ADDR=0x5471a128  LEN=162
# UVM_INFO ../src/seq/axi4_cache_prot_seq.sv(57) @ 95000: uvm_test_top.env.master_agent.sqr@@cp_seq [axi4_cache_prot_seq] [4/16] Swept CACHE=0b0011 PROT=0b011 (Write & Read)
# UVM_INFO ../src/mst/axi4_master_driver.sv(73) @ 95000: uvm_test_top.env.master_agent.drv [axi4_master_driver] Driving AXI4_WRITE  ID=0x8  ADDR=0x36111271  LEN=231
# UVM_INFO ../src/mst/axi4_master_driver.sv(73) @ 95000: uvm_test_top.env.master_agent.drv [axi4_master_driver] Driving AXI4_READ  ID=0x8  ADDR=0xc8fde10a  LEN=1
# UVM_INFO ../src/seq/axi4_cache_prot_seq.sv(57) @ 95000: uvm_test_top.env.master_agent.sqr@@cp_seq [axi4_cache_prot_seq] [5/16] Swept CACHE=0b0100 PROT=0b100 (Write & Read)
# UVM_INFO ../src/mst/axi4_master_driver.sv(73) @ 95000: uvm_test_top.env.master_agent.drv [axi4_master_driver] Driving AXI4_WRITE  ID=0x3  ADDR=0x6f9beaf3  LEN=4
# UVM_INFO ../src/mst/axi4_master_driver.sv(73) @ 95000: uvm_test_top.env.master_agent.drv [axi4_master_driver] Driving AXI4_READ  ID=0xb  ADDR=0x50eeb120  LEN=91
# UVM_INFO ../src/seq/axi4_cache_prot_seq.sv(57) @ 95000: uvm_test_top.env.master_agent.sqr@@cp_seq [axi4_cache_prot_seq] [6/16] Swept CACHE=0b0101 PROT=0b101 (Write & Read)
# UVM_INFO ../src/mst/axi4_master_driver.sv(73) @ 95000: uvm_test_top.env.master_agent.drv [axi4_master_driver] Driving AXI4_WRITE  ID=0xc  ADDR=0x96ae6850  LEN=120
# UVM_INFO ../src/mst/axi4_master_driver.sv(73) @ 95000: uvm_test_top.env.master_agent.drv [axi4_master_driver] Driving AXI4_READ  ID=0x0  ADDR=0xc0ea51e4  LEN=7
# UVM_INFO ../src/seq/axi4_cache_prot_seq.sv(57) @ 95000: uvm_test_top.env.master_agent.sqr@@cp_seq [axi4_cache_prot_seq] [7/16] Swept CACHE=0b0110 PROT=0b110 (Write & Read)
# UVM_INFO ../src/mst/axi4_master_driver.sv(73) @ 95000: uvm_test_top.env.master_agent.drv [axi4_master_driver] Driving AXI4_WRITE  ID=0x6  ADDR=0x17e0d355  LEN=233
# UVM_INFO ../src/mst/axi4_master_driver.sv(73) @ 95000: uvm_test_top.env.master_agent.drv [axi4_master_driver] Driving AXI4_READ  ID=0x8  ADDR=0x83ed68e4  LEN=31
# UVM_INFO ../src/seq/axi4_cache_prot_seq.sv(57) @ 95000: uvm_test_top.env.master_agent.sqr@@cp_seq [axi4_cache_prot_seq] [8/16] Swept CACHE=0b0111 PROT=0b111 (Write & Read)
# UVM_INFO ../src/mst/axi4_master_driver.sv(73) @ 95000: uvm_test_top.env.master_agent.drv [axi4_master_driver] Driving AXI4_WRITE  ID=0x8  ADDR=0x66f07e74  LEN=190
# UVM_INFO ../src/mst/axi4_master_driver.sv(73) @ 95000: uvm_test_top.env.master_agent.drv [axi4_master_driver] Driving AXI4_READ  ID=0xa  ADDR=0xdbf2e40f  LEN=27
# UVM_INFO ../src/seq/axi4_cache_prot_seq.sv(57) @ 95000: uvm_test_top.env.master_agent.sqr@@cp_seq [axi4_cache_prot_seq] [9/16] Swept CACHE=0b1000 PROT=0b000 (Write & Read)
# UVM_INFO ../src/mst/axi4_master_driver.sv(73) @ 95000: uvm_test_top.env.master_agent.drv [axi4_master_driver] Driving AXI4_WRITE  ID=0x2  ADDR=0x4892c587  LEN=154
# UVM_INFO ../src/mst/axi4_master_driver.sv(73) @ 95000: uvm_test_top.env.master_agent.drv [axi4_master_driver] Driving AXI4_READ  ID=0x4  ADDR=0xcb494397  LEN=239
# UVM_INFO ../src/seq/axi4_cache_prot_seq.sv(57) @ 95000: uvm_test_top.env.master_agent.sqr@@cp_seq [axi4_cache_prot_seq] [10/16] Swept CACHE=0b1001 PROT=0b001 (Write & Read)
# UVM_INFO ../src/mst/axi4_master_driver.sv(73) @ 95000: uvm_test_top.env.master_agent.drv [axi4_master_driver] Driving AXI4_WRITE  ID=0xc  ADDR=0x671c4272  LEN=135
# UVM_INFO ../src/mst/axi4_master_driver.sv(73) @ 95000: uvm_test_top.env.master_agent.drv [axi4_master_driver] Driving AXI4_READ  ID=0x1  ADDR=0x2c909d5c  LEN=142
# UVM_INFO ../src/seq/axi4_cache_prot_seq.sv(57) @ 95000: uvm_test_top.env.master_agent.sqr@@cp_seq [axi4_cache_prot_seq] [11/16] Swept CACHE=0b1010 PROT=0b010 (Write & Read)
# UVM_INFO ../src/mst/axi4_master_driver.sv(73) @ 95000: uvm_test_top.env.master_agent.drv [axi4_master_driver] Driving AXI4_WRITE  ID=0xc  ADDR=0x9c116e45  LEN=140
# UVM_INFO ../src/mst/axi4_master_driver.sv(73) @ 95000: uvm_test_top.env.master_agent.drv [axi4_master_driver] Driving AXI4_READ  ID=0xf  ADDR=0xc13fb7f3  LEN=222
# UVM_INFO ../src/seq/axi4_cache_prot_seq.sv(57) @ 95000: uvm_test_top.env.master_agent.sqr@@cp_seq [axi4_cache_prot_seq] [12/16] Swept CACHE=0b1011 PROT=0b011 (Write & Read)
# UVM_INFO ../src/mst/axi4_master_driver.sv(73) @ 95000: uvm_test_top.env.master_agent.drv [axi4_master_driver] Driving AXI4_WRITE  ID=0x4  ADDR=0xa7a1bd00  LEN=7
# UVM_INFO ../src/mst/axi4_master_driver.sv(73) @ 95000: uvm_test_top.env.master_agent.drv [axi4_master_driver] Driving AXI4_READ  ID=0xc  ADDR=0xbf7418a5  LEN=112
# UVM_INFO ../src/seq/axi4_cache_prot_seq.sv(57) @ 95000: uvm_test_top.env.master_agent.sqr@@cp_seq [axi4_cache_prot_seq] [13/16] Swept CACHE=0b1100 PROT=0b100 (Write & Read)
# UVM_INFO ../src/mst/axi4_master_driver.sv(73) @ 95000: uvm_test_top.env.master_agent.drv [axi4_master_driver] Driving AXI4_WRITE  ID=0x5  ADDR=0x9a07ff99  LEN=1
# UVM_INFO ../src/mst/axi4_master_driver.sv(73) @ 95000: uvm_test_top.env.master_agent.drv [axi4_master_driver] Driving AXI4_READ  ID=0xb  ADDR=0x7c8e83c7  LEN=98
# UVM_INFO ../src/seq/axi4_cache_prot_seq.sv(57) @ 95000: uvm_test_top.env.master_agent.sqr@@cp_seq [axi4_cache_prot_seq] [14/16] Swept CACHE=0b1101 PROT=0b101 (Write & Read)
# UVM_INFO ../src/mst/axi4_master_driver.sv(73) @ 95000: uvm_test_top.env.master_agent.drv [axi4_master_driver] Driving AXI4_WRITE  ID=0x9  ADDR=0x2f093f43  LEN=187
# UVM_INFO ../src/mst/axi4_master_driver.sv(73) @ 95000: uvm_test_top.env.master_agent.drv [axi4_master_driver] Driving AXI4_READ  ID=0x7  ADDR=0x2367e691  LEN=0
# UVM_INFO ../src/seq/axi4_cache_prot_seq.sv(57) @ 95000: uvm_test_top.env.master_agent.sqr@@cp_seq [axi4_cache_prot_seq] [15/16] Swept CACHE=0b1110 PROT=0b110 (Write & Read)
# UVM_INFO ../src/mst/axi4_master_driver.sv(73) @ 95000: uvm_test_top.env.master_agent.drv [axi4_master_driver] Driving AXI4_WRITE  ID=0x5  ADDR=0xdd889fa7  LEN=114
# UVM_INFO ../src/mst/axi4_master_driver.sv(73) @ 95000: uvm_test_top.env.master_agent.drv [axi4_master_driver] Driving AXI4_READ  ID=0x1  ADDR=0x41c1be5b  LEN=68
# UVM_INFO ../src/seq/axi4_cache_prot_seq.sv(57) @ 95000: uvm_test_top.env.master_agent.sqr@@cp_seq [axi4_cache_prot_seq] [16/16] Swept CACHE=0b1111 PROT=0b111 (Write & Read)
# UVM_INFO ../src/seq/axi4_cache_prot_seq.sv(60) @ 95000: uvm_test_top.env.master_agent.sqr@@cp_seq [axi4_cache_prot_seq] Cache and prot attribute sweep sequence complete
# UVM_INFO ../src/slv/axi4_slave_driver.sv(358) @ 115000: uvm_test_top.env.slave_agent.drv [axi4_slave_driver] AR received: ID=0x1 ADDR=0x7c56249c LEN=70 LOCK=AXI4_LOCK_NORMAL
# UVM_INFO ../src/slv/axi4_slave_driver.sv(212) @ 115000: uvm_test_top.env.slave_agent.drv [axi4_slave_driver] AW received: ID=0x3 ADDR=0x33af70a1 LEN=199 LOCK=AXI4_LOCK_NORMAL
# UVM_INFO ../src/slv/axi4_slave_monitor.sv(224) @ 115000: uvm_test_top.env.slave_agent.mon [axi4_slave_monitor] AR received: ID=0x1 ADDR=0x7c56249c LEN=70
# UVM_INFO ../src/slv/axi4_slave_monitor.sv(116) @ 115000: uvm_test_top.env.slave_agent.mon [axi4_slave_monitor] AW received: ID=0x3 ADDR=0x33af70a1 LEN=199
# UVM_INFO ../src/mst/axi4_master_monitor.sv(246) @ 115000: uvm_test_top.env.master_agent.mon [axi4_master_monitor] AR observed: ID=0x1 ADDR=0x7c56249c LEN=70
# UVM_INFO ../src/mst/axi4_master_monitor.sv(124) @ 115000: uvm_test_top.env.master_agent.mon [axi4_master_monitor] AW observed: ID=0x3 ADDR=0x33af70a1 LEN=199
# UVM_INFO ../src/slv/axi4_slave_driver.sv(212) @ 145000: uvm_test_top.env.slave_agent.drv [axi4_slave_driver] AW received: ID=0x6 ADDR=0xba96fbb0 LEN=15 LOCK=AXI4_LOCK_EXCLUSIVE
# UVM_INFO ../src/slv/axi4_slave_driver.sv(358) @ 145000: uvm_test_top.env.slave_agent.drv [axi4_slave_driver] AR received: ID=0x1 ADDR=0xdcea40ea LEN=31 LOCK=AXI4_LOCK_EXCLUSIVE
# UVM_INFO ../src/mst/axi4_master_monitor.sv(124) @ 145000: uvm_test_top.env.master_agent.mon [axi4_master_monitor] AW observed: ID=0x6 ADDR=0xba96fbb0 LEN=15
# UVM_INFO ../src/mst/axi4_master_monitor.sv(246) @ 145000: uvm_test_top.env.master_agent.mon [axi4_master_monitor] AR observed: ID=0x1 ADDR=0xdcea40ea LEN=31
# UVM_INFO ../src/slv/axi4_slave_monitor.sv(116) @ 145000: uvm_test_top.env.slave_agent.mon [axi4_slave_monitor] AW received: ID=0x6 ADDR=0xba96fbb0 LEN=15
# UVM_INFO ../src/slv/axi4_slave_monitor.sv(224) @ 145000: uvm_test_top.env.slave_agent.mon [axi4_slave_monitor] AR received: ID=0x1 ADDR=0xdcea40ea LEN=31
# UVM_INFO ../src/slv/axi4_slave_driver.sv(358) @ 175000: uvm_test_top.env.slave_agent.drv [axi4_slave_driver] AR received: ID=0xb ADDR=0xae092b5e LEN=186 LOCK=AXI4_LOCK_EXCLUSIVE
# UVM_INFO ../src/slv/axi4_slave_driver.sv(212) @ 175000: uvm_test_top.env.slave_agent.drv [axi4_slave_driver] AW received: ID=0x8 ADDR=0x1c8a3e28 LEN=223 LOCK=AXI4_LOCK_NORMAL
# UVM_INFO ../src/slv/axi4_slave_monitor.sv(224) @ 175000: uvm_test_top.env.slave_agent.mon [axi4_slave_monitor] AR received: ID=0xb ADDR=0xae092b5e LEN=186
# UVM_INFO ../src/slv/axi4_slave_monitor.sv(116) @ 175000: uvm_test_top.env.slave_agent.mon [axi4_slave_monitor] AW received: ID=0x8 ADDR=0x1c8a3e28 LEN=223
# UVM_INFO ../src/mst/axi4_master_monitor.sv(246) @ 175000: uvm_test_top.env.master_agent.mon [axi4_master_monitor] AR observed: ID=0xb ADDR=0xae092b5e LEN=186
# UVM_INFO ../src/mst/axi4_master_monitor.sv(124) @ 175000: uvm_test_top.env.master_agent.mon [axi4_master_monitor] AW observed: ID=0x8 ADDR=0x1c8a3e28 LEN=223
# UVM_INFO ../src/slv/axi4_slave_driver.sv(212) @ 205000: uvm_test_top.env.slave_agent.drv [axi4_slave_driver] AW received: ID=0x5 ADDR=0x12a216e6 LEN=215 LOCK=AXI4_LOCK_NORMAL
# UVM_INFO ../src/slv/axi4_slave_driver.sv(358) @ 205000: uvm_test_top.env.slave_agent.drv [axi4_slave_driver] AR received: ID=0x5 ADDR=0x5471a128 LEN=162 LOCK=AXI4_LOCK_EXCLUSIVE
# UVM_INFO ../src/mst/axi4_master_monitor.sv(124) @ 205000: uvm_test_top.env.master_agent.mon [axi4_master_monitor] AW observed: ID=0x5 ADDR=0x12a216e6 LEN=215
# UVM_INFO ../src/mst/axi4_master_monitor.sv(246) @ 205000: uvm_test_top.env.master_agent.mon [axi4_master_monitor] AR observed: ID=0x5 ADDR=0x5471a128 LEN=162
# UVM_INFO ../src/slv/axi4_slave_monitor.sv(116) @ 205000: uvm_test_top.env.slave_agent.mon [axi4_slave_monitor] AW received: ID=0x5 ADDR=0x12a216e6 LEN=215
# UVM_INFO ../src/slv/axi4_slave_monitor.sv(224) @ 205000: uvm_test_top.env.slave_agent.mon [axi4_slave_monitor] AR received: ID=0x5 ADDR=0x5471a128 LEN=162
# UVM_INFO ../src/slv/axi4_slave_driver.sv(358) @ 235000: uvm_test_top.env.slave_agent.drv [axi4_slave_driver] AR received: ID=0x8 ADDR=0xc8fde10a LEN=1 LOCK=AXI4_LOCK_EXCLUSIVE
# UVM_INFO ../src/slv/axi4_slave_monitor.sv(224) @ 235000: uvm_test_top.env.slave_agent.mon [axi4_slave_monitor] AR received: ID=0x8 ADDR=0xc8fde10a LEN=1
# UVM_INFO ../src/mst/axi4_master_monitor.sv(246) @ 235000: uvm_test_top.env.master_agent.mon [axi4_master_monitor] AR observed: ID=0x8 ADDR=0xc8fde10a LEN=1
# UVM_INFO ../src/slv/axi4_slave_driver.sv(358) @ 265000: uvm_test_top.env.slave_agent.drv [axi4_slave_driver] AR received: ID=0xb ADDR=0x50eeb120 LEN=91 LOCK=AXI4_LOCK_EXCLUSIVE
# UVM_INFO ../src/mst/axi4_master_monitor.sv(246) @ 265000: uvm_test_top.env.master_agent.mon [axi4_master_monitor] AR observed: ID=0xb ADDR=0x50eeb120 LEN=91
# UVM_INFO ../src/slv/axi4_slave_monitor.sv(224) @ 265000: uvm_test_top.env.slave_agent.mon [axi4_slave_monitor] AR received: ID=0xb ADDR=0x50eeb120 LEN=91
# UVM_INFO ../src/slv/axi4_slave_driver.sv(358) @ 295000: uvm_test_top.env.slave_agent.drv [axi4_slave_driver] AR received: ID=0x0 ADDR=0xc0ea51e4 LEN=7 LOCK=AXI4_LOCK_NORMAL
# UVM_INFO ../src/slv/axi4_slave_monitor.sv(224) @ 295000: uvm_test_top.env.slave_agent.mon [axi4_slave_monitor] AR received: ID=0x0 ADDR=0xc0ea51e4 LEN=7
# UVM_INFO ../src/mst/axi4_master_monitor.sv(246) @ 295000: uvm_test_top.env.master_agent.mon [axi4_master_monitor] AR observed: ID=0x0 ADDR=0xc0ea51e4 LEN=7
# UVM_INFO ../src/slv/axi4_slave_driver.sv(358) @ 325000: uvm_test_top.env.slave_agent.drv [axi4_slave_driver] AR received: ID=0x8 ADDR=0x83ed68e4 LEN=31 LOCK=AXI4_LOCK_NORMAL
# UVM_INFO ../src/mst/axi4_master_monitor.sv(246) @ 325000: uvm_test_top.env.master_agent.mon [axi4_master_monitor] AR observed: ID=0x8 ADDR=0x83ed68e4 LEN=31
# UVM_INFO ../src/slv/axi4_slave_monitor.sv(224) @ 325000: uvm_test_top.env.slave_agent.mon [axi4_slave_monitor] AR received: ID=0x8 ADDR=0x83ed68e4 LEN=31
# UVM_INFO ../src/slv/axi4_slave_driver.sv(358) @ 355000: uvm_test_top.env.slave_agent.drv [axi4_slave_driver] AR received: ID=0xa ADDR=0xdbf2e40f LEN=27 LOCK=AXI4_LOCK_NORMAL
# UVM_INFO ../src/slv/axi4_slave_monitor.sv(224) @ 355000: uvm_test_top.env.slave_agent.mon [axi4_slave_monitor] AR received: ID=0xa ADDR=0xdbf2e40f LEN=27
# UVM_INFO ../src/mst/axi4_master_monitor.sv(246) @ 355000: uvm_test_top.env.master_agent.mon [axi4_master_monitor] AR observed: ID=0xa ADDR=0xdbf2e40f LEN=27
# UVM_INFO ../src/slv/axi4_slave_driver.sv(358) @ 385000: uvm_test_top.env.slave_agent.drv [axi4_slave_driver] AR received: ID=0x4 ADDR=0xcb494397 LEN=239 LOCK=AXI4_LOCK_EXCLUSIVE
# UVM_INFO ../src/mst/axi4_master_monitor.sv(246) @ 385000: uvm_test_top.env.master_agent.mon [axi4_master_monitor] AR observed: ID=0x4 ADDR=0xcb494397 LEN=239
# UVM_INFO ../src/slv/axi4_slave_monitor.sv(224) @ 385000: uvm_test_top.env.slave_agent.mon [axi4_slave_monitor] AR received: ID=0x4 ADDR=0xcb494397 LEN=239
# UVM_INFO ../src/slv/axi4_slave_driver.sv(358) @ 415000: uvm_test_top.env.slave_agent.drv [axi4_slave_driver] AR received: ID=0x1 ADDR=0x2c909d5c LEN=142 LOCK=AXI4_LOCK_EXCLUSIVE
# UVM_INFO ../src/slv/axi4_slave_monitor.sv(224) @ 415000: uvm_test_top.env.slave_agent.mon [axi4_slave_monitor] AR received: ID=0x1 ADDR=0x2c909d5c LEN=142
# UVM_INFO ../src/mst/axi4_master_monitor.sv(246) @ 415000: uvm_test_top.env.master_agent.mon [axi4_master_monitor] AR observed: ID=0x1 ADDR=0x2c909d5c LEN=142
# UVM_INFO ../src/slv/axi4_slave_driver.sv(358) @ 445000: uvm_test_top.env.slave_agent.drv [axi4_slave_driver] AR received: ID=0xf ADDR=0xc13fb7f3 LEN=222 LOCK=AXI4_LOCK_NORMAL
# UVM_INFO ../src/mst/axi4_master_monitor.sv(246) @ 445000: uvm_test_top.env.master_agent.mon [axi4_master_monitor] AR observed: ID=0xf ADDR=0xc13fb7f3 LEN=222
# UVM_INFO ../src/slv/axi4_slave_monitor.sv(224) @ 445000: uvm_test_top.env.slave_agent.mon [axi4_slave_monitor] AR received: ID=0xf ADDR=0xc13fb7f3 LEN=222
# UVM_INFO ../src/slv/axi4_slave_driver.sv(358) @ 475000: uvm_test_top.env.slave_agent.drv [axi4_slave_driver] AR received: ID=0xc ADDR=0xbf7418a5 LEN=112 LOCK=AXI4_LOCK_EXCLUSIVE
# UVM_INFO ../src/slv/axi4_slave_monitor.sv(224) @ 475000: uvm_test_top.env.slave_agent.mon [axi4_slave_monitor] AR received: ID=0xc ADDR=0xbf7418a5 LEN=112
# UVM_INFO ../src/mst/axi4_master_monitor.sv(246) @ 475000: uvm_test_top.env.master_agent.mon [axi4_master_monitor] AR observed: ID=0xc ADDR=0xbf7418a5 LEN=112
# UVM_INFO ../src/slv/axi4_slave_driver.sv(358) @ 505000: uvm_test_top.env.slave_agent.drv [axi4_slave_driver] AR received: ID=0xb ADDR=0x7c8e83c7 LEN=98 LOCK=AXI4_LOCK_EXCLUSIVE
# UVM_INFO ../src/mst/axi4_master_monitor.sv(246) @ 505000: uvm_test_top.env.master_agent.mon [axi4_master_monitor] AR observed: ID=0xb ADDR=0x7c8e83c7 LEN=98
# UVM_INFO ../src/slv/axi4_slave_monitor.sv(224) @ 505000: uvm_test_top.env.slave_agent.mon [axi4_slave_monitor] AR received: ID=0xb ADDR=0x7c8e83c7 LEN=98
# UVM_INFO ../src/slv/axi4_slave_driver.sv(358) @ 535000: uvm_test_top.env.slave_agent.drv [axi4_slave_driver] AR received: ID=0x7 ADDR=0x2367e691 LEN=0 LOCK=AXI4_LOCK_EXCLUSIVE
# UVM_INFO ../src/slv/axi4_slave_monitor.sv(224) @ 535000: uvm_test_top.env.slave_agent.mon [axi4_slave_monitor] AR received: ID=0x7 ADDR=0x2367e691 LEN=0
# UVM_INFO ../src/mst/axi4_master_monitor.sv(246) @ 535000: uvm_test_top.env.master_agent.mon [axi4_master_monitor] AR observed: ID=0x7 ADDR=0x2367e691 LEN=0
# UVM_INFO ../src/slv/axi4_slave_driver.sv(358) @ 565000: uvm_test_top.env.slave_agent.drv [axi4_slave_driver] AR received: ID=0x1 ADDR=0x41c1be5b LEN=68 LOCK=AXI4_LOCK_EXCLUSIVE
# UVM_INFO ../src/mst/axi4_master_monitor.sv(246) @ 565000: uvm_test_top.env.master_agent.mon [axi4_master_monitor] AR observed: ID=0x1 ADDR=0x41c1be5b LEN=68
# UVM_INFO ../src/slv/axi4_slave_monitor.sv(224) @ 565000: uvm_test_top.env.slave_agent.mon [axi4_slave_monitor] AR received: ID=0x1 ADDR=0x41c1be5b LEN=68
# UVM_INFO ../src/test/axi4_cache_prot_test.sv(32) @ 1095000: uvm_test_top [axi4_cache_prot_test] Cache and protection sweep test complete
# UVM_INFO ../src/mst/axi4_master_driver.sv(348) @ 1535000: uvm_test_top.env.master_agent.drv [axi4_master_driver] Master driver received all R beats for ID=0x1
# UVM_INFO ../src/slv/axi4_slave_driver.sv(464) @ 1535000: uvm_test_top.env.slave_agent.drv [axi4_slave_driver] Read complete: ID=0x1 ADDR=0x7c56249c RESP=AXI4_RESP_OKAY  71 beats sent
# UVM_INFO ../src/slv/axi4_slave_monitor.sv(287) @ 1535000: uvm_test_top.env.slave_agent.mon [axi4_slave_monitor] Read data sent: ID=0x1 ADDR=0x7c56249c 71 beats
# UVM_INFO ../src/env/axi4_scoreboard.sv(108) @ 1535000: uvm_test_top.env.scb [axi4_scoreboard] Slave AXI4_READ received: ID=0x1 ADDR=0x7c56249c LEN=70
# UVM_INFO ../src/mst/axi4_master_monitor.sv(314) @ 1535000: uvm_test_top.env.master_agent.mon [axi4_master_monitor] Read complete: ID=0x1 ADDR=0x7c56249c 71 beats
# UVM_INFO ../src/env/axi4_scoreboard.sv(87) @ 1535000: uvm_test_top.env.scb [axi4_scoreboard] Master AXI4_READ received: ID=0x1 ADDR=0x7c56249c LEN=70
# UVM_INFO ../src/env/axi4_scoreboard.sv(291) @ 1535000: uvm_test_top.env.scb [axi4_scoreboard] [READ] MATCH #1: ID=0x1 ADDR=0x7c56249c LEN=70
# UVM_INFO ../src/slv/axi4_slave_monitor.sv(167) @ 4115000: uvm_test_top.env.slave_agent.mon [axi4_slave_monitor] W data assembled: ID=0x3 ADDR=0x33af70a1 200 beats
# UVM_INFO ../src/mst/axi4_master_monitor.sv(184) @ 4115000: uvm_test_top.env.master_agent.mon [axi4_master_monitor] W data assembled: ID=0x3 ADDR=0x33af70a1 200 beats
# UVM_INFO ../src/mst/axi4_master_driver.sv(289) @ 4145000: uvm_test_top.env.master_agent.drv [axi4_master_driver] Master driver received B response: ID=0x3 RESP=AXI4_RESP_OKAY
# UVM_INFO ../src/slv/axi4_slave_driver.sv(320) @ 4145000: uvm_test_top.env.slave_agent.drv [axi4_slave_driver] Write complete: ID=0x3 RESP=AXI4_RESP_OKAY
# UVM_INFO ../src/mst/axi4_master_monitor.sv(210) @ 4145000: uvm_test_top.env.master_agent.mon [axi4_master_monitor] Write complete: ID=0x3 ADDR=0x33af70a1 RESP=AXI4_RESP_OKAY
# UVM_INFO ../src/env/axi4_scoreboard.sv(87) @ 4145000: uvm_test_top.env.scb [axi4_scoreboard] Master AXI4_WRITE received: ID=0x3 ADDR=0x33af70a1 LEN=199
# UVM_INFO ../src/slv/axi4_slave_monitor.sv(189) @ 4145000: uvm_test_top.env.slave_agent.mon [axi4_slave_monitor] Write response sent: ID=0x3 ADDR=0x33af70a1 RESP=AXI4_RESP_OKAY
# UVM_INFO ../src/env/axi4_scoreboard.sv(108) @ 4145000: uvm_test_top.env.scb [axi4_scoreboard] Slave AXI4_WRITE received: ID=0x3 ADDR=0x33af70a1 LEN=199
# UVM_INFO ../src/env/axi4_scoreboard.sv(291) @ 4145000: uvm_test_top.env.scb [axi4_scoreboard] [WRITE] MATCH #2: ID=0x3 ADDR=0x33af70a1 LEN=199
# UVM_INFO ../src/env/axi4_scoreboard.sv(219) @ 4145000: uvm_test_top.env.scb [axi4_scoreboard] [REF_MEM_WRITE] Addr=0x33af70a1 Data=0x22
# UVM_INFO ../src/env/axi4_scoreboard.sv(219) @ 4145000: uvm_test_top.env.scb [axi4_scoreboard] [REF_MEM_WRITE] Addr=0x33af70a2 Data=0xa5
# UVM_INFO ../src/env/axi4_scoreboard.sv(219) @ 4145000: uvm_test_top.env.scb [axi4_scoreboard] [REF_MEM_WRITE] Addr=0x33af70a3 Data=0xb1
# UVM_INFO ../src/env/axi4_scoreboard.sv(219) @ 4145000: uvm_test_top.env.scb [axi4_scoreboard] [REF_MEM_WRITE] Addr=0x33af70a2 Data=0x4d
# UVM_INFO ../src/env/axi4_scoreboard.sv(219) @ 4145000: uvm_test_top.env.scb [axi4_scoreboard] [REF_MEM_WRITE] Addr=0x33af70a5 Data=0xa1
# UVM_INFO ../src/env/axi4_scoreboard.sv(219) @ 4145000: uvm_test_top.env.scb [axi4_scoreboard] [REF_MEM_WRITE] Addr=0x33af70a7 Data=0xab
# UVM_INFO ../src/env/axi4_scoreboard.sv(219) @ 4145000: uvm_test_top.env.scb [axi4_scoreboard] [REF_MEM_WRITE] Addr=0x33af70a9 Data=0x24
# UVM_INFO ../src/env/axi4_scoreboard.sv(219) @ 4145000: uvm_test_top.env.scb [axi4_scoreboard] [REF_MEM_WRITE] Addr=0x33af70ab Data=0x5d
# UVM_INFO ../src/env/axi4_scoreboard.sv(219) @ 4145000: uvm_test_top.env.scb [axi4_scoreboard] [REF_MEM_WRITE] Addr=0x33af70a8 Data=0xf7
# UVM_INFO ../src/env/axi4_scoreboard.sv(219) @ 4145000: uvm_test_top.env.scb [axi4_scoreboard] [REF_MEM_WRITE] Addr=0x33af70ab Data=0xf8
# UVM_INFO ../src/env/axi4_scoreboard.sv(219) @ 4145000: uvm_test_top.env.scb [axi4_scoreboard] [REF_MEM_WRITE] Addr=0x33af70ad Data=0x40
# UVM_INFO ../src/env/axi4_scoreboard.sv(219) @ 4145000: uvm_test_top.env.scb [axi4_scoreboard] [REF_MEM_WRITE] Addr=0x33af70af Data=0x65
# UVM_INFO ../src/env/axi4_scoreboard.sv(219) @ 4145000: uvm_test_top.env.scb [axi4_scoreboard] [REF_MEM_WRITE] Addr=0x33af70b0 Data=0x9c
# UVM_INFO ../src/env/axi4_scoreboard.sv(219) @ 4145000: uvm_test_top.env.scb [axi4_scoreboard] [REF_MEM_WRITE] Addr=0x33af70b3 Data=0x12
# UVM_INFO ../src/env/axi4_scoreboard.sv(219) @ 4145000: uvm_test_top.env.scb [axi4_scoreboard] [REF_MEM_WRITE] Addr=0x33af70b1 Data=0xa3
# UVM_INFO ../src/env/axi4_scoreboard.sv(219) @ 4145000: uvm_test_top.env.scb [axi4_scoreboard] [REF_MEM_WRITE] Addr=0x33af70b2 Data=0xc7
# UVM_INFO ../src/env/axi4_scoreboard.sv(219) @ 4145000: uvm_test_top.env.scb [axi4_scoreboard] [REF_MEM_WRITE] Addr=0x33af70b3 Data=0xa5
# UVM_INFO ../src/env/axi4_scoreboard.sv(219) @ 4145000: uvm_test_top.env.scb [axi4_scoreboard] [REF_MEM_WRITE] Addr=0x33af70b7 Data=0x5e
# UVM_INFO ../src/env/axi4_scoreboard.sv(219) @ 4145000: uvm_test_top.env.scb [axi4_scoreboard] [REF_MEM_WRITE] Addr=0x33af70b4 Data=0x5b
# UVM_INFO ../src/env/axi4_scoreboard.sv(219) @ 4145000: uvm_test_top.env.scb [axi4_scoreboard] [REF_MEM_WRITE] Addr=0x33af70b6 Data=0x19
# UVM_INFO ../src/env/axi4_scoreboard.sv(219) @ 4145000: uvm_test_top.env.scb [axi4_scoreboard] [REF_MEM_WRITE] Addr=0x33af70b7 Data=0x28
# UVM_INFO ../src/env/axi4_scoreboard.sv(219) @ 4145000: uvm_test_top.env.scb [axi4_scoreboard] [REF_MEM_WRITE] Addr=0x33af70b8 Data=0xe6
# UVM_INFO ../src/env/axi4_scoreboard.sv(219) @ 4145000: uvm_test_top.env.scb [axi4_scoreboard] [REF_MEM_WRITE] Addr=0x33af70b9 Data=0xe0
# UVM_INFO ../src/env/axi4_scoreboard.sv(219) @ 4145000: uvm_test_top.env.scb [axi4_scoreboard] [REF_MEM_WRITE] Addr=0x33af70b8 Data=0x48
# UVM_INFO ../src/env/axi4_scoreboard.sv(219) @ 4145000: uvm_test_top.env.scb [axi4_scoreboard] [REF_MEM_WRITE] Addr=0x33af70bb Data=0x4e
# UVM_INFO ../src/env/axi4_scoreboard.sv(219) @ 4145000: uvm_test_top.env.scb [axi4_scoreboard] [REF_MEM_WRITE] Addr=0x33af70bd Data=0x37
# UVM_INFO ../src/env/axi4_scoreboard.sv(219) @ 4145000: uvm_test_top.env.scb [axi4_scoreboard] [REF_MEM_WRITE] Addr=0x33af70be Data=0x9a
# UVM_INFO ../src/env/axi4_scoreboard.sv(219) @ 4145000: uvm_test_top.env.scb [axi4_scoreboard] [REF_MEM_WRITE] Addr=0x33af70bf Data=0x1b
# UVM_INFO ../src/env/axi4_scoreboard.sv(219) @ 4145000: uvm_test_top.env.scb [axi4_scoreboard] [REF_MEM_WRITE] Addr=0x33af70be Data=0xe2
# UVM_INFO ../src/env/axi4_scoreboard.sv(219) @ 4145000: uvm_test_top.env.scb [axi4_scoreboard] [REF_MEM_WRITE] Addr=0x33af70c0 Data=0x4e
# UVM_INFO ../src/env/axi4_scoreboard.sv(219) @ 4145000: uvm_test_top.env.scb [axi4_scoreboard] [REF_MEM_WRITE] Addr=0x33af70c5 Data=0xa2
# UVM_INFO ../src/env/axi4_scoreboard.sv(219) @ 4145000: uvm_test_top.env.scb [axi4_scoreboard] [REF_MEM_WRITE] Addr=0x33af70c6 Data=0x8d
# UVM_INFO ../src/env/axi4_scoreboard.sv(219) @ 4145000: uvm_test_top.env.scb [axi4_scoreboard] [REF_MEM_WRITE] Addr=0x33af70c7 Data=0x15
# UVM_INFO ../src/env/axi4_scoreboard.sv(219) @ 4145000: uvm_test_top.env.scb [axi4_scoreboard] [REF_MEM_WRITE] Addr=0x33af70c4 Data=0x4f
# UVM_INFO ../src/env/axi4_scoreboard.sv(219) @ 4145000: uvm_test_top.env.scb [axi4_scoreboard] [REF_MEM_WRITE] Addr=0x33af70c8 Data=0x82
# UVM_INFO ../src/env/axi4_scoreboard.sv(219) @ 4145000: uvm_test_top.env.scb [axi4_scoreboard] [REF_MEM_WRITE] Addr=0x33af70c9 Data=0x27
# UVM_INFO ../src/env/axi4_scoreboard.sv(219) @ 4145000: uvm_test_top.env.scb [axi4_scoreboard] [REF_MEM_WRITE] Addr=0x33af70ca Data=0xb8
# UVM_INFO ../src/env/axi4_scoreboard.sv(219) @ 4145000: uvm_test_top.env.scb [axi4_scoreboard] [REF_MEM_WRITE] Addr=0x33af70cb Data=0x97
# UVM_INFO ../src/env/axi4_scoreboard.sv(219) @ 4145000: uvm_test_top.env.scb [axi4_scoreboard] [REF_MEM_WRITE] Addr=0x33af70c8 Data=0x77
# UVM_INFO ../src/env/axi4_scoreboard.sv(219) @ 4145000: uvm_test_top.env.scb [axi4_scoreboard] [REF_MEM_WRITE] Addr=0x33af70ca Data=0x6b
# UVM_INFO ../src/env/axi4_scoreboard.sv(219) @ 4145000: uvm_test_top.env.scb [axi4_scoreboard] [REF_MEM_WRITE] Addr=0x33af70cb Data=0xbe
# UVM_INFO ../src/env/axi4_scoreboard.sv(219) @ 4145000: uvm_test_top.env.scb [axi4_scoreboard] [REF_MEM_WRITE] Addr=0x33af70cf Data=0x5d
# UVM_INFO ../src/env/axi4_scoreboard.sv(219) @ 4145000: uvm_test_top.env.scb [axi4_scoreboard] [REF_MEM_WRITE] Addr=0x33af70cc Data=0x08
# UVM_INFO ../src/env/axi4_scoreboard.sv(219) @ 4145000: uvm_test_top.env.scb [axi4_scoreboard] [REF_MEM_WRITE] Addr=0x33af70cd Data=0x2f
# UVM_INFO ../src/env/axi4_scoreboard.sv(219) @ 4145000: uvm_test_top.env.scb [axi4_scoreboard] [REF_MEM_WRITE] Addr=0x33af70d1 Data=0x00
# UVM_INFO ../src/env/axi4_scoreboard.sv(219) @ 4145000: uvm_test_top.env.scb [axi4_scoreboard] [REF_MEM_WRITE] Addr=0x33af70d3 Data=0xea
# UVM_INFO ../src/env/axi4_scoreboard.sv(219) @ 4145000: uvm_test_top.env.scb [axi4_scoreboard] [REF_MEM_WRITE] Addr=0x33af70d0 Data=0x26
# UVM_INFO ../src/env/axi4_scoreboard.sv(219) @ 4145000: uvm_test_top.env.scb [axi4_scoreboard] [REF_MEM_WRITE] Addr=0x33af70d5 Data=0x55
# UVM_INFO ../src/env/axi4_scoreboard.sv(219) @ 4145000: uvm_test_top.env.scb [axi4_scoreboard] [REF_MEM_WRITE] Addr=0x33af70d6 Data=0x58
# UVM_INFO ../src/env/axi4_scoreboard.sv(219) @ 4145000: uvm_test_top.env.scb [axi4_scoreboard] [REF_MEM_WRITE] Addr=0x33af70d4 Data=0x5f
# UVM_INFO ../src/env/axi4_scoreboard.sv(219) @ 4145000: uvm_test_top.env.scb [axi4_scoreboard] [REF_MEM_WRITE] Addr=0x33af70d5 Data=0xbf
# UVM_INFO ../src/env/axi4_scoreboard.sv(219) @ 4145000: uvm_test_top.env.scb [axi4_scoreboard] [REF_MEM_WRITE] Addr=0x33af70d8 Data=0xda
# UVM_INFO ../src/env/axi4_scoreboard.sv(219) @ 4145000: uvm_test_top.env.scb [axi4_scoreboard] [REF_MEM_WRITE] Addr=0x33af70d9 Data=0x38
# UVM_INFO ../src/env/axi4_scoreboard.sv(219) @ 4145000: uvm_test_top.env.scb [axi4_scoreboard] [REF_MEM_WRITE] Addr=0x33af70d8 Data=0xf4
# UVM_INFO ../src/env/axi4_scoreboard.sv(219) @ 4145000: uvm_test_top.env.scb [axi4_scoreboard] [REF_MEM_WRITE] Addr=0x33af70da Data=0x38
# UVM_INFO ../src/env/axi4_scoreboard.sv(219) @ 4145000: uvm_test_top.env.scb [axi4_scoreboard] [REF_MEM_WRITE] Addr=0x33af70dc Data=0xfb
# UVM_INFO ../src/env/axi4_scoreboard.sv(219) @ 4145000: uvm_test_top.env.scb [axi4_scoreboard] [REF_MEM_WRITE] Addr=0x33af70dd Data=0x0c
# UVM_INFO ../src/env/axi4_scoreboard.sv(219) @ 4145000: uvm_test_top.env.scb [axi4_scoreboard] [REF_MEM_WRITE] Addr=0x33af70df Data=0x1c
# UVM_INFO ../src/env/axi4_scoreboard.sv(219) @ 4145000: uvm_test_top.env.scb [axi4_scoreboard] [REF_MEM_WRITE] Addr=0x33af70dd Data=0x73
# UVM_INFO ../src/env/axi4_scoreboard.sv(219) @ 4145000: uvm_test_top.env.scb [axi4_scoreboard] [REF_MEM_WRITE] Addr=0x33af70de Data=0xb2
# UVM_INFO ../src/env/axi4_scoreboard.sv(219) @ 4145000: uvm_test_top.env.scb [axi4_scoreboard] [REF_MEM_WRITE] Addr=0x33af70e1 Data=0x60
# UVM_INFO ../src/env/axi4_scoreboard.sv(219) @ 4145000: uvm_test_top.env.scb [axi4_scoreboard] [REF_MEM_WRITE] Addr=0x33af70e2 Data=0xbd
# UVM_INFO ../src/env/axi4_scoreboard.sv(219) @ 4145000: uvm_test_top.env.scb [axi4_scoreboard] [REF_MEM_WRITE] Addr=0x33af70e3 Data=0xe5
# UVM_INFO ../src/env/axi4_scoreboard.sv(219) @ 4145000: uvm_test_top.env.scb [axi4_scoreboard] [REF_MEM_WRITE] Addr=0x33af70e0 Data=0x29
# UVM_INFO ../src/env/axi4_scoreboard.sv(219) @ 4145000: uvm_test_top.env.scb [axi4_scoreboard] [REF_MEM_WRITE] Addr=0x33af70e1 Data=0xbb
# UVM_INFO ../src/env/axi4_scoreboard.sv(219) @ 4145000: uvm_test_top.env.scb [axi4_scoreboard] [REF_MEM_WRITE] Addr=0x33af70e2 Data=0x54
# UVM_INFO ../src/env/axi4_scoreboard.sv(219) @ 4145000: uvm_test_top.env.scb [axi4_scoreboard] [REF_MEM_WRITE] Addr=0x33af70e4 Data=0x94
# UVM_INFO ../src/env/axi4_scoreboard.sv(219) @ 4145000: uvm_test_top.env.scb [axi4_scoreboard] [REF_MEM_WRITE] Addr=0x33af70e5 Data=0xd4
# UVM_INFO ../src/env/axi4_scoreboard.sv(219) @ 4145000: uvm_test_top.env.scb [axi4_scoreboard] [REF_MEM_WRITE] Addr=0x33af70e7 Data=0xad
# UVM_INFO ../src/env/axi4_scoreboard.sv(219) @ 4145000: uvm_test_top.env.scb [axi4_scoreboard] [REF_MEM_WRITE] Addr=0x33af70e4 Data=0x63
# UVM_INFO ../src/env/axi4_scoreboard.sv(219) @ 4145000: uvm_test_top.env.scb [axi4_scoreboard] [REF_MEM_WRITE] Addr=0x33af70e6 Data=0xaa
# UVM_INFO ../src/env/axi4_scoreboard.sv(219) @ 4145000: uvm_test_top.env.scb [axi4_scoreboard] [REF_MEM_WRITE] Addr=0x33af70e8 Data=0x95
# UVM_INFO ../src/env/axi4_scoreboard.sv(219) @ 4145000: uvm_test_top.env.scb [axi4_scoreboard] [REF_MEM_WRITE] Addr=0x33af70e9 Data=0xf1
# UVM_INFO ../src/env/axi4_scoreboard.sv(219) @ 4145000: uvm_test_top.env.scb [axi4_scoreboard] [REF_MEM_WRITE] Addr=0x33af70e8 Data=0x4d
# UVM_INFO ../src/env/axi4_scoreboard.sv(219) @ 4145000: uvm_test_top.env.scb [axi4_scoreboard] [REF_MEM_WRITE] Addr=0x33af70ea Data=0x94
# UVM_INFO ../src/env/axi4_scoreboard.sv(219) @ 4145000: uvm_test_top.env.scb [axi4_scoreboard] [REF_MEM_WRITE] Addr=0x33af70eb Data=0x39
# UVM_INFO ../src/env/axi4_scoreboard.sv(219) @ 4145000: uvm_test_top.env.scb [axi4_scoreboard] [REF_MEM_WRITE] Addr=0x33af70ed Data=0x2c
# UVM_INFO ../src/env/axi4_scoreboard.sv(219) @ 4145000: uvm_test_top.env.scb [axi4_scoreboard] [REF_MEM_WRITE] Addr=0x33af70ed Data=0x24
# UVM_INFO ../src/env/axi4_scoreboard.sv(219) @ 4145000: uvm_test_top.env.scb [axi4_scoreboard] [REF_MEM_WRITE] Addr=0x33af70ee Data=0x4a
# UVM_INFO ../src/env/axi4_scoreboard.sv(219) @ 4145000: uvm_test_top.env.scb [axi4_scoreboard] [REF_MEM_WRITE] Addr=0x33af70ef Data=0x9e
# UVM_INFO ../src/env/axi4_scoreboard.sv(219) @ 4145000: uvm_test_top.env.scb [axi4_scoreboard] [REF_MEM_WRITE] Addr=0x33af70f1 Data=0xc9
# UVM_INFO ../src/env/axi4_scoreboard.sv(219) @ 4145000: uvm_test_top.env.scb [axi4_scoreboard] [REF_MEM_WRITE] Addr=0x33af70f2 Data=0x81
# UVM_INFO ../src/env/axi4_scoreboard.sv(219) @ 4145000: uvm_test_top.env.scb [axi4_scoreboard] [REF_MEM_WRITE] Addr=0x33af70f3 Data=0x39
# UVM_INFO ../src/env/axi4_scoreboard.sv(219) @ 4145000: uvm_test_top.env.scb [axi4_scoreboard] [REF_MEM_WRITE] Addr=0x33af70f0 Data=0xe1
# UVM_INFO ../src/env/axi4_scoreboard.sv(219) @ 4145000: uvm_test_top.env.scb [axi4_scoreboard] [REF_MEM_WRITE] Addr=0x33af70f2 Data=0x28
# UVM_INFO ../src/env/axi4_scoreboard.sv(219) @ 4145000: uvm_test_top.env.scb [axi4_scoreboard] [REF_MEM_WRITE] Addr=0x33af70f3 Data=0xa4
# UVM_INFO ../src/env/axi4_scoreboard.sv(219) @ 4145000: uvm_test_top.env.scb [axi4_scoreboard] [REF_MEM_WRITE] Addr=0x33af70f5 Data=0x16
# UVM_INFO ../src/env/axi4_scoreboard.sv(219) @ 4145000: uvm_test_top.env.scb [axi4_scoreboard] [REF_MEM_WRITE] Addr=0x33af70f6 Data=0x03
# UVM_INFO ../src/env/axi4_scoreboard.sv(219) @ 4145000: uvm_test_top.env.scb [axi4_scoreboard] [REF_MEM_WRITE] Addr=0x33af70f7 Data=0x56
# UVM_INFO ../src/env/axi4_scoreboard.sv(219) @ 4145000: uvm_test_top.env.scb [axi4_scoreboard] [REF_MEM_WRITE] Addr=0x33af70f5 Data=0xdd
# UVM_INFO ../src/env/axi4_scoreboard.sv(219) @ 4145000: uvm_test_top.env.scb [axi4_scoreboard] [REF_MEM_WRITE] Addr=0x33af70f6 Data=0x0e
# UVM_INFO ../src/env/axi4_scoreboard.sv(219) @ 4145000: uvm_test_top.env.scb [axi4_scoreboard] [REF_MEM_WRITE] Addr=0x33af70f9 Data=0x70
# UVM_INFO ../src/env/axi4_scoreboard.sv(219) @ 4145000: uvm_test_top.env.scb [axi4_scoreboard] [REF_MEM_WRITE] Addr=0x33af70fa Data=0xda
# UVM_INFO ../src/env/axi4_scoreboard.sv(219) @ 4145000: uvm_test_top.env.scb [axi4_scoreboard] [REF_MEM_WRITE] Addr=0x33af70f9 Data=0xf6
# UVM_INFO ../src/env/axi4_scoreboard.sv(219) @ 4145000: uvm_test_top.env.scb [axi4_scoreboard] [REF_MEM_WRITE] Addr=0x33af70fc Data=0x68
# UVM_INFO ../src/env/axi4_scoreboard.sv(219) @ 4145000: uvm_test_top.env.scb [axi4_scoreboard] [REF_MEM_WRITE] Addr=0x33af70fd Data=0x16
# UVM_INFO ../src/env/axi4_scoreboard.sv(219) @ 4145000: uvm_test_top.env.scb [axi4_scoreboard] [REF_MEM_WRITE] Addr=0x33af70fe Data=0x44
# UVM_INFO ../src/env/axi4_scoreboard.sv(219) @ 4145000: uvm_test_top.env.scb [axi4_scoreboard] [REF_MEM_WRITE] Addr=0x33af70ff Data=0xe8
# UVM_INFO ../src/env/axi4_scoreboard.sv(219) @ 4145000: uvm_test_top.env.scb [axi4_scoreboard] [REF_MEM_WRITE] Addr=0x33af70fd Data=0x03
# UVM_INFO ../src/env/axi4_scoreboard.sv(219) @ 4145000: uvm_test_top.env.scb [axi4_scoreboard] [REF_MEM_WRITE] Addr=0x33af70fe Data=0x38
# UVM_INFO ../src/env/axi4_scoreboard.sv(219) @ 4145000: uvm_test_top.env.scb [axi4_scoreboard] [REF_MEM_WRITE] Addr=0x33af7101 Data=0x60
# UVM_INFO ../src/env/axi4_scoreboard.sv(219) @ 4145000: uvm_test_top.env.scb [axi4_scoreboard] [REF_MEM_WRITE] Addr=0x33af7102 Data=0xe5
# UVM_INFO ../src/env/axi4_scoreboard.sv(219) @ 4145000: uvm_test_top.env.scb [axi4_scoreboard] [REF_MEM_WRITE] Addr=0x33af7100 Data=0x97
# UVM_INFO ../src/env/axi4_scoreboard.sv(219) @ 4145000: uvm_test_top.env.scb [axi4_scoreboard] [REF_MEM_WRITE] Addr=0x33af7102 Data=0x2b
# UVM_INFO ../src/env/axi4_scoreboard.sv(219) @ 4145000: uvm_test_top.env.scb [axi4_scoreboard] [REF_MEM_WRITE] Addr=0x33af7103 Data=0xf4
# UVM_INFO ../src/env/axi4_scoreboard.sv(219) @ 4145000: uvm_test_top.env.scb [axi4_scoreboard] [REF_MEM_WRITE] Addr=0x33af7107 Data=0xa3
# UVM_INFO ../src/env/axi4_scoreboard.sv(219) @ 4145000: uvm_test_top.env.scb [axi4_scoreboard] [REF_MEM_WRITE] Addr=0x33af7105 Data=0xd8
# UVM_INFO ../src/env/axi4_scoreboard.sv(219) @ 4145000: uvm_test_top.env.scb [axi4_scoreboard] [REF_MEM_WRITE] Addr=0x33af7106 Data=0x3b
# UVM_INFO ../src/env/axi4_scoreboard.sv(219) @ 4145000: uvm_test_top.env.scb [axi4_scoreboard] [REF_MEM_WRITE] Addr=0x33af7108 Data=0xcc
# UVM_INFO ../src/env/axi4_scoreboard.sv(219) @ 4145000: uvm_test_top.env.scb [axi4_scoreboard] [REF_MEM_WRITE] Addr=0x33af7109 Data=0x90
# UVM_INFO ../src/env/axi4_scoreboard.sv(219) @ 4145000: uvm_test_top.env.scb [axi4_scoreboard] [REF_MEM_WRITE] Addr=0x33af710a Data=0x9f
# UVM_INFO ../src/env/axi4_scoreboard.sv(219) @ 4145000: uvm_test_top.env.scb [axi4_scoreboard] [REF_MEM_WRITE] Addr=0x33af7109 Data=0x92
# UVM_INFO ../src/env/axi4_scoreboard.sv(219) @ 4145000: uvm_test_top.env.scb [axi4_scoreboard] [REF_MEM_WRITE] Addr=0x33af710b Data=0x64
# UVM_INFO ../src/env/axi4_scoreboard.sv(219) @ 4145000: uvm_test_top.env.scb [axi4_scoreboard] [REF_MEM_WRITE] Addr=0x33af710c Data=0xaf
# UVM_INFO ../src/env/axi4_scoreboard.sv(219) @ 4145000: uvm_test_top.env.scb [axi4_scoreboard] [REF_MEM_WRITE] Addr=0x33af710f Data=0x76
# UVM_INFO ../src/env/axi4_scoreboard.sv(219) @ 4145000: uvm_test_top.env.scb [axi4_scoreboard] [REF_MEM_WRITE] Addr=0x33af710c Data=0x87
# UVM_INFO ../src/env/axi4_scoreboard.sv(219) @ 4145000: uvm_test_top.env.scb [axi4_scoreboard] [REF_MEM_WRITE] Addr=0x33af710d Data=0xcf
# UVM_INFO ../src/env/axi4_scoreboard.sv(219) @ 4145000: uvm_test_top.env.scb [axi4_scoreboard] [REF_MEM_WRITE] Addr=0x33af710e Data=0x97
# UVM_INFO ../src/env/axi4_scoreboard.sv(219) @ 4145000: uvm_test_top.env.scb [axi4_scoreboard] [REF_MEM_WRITE] Addr=0x33af7110 Data=0xda
# UVM_INFO ../src/env/axi4_scoreboard.sv(219) @ 4145000: uvm_test_top.env.scb [axi4_scoreboard] [REF_MEM_WRITE] Addr=0x33af7111 Data=0x8a
# UVM_INFO ../src/env/axi4_scoreboard.sv(219) @ 4145000: uvm_test_top.env.scb [axi4_scoreboard] [REF_MEM_WRITE] Addr=0x33af7112 Data=0x1e
# UVM_INFO ../src/env/axi4_scoreboard.sv(219) @ 4145000: uvm_test_top.env.scb [axi4_scoreboard] [REF_MEM_WRITE] Addr=0x33af7113 Data=0xe0
# UVM_INFO ../src/env/axi4_scoreboard.sv(219) @ 4145000: uvm_test_top.env.scb [axi4_scoreboard] [REF_MEM_WRITE] Addr=0x33af7111 Data=0x00
# UVM_INFO ../src/env/axi4_scoreboard.sv(219) @ 4145000: uvm_test_top.env.scb [axi4_scoreboard] [REF_MEM_WRITE] Addr=0x33af7112 Data=0x99
# UVM_INFO ../src/env/axi4_scoreboard.sv(219) @ 4145000: uvm_test_top.env.scb [axi4_scoreboard] [REF_MEM_WRITE] Addr=0x33af7113 Data=0xf4
# UVM_INFO ../src/env/axi4_scoreboard.sv(219) @ 4145000: uvm_test_top.env.scb [axi4_scoreboard] [REF_MEM_WRITE] Addr=0x33af7114 Data=0x6f
# UVM_INFO ../src/env/axi4_scoreboard.sv(219) @ 4145000: uvm_test_top.env.scb [axi4_scoreboard] [REF_MEM_WRITE] Addr=0x33af7116 Data=0xfd
# UVM_INFO ../src/env/axi4_scoreboard.sv(219) @ 4145000: uvm_test_top.env.scb [axi4_scoreboard] [REF_MEM_WRITE] Addr=0x33af7115 Data=0x4d
# UVM_INFO ../src/env/axi4_scoreboard.sv(219) @ 4145000: uvm_test_top.env.scb [axi4_scoreboard] [REF_MEM_WRITE] Addr=0x33af7117 Data=0xa9
# UVM_INFO ../src/env/axi4_scoreboard.sv(219) @ 4145000: uvm_test_top.env.scb [axi4_scoreboard] [REF_MEM_WRITE] Addr=0x33af7119 Data=0x3c
# UVM_INFO ../src/env/axi4_scoreboard.sv(219) @ 4145000: uvm_test_top.env.scb [axi4_scoreboard] [REF_MEM_WRITE] Addr=0x33af7118 Data=0x89
# UVM_INFO ../src/env/axi4_scoreboard.sv(219) @ 4145000: uvm_test_top.env.scb [axi4_scoreboard] [REF_MEM_WRITE] Addr=0x33af711b Data=0x1e
# UVM_INFO ../src/env/axi4_scoreboard.sv(219) @ 4145000: uvm_test_top.env.scb [axi4_scoreboard] [REF_MEM_WRITE] Addr=0x33af7120 Data=0x5c
# UVM_INFO ../src/env/axi4_scoreboard.sv(219) @ 4145000: uvm_test_top.env.scb [axi4_scoreboard] [REF_MEM_WRITE] Addr=0x33af7123 Data=0xb5
# UVM_INFO ../src/env/axi4_scoreboard.sv(219) @ 4145000: uvm_test_top.env.scb [axi4_scoreboard] [REF_MEM_WRITE] Addr=0x33af7120 Data=0x59
# UVM_INFO ../src/env/axi4_scoreboard.sv(219) @ 4145000: uvm_test_top.env.scb [axi4_scoreboard] [REF_MEM_WRITE] Addr=0x33af7123 Data=0x61
# UVM_INFO ../src/env/axi4_scoreboard.sv(219) @ 4145000: uvm_test_top.env.scb [axi4_scoreboard] [REF_MEM_WRITE] Addr=0x33af7125 Data=0x32
# UVM_INFO ../src/env/axi4_scoreboard.sv(219) @ 4145000: uvm_test_top.env.scb [axi4_scoreboard] [REF_MEM_WRITE] Addr=0x33af7126 Data=0xa5
# UVM_INFO ../src/env/axi4_scoreboard.sv(219) @ 4145000: uvm_test_top.env.scb [axi4_scoreboard] [REF_MEM_WRITE] Addr=0x33af7124 Data=0x10
# UVM_INFO ../src/env/axi4_scoreboard.sv(219) @ 4145000: uvm_test_top.env.scb [axi4_scoreboard] [REF_MEM_WRITE] Addr=0x33af7126 Data=0xe2
# UVM_INFO ../src/env/axi4_scoreboard.sv(219) @ 4145000: uvm_test_top.env.scb [axi4_scoreboard] [REF_MEM_WRITE] Addr=0x33af7128 Data=0xb5
# UVM_INFO ../src/env/axi4_scoreboard.sv(219) @ 4145000: uvm_test_top.env.scb [axi4_scoreboard] [REF_MEM_WRITE] Addr=0x33af7129 Data=0x95
# UVM_INFO ../src/env/axi4_scoreboard.sv(219) @ 4145000: uvm_test_top.env.scb [axi4_scoreboard] [REF_MEM_WRITE] Addr=0x33af712a Data=0x65
# UVM_INFO ../src/env/axi4_scoreboard.sv(219) @ 4145000: uvm_test_top.env.scb [axi4_scoreboard] [REF_MEM_WRITE] Addr=0x33af7129 Data=0x16
# UVM_INFO ../src/env/axi4_scoreboard.sv(219) @ 4145000: uvm_test_top.env.scb [axi4_scoreboard] [REF_MEM_WRITE] Addr=0x33af712d Data=0xa1
# UVM_INFO ../src/env/axi4_scoreboard.sv(219) @ 4145000: uvm_test_top.env.scb [axi4_scoreboard] [REF_MEM_WRITE] Addr=0x33af712e Data=0xa8
# UVM_INFO ../src/env/axi4_scoreboard.sv(219) @ 4145000: uvm_test_top.env.scb [axi4_scoreboard] [REF_MEM_WRITE] Addr=0x33af712f Data=0xf7
# UVM_INFO ../src/env/axi4_scoreboard.sv(219) @ 4145000: uvm_test_top.env.scb [axi4_scoreboard] [REF_MEM_WRITE] Addr=0x33af712d Data=0xbc
# UVM_INFO ../src/env/axi4_scoreboard.sv(219) @ 4145000: uvm_test_top.env.scb [axi4_scoreboard] [REF_MEM_WRITE] Addr=0x33af7131 Data=0x44
# UVM_INFO ../src/env/axi4_scoreboard.sv(219) @ 4145000: uvm_test_top.env.scb [axi4_scoreboard] [REF_MEM_WRITE] Addr=0x33af7130 Data=0x56
# UVM_INFO ../src/env/axi4_scoreboard.sv(219) @ 4145000: uvm_test_top.env.scb [axi4_scoreboard] [REF_MEM_WRITE] Addr=0x33af7132 Data=0x12
# UVM_INFO ../src/env/axi4_scoreboard.sv(219) @ 4145000: uvm_test_top.env.scb [axi4_scoreboard] [REF_MEM_WRITE] Addr=0x33af7134 Data=0x78
# UVM_INFO ../src/env/axi4_scoreboard.sv(219) @ 4145000: uvm_test_top.env.scb [axi4_scoreboard] [REF_MEM_WRITE] Addr=0x33af7135 Data=0x3c
# UVM_INFO ../src/env/axi4_scoreboard.sv(219) @ 4145000: uvm_test_top.env.scb [axi4_scoreboard] [REF_MEM_WRITE] Addr=0x33af7135 Data=0x09
# UVM_INFO ../src/env/axi4_scoreboard.sv(219) @ 4145000: uvm_test_top.env.scb [axi4_scoreboard] [REF_MEM_WRITE] Addr=0x33af7139 Data=0xe8
# UVM_INFO ../src/env/axi4_scoreboard.sv(219) @ 4145000: uvm_test_top.env.scb [axi4_scoreboard] [REF_MEM_WRITE] Addr=0x33af713a Data=0x2f
# UVM_INFO ../src/env/axi4_scoreboard.sv(219) @ 4145000: uvm_test_top.env.scb [axi4_scoreboard] [REF_MEM_WRITE] Addr=0x33af713b Data=0x4d
# UVM_INFO ../src/env/axi4_scoreboard.sv(219) @ 4145000: uvm_test_top.env.scb [axi4_scoreboard] [REF_MEM_WRITE] Addr=0x33af7138 Data=0x2f
# UVM_INFO ../src/env/axi4_scoreboard.sv(219) @ 4145000: uvm_test_top.env.scb [axi4_scoreboard] [REF_MEM_WRITE] Addr=0x33af713a Data=0xc3
# UVM_INFO ../src/env/axi4_scoreboard.sv(219) @ 4145000: uvm_test_top.env.scb [axi4_scoreboard] [REF_MEM_WRITE] Addr=0x33af713b Data=0x70
# UVM_INFO ../src/env/axi4_scoreboard.sv(219) @ 4145000: uvm_test_top.env.scb [axi4_scoreboard] [REF_MEM_WRITE] Addr=0x33af713c Data=0xce
# UVM_INFO ../src/env/axi4_scoreboard.sv(219) @ 4145000: uvm_test_top.env.scb [axi4_scoreboard] [REF_MEM_WRITE] Addr=0x33af713e Data=0xe3
# UVM_INFO ../src/env/axi4_scoreboard.sv(219) @ 4145000: uvm_test_top.env.scb [axi4_scoreboard] [REF_MEM_WRITE] Addr=0x33af713c Data=0x93
# UVM_INFO ../src/env/axi4_scoreboard.sv(219) @ 4145000: uvm_test_top.env.scb [axi4_scoreboard] [REF_MEM_WRITE] Addr=0x33af713f Data=0xcf
# UVM_INFO ../src/env/axi4_scoreboard.sv(219) @ 4145000: uvm_test_top.env.scb [axi4_scoreboard] [REF_MEM_WRITE] Addr=0x33af7141 Data=0x3d
# UVM_INFO ../src/env/axi4_scoreboard.sv(219) @ 4145000: uvm_test_top.env.scb [axi4_scoreboard] [REF_MEM_WRITE] Addr=0x33af7142 Data=0x1a
# UVM_INFO ../src/env/axi4_scoreboard.sv(219) @ 4145000: uvm_test_top.env.scb [axi4_scoreboard] [REF_MEM_WRITE] Addr=0x33af7144 Data=0x99
# UVM_INFO ../src/env/axi4_scoreboard.sv(219) @ 4145000: uvm_test_top.env.scb [axi4_scoreboard] [REF_MEM_WRITE] Addr=0x33af7145 Data=0x6a
# UVM_INFO ../src/env/axi4_scoreboard.sv(219) @ 4145000: uvm_test_top.env.scb [axi4_scoreboard] [REF_MEM_WRITE] Addr=0x33af7146 Data=0xc5
# UVM_INFO ../src/env/axi4_scoreboard.sv(219) @ 4145000: uvm_test_top.env.scb [axi4_scoreboard] [REF_MEM_WRITE] Addr=0x33af7144 Data=0x67
# UVM_INFO ../src/env/axi4_scoreboard.sv(219) @ 4145000: uvm_test_top.env.scb [axi4_scoreboard] [REF_MEM_WRITE] Addr=0x33af7145 Data=0x27
# UVM_INFO ../src/env/axi4_scoreboard.sv(219) @ 4145000: uvm_test_top.env.scb [axi4_scoreboard] [REF_MEM_WRITE] Addr=0x33af7146 Data=0xad
# UVM_INFO ../src/env/axi4_scoreboard.sv(219) @ 4145000: uvm_test_top.env.scb [axi4_scoreboard] [REF_MEM_WRITE] Addr=0x33af7149 Data=0xed
# UVM_INFO ../src/env/axi4_scoreboard.sv(219) @ 4145000: uvm_test_top.env.scb [axi4_scoreboard] [REF_MEM_WRITE] Addr=0x33af714a Data=0x12
# UVM_INFO ../src/env/axi4_scoreboard.sv(219) @ 4145000: uvm_test_top.env.scb [axi4_scoreboard] [REF_MEM_WRITE] Addr=0x33af714b Data=0x6b
# UVM_INFO ../src/env/axi4_scoreboard.sv(219) @ 4145000: uvm_test_top.env.scb [axi4_scoreboard] [REF_MEM_WRITE] Addr=0x33af7148 Data=0xfe
# UVM_INFO ../src/env/axi4_scoreboard.sv(219) @ 4145000: uvm_test_top.env.scb [axi4_scoreboard] [REF_MEM_WRITE] Addr=0x33af7149 Data=0xca
# UVM_INFO ../src/env/axi4_scoreboard.sv(219) @ 4145000: uvm_test_top.env.scb [axi4_scoreboard] [REF_MEM_WRITE] Addr=0x33af714b Data=0x36
# UVM_INFO ../src/env/axi4_scoreboard.sv(219) @ 4145000: uvm_test_top.env.scb [axi4_scoreboard] [REF_MEM_WRITE] Addr=0x33af714e Data=0x93
# UVM_INFO ../src/env/axi4_scoreboard.sv(219) @ 4145000: uvm_test_top.env.scb [axi4_scoreboard] [REF_MEM_WRITE] Addr=0x33af714f Data=0x8a
# UVM_INFO ../src/env/axi4_scoreboard.sv(219) @ 4145000: uvm_test_top.env.scb [axi4_scoreboard] [REF_MEM_WRITE] Addr=0x33af714c Data=0x42
# UVM_INFO ../src/env/axi4_scoreboard.sv(219) @ 4145000: uvm_test_top.env.scb [axi4_scoreboard] [REF_MEM_WRITE] Addr=0x33af714d Data=0x3f
# UVM_INFO ../src/env/axi4_scoreboard.sv(219) @ 4145000: uvm_test_top.env.scb [axi4_scoreboard] [REF_MEM_WRITE] Addr=0x33af714e Data=0x0e
# UVM_INFO ../src/env/axi4_scoreboard.sv(219) @ 4145000: uvm_test_top.env.scb [axi4_scoreboard] [REF_MEM_WRITE] Addr=0x33af714f Data=0x0e
# UVM_INFO ../src/env/axi4_scoreboard.sv(219) @ 4145000: uvm_test_top.env.scb [axi4_scoreboard] [REF_MEM_WRITE] Addr=0x33af7153 Data=0xa2
# UVM_INFO ../src/env/axi4_scoreboard.sv(219) @ 4145000: uvm_test_top.env.scb [axi4_scoreboard] [REF_MEM_WRITE] Addr=0x33af7152 Data=0x05
# UVM_INFO ../src/env/axi4_scoreboard.sv(219) @ 4145000: uvm_test_top.env.scb [axi4_scoreboard] [REF_MEM_WRITE] Addr=0x33af7155 Data=0xe3
# UVM_INFO ../src/env/axi4_scoreboard.sv(219) @ 4145000: uvm_test_top.env.scb [axi4_scoreboard] [REF_MEM_WRITE] Addr=0x33af7159 Data=0x80
# UVM_INFO ../src/env/axi4_scoreboard.sv(219) @ 4145000: uvm_test_top.env.scb [axi4_scoreboard] [REF_MEM_WRITE] Addr=0x33af7158 Data=0xbd
# UVM_INFO ../src/env/axi4_scoreboard.sv(219) @ 4145000: uvm_test_top.env.scb [axi4_scoreboard] [REF_MEM_WRITE] Addr=0x33af715a Data=0x17
# UVM_INFO ../src/env/axi4_scoreboard.sv(219) @ 4145000: uvm_test_top.env.scb [axi4_scoreboard] [REF_MEM_WRITE] Addr=0x33af715e Data=0x16
# UVM_INFO ../src/env/axi4_scoreboard.sv(219) @ 4145000: uvm_test_top.env.scb [axi4_scoreboard] [REF_MEM_WRITE] Addr=0x33af715d Data=0x06
# UVM_INFO ../src/env/axi4_scoreboard.sv(219) @ 4145000: uvm_test_top.env.scb [axi4_scoreboard] [REF_MEM_WRITE] Addr=0x33af7161 Data=0x71
# UVM_INFO ../src/env/axi4_scoreboard.sv(219) @ 4145000: uvm_test_top.env.scb [axi4_scoreboard] [REF_MEM_WRITE] Addr=0x33af7163 Data=0xc9
# UVM_INFO ../src/env/axi4_scoreboard.sv(219) @ 4145000: uvm_test_top.env.scb [axi4_scoreboard] [REF_MEM_WRITE] Addr=0x33af7161 Data=0x56
# UVM_INFO ../src/env/axi4_scoreboard.sv(219) @ 4145000: uvm_test_top.env.scb [axi4_scoreboard] [REF_MEM_WRITE] Addr=0x33af7164 Data=0x81
# UVM_INFO ../src/env/axi4_scoreboard.sv(219) @ 4145000: uvm_test_top.env.scb [axi4_scoreboard] [REF_MEM_WRITE] Addr=0x33af7164 Data=0x6f
# UVM_INFO ../src/env/axi4_scoreboard.sv(219) @ 4145000: uvm_test_top.env.scb [axi4_scoreboard] [REF_MEM_WRITE] Addr=0x33af7165 Data=0xb9
# UVM_INFO ../src/env/axi4_scoreboard.sv(219) @ 4145000: uvm_test_top.env.scb [axi4_scoreboard] [REF_MEM_WRITE] Addr=0x33af7167 Data=0x11
# UVM_INFO ../src/env/axi4_scoreboard.sv(219) @ 4145000: uvm_test_top.env.scb [axi4_scoreboard] [REF_MEM_WRITE] Addr=0x33af7168 Data=0xf4
# UVM_INFO ../src/env/axi4_scoreboard.sv(219) @ 4145000: uvm_test_top.env.scb [axi4_scoreboard] [REF_MEM_WRITE] Addr=0x33af7169 Data=0x8d
# UVM_INFO ../src/env/axi4_scoreboard.sv(219) @ 4145000: uvm_test_top.env.scb [axi4_scoreboard] [REF_MEM_WRITE] Addr=0x33af716a Data=0xe0
# UVM_INFO ../src/env/axi4_scoreboard.sv(219) @ 4145000: uvm_test_top.env.scb [axi4_scoreboard] [REF_MEM_WRITE] Addr=0x33af716b Data=0x0f
# UVM_INFO ../src/env/axi4_scoreboard.sv(219) @ 4145000: uvm_test_top.env.scb [axi4_scoreboard] [REF_MEM_WRITE] Addr=0x33af7168 Data=0x39
# UVM_INFO ../src/env/axi4_scoreboard.sv(219) @ 4145000: uvm_test_top.env.scb [axi4_scoreboard] [REF_MEM_WRITE] Addr=0x33af7169 Data=0xaf
# UVM_INFO ../src/env/axi4_scoreboard.sv(219) @ 4145000: uvm_test_top.env.scb [axi4_scoreboard] [REF_MEM_WRITE] Addr=0x33af716a Data=0x57
# UVM_INFO ../src/env/axi4_scoreboard.sv(219) @ 4145000: uvm_test_top.env.scb [axi4_scoreboard] [REF_MEM_WRITE] Addr=0x33af716c Data=0x4a
# UVM_INFO ../src/env/axi4_scoreboard.sv(219) @ 4145000: uvm_test_top.env.scb [axi4_scoreboard] [REF_MEM_WRITE] Addr=0x33af716e Data=0x72
# UVM_INFO ../src/env/axi4_scoreboard.sv(219) @ 4145000: uvm_test_top.env.scb [axi4_scoreboard] [REF_MEM_WRITE] Addr=0x33af716f Data=0x1e
# UVM_INFO ../src/env/axi4_scoreboard.sv(219) @ 4145000: uvm_test_top.env.scb [axi4_scoreboard] [REF_MEM_WRITE] Addr=0x33af716d Data=0x09
# UVM_INFO ../src/env/axi4_scoreboard.sv(219) @ 4145000: uvm_test_top.env.scb [axi4_scoreboard] [REF_MEM_WRITE] Addr=0x33af716f Data=0xb2
# UVM_INFO ../src/env/axi4_scoreboard.sv(219) @ 4145000: uvm_test_top.env.scb [axi4_scoreboard] [REF_MEM_WRITE] Addr=0x33af7170 Data=0xab
# UVM_INFO ../src/env/axi4_scoreboard.sv(219) @ 4145000: uvm_test_top.env.scb [axi4_scoreboard] [REF_MEM_WRITE] Addr=0x33af7173 Data=0x13
# UVM_INFO ../src/env/axi4_scoreboard.sv(219) @ 4145000: uvm_test_top.env.scb [axi4_scoreboard] [REF_MEM_WRITE] Addr=0x33af7172 Data=0xa4
# UVM_INFO ../src/env/axi4_scoreboard.sv(219) @ 4145000: uvm_test_top.env.scb [axi4_scoreboard] [REF_MEM_WRITE] Addr=0x33af7176 Data=0x35
# UVM_INFO ../src/env/axi4_scoreboard.sv(219) @ 4145000: uvm_test_top.env.scb [axi4_scoreboard] [REF_MEM_WRITE] Addr=0x33af7177 Data=0x58
# UVM_INFO ../src/env/axi4_scoreboard.sv(219) @ 4145000: uvm_test_top.env.scb [axi4_scoreboard] [REF_MEM_WRITE] Addr=0x33af7174 Data=0xf1
# UVM_INFO ../src/env/axi4_scoreboard.sv(219) @ 4145000: uvm_test_top.env.scb [axi4_scoreboard] [REF_MEM_WRITE] Addr=0x33af7177 Data=0x09
# UVM_INFO ../src/env/axi4_scoreboard.sv(219) @ 4145000: uvm_test_top.env.scb [axi4_scoreboard] [REF_MEM_WRITE] Addr=0x33af7179 Data=0xd1
# UVM_INFO ../src/env/axi4_scoreboard.sv(219) @ 4145000: uvm_test_top.env.scb [axi4_scoreboard] [REF_MEM_WRITE] Addr=0x33af717a Data=0xc4
# UVM_INFO ../src/env/axi4_scoreboard.sv(219) @ 4145000: uvm_test_top.env.scb [axi4_scoreboard] [REF_MEM_WRITE] Addr=0x33af717b Data=0x90
# UVM_INFO ../src/env/axi4_scoreboard.sv(219) @ 4145000: uvm_test_top.env.scb [axi4_scoreboard] [REF_MEM_WRITE] Addr=0x33af7178 Data=0xde
# UVM_INFO ../src/env/axi4_scoreboard.sv(219) @ 4145000: uvm_test_top.env.scb [axi4_scoreboard] [REF_MEM_WRITE] Addr=0x33af717a Data=0x25
# UVM_INFO ../src/env/axi4_scoreboard.sv(219) @ 4145000: uvm_test_top.env.scb [axi4_scoreboard] [REF_MEM_WRITE] Addr=0x33af717c Data=0xe8
# UVM_INFO ../src/env/axi4_scoreboard.sv(219) @ 4145000: uvm_test_top.env.scb [axi4_scoreboard] [REF_MEM_WRITE] Addr=0x33af717d Data=0x2c
# UVM_INFO ../src/env/axi4_scoreboard.sv(219) @ 4145000: uvm_test_top.env.scb [axi4_scoreboard] [REF_MEM_WRITE] Addr=0x33af717f Data=0x48
# UVM_INFO ../src/env/axi4_scoreboard.sv(219) @ 4145000: uvm_test_top.env.scb [axi4_scoreboard] [REF_MEM_WRITE] Addr=0x33af717c Data=0x46
# UVM_INFO ../src/env/axi4_scoreboard.sv(219) @ 4145000: uvm_test_top.env.scb [axi4_scoreboard] [REF_MEM_WRITE] Addr=0x33af717e Data=0xb1
# UVM_INFO ../src/env/axi4_scoreboard.sv(219) @ 4145000: uvm_test_top.env.scb [axi4_scoreboard] [REF_MEM_WRITE] Addr=0x33af717f Data=0xe7
# UVM_INFO ../src/env/axi4_scoreboard.sv(219) @ 4145000: uvm_test_top.env.scb [axi4_scoreboard] [REF_MEM_WRITE] Addr=0x33af7182 Data=0x45
# UVM_INFO ../src/env/axi4_scoreboard.sv(219) @ 4145000: uvm_test_top.env.scb [axi4_scoreboard] [REF_MEM_WRITE] Addr=0x33af7180 Data=0x2c
# UVM_INFO ../src/env/axi4_scoreboard.sv(219) @ 4145000: uvm_test_top.env.scb [axi4_scoreboard] [REF_MEM_WRITE] Addr=0x33af7182 Data=0x1d
# UVM_INFO ../src/env/axi4_scoreboard.sv(219) @ 4145000: uvm_test_top.env.scb [axi4_scoreboard] [REF_MEM_WRITE] Addr=0x33af7185 Data=0x74
# UVM_INFO ../src/env/axi4_scoreboard.sv(219) @ 4145000: uvm_test_top.env.scb [axi4_scoreboard] [REF_MEM_WRITE] Addr=0x33af7186 Data=0xfc
# UVM_INFO ../src/env/axi4_scoreboard.sv(219) @ 4145000: uvm_test_top.env.scb [axi4_scoreboard] [REF_MEM_WRITE] Addr=0x33af7187 Data=0x90
# UVM_INFO ../src/env/axi4_scoreboard.sv(219) @ 4145000: uvm_test_top.env.scb [axi4_scoreboard] [REF_MEM_WRITE] Addr=0x33af7184 Data=0x3a
# UVM_INFO ../src/env/axi4_scoreboard.sv(219) @ 4145000: uvm_test_top.env.scb [axi4_scoreboard] [REF_MEM_WRITE] Addr=0x33af7186 Data=0xb6
# UVM_INFO ../src/env/axi4_scoreboard.sv(219) @ 4145000: uvm_test_top.env.scb [axi4_scoreboard] [REF_MEM_WRITE] Addr=0x33af7188 Data=0x46
# UVM_INFO ../src/env/axi4_scoreboard.sv(219) @ 4145000: uvm_test_top.env.scb [axi4_scoreboard] [REF_MEM_WRITE] Addr=0x33af718a Data=0xfd
# UVM_INFO ../src/env/axi4_scoreboard.sv(219) @ 4145000: uvm_test_top.env.scb [axi4_scoreboard] [REF_MEM_WRITE] Addr=0x33af718b Data=0x69
# UVM_INFO ../src/env/axi4_scoreboard.sv(219) @ 4145000: uvm_test_top.env.scb [axi4_scoreboard] [REF_MEM_WRITE] Addr=0x33af7188 Data=0x7b
# UVM_INFO ../src/env/axi4_scoreboard.sv(219) @ 4145000: uvm_test_top.env.scb [axi4_scoreboard] [REF_MEM_WRITE] Addr=0x33af718a Data=0xc8
# UVM_INFO ../src/env/axi4_scoreboard.sv(219) @ 4145000: uvm_test_top.env.scb [axi4_scoreboard] [REF_MEM_WRITE] Addr=0x33af718b Data=0x79
# UVM_INFO ../src/env/axi4_scoreboard.sv(219) @ 4145000: uvm_test_top.env.scb [axi4_scoreboard] [REF_MEM_WRITE] Addr=0x33af718f Data=0x52
# UVM_INFO ../src/env/axi4_scoreboard.sv(219) @ 4145000: uvm_test_top.env.scb [axi4_scoreboard] [REF_MEM_WRITE] Addr=0x33af718d Data=0x4b
# UVM_INFO ../src/env/axi4_scoreboard.sv(219) @ 4145000: uvm_test_top.env.scb [axi4_scoreboard] [REF_MEM_WRITE] Addr=0x33af7190 Data=0x10
# UVM_INFO ../src/env/axi4_scoreboard.sv(219) @ 4145000: uvm_test_top.env.scb [axi4_scoreboard] [REF_MEM_WRITE] Addr=0x33af7193 Data=0x17
# UVM_INFO ../src/env/axi4_scoreboard.sv(219) @ 4145000: uvm_test_top.env.scb [axi4_scoreboard] [REF_MEM_WRITE] Addr=0x33af7191 Data=0xbe
# UVM_INFO ../src/env/axi4_scoreboard.sv(219) @ 4145000: uvm_test_top.env.scb [axi4_scoreboard] [REF_MEM_WRITE] Addr=0x33af7194 Data=0x18
# UVM_INFO ../src/env/axi4_scoreboard.sv(219) @ 4145000: uvm_test_top.env.scb [axi4_scoreboard] [REF_MEM_WRITE] Addr=0x33af7196 Data=0xb2
# UVM_INFO ../src/env/axi4_scoreboard.sv(219) @ 4145000: uvm_test_top.env.scb [axi4_scoreboard] [REF_MEM_WRITE] Addr=0x33af7197 Data=0xc9
# UVM_INFO ../src/env/axi4_scoreboard.sv(219) @ 4145000: uvm_test_top.env.scb [axi4_scoreboard] [REF_MEM_WRITE] Addr=0x33af7194 Data=0x8e
# UVM_INFO ../src/env/axi4_scoreboard.sv(219) @ 4145000: uvm_test_top.env.scb [axi4_scoreboard] [REF_MEM_WRITE] Addr=0x33af7195 Data=0xa2
# UVM_INFO ../src/env/axi4_scoreboard.sv(219) @ 4145000: uvm_test_top.env.scb [axi4_scoreboard] [REF_MEM_WRITE] Addr=0x33af7196 Data=0x0d
# UVM_INFO ../src/env/axi4_scoreboard.sv(219) @ 4145000: uvm_test_top.env.scb [axi4_scoreboard] [REF_MEM_WRITE] Addr=0x33af7198 Data=0xbf
# UVM_INFO ../src/env/axi4_scoreboard.sv(219) @ 4145000: uvm_test_top.env.scb [axi4_scoreboard] [REF_MEM_WRITE] Addr=0x33af7199 Data=0x09
# UVM_INFO ../src/env/axi4_scoreboard.sv(219) @ 4145000: uvm_test_top.env.scb [axi4_scoreboard] [REF_MEM_WRITE] Addr=0x33af719b Data=0x23
# UVM_INFO ../src/env/axi4_scoreboard.sv(219) @ 4145000: uvm_test_top.env.scb [axi4_scoreboard] [REF_MEM_WRITE] Addr=0x33af719a Data=0xab
# UVM_INFO ../src/env/axi4_scoreboard.sv(219) @ 4145000: uvm_test_top.env.scb [axi4_scoreboard] [REF_MEM_WRITE] Addr=0x33af719c Data=0x8c
# UVM_INFO ../src/env/axi4_scoreboard.sv(219) @ 4145000: uvm_test_top.env.scb [axi4_scoreboard] [REF_MEM_WRITE] Addr=0x33af719f Data=0x8f
# UVM_INFO ../src/env/axi4_scoreboard.sv(219) @ 4145000: uvm_test_top.env.scb [axi4_scoreboard] [REF_MEM_WRITE] Addr=0x33af719e Data=0x07
# UVM_INFO ../src/env/axi4_scoreboard.sv(219) @ 4145000: uvm_test_top.env.scb [axi4_scoreboard] [REF_MEM_WRITE] Addr=0x33af71a0 Data=0xf1
# UVM_INFO ../src/env/axi4_scoreboard.sv(219) @ 4145000: uvm_test_top.env.scb [axi4_scoreboard] [REF_MEM_WRITE] Addr=0x33af71a1 Data=0x88
# UVM_INFO ../src/env/axi4_scoreboard.sv(219) @ 4145000: uvm_test_top.env.scb [axi4_scoreboard] [REF_MEM_WRITE] Addr=0x33af71a2 Data=0x96
# UVM_INFO ../src/env/axi4_scoreboard.sv(219) @ 4145000: uvm_test_top.env.scb [axi4_scoreboard] [REF_MEM_WRITE] Addr=0x33af71a4 Data=0xe6
# UVM_INFO ../src/env/axi4_scoreboard.sv(219) @ 4145000: uvm_test_top.env.scb [axi4_scoreboard] [REF_MEM_WRITE] Addr=0x33af71a6 Data=0x66
# UVM_INFO ../src/env/axi4_scoreboard.sv(219) @ 4145000: uvm_test_top.env.scb [axi4_scoreboard] [REF_MEM_WRITE] Addr=0x33af71a7 Data=0x5b
# UVM_INFO ../src/env/axi4_scoreboard.sv(219) @ 4145000: uvm_test_top.env.scb [axi4_scoreboard] [REF_MEM_WRITE] Addr=0x33af71a5 Data=0xa4
# UVM_INFO ../src/env/axi4_scoreboard.sv(219) @ 4145000: uvm_test_top.env.scb [axi4_scoreboard] [REF_MEM_WRITE] Addr=0x33af71a6 Data=0xb8
# UVM_INFO ../src/env/axi4_scoreboard.sv(219) @ 4145000: uvm_test_top.env.scb [axi4_scoreboard] [REF_MEM_WRITE] Addr=0x33af71a7 Data=0x46
# UVM_INFO ../src/env/axi4_scoreboard.sv(219) @ 4145000: uvm_test_top.env.scb [axi4_scoreboard] [REF_MEM_WRITE] Addr=0x33af71a8 Data=0x30
# UVM_INFO ../src/env/axi4_scoreboard.sv(219) @ 4145000: uvm_test_top.env.scb [axi4_scoreboard] [REF_MEM_WRITE] Addr=0x33af71a9 Data=0xe5
# UVM_INFO ../src/env/axi4_scoreboard.sv(219) @ 4145000: uvm_test_top.env.scb [axi4_scoreboard] [REF_MEM_WRITE] Addr=0x33af71a8 Data=0x99
# UVM_INFO ../src/env/axi4_scoreboard.sv(219) @ 4145000: uvm_test_top.env.scb [axi4_scoreboard] [REF_MEM_WRITE] Addr=0x33af71a9 Data=0x02
# UVM_INFO ../src/env/axi4_scoreboard.sv(219) @ 4145000: uvm_test_top.env.scb [axi4_scoreboard] [REF_MEM_WRITE] Addr=0x33af71aa Data=0x7d
# UVM_INFO ../src/env/axi4_scoreboard.sv(219) @ 4145000: uvm_test_top.env.scb [axi4_scoreboard] [REF_MEM_WRITE] Addr=0x33af71ab Data=0x24
# UVM_INFO ../src/env/axi4_scoreboard.sv(219) @ 4145000: uvm_test_top.env.scb [axi4_scoreboard] [REF_MEM_WRITE] Addr=0x33af71ac Data=0x81
# UVM_INFO ../src/env/axi4_scoreboard.sv(219) @ 4145000: uvm_test_top.env.scb [axi4_scoreboard] [REF_MEM_WRITE] Addr=0x33af71ae Data=0x03
# UVM_INFO ../src/env/axi4_scoreboard.sv(219) @ 4145000: uvm_test_top.env.scb [axi4_scoreboard] [REF_MEM_WRITE] Addr=0x33af71b3 Data=0x7c
# UVM_INFO ../src/env/axi4_scoreboard.sv(219) @ 4145000: uvm_test_top.env.scb [axi4_scoreboard] [REF_MEM_WRITE] Addr=0x33af71b0 Data=0x2e
# UVM_INFO ../src/env/axi4_scoreboard.sv(219) @ 4145000: uvm_test_top.env.scb [axi4_scoreboard] [REF_MEM_WRITE] Addr=0x33af71b3 Data=0xf2
# UVM_INFO ../src/env/axi4_scoreboard.sv(219) @ 4145000: uvm_test_top.env.scb [axi4_scoreboard] [REF_MEM_WRITE] Addr=0x33af71b4 Data=0xb7
# UVM_INFO ../src/env/axi4_scoreboard.sv(219) @ 4145000: uvm_test_top.env.scb [axi4_scoreboard] [REF_MEM_WRITE] Addr=0x33af71b6 Data=0xd7
# UVM_INFO ../src/env/axi4_scoreboard.sv(219) @ 4145000: uvm_test_top.env.scb [axi4_scoreboard] [REF_MEM_WRITE] Addr=0x33af71b7 Data=0xbc
# UVM_INFO ../src/env/axi4_scoreboard.sv(219) @ 4145000: uvm_test_top.env.scb [axi4_scoreboard] [REF_MEM_WRITE] Addr=0x33af71b6 Data=0x64
# UVM_INFO ../src/env/axi4_scoreboard.sv(219) @ 4145000: uvm_test_top.env.scb [axi4_scoreboard] [REF_MEM_WRITE] Addr=0x33af71b8 Data=0xc2
# UVM_INFO ../src/env/axi4_scoreboard.sv(219) @ 4145000: uvm_test_top.env.scb [axi4_scoreboard] [REF_MEM_WRITE] Addr=0x33af71ba Data=0xa6
# UVM_INFO ../src/env/axi4_scoreboard.sv(219) @ 4145000: uvm_test_top.env.scb [axi4_scoreboard] [REF_MEM_WRITE] Addr=0x33af71bb Data=0xba
# UVM_INFO ../src/env/axi4_scoreboard.sv(219) @ 4145000: uvm_test_top.env.scb [axi4_scoreboard] [REF_MEM_WRITE] Addr=0x33af71b9 Data=0x3b
# UVM_INFO ../src/env/axi4_scoreboard.sv(219) @ 4145000: uvm_test_top.env.scb [axi4_scoreboard] [REF_MEM_WRITE] Addr=0x33af71bb Data=0x89
# UVM_INFO ../src/env/axi4_scoreboard.sv(219) @ 4145000: uvm_test_top.env.scb [axi4_scoreboard] [REF_MEM_WRITE] Addr=0x33af71bc Data=0xc5
# UVM_INFO ../src/env/axi4_scoreboard.sv(219) @ 4145000: uvm_test_top.env.scb [axi4_scoreboard] [REF_MEM_WRITE] Addr=0x33af71bd Data=0xd0
# UVM_INFO ../src/env/axi4_scoreboard.sv(219) @ 4145000: uvm_test_top.env.scb [axi4_scoreboard] [REF_MEM_WRITE] Addr=0x33af71be Data=0x50
# UVM_INFO ../src/env/axi4_scoreboard.sv(219) @ 4145000: uvm_test_top.env.scb [axi4_scoreboard] [REF_MEM_WRITE] Addr=0x33af71bf Data=0xb1
# UVM_INFO ../src/env/axi4_scoreboard.sv(219) @ 4145000: uvm_test_top.env.scb [axi4_scoreboard] [REF_MEM_WRITE] Addr=0x33af71c0 Data=0x34
# UVM_INFO ../src/env/axi4_scoreboard.sv(219) @ 4145000: uvm_test_top.env.scb [axi4_scoreboard] [REF_MEM_WRITE] Addr=0x33af71c3 Data=0x09
# UVM_INFO ../src/env/axi4_scoreboard.sv(219) @ 4145000: uvm_test_top.env.scb [axi4_scoreboard] [REF_MEM_WRITE] Addr=0x33af71c3 Data=0x9b
# UVM_INFO ../src/env/axi4_scoreboard.sv(219) @ 4145000: uvm_test_top.env.scb [axi4_scoreboard] [REF_MEM_WRITE] Addr=0x33af71c4 Data=0x02
# UVM_INFO ../src/env/axi4_scoreboard.sv(219) @ 4145000: uvm_test_top.env.scb [axi4_scoreboard] [REF_MEM_WRITE] Addr=0x33af71c5 Data=0xa9
# UVM_INFO ../src/env/axi4_scoreboard.sv(219) @ 4145000: uvm_test_top.env.scb [axi4_scoreboard] [REF_MEM_WRITE] Addr=0x33af71c6 Data=0xb3
# UVM_INFO ../src/env/axi4_scoreboard.sv(219) @ 4145000: uvm_test_top.env.scb [axi4_scoreboard] [REF_MEM_WRITE] Addr=0x33af71c5 Data=0x79
# UVM_INFO ../src/env/axi4_scoreboard.sv(219) @ 4145000: uvm_test_top.env.scb [axi4_scoreboard] [REF_MEM_WRITE] Addr=0x33af71c7 Data=0x00
# UVM_INFO ../src/env/axi4_scoreboard.sv(219) @ 4145000: uvm_test_top.env.scb [axi4_scoreboard] [REF_MEM_WRITE] Addr=0x33af71c8 Data=0xdb
# UVM_INFO ../src/env/axi4_scoreboard.sv(219) @ 4145000: uvm_test_top.env.scb [axi4_scoreboard] [REF_MEM_WRITE] Addr=0x33af71ca Data=0x0c
# UVM_INFO ../src/env/axi4_scoreboard.sv(219) @ 4145000: uvm_test_top.env.scb [axi4_scoreboard] [REF_MEM_WRITE] Addr=0x33af71cb Data=0xda
# UVM_INFO ../src/env/axi4_scoreboard.sv(219) @ 4145000: uvm_test_top.env.scb [axi4_scoreboard] [REF_MEM_WRITE] Addr=0x33af71cc Data=0xc1
# UVM_INFO ../src/env/axi4_scoreboard.sv(219) @ 4145000: uvm_test_top.env.scb [axi4_scoreboard] [REF_MEM_WRITE] Addr=0x33af71cd Data=0x89
# UVM_INFO ../src/env/axi4_scoreboard.sv(219) @ 4145000: uvm_test_top.env.scb [axi4_scoreboard] [REF_MEM_WRITE] Addr=0x33af71ce Data=0x66
# UVM_INFO ../src/env/axi4_scoreboard.sv(219) @ 4145000: uvm_test_top.env.scb [axi4_scoreboard] [REF_MEM_WRITE] Addr=0x33af71cd Data=0xcc
# UVM_INFO ../src/env/axi4_scoreboard.sv(219) @ 4145000: uvm_test_top.env.scb [axi4_scoreboard] [REF_MEM_WRITE] Addr=0x33af71ce Data=0x6f
# UVM_INFO ../src/env/axi4_scoreboard.sv(219) @ 4145000: uvm_test_top.env.scb [axi4_scoreboard] [REF_MEM_WRITE] Addr=0x33af71d0 Data=0xe0
# UVM_INFO ../src/env/axi4_scoreboard.sv(219) @ 4145000: uvm_test_top.env.scb [axi4_scoreboard] [REF_MEM_WRITE] Addr=0x33af71d1 Data=0x4a
# UVM_INFO ../src/env/axi4_scoreboard.sv(219) @ 4145000: uvm_test_top.env.scb [axi4_scoreboard] [REF_MEM_WRITE] Addr=0x33af71d2 Data=0xdf
# UVM_INFO ../src/env/axi4_scoreboard.sv(219) @ 4145000: uvm_test_top.env.scb [axi4_scoreboard] [REF_MEM_WRITE] Addr=0x33af71d1 Data=0x82
# UVM_INFO ../src/env/axi4_scoreboard.sv(219) @ 4145000: uvm_test_top.env.scb [axi4_scoreboard] [REF_MEM_WRITE] Addr=0x33af71d4 Data=0x21
# UVM_INFO ../src/env/axi4_scoreboard.sv(219) @ 4145000: uvm_test_top.env.scb [axi4_scoreboard] [REF_MEM_WRITE] Addr=0x33af71d5 Data=0xe1
# UVM_INFO ../src/env/axi4_scoreboard.sv(219) @ 4145000: uvm_test_top.env.scb [axi4_scoreboard] [REF_MEM_WRITE] Addr=0x33af71d6 Data=0x99
# UVM_INFO ../src/env/axi4_scoreboard.sv(219) @ 4145000: uvm_test_top.env.scb [axi4_scoreboard] [REF_MEM_WRITE] Addr=0x33af71d7 Data=0x70
# UVM_INFO ../src/env/axi4_scoreboard.sv(219) @ 4145000: uvm_test_top.env.scb [axi4_scoreboard] [REF_MEM_WRITE] Addr=0x33af71d4 Data=0x61
# UVM_INFO ../src/env/axi4_scoreboard.sv(219) @ 4145000: uvm_test_top.env.scb [axi4_scoreboard] [REF_MEM_WRITE] Addr=0x33af71db Data=0x7a
# UVM_INFO ../src/env/axi4_scoreboard.sv(219) @ 4145000: uvm_test_top.env.scb [axi4_scoreboard] [REF_MEM_WRITE] Addr=0x33af71d8 Data=0x9d
# UVM_INFO ../src/env/axi4_scoreboard.sv(219) @ 4145000: uvm_test_top.env.scb [axi4_scoreboard] [REF_MEM_WRITE] Addr=0x33af71d9 Data=0xe7
# UVM_INFO ../src/env/axi4_scoreboard.sv(219) @ 4145000: uvm_test_top.env.scb [axi4_scoreboard] [REF_MEM_WRITE] Addr=0x33af71da Data=0x13
# UVM_INFO ../src/env/axi4_scoreboard.sv(219) @ 4145000: uvm_test_top.env.scb [axi4_scoreboard] [REF_MEM_WRITE] Addr=0x33af71dc Data=0x71
# UVM_INFO ../src/env/axi4_scoreboard.sv(219) @ 4145000: uvm_test_top.env.scb [axi4_scoreboard] [REF_MEM_WRITE] Addr=0x33af71dd Data=0x84
# UVM_INFO ../src/env/axi4_scoreboard.sv(219) @ 4145000: uvm_test_top.env.scb [axi4_scoreboard] [REF_MEM_WRITE] Addr=0x33af71dc Data=0xba
# UVM_INFO ../src/env/axi4_scoreboard.sv(219) @ 4145000: uvm_test_top.env.scb [axi4_scoreboard] [REF_MEM_WRITE] Addr=0x33af71de Data=0xed
# UVM_INFO ../src/env/axi4_scoreboard.sv(219) @ 4145000: uvm_test_top.env.scb [axi4_scoreboard] [REF_MEM_WRITE] Addr=0x33af71df Data=0x59
# UVM_INFO ../src/env/axi4_scoreboard.sv(219) @ 4145000: uvm_test_top.env.scb [axi4_scoreboard] [REF_MEM_WRITE] Addr=0x33af71e1 Data=0xde
# UVM_INFO ../src/env/axi4_scoreboard.sv(219) @ 4145000: uvm_test_top.env.scb [axi4_scoreboard] [REF_MEM_WRITE] Addr=0x33af71e2 Data=0xdc
# UVM_INFO ../src/env/axi4_scoreboard.sv(219) @ 4145000: uvm_test_top.env.scb [axi4_scoreboard] [REF_MEM_WRITE] Addr=0x33af71e1 Data=0x5b
# UVM_INFO ../src/env/axi4_scoreboard.sv(219) @ 4145000: uvm_test_top.env.scb [axi4_scoreboard] [REF_MEM_WRITE] Addr=0x33af71e3 Data=0x44
# UVM_INFO ../src/env/axi4_scoreboard.sv(219) @ 4145000: uvm_test_top.env.scb [axi4_scoreboard] [REF_MEM_WRITE] Addr=0x33af71e6 Data=0x3b
# UVM_INFO ../src/env/axi4_scoreboard.sv(219) @ 4145000: uvm_test_top.env.scb [axi4_scoreboard] [REF_MEM_WRITE] Addr=0x33af71e7 Data=0x04
# UVM_INFO ../src/env/axi4_scoreboard.sv(219) @ 4145000: uvm_test_top.env.scb [axi4_scoreboard] [REF_MEM_WRITE] Addr=0x33af71e4 Data=0x55
# UVM_INFO ../src/env/axi4_scoreboard.sv(219) @ 4145000: uvm_test_top.env.scb [axi4_scoreboard] [REF_MEM_WRITE] Addr=0x33af71e5 Data=0x60
# UVM_INFO ../src/env/axi4_scoreboard.sv(219) @ 4145000: uvm_test_top.env.scb [axi4_scoreboard] [REF_MEM_WRITE] Addr=0x33af71e8 Data=0xbf
# UVM_INFO ../src/env/axi4_scoreboard.sv(219) @ 4145000: uvm_test_top.env.scb [axi4_scoreboard] [REF_MEM_WRITE] Addr=0x33af71ea Data=0xf3
# UVM_INFO ../src/env/axi4_scoreboard.sv(219) @ 4145000: uvm_test_top.env.scb [axi4_scoreboard] [REF_MEM_WRITE] Addr=0x33af71eb Data=0x60
# UVM_INFO ../src/env/axi4_scoreboard.sv(219) @ 4145000: uvm_test_top.env.scb [axi4_scoreboard] [REF_MEM_WRITE] Addr=0x33af71e8 Data=0x9d
# UVM_INFO ../src/env/axi4_scoreboard.sv(219) @ 4145000: uvm_test_top.env.scb [axi4_scoreboard] [REF_MEM_WRITE] Addr=0x33af71ea Data=0x82
# UVM_INFO ../src/env/axi4_scoreboard.sv(219) @ 4145000: uvm_test_top.env.scb [axi4_scoreboard] [REF_MEM_WRITE] Addr=0x33af71ee Data=0x41
# UVM_INFO ../src/env/axi4_scoreboard.sv(219) @ 4145000: uvm_test_top.env.scb [axi4_scoreboard] [REF_MEM_WRITE] Addr=0x33af71ef Data=0xf2
# UVM_INFO ../src/env/axi4_scoreboard.sv(219) @ 4145000: uvm_test_top.env.scb [axi4_scoreboard] [REF_MEM_WRITE] Addr=0x33af71ec Data=0xd7
# UVM_INFO ../src/env/axi4_scoreboard.sv(219) @ 4145000: uvm_test_top.env.scb [axi4_scoreboard] [REF_MEM_WRITE] Addr=0x33af71ef Data=0xbd
# UVM_INFO ../src/env/axi4_scoreboard.sv(219) @ 4145000: uvm_test_top.env.scb [axi4_scoreboard] [REF_MEM_WRITE] Addr=0x33af71f1 Data=0x22
# UVM_INFO ../src/env/axi4_scoreboard.sv(219) @ 4145000: uvm_test_top.env.scb [axi4_scoreboard] [REF_MEM_WRITE] Addr=0x33af71f2 Data=0x54
# UVM_INFO ../src/env/axi4_scoreboard.sv(219) @ 4145000: uvm_test_top.env.scb [axi4_scoreboard] [REF_MEM_WRITE] Addr=0x33af71f0 Data=0x73
# UVM_INFO ../src/env/axi4_scoreboard.sv(219) @ 4145000: uvm_test_top.env.scb [axi4_scoreboard] [REF_MEM_WRITE] Addr=0x33af71f1 Data=0xd6
# UVM_INFO ../src/env/axi4_scoreboard.sv(219) @ 4145000: uvm_test_top.env.scb [axi4_scoreboard] [REF_MEM_WRITE] Addr=0x33af71f2 Data=0x00
# UVM_INFO ../src/env/axi4_scoreboard.sv(219) @ 4145000: uvm_test_top.env.scb [axi4_scoreboard] [REF_MEM_WRITE] Addr=0x33af71f6 Data=0xab
# UVM_INFO ../src/env/axi4_scoreboard.sv(219) @ 4145000: uvm_test_top.env.scb [axi4_scoreboard] [REF_MEM_WRITE] Addr=0x33af71f4 Data=0x49
# UVM_INFO ../src/env/axi4_scoreboard.sv(219) @ 4145000: uvm_test_top.env.scb [axi4_scoreboard] [REF_MEM_WRITE] Addr=0x33af71f5 Data=0x82
# UVM_INFO ../src/env/axi4_scoreboard.sv(219) @ 4145000: uvm_test_top.env.scb [axi4_scoreboard] [REF_MEM_WRITE] Addr=0x33af71f6 Data=0xee
# UVM_INFO ../src/env/axi4_scoreboard.sv(219) @ 4145000: uvm_test_top.env.scb [axi4_scoreboard] [REF_MEM_WRITE] Addr=0x33af71fa Data=0xcf
# UVM_INFO ../src/env/axi4_scoreboard.sv(219) @ 4145000: uvm_test_top.env.scb [axi4_scoreboard] [REF_MEM_WRITE] Addr=0x33af71fb Data=0xe6
# UVM_INFO ../src/env/axi4_scoreboard.sv(219) @ 4145000: uvm_test_top.env.scb [axi4_scoreboard] [REF_MEM_WRITE] Addr=0x33af71fc Data=0xbc
# UVM_INFO ../src/env/axi4_scoreboard.sv(219) @ 4145000: uvm_test_top.env.scb [axi4_scoreboard] [REF_MEM_WRITE] Addr=0x33af71fd Data=0xe5
# UVM_INFO ../src/env/axi4_scoreboard.sv(219) @ 4145000: uvm_test_top.env.scb [axi4_scoreboard] [REF_MEM_WRITE] Addr=0x33af71fd Data=0x88
# UVM_INFO ../src/env/axi4_scoreboard.sv(219) @ 4145000: uvm_test_top.env.scb [axi4_scoreboard] [REF_MEM_WRITE] Addr=0x33af71fe Data=0xb3
# UVM_INFO ../src/env/axi4_scoreboard.sv(219) @ 4145000: uvm_test_top.env.scb [axi4_scoreboard] [REF_MEM_WRITE] Addr=0x33af7200 Data=0x3b
# UVM_INFO ../src/env/axi4_scoreboard.sv(219) @ 4145000: uvm_test_top.env.scb [axi4_scoreboard] [REF_MEM_WRITE] Addr=0x33af7201 Data=0xd6
# UVM_INFO ../src/env/axi4_scoreboard.sv(219) @ 4145000: uvm_test_top.env.scb [axi4_scoreboard] [REF_MEM_WRITE] Addr=0x33af7202 Data=0xb1
# UVM_INFO ../src/env/axi4_scoreboard.sv(219) @ 4145000: uvm_test_top.env.scb [axi4_scoreboard] [REF_MEM_WRITE] Addr=0x33af7203 Data=0x58
# UVM_INFO ../src/env/axi4_scoreboard.sv(219) @ 4145000: uvm_test_top.env.scb [axi4_scoreboard] [REF_MEM_WRITE] Addr=0x33af7200 Data=0x36
# UVM_INFO ../src/env/axi4_scoreboard.sv(219) @ 4145000: uvm_test_top.env.scb [axi4_scoreboard] [REF_MEM_WRITE] Addr=0x33af7203 Data=0x30
# UVM_INFO ../src/env/axi4_scoreboard.sv(219) @ 4145000: uvm_test_top.env.scb [axi4_scoreboard] [REF_MEM_WRITE] Addr=0x33af7204 Data=0x1d
# UVM_INFO ../src/env/axi4_scoreboard.sv(219) @ 4145000: uvm_test_top.env.scb [axi4_scoreboard] [REF_MEM_WRITE] Addr=0x33af7204 Data=0x0f
# UVM_INFO ../src/env/axi4_scoreboard.sv(219) @ 4145000: uvm_test_top.env.scb [axi4_scoreboard] [REF_MEM_WRITE] Addr=0x33af7205 Data=0x88
# UVM_INFO ../src/env/axi4_scoreboard.sv(219) @ 4145000: uvm_test_top.env.scb [axi4_scoreboard] [REF_MEM_WRITE] Addr=0x33af7207 Data=0xa3
# UVM_INFO ../src/env/axi4_scoreboard.sv(219) @ 4145000: uvm_test_top.env.scb [axi4_scoreboard] [REF_MEM_WRITE] Addr=0x33af7209 Data=0x0e
# UVM_INFO ../src/env/axi4_scoreboard.sv(219) @ 4145000: uvm_test_top.env.scb [axi4_scoreboard] [REF_MEM_WRITE] Addr=0x33af720a Data=0x2e
# UVM_INFO ../src/env/axi4_scoreboard.sv(219) @ 4145000: uvm_test_top.env.scb [axi4_scoreboard] [REF_MEM_WRITE] Addr=0x33af7208 Data=0xa2
# UVM_INFO ../src/env/axi4_scoreboard.sv(219) @ 4145000: uvm_test_top.env.scb [axi4_scoreboard] [REF_MEM_WRITE] Addr=0x33af720b Data=0x59
# UVM_INFO ../src/env/axi4_scoreboard.sv(219) @ 4145000: uvm_test_top.env.scb [axi4_scoreboard] [REF_MEM_WRITE] Addr=0x33af720c Data=0xf0
# UVM_INFO ../src/env/axi4_scoreboard.sv(219) @ 4145000: uvm_test_top.env.scb [axi4_scoreboard] [REF_MEM_WRITE] Addr=0x33af720e Data=0x4d
# UVM_INFO ../src/env/axi4_scoreboard.sv(219) @ 4145000: uvm_test_top.env.scb [axi4_scoreboard] [REF_MEM_WRITE] Addr=0x33af720e Data=0x66
# UVM_INFO ../src/env/axi4_scoreboard.sv(219) @ 4145000: uvm_test_top.env.scb [axi4_scoreboard] [REF_MEM_WRITE] Addr=0x33af720f Data=0x03
# UVM_INFO ../src/env/axi4_scoreboard.sv(219) @ 4145000: uvm_test_top.env.scb [axi4_scoreboard] [REF_MEM_WRITE] Addr=0x33af7210 Data=0x00
# UVM_INFO ../src/env/axi4_scoreboard.sv(219) @ 4145000: uvm_test_top.env.scb [axi4_scoreboard] [REF_MEM_WRITE] Addr=0x33af7211 Data=0x30
# UVM_INFO ../src/env/axi4_scoreboard.sv(219) @ 4145000: uvm_test_top.env.scb [axi4_scoreboard] [REF_MEM_WRITE] Addr=0x33af7212 Data=0x25
# UVM_INFO ../src/env/axi4_scoreboard.sv(219) @ 4145000: uvm_test_top.env.scb [axi4_scoreboard] [REF_MEM_WRITE] Addr=0x33af7214 Data=0xbb
# UVM_INFO ../src/env/axi4_scoreboard.sv(219) @ 4145000: uvm_test_top.env.scb [axi4_scoreboard] [REF_MEM_WRITE] Addr=0x33af7216 Data=0xdf
# UVM_INFO ../src/env/axi4_scoreboard.sv(219) @ 4145000: uvm_test_top.env.scb [axi4_scoreboard] [REF_MEM_WRITE] Addr=0x33af7214 Data=0x2f
# UVM_INFO ../src/env/axi4_scoreboard.sv(219) @ 4145000: uvm_test_top.env.scb [axi4_scoreboard] [REF_MEM_WRITE] Addr=0x33af7215 Data=0xd5
# UVM_INFO ../src/env/axi4_scoreboard.sv(219) @ 4145000: uvm_test_top.env.scb [axi4_scoreboard] [REF_MEM_WRITE] Addr=0x33af7216 Data=0x58
# UVM_INFO ../src/env/axi4_scoreboard.sv(219) @ 4145000: uvm_test_top.env.scb [axi4_scoreboard] [REF_MEM_WRITE] Addr=0x33af7217 Data=0x4c
# UVM_INFO ../src/env/axi4_scoreboard.sv(219) @ 4145000: uvm_test_top.env.scb [axi4_scoreboard] [REF_MEM_WRITE] Addr=0x33af721b Data=0xea
# UVM_INFO ../src/env/axi4_scoreboard.sv(219) @ 4145000: uvm_test_top.env.scb [axi4_scoreboard] [REF_MEM_WRITE] Addr=0x33af7218 Data=0xfd
# UVM_INFO ../src/env/axi4_scoreboard.sv(219) @ 4145000: uvm_test_top.env.scb [axi4_scoreboard] [REF_MEM_WRITE] Addr=0x33af7219 Data=0x11
# UVM_INFO ../src/env/axi4_scoreboard.sv(219) @ 4145000: uvm_test_top.env.scb [axi4_scoreboard] [REF_MEM_WRITE] Addr=0x33af721a Data=0x12
# UVM_INFO ../src/env/axi4_scoreboard.sv(219) @ 4145000: uvm_test_top.env.scb [axi4_scoreboard] [REF_MEM_WRITE] Addr=0x33af721d Data=0x3a
# UVM_INFO ../src/env/axi4_scoreboard.sv(219) @ 4145000: uvm_test_top.env.scb [axi4_scoreboard] [REF_MEM_WRITE] Addr=0x33af721c Data=0x4d
# UVM_INFO ../src/env/axi4_scoreboard.sv(219) @ 4145000: uvm_test_top.env.scb [axi4_scoreboard] [REF_MEM_WRITE] Addr=0x33af721d Data=0x1f
# UVM_INFO ../src/env/axi4_scoreboard.sv(219) @ 4145000: uvm_test_top.env.scb [axi4_scoreboard] [REF_MEM_WRITE] Addr=0x33af721e Data=0x8d
# UVM_INFO ../src/env/axi4_scoreboard.sv(219) @ 4145000: uvm_test_top.env.scb [axi4_scoreboard] [REF_MEM_WRITE] Addr=0x33af721f Data=0xe2
# UVM_INFO ../src/env/axi4_scoreboard.sv(219) @ 4145000: uvm_test_top.env.scb [axi4_scoreboard] [REF_MEM_WRITE] Addr=0x33af7220 Data=0x92
# UVM_INFO ../src/env/axi4_scoreboard.sv(219) @ 4145000: uvm_test_top.env.scb [axi4_scoreboard] [REF_MEM_WRITE] Addr=0x33af7221 Data=0x03
# UVM_INFO ../src/env/axi4_scoreboard.sv(219) @ 4145000: uvm_test_top.env.scb [axi4_scoreboard] [REF_MEM_WRITE] Addr=0x33af7222 Data=0x85
# UVM_INFO ../src/env/axi4_scoreboard.sv(219) @ 4145000: uvm_test_top.env.scb [axi4_scoreboard] [REF_MEM_WRITE] Addr=0x33af7223 Data=0x23
# UVM_INFO ../src/env/axi4_scoreboard.sv(219) @ 4145000: uvm_test_top.env.scb [axi4_scoreboard] [REF_MEM_WRITE] Addr=0x33af7220 Data=0x65
# UVM_INFO ../src/env/axi4_scoreboard.sv(219) @ 4145000: uvm_test_top.env.scb [axi4_scoreboard] [REF_MEM_WRITE] Addr=0x33af7221 Data=0xcd
# UVM_INFO ../src/env/axi4_scoreboard.sv(219) @ 4145000: uvm_test_top.env.scb [axi4_scoreboard] [REF_MEM_WRITE] Addr=0x33af7224 Data=0xc5
# UVM_INFO ../src/env/axi4_scoreboard.sv(219) @ 4145000: uvm_test_top.env.scb [axi4_scoreboard] [REF_MEM_WRITE] Addr=0x33af7225 Data=0x24
# UVM_INFO ../src/env/axi4_scoreboard.sv(219) @ 4145000: uvm_test_top.env.scb [axi4_scoreboard] [REF_MEM_WRITE] Addr=0x33af7227 Data=0x50
# UVM_INFO ../src/env/axi4_scoreboard.sv(219) @ 4145000: uvm_test_top.env.scb [axi4_scoreboard] [REF_MEM_WRITE] Addr=0x33af7224 Data=0xc8
# UVM_INFO ../src/env/axi4_scoreboard.sv(219) @ 4145000: uvm_test_top.env.scb [axi4_scoreboard] [REF_MEM_WRITE] Addr=0x33af7225 Data=0xb3
# UVM_INFO ../src/env/axi4_scoreboard.sv(219) @ 4145000: uvm_test_top.env.scb [axi4_scoreboard] [REF_MEM_WRITE] Addr=0x33af7226 Data=0x19
# UVM_INFO ../src/env/axi4_scoreboard.sv(219) @ 4145000: uvm_test_top.env.scb [axi4_scoreboard] [REF_MEM_WRITE] Addr=0x33af7228 Data=0x4e
# UVM_INFO ../src/env/axi4_scoreboard.sv(219) @ 4145000: uvm_test_top.env.scb [axi4_scoreboard] [REF_MEM_WRITE] Addr=0x33af7229 Data=0x2b
# UVM_INFO ../src/env/axi4_scoreboard.sv(219) @ 4145000: uvm_test_top.env.scb [axi4_scoreboard] [REF_MEM_WRITE] Addr=0x33af722b Data=0x94
# UVM_INFO ../src/env/axi4_scoreboard.sv(219) @ 4145000: uvm_test_top.env.scb [axi4_scoreboard] [REF_MEM_WRITE] Addr=0x33af7229 Data=0xaa
# UVM_INFO ../src/env/axi4_scoreboard.sv(219) @ 4145000: uvm_test_top.env.scb [axi4_scoreboard] [REF_MEM_WRITE] Addr=0x33af722a Data=0x70
# UVM_INFO ../src/env/axi4_scoreboard.sv(219) @ 4145000: uvm_test_top.env.scb [axi4_scoreboard] [REF_MEM_WRITE] Addr=0x33af722b Data=0xef
# UVM_INFO ../src/env/axi4_scoreboard.sv(219) @ 4145000: uvm_test_top.env.scb [axi4_scoreboard] [REF_MEM_WRITE] Addr=0x33af722c Data=0xe0
# UVM_INFO ../src/env/axi4_scoreboard.sv(219) @ 4145000: uvm_test_top.env.scb [axi4_scoreboard] [REF_MEM_WRITE] Addr=0x33af722c Data=0x43
# UVM_INFO ../src/env/axi4_scoreboard.sv(219) @ 4145000: uvm_test_top.env.scb [axi4_scoreboard] [REF_MEM_WRITE] Addr=0x33af722f Data=0x01
# UVM_INFO ../src/slv/axi4_slave_monitor.sv(167) @ 4435000: uvm_test_top.env.slave_agent.mon [axi4_slave_monitor] W data assembled: ID=0x6 ADDR=0xba96fbb0 16 beats
# UVM_INFO ../src/mst/axi4_master_monitor.sv(184) @ 4435000: uvm_test_top.env.master_agent.mon [axi4_master_monitor] W data assembled: ID=0x6 ADDR=0xba96fbb0 16 beats
# UVM_INFO ../src/mst/axi4_master_driver.sv(289) @ 4465000: uvm_test_top.env.master_agent.drv [axi4_master_driver] Master driver received B response: ID=0x6 RESP=AXI4_RESP_OKAY
# UVM_INFO ../src/slv/axi4_slave_driver.sv(320) @ 4465000: uvm_test_top.env.slave_agent.drv [axi4_slave_driver] Write complete: ID=0x6 RESP=AXI4_RESP_OKAY
# UVM_INFO ../src/mst/axi4_master_monitor.sv(210) @ 4465000: uvm_test_top.env.master_agent.mon [axi4_master_monitor] Write complete: ID=0x6 ADDR=0xba96fbb0 RESP=AXI4_RESP_OKAY
# UVM_INFO ../src/env/axi4_scoreboard.sv(87) @ 4465000: uvm_test_top.env.scb [axi4_scoreboard] Master AXI4_WRITE received: ID=0x6 ADDR=0xba96fbb0 LEN=15
# UVM_INFO ../src/slv/axi4_slave_monitor.sv(189) @ 4465000: uvm_test_top.env.slave_agent.mon [axi4_slave_monitor] Write response sent: ID=0x6 ADDR=0xba96fbb0 RESP=AXI4_RESP_OKAY
# UVM_INFO ../src/env/axi4_scoreboard.sv(108) @ 4465000: uvm_test_top.env.scb [axi4_scoreboard] Slave AXI4_WRITE received: ID=0x6 ADDR=0xba96fbb0 LEN=15
# UVM_INFO ../src/env/axi4_scoreboard.sv(291) @ 4465000: uvm_test_top.env.scb [axi4_scoreboard] [WRITE] MATCH #3: ID=0x6 ADDR=0xba96fbb0 LEN=15
# UVM_INFO ../src/env/axi4_scoreboard.sv(226) @ 4465000: uvm_test_top.env.scb [axi4_scoreboard] [REF_MEM_WRITE_IGNORED] Write ignored for ADDR=0xba96fbb0 LOCK=AXI4_LOCK_EXCLUSIVE RESP=AXI4_RESP_OKAY
# UVM_INFO ../src/mst/axi4_master_driver.sv(348) @ 5275000: uvm_test_top.env.master_agent.drv [axi4_master_driver] Master driver received all R beats for ID=0xb
# UVM_INFO ../src/slv/axi4_slave_driver.sv(464) @ 5275000: uvm_test_top.env.slave_agent.drv [axi4_slave_driver] Read complete: ID=0xb ADDR=0xae092b5e RESP=AXI4_RESP_EXOKAY  187 beats sent
# UVM_INFO ../src/slv/axi4_slave_monitor.sv(287) @ 5275000: uvm_test_top.env.slave_agent.mon [axi4_slave_monitor] Read data sent: ID=0xb ADDR=0xae092b5e 187 beats
# UVM_INFO ../src/env/axi4_scoreboard.sv(108) @ 5275000: uvm_test_top.env.scb [axi4_scoreboard] Slave AXI4_READ received: ID=0xb ADDR=0xae092b5e LEN=186
# UVM_INFO ../src/mst/axi4_master_monitor.sv(314) @ 5275000: uvm_test_top.env.master_agent.mon [axi4_master_monitor] Read complete: ID=0xb ADDR=0xae092b5e 187 beats
# UVM_INFO ../src/env/axi4_scoreboard.sv(87) @ 5275000: uvm_test_top.env.scb [axi4_scoreboard] Master AXI4_READ received: ID=0xb ADDR=0xae092b5e LEN=186
# UVM_INFO ../src/env/axi4_scoreboard.sv(291) @ 5275000: uvm_test_top.env.scb [axi4_scoreboard] [READ] MATCH #4: ID=0xb ADDR=0xae092b5e LEN=186
# UVM_INFO ../src/mst/axi4_master_driver.sv(348) @ 8535000: uvm_test_top.env.master_agent.drv [axi4_master_driver] Master driver received all R beats for ID=0x5
# UVM_INFO ../src/slv/axi4_slave_driver.sv(464) @ 8535000: uvm_test_top.env.slave_agent.drv [axi4_slave_driver] Read complete: ID=0x5 ADDR=0x5471a128 RESP=AXI4_RESP_EXOKAY  163 beats sent
# UVM_INFO ../src/slv/axi4_slave_monitor.sv(287) @ 8535000: uvm_test_top.env.slave_agent.mon [axi4_slave_monitor] Read data sent: ID=0x5 ADDR=0x5471a128 163 beats
# UVM_INFO ../src/env/axi4_scoreboard.sv(108) @ 8535000: uvm_test_top.env.scb [axi4_scoreboard] Slave AXI4_READ received: ID=0x5 ADDR=0x5471a128 LEN=162
# UVM_INFO ../src/mst/axi4_master_monitor.sv(314) @ 8535000: uvm_test_top.env.master_agent.mon [axi4_master_monitor] Read complete: ID=0x5 ADDR=0x5471a128 163 beats
# UVM_INFO ../src/env/axi4_scoreboard.sv(87) @ 8535000: uvm_test_top.env.scb [axi4_scoreboard] Master AXI4_READ received: ID=0x5 ADDR=0x5471a128 LEN=162
# UVM_INFO ../src/env/axi4_scoreboard.sv(291) @ 8535000: uvm_test_top.env.scb [axi4_scoreboard] [READ] MATCH #5: ID=0x5 ADDR=0x5471a128 LEN=162
# UVM_INFO ../src/slv/axi4_slave_monitor.sv(167) @ 8915000: uvm_test_top.env.slave_agent.mon [axi4_slave_monitor] W data assembled: ID=0x8 ADDR=0x1c8a3e28 224 beats
# UVM_INFO ../src/mst/axi4_master_monitor.sv(184) @ 8915000: uvm_test_top.env.master_agent.mon [axi4_master_monitor] W data assembled: ID=0x8 ADDR=0x1c8a3e28 224 beats
# UVM_INFO ../src/mst/axi4_master_driver.sv(289) @ 8945000: uvm_test_top.env.master_agent.drv [axi4_master_driver] Master driver received B response: ID=0x8 RESP=AXI4_RESP_OKAY
# UVM_INFO ../src/slv/axi4_slave_driver.sv(320) @ 8945000: uvm_test_top.env.slave_agent.drv [axi4_slave_driver] Write complete: ID=0x8 RESP=AXI4_RESP_OKAY
# UVM_INFO ../src/mst/axi4_master_monitor.sv(210) @ 8945000: uvm_test_top.env.master_agent.mon [axi4_master_monitor] Write complete: ID=0x8 ADDR=0x1c8a3e28 RESP=AXI4_RESP_OKAY
# UVM_INFO ../src/env/axi4_scoreboard.sv(87) @ 8945000: uvm_test_top.env.scb [axi4_scoreboard] Master AXI4_WRITE received: ID=0x8 ADDR=0x1c8a3e28 LEN=223
# UVM_INFO ../src/slv/axi4_slave_monitor.sv(189) @ 8945000: uvm_test_top.env.slave_agent.mon [axi4_slave_monitor] Write response sent: ID=0x8 ADDR=0x1c8a3e28 RESP=AXI4_RESP_OKAY
# UVM_INFO ../src/env/axi4_scoreboard.sv(108) @ 8945000: uvm_test_top.env.scb [axi4_scoreboard] Slave AXI4_WRITE received: ID=0x8 ADDR=0x1c8a3e28 LEN=223
# UVM_INFO ../src/env/axi4_scoreboard.sv(291) @ 8945000: uvm_test_top.env.scb [axi4_scoreboard] [WRITE] MATCH #6: ID=0x8 ADDR=0x1c8a3e28 LEN=223
# UVM_INFO ../src/env/axi4_scoreboard.sv(219) @ 8945000: uvm_test_top.env.scb [axi4_scoreboard] [REF_MEM_WRITE] Addr=0x1c8a3e2a Data=0x46
# UVM_INFO ../src/env/axi4_scoreboard.sv(219) @ 8945000: uvm_test_top.env.scb [axi4_scoreboard] [REF_MEM_WRITE] Addr=0x1c8a3e28 Data=0x9d
# UVM_INFO ../src/env/axi4_scoreboard.sv(219) @ 8945000: uvm_test_top.env.scb [axi4_scoreboard] [REF_MEM_WRITE] Addr=0x1c8a3e2a Data=0x93
# UVM_INFO ../src/env/axi4_scoreboard.sv(219) @ 8945000: uvm_test_top.env.scb [axi4_scoreboard] [REF_MEM_WRITE] Addr=0x1c8a3e2b Data=0xee
# UVM_INFO ../src/env/axi4_scoreboard.sv(219) @ 8945000: uvm_test_top.env.scb [axi4_scoreboard] [REF_MEM_WRITE] Addr=0x1c8a3e2c Data=0x5c
# UVM_INFO ../src/env/axi4_scoreboard.sv(219) @ 8945000: uvm_test_top.env.scb [axi4_scoreboard] [REF_MEM_WRITE] Addr=0x1c8a3e2f Data=0x57
# UVM_INFO ../src/env/axi4_scoreboard.sv(219) @ 8945000: uvm_test_top.env.scb [axi4_scoreboard] [REF_MEM_WRITE] Addr=0x1c8a3e2f Data=0x57
# UVM_INFO ../src/env/axi4_scoreboard.sv(219) @ 8945000: uvm_test_top.env.scb [axi4_scoreboard] [REF_MEM_WRITE] Addr=0x1c8a3e30 Data=0x23
# UVM_INFO ../src/env/axi4_scoreboard.sv(219) @ 8945000: uvm_test_top.env.scb [axi4_scoreboard] [REF_MEM_WRITE] Addr=0x1c8a3e32 Data=0x9e
# UVM_INFO ../src/env/axi4_scoreboard.sv(219) @ 8945000: uvm_test_top.env.scb [axi4_scoreboard] [REF_MEM_WRITE] Addr=0x1c8a3e30 Data=0x77
# UVM_INFO ../src/env/axi4_scoreboard.sv(219) @ 8945000: uvm_test_top.env.scb [axi4_scoreboard] [REF_MEM_WRITE] Addr=0x1c8a3e31 Data=0x2a
# UVM_INFO ../src/env/axi4_scoreboard.sv(219) @ 8945000: uvm_test_top.env.scb [axi4_scoreboard] [REF_MEM_WRITE] Addr=0x1c8a3e32 Data=0x68
# UVM_INFO ../src/env/axi4_scoreboard.sv(219) @ 8945000: uvm_test_top.env.scb [axi4_scoreboard] [REF_MEM_WRITE] Addr=0x1c8a3e34 Data=0xb9
# UVM_INFO ../src/env/axi4_scoreboard.sv(219) @ 8945000: uvm_test_top.env.scb [axi4_scoreboard] [REF_MEM_WRITE] Addr=0x1c8a3e37 Data=0x8b
# UVM_INFO ../src/env/axi4_scoreboard.sv(219) @ 8945000: uvm_test_top.env.scb [axi4_scoreboard] [REF_MEM_WRITE] Addr=0x1c8a3e34 Data=0x96
# UVM_INFO ../src/env/axi4_scoreboard.sv(219) @ 8945000: uvm_test_top.env.scb [axi4_scoreboard] [REF_MEM_WRITE] Addr=0x1c8a3e35 Data=0x34
# UVM_INFO ../src/env/axi4_scoreboard.sv(219) @ 8945000: uvm_test_top.env.scb [axi4_scoreboard] [REF_MEM_WRITE] Addr=0x1c8a3e36 Data=0xee
# UVM_INFO ../src/env/axi4_scoreboard.sv(219) @ 8945000: uvm_test_top.env.scb [axi4_scoreboard] [REF_MEM_WRITE] Addr=0x1c8a3e37 Data=0xf8
# UVM_INFO ../src/env/axi4_scoreboard.sv(219) @ 8945000: uvm_test_top.env.scb [axi4_scoreboard] [REF_MEM_WRITE] Addr=0x1c8a3e3a Data=0x6d
# UVM_INFO ../src/env/axi4_scoreboard.sv(219) @ 8945000: uvm_test_top.env.scb [axi4_scoreboard] [REF_MEM_WRITE] Addr=0x1c8a3e39 Data=0xdf
# UVM_INFO ../src/env/axi4_scoreboard.sv(219) @ 8945000: uvm_test_top.env.scb [axi4_scoreboard] [REF_MEM_WRITE] Addr=0x1c8a3e3a Data=0xff
# UVM_INFO ../src/env/axi4_scoreboard.sv(219) @ 8945000: uvm_test_top.env.scb [axi4_scoreboard] [REF_MEM_WRITE] Addr=0x1c8a3e3b Data=0x3c
# UVM_INFO ../src/env/axi4_scoreboard.sv(219) @ 8945000: uvm_test_top.env.scb [axi4_scoreboard] [REF_MEM_WRITE] Addr=0x1c8a3e3c Data=0x93
# UVM_INFO ../src/env/axi4_scoreboard.sv(219) @ 8945000: uvm_test_top.env.scb [axi4_scoreboard] [REF_MEM_WRITE] Addr=0x1c8a3e3e Data=0xc0
# UVM_INFO ../src/env/axi4_scoreboard.sv(219) @ 8945000: uvm_test_top.env.scb [axi4_scoreboard] [REF_MEM_WRITE] Addr=0x1c8a3e3f Data=0x5a
# UVM_INFO ../src/env/axi4_scoreboard.sv(219) @ 8945000: uvm_test_top.env.scb [axi4_scoreboard] [REF_MEM_WRITE] Addr=0x1c8a3e3f Data=0x22
# UVM_INFO ../src/env/axi4_scoreboard.sv(219) @ 8945000: uvm_test_top.env.scb [axi4_scoreboard] [REF_MEM_WRITE] Addr=0x1c8a3e40 Data=0x5e
# UVM_INFO ../src/env/axi4_scoreboard.sv(219) @ 8945000: uvm_test_top.env.scb [axi4_scoreboard] [REF_MEM_WRITE] Addr=0x1c8a3e41 Data=0xa6
# UVM_INFO ../src/env/axi4_scoreboard.sv(219) @ 8945000: uvm_test_top.env.scb [axi4_scoreboard] [REF_MEM_WRITE] Addr=0x1c8a3e42 Data=0x66
# UVM_INFO ../src/env/axi4_scoreboard.sv(219) @ 8945000: uvm_test_top.env.scb [axi4_scoreboard] [REF_MEM_WRITE] Addr=0x1c8a3e40 Data=0x8f
# UVM_INFO ../src/env/axi4_scoreboard.sv(219) @ 8945000: uvm_test_top.env.scb [axi4_scoreboard] [REF_MEM_WRITE] Addr=0x1c8a3e44 Data=0xe3
# UVM_INFO ../src/env/axi4_scoreboard.sv(219) @ 8945000: uvm_test_top.env.scb [axi4_scoreboard] [REF_MEM_WRITE] Addr=0x1c8a3e45 Data=0x81
# UVM_INFO ../src/env/axi4_scoreboard.sv(219) @ 8945000: uvm_test_top.env.scb [axi4_scoreboard] [REF_MEM_WRITE] Addr=0x1c8a3e46 Data=0x92
# UVM_INFO ../src/env/axi4_scoreboard.sv(219) @ 8945000: uvm_test_top.env.scb [axi4_scoreboard] [REF_MEM_WRITE] Addr=0x1c8a3e47 Data=0xa6
# UVM_INFO ../src/env/axi4_scoreboard.sv(219) @ 8945000: uvm_test_top.env.scb [axi4_scoreboard] [REF_MEM_WRITE] Addr=0x1c8a3e44 Data=0x26
# UVM_INFO ../src/env/axi4_scoreboard.sv(219) @ 8945000: uvm_test_top.env.scb [axi4_scoreboard] [REF_MEM_WRITE] Addr=0x1c8a3e45 Data=0x2f
# UVM_INFO ../src/env/axi4_scoreboard.sv(219) @ 8945000: uvm_test_top.env.scb [axi4_scoreboard] [REF_MEM_WRITE] Addr=0x1c8a3e47 Data=0x00
# UVM_INFO ../src/env/axi4_scoreboard.sv(219) @ 8945000: uvm_test_top.env.scb [axi4_scoreboard] [REF_MEM_WRITE] Addr=0x1c8a3e49 Data=0xba
# UVM_INFO ../src/env/axi4_scoreboard.sv(219) @ 8945000: uvm_test_top.env.scb [axi4_scoreboard] [REF_MEM_WRITE] Addr=0x1c8a3e4a Data=0x15
# UVM_INFO ../src/env/axi4_scoreboard.sv(219) @ 8945000: uvm_test_top.env.scb [axi4_scoreboard] [REF_MEM_WRITE] Addr=0x1c8a3e4a Data=0x82
# UVM_INFO ../src/env/axi4_scoreboard.sv(219) @ 8945000: uvm_test_top.env.scb [axi4_scoreboard] [REF_MEM_WRITE] Addr=0x1c8a3e4c Data=0xe8
# UVM_INFO ../src/env/axi4_scoreboard.sv(219) @ 8945000: uvm_test_top.env.scb [axi4_scoreboard] [REF_MEM_WRITE] Addr=0x1c8a3e4d Data=0xee
# UVM_INFO ../src/env/axi4_scoreboard.sv(219) @ 8945000: uvm_test_top.env.scb [axi4_scoreboard] [REF_MEM_WRITE] Addr=0x1c8a3e4f Data=0x28
# UVM_INFO ../src/env/axi4_scoreboard.sv(219) @ 8945000: uvm_test_top.env.scb [axi4_scoreboard] [REF_MEM_WRITE] Addr=0x1c8a3e4c Data=0x21
# UVM_INFO ../src/env/axi4_scoreboard.sv(219) @ 8945000: uvm_test_top.env.scb [axi4_scoreboard] [REF_MEM_WRITE] Addr=0x1c8a3e4d Data=0x06
# UVM_INFO ../src/env/axi4_scoreboard.sv(219) @ 8945000: uvm_test_top.env.scb [axi4_scoreboard] [REF_MEM_WRITE] Addr=0x1c8a3e4f Data=0xb0
# UVM_INFO ../src/env/axi4_scoreboard.sv(219) @ 8945000: uvm_test_top.env.scb [axi4_scoreboard] [REF_MEM_WRITE] Addr=0x1c8a3e50 Data=0x06
# UVM_INFO ../src/env/axi4_scoreboard.sv(219) @ 8945000: uvm_test_top.env.scb [axi4_scoreboard] [REF_MEM_WRITE] Addr=0x1c8a3e56 Data=0xe0
# UVM_INFO ../src/env/axi4_scoreboard.sv(219) @ 8945000: uvm_test_top.env.scb [axi4_scoreboard] [REF_MEM_WRITE] Addr=0x1c8a3e55 Data=0xc2
# UVM_INFO ../src/env/axi4_scoreboard.sv(219) @ 8945000: uvm_test_top.env.scb [axi4_scoreboard] [REF_MEM_WRITE] Addr=0x1c8a3e57 Data=0xea
# UVM_INFO ../src/env/axi4_scoreboard.sv(219) @ 8945000: uvm_test_top.env.scb [axi4_scoreboard] [REF_MEM_WRITE] Addr=0x1c8a3e5b Data=0x9d
# UVM_INFO ../src/env/axi4_scoreboard.sv(219) @ 8945000: uvm_test_top.env.scb [axi4_scoreboard] [REF_MEM_WRITE] Addr=0x1c8a3e5c Data=0x63
# UVM_INFO ../src/env/axi4_scoreboard.sv(219) @ 8945000: uvm_test_top.env.scb [axi4_scoreboard] [REF_MEM_WRITE] Addr=0x1c8a3e5d Data=0x8e
# UVM_INFO ../src/env/axi4_scoreboard.sv(219) @ 8945000: uvm_test_top.env.scb [axi4_scoreboard] [REF_MEM_WRITE] Addr=0x1c8a3e5e Data=0x69
# UVM_INFO ../src/env/axi4_scoreboard.sv(219) @ 8945000: uvm_test_top.env.scb [axi4_scoreboard] [REF_MEM_WRITE] Addr=0x1c8a3e5c Data=0x14
# UVM_INFO ../src/env/axi4_scoreboard.sv(219) @ 8945000: uvm_test_top.env.scb [axi4_scoreboard] [REF_MEM_WRITE] Addr=0x1c8a3e5f Data=0x70
# UVM_INFO ../src/env/axi4_scoreboard.sv(219) @ 8945000: uvm_test_top.env.scb [axi4_scoreboard] [REF_MEM_WRITE] Addr=0x1c8a3e60 Data=0xed
# UVM_INFO ../src/env/axi4_scoreboard.sv(219) @ 8945000: uvm_test_top.env.scb [axi4_scoreboard] [REF_MEM_WRITE] Addr=0x1c8a3e62 Data=0x35
# UVM_INFO ../src/env/axi4_scoreboard.sv(219) @ 8945000: uvm_test_top.env.scb [axi4_scoreboard] [REF_MEM_WRITE] Addr=0x1c8a3e63 Data=0x18
# UVM_INFO ../src/env/axi4_scoreboard.sv(219) @ 8945000: uvm_test_top.env.scb [axi4_scoreboard] [REF_MEM_WRITE] Addr=0x1c8a3e64 Data=0xc2
# UVM_INFO ../src/env/axi4_scoreboard.sv(219) @ 8945000: uvm_test_top.env.scb [axi4_scoreboard] [REF_MEM_WRITE] Addr=0x1c8a3e65 Data=0x85
# UVM_INFO ../src/env/axi4_scoreboard.sv(219) @ 8945000: uvm_test_top.env.scb [axi4_scoreboard] [REF_MEM_WRITE] Addr=0x1c8a3e66 Data=0xac
# UVM_INFO ../src/env/axi4_scoreboard.sv(219) @ 8945000: uvm_test_top.env.scb [axi4_scoreboard] [REF_MEM_WRITE] Addr=0x1c8a3e67 Data=0x4d
# UVM_INFO ../src/env/axi4_scoreboard.sv(219) @ 8945000: uvm_test_top.env.scb [axi4_scoreboard] [REF_MEM_WRITE] Addr=0x1c8a3e64 Data=0xe7
