# vsim -c -coverage -sv_seed 2597637 "+UVM_TESTNAME=axi4_cache_prot_test" "+UVM_VERBOSITY=UVM_HIGH" "+DUMP_VCD" -l ./report/logs/axi4_cache_prot_test_run_1_seed_2597637.log -do "coverage save -onexit ./report/coverage/axi4_cache_prot_test_run_1_seed_2597637.ucdb; run -all; quit -f" opt_tb_top 
# Start time: 13:03:40 on Jun 11,2026
# //  Questa Sim-64
# //  Version 10.6b linux_x86_64 May 25 2017
# //
# //  Copyright 1991-2017 Mentor Graphics Corporation
# //  All Rights Reserved.
# //
# //  QuestaSim and its associated documentation contain trade
# //  secrets and commercial or financial information that are the property of
# //  Mentor Graphics Corporation and are privileged, confidential,
# //  and exempt from disclosure under the Freedom of Information Act,
# //  5 U.S.C. Section 552. Furthermore, this information
# //  is prohibited from disclosure under the Trade Secrets Act,
# //  18 U.S.C. Section 1905.
# //
# Loading sv_std.std
# Loading work.axi4_if(fast)
# Loading mtiUvm.uvm_pkg
# Loading work.axi4_pkg(fast)
# Loading work.axi4_test_pkg(fast)
# Loading work.tb_top(fast)
# Loading work.axi4_if(fast)
# Loading work.axi4_sva(fast)
# Loading mtiUvm.questa_uvm_pkg(fast)
# Loading /cadtools/mentor/Questa_10.6b/questasim/uvm-1.1d/linux_x86_64/uvm_dpi.so
# coverage save -onexit ./report/coverage/axi4_cache_prot_test_run_1_seed_2597637.ucdb
#  run -all
# ----------------------------------------------------------------
# UVM-1.1d
# (C) 2007-2013 Mentor Graphics Corporation
# (C) 2007-2013 Cadence Design Systems, Inc.
# (C) 2006-2013 Synopsys, Inc.
# (C) 2011-2013 Cypress Semiconductor Corp.
# ----------------------------------------------------------------
# 
#   ***********       IMPORTANT RELEASE NOTES         ************
# 
#   You are using a version of the UVM library that has been compiled
#   with `UVM_NO_DEPRECATED undefined.
#   See http://www.eda.org/svdb/view.php?id=3313 for more details.
# 
#   You are using a version of the UVM library that has been compiled
#   with `UVM_OBJECT_MUST_HAVE_CONSTRUCTOR undefined.
#   See http://www.eda.org/svdb/view.php?id=3770 for more details.
# 
#       (Specify +UVM_NO_RELNOTES to turn off this notice)
# 
# UVM_INFO verilog_src/questa_uvm_pkg-1.2/src/questa_uvm_pkg.sv(215) @ 0: reporter [Questa UVM] QUESTA_UVM-1.2.3
# UVM_INFO verilog_src/questa_uvm_pkg-1.2/src/questa_uvm_pkg.sv(217) @ 0: reporter [Questa UVM]  questa_uvm::init(+struct)
# UVM_INFO ../src/tb_top.sv(128) @ 0: reporter [TB_TOP] Virtual interface set in config_db
# UVM_INFO @ 0: reporter [RNTST] Running test axi4_cache_prot_test...
# UVM_INFO ../src/tb_top.sv(142) @ 0: reporter [TB_TOP] Waveform VCD dumping enabled (axi4_vip.vcd)
# UVM_INFO ../src/env/axi4_vip_env.sv(83) @ 0: uvm_test_top.env [axi4_vip_env] slave_vif not set - reusing master_vif (passthrough mode)
# UVM_INFO ../src/env/axi4_vip_env.sv(93) @ 0: uvm_test_top.env [axi4_vip_env] Scoreboard created
# UVM_INFO ../src/env/axi4_vip_env.sv(100) @ 0: uvm_test_top.env [axi4_vip_env] Coverage collectors created
# UVM_INFO ../src/mst/axi4_master_agent.sv(69) @ 0: uvm_test_top.env.master_agent [axi4_master_agent] ACTIVE mode - driver + sequencer created
# UVM_INFO ../src/slv/axi4_slave_agent.sv(82) @ 0: uvm_test_top.env.slave_agent [axi4_slave_agent] ACTIVE mode — ready_delay=[0:0] resp_delay=[0:0]
# UVM_INFO ../src/env/axi4_vip_env.sv(116) @ 0: uvm_test_top.env [axi4_vip_env] Scoreboard connected: master_mon.ap -> scb, slave_mon.ap -> scb
# UVM_INFO ../src/env/axi4_vip_env.sv(124) @ 0: uvm_test_top.env [axi4_vip_env] Coverage connected: master_mon.ap -> master_cov, slave_mon.ap -> slave_cov
# UVM_INFO @ 0: reporter [UVMTOP] UVM testbench topology:
# ---------------------------------------------------------------
# Name                       Type                     Size  Value
# ---------------------------------------------------------------
# uvm_test_top               axi4_cache_prot_test     -     @473 
#   env                      axi4_vip_env             -     @488 
#     master_agent           axi4_master_agent        -     @503 
#       drv                  axi4_master_driver       -     @567 
#         rsp_port           uvm_analysis_port        -     @582 
#         seq_item_port      uvm_seq_item_pull_port   -     @574 
#       mon                  axi4_master_monitor      -     @559 
#         ap                 uvm_analysis_port        -     @700 
#       sqr                  axi4_master_sequencer    -     @590 
#         rsp_export         uvm_analysis_export      -     @597 
#         seq_item_export    uvm_seq_item_pull_imp    -     @691 
#         arbitration_queue  array                    0     -    
#         lock_queue         array                    0     -    
#         num_last_reqs      integral                 32    'd1  
#         num_last_rsps      integral                 32    'd1  
#     master_cov             axi4_coverage            -     @524 
#       analysis_imp         uvm_analysis_imp         -     @531 
#     scb                    axi4_scoreboard          -     @517 
#       master_export        uvm_analysis_imp_master  -     @714 
#       slave_export         uvm_analysis_imp_slave   -     @722 
#     slave_agent            axi4_slave_agent         -     @510 
#       drv                  axi4_slave_driver        -     @753 
#         rsp_port           uvm_analysis_port        -     @768 
#         seq_item_port      uvm_seq_item_pull_port   -     @760 
#       mon                  axi4_slave_monitor       -     @735 
#         ap                 uvm_analysis_port        -     @892 
#       sqr                  axi4_slave_sequencer     -     @776 
#         rsp_export         uvm_analysis_export      -     @783 
#         seq_item_export    uvm_seq_item_pull_imp    -     @877 
#         arbitration_queue  array                    0     -    
#         lock_queue         array                    0     -    
#         num_last_reqs      integral                 32    'd1  
#         num_last_rsps      integral                 32    'd1  
#     slave_cov              axi4_coverage            -     @539 
#       analysis_imp         uvm_analysis_imp         -     @546 
# ---------------------------------------------------------------
# 
# UVM_INFO verilog_src/questa_uvm_pkg-1.2/src/questa_uvm_pkg.sv(277) @ 0: reporter [Questa UVM] End Of Elaboration
# UVM_INFO ../src/test/axi4_cache_prot_test.sv(24) @ 0: uvm_test_top [axi4_cache_prot_test] Starting cache and protection attributes sweep test
# UVM_INFO ../src/seq/axi4_cache_prot_seq.sv(22) @ 0: uvm_test_top.env.master_agent.sqr@@cp_seq [axi4_cache_prot_seq] Starting cache and prot attribute sweep sequence
# UVM_INFO ../src/tb_top.sv(49) @ 95000: reporter [TOP_TB] Reset de-asserted
# UVM_INFO ../src/slv/axi4_slave_driver.sv(122) @ 95000: uvm_test_top.env.slave_agent.drv [axi4_slave_driver] Reset deasserted - slave driver active
# UVM_INFO ../src/mst/axi4_master_driver.sv(64) @ 95000: uvm_test_top.env.master_agent.drv [axi4_master_driver] Reset deasserted - master driver active
# UVM_INFO ../src/mst/axi4_master_monitor.sv(77) @ 95000: uvm_test_top.env.master_agent.mon [axi4_master_monitor] Reset deasserted - monitor active
# UVM_INFO ../src/slv/axi4_slave_monitor.sv(71) @ 95000: uvm_test_top.env.slave_agent.mon [axi4_slave_monitor] Reset deasserted - monitor active
# UVM_INFO ../src/mst/axi4_master_driver.sv(73) @ 95000: uvm_test_top.env.master_agent.drv [axi4_master_driver] Driving AXI4_WRITE  ID=0x9  ADDR=0x5c8bf669  LEN=214
# UVM_INFO ../src/mst/axi4_master_driver.sv(73) @ 95000: uvm_test_top.env.master_agent.drv [axi4_master_driver] Driving AXI4_READ  ID=0x4  ADDR=0xb0f817a9  LEN=15
# UVM_INFO ../src/seq/axi4_cache_prot_seq.sv(57) @ 95000: uvm_test_top.env.master_agent.sqr@@cp_seq [axi4_cache_prot_seq] [1/16] Swept CACHE=0b0000 PROT=0b000 (Write & Read)
# UVM_INFO ../src/mst/axi4_master_driver.sv(73) @ 95000: uvm_test_top.env.master_agent.drv [axi4_master_driver] Driving AXI4_WRITE  ID=0x9  ADDR=0xbf01499b  LEN=35
# UVM_INFO ../src/mst/axi4_master_driver.sv(73) @ 95000: uvm_test_top.env.master_agent.drv [axi4_master_driver] Driving AXI4_READ  ID=0xa  ADDR=0x4c3e14c7  LEN=157
# UVM_INFO ../src/seq/axi4_cache_prot_seq.sv(57) @ 95000: uvm_test_top.env.master_agent.sqr@@cp_seq [axi4_cache_prot_seq] [2/16] Swept CACHE=0b0001 PROT=0b001 (Write & Read)
# UVM_INFO ../src/mst/axi4_master_driver.sv(73) @ 95000: uvm_test_top.env.master_agent.drv [axi4_master_driver] Driving AXI4_WRITE  ID=0xa  ADDR=0x986afb69  LEN=118
# UVM_INFO ../src/mst/axi4_master_driver.sv(73) @ 95000: uvm_test_top.env.master_agent.drv [axi4_master_driver] Driving AXI4_READ  ID=0x5  ADDR=0x8017857d  LEN=196
# UVM_INFO ../src/seq/axi4_cache_prot_seq.sv(57) @ 95000: uvm_test_top.env.master_agent.sqr@@cp_seq [axi4_cache_prot_seq] [3/16] Swept CACHE=0b0010 PROT=0b010 (Write & Read)
# UVM_INFO ../src/mst/axi4_master_driver.sv(73) @ 95000: uvm_test_top.env.master_agent.drv [axi4_master_driver] Driving AXI4_WRITE  ID=0x6  ADDR=0x7cd37421  LEN=74
# UVM_INFO ../src/mst/axi4_master_driver.sv(73) @ 95000: uvm_test_top.env.master_agent.drv [axi4_master_driver] Driving AXI4_READ  ID=0x2  ADDR=0x5a8dc3fc  LEN=117
# UVM_INFO ../src/seq/axi4_cache_prot_seq.sv(57) @ 95000: uvm_test_top.env.master_agent.sqr@@cp_seq [axi4_cache_prot_seq] [4/16] Swept CACHE=0b0011 PROT=0b011 (Write & Read)
# UVM_INFO ../src/mst/axi4_master_driver.sv(73) @ 95000: uvm_test_top.env.master_agent.drv [axi4_master_driver] Driving AXI4_WRITE  ID=0x6  ADDR=0x7f09b6b2  LEN=162
# UVM_INFO ../src/mst/axi4_master_driver.sv(73) @ 95000: uvm_test_top.env.master_agent.drv [axi4_master_driver] Driving AXI4_READ  ID=0x3  ADDR=0x4f5e0e6c  LEN=52
# UVM_INFO ../src/seq/axi4_cache_prot_seq.sv(57) @ 95000: uvm_test_top.env.master_agent.sqr@@cp_seq [axi4_cache_prot_seq] [5/16] Swept CACHE=0b0100 PROT=0b100 (Write & Read)
# UVM_INFO ../src/mst/axi4_master_driver.sv(73) @ 95000: uvm_test_top.env.master_agent.drv [axi4_master_driver] Driving AXI4_WRITE  ID=0xb  ADDR=0x220b5a61  LEN=133
# UVM_INFO ../src/mst/axi4_master_driver.sv(73) @ 95000: uvm_test_top.env.master_agent.drv [axi4_master_driver] Driving AXI4_READ  ID=0x3  ADDR=0xb7fd680d  LEN=94
# UVM_INFO ../src/seq/axi4_cache_prot_seq.sv(57) @ 95000: uvm_test_top.env.master_agent.sqr@@cp_seq [axi4_cache_prot_seq] [6/16] Swept CACHE=0b0101 PROT=0b101 (Write & Read)
# UVM_INFO ../src/mst/axi4_master_driver.sv(73) @ 95000: uvm_test_top.env.master_agent.drv [axi4_master_driver] Driving AXI4_WRITE  ID=0xd  ADDR=0x68075595  LEN=155
# UVM_INFO ../src/mst/axi4_master_driver.sv(73) @ 95000: uvm_test_top.env.master_agent.drv [axi4_master_driver] Driving AXI4_READ  ID=0x1  ADDR=0x7d6c9a86  LEN=111
# UVM_INFO ../src/seq/axi4_cache_prot_seq.sv(57) @ 95000: uvm_test_top.env.master_agent.sqr@@cp_seq [axi4_cache_prot_seq] [7/16] Swept CACHE=0b0110 PROT=0b110 (Write & Read)
# UVM_INFO ../src/mst/axi4_master_driver.sv(73) @ 95000: uvm_test_top.env.master_agent.drv [axi4_master_driver] Driving AXI4_WRITE  ID=0x4  ADDR=0x4138ae8f  LEN=28
# UVM_INFO ../src/mst/axi4_master_driver.sv(73) @ 95000: uvm_test_top.env.master_agent.drv [axi4_master_driver] Driving AXI4_READ  ID=0xd  ADDR=0xceb3ff99  LEN=117
# UVM_INFO ../src/seq/axi4_cache_prot_seq.sv(57) @ 95000: uvm_test_top.env.master_agent.sqr@@cp_seq [axi4_cache_prot_seq] [8/16] Swept CACHE=0b0111 PROT=0b111 (Write & Read)
# UVM_INFO ../src/mst/axi4_master_driver.sv(73) @ 95000: uvm_test_top.env.master_agent.drv [axi4_master_driver] Driving AXI4_WRITE  ID=0x4  ADDR=0x9558a708  LEN=108
# UVM_INFO ../src/mst/axi4_master_driver.sv(73) @ 95000: uvm_test_top.env.master_agent.drv [axi4_master_driver] Driving AXI4_READ  ID=0xa  ADDR=0x0e221900  LEN=15
# UVM_INFO ../src/seq/axi4_cache_prot_seq.sv(57) @ 95000: uvm_test_top.env.master_agent.sqr@@cp_seq [axi4_cache_prot_seq] [9/16] Swept CACHE=0b1000 PROT=0b000 (Write & Read)
# UVM_INFO ../src/mst/axi4_master_driver.sv(73) @ 95000: uvm_test_top.env.master_agent.drv [axi4_master_driver] Driving AXI4_WRITE  ID=0xd  ADDR=0x58173291  LEN=189
# UVM_INFO ../src/mst/axi4_master_driver.sv(73) @ 95000: uvm_test_top.env.master_agent.drv [axi4_master_driver] Driving AXI4_READ  ID=0x0  ADDR=0x30f56699  LEN=9
# UVM_INFO ../src/seq/axi4_cache_prot_seq.sv(57) @ 95000: uvm_test_top.env.master_agent.sqr@@cp_seq [axi4_cache_prot_seq] [10/16] Swept CACHE=0b1001 PROT=0b001 (Write & Read)
# UVM_INFO ../src/mst/axi4_master_driver.sv(73) @ 95000: uvm_test_top.env.master_agent.drv [axi4_master_driver] Driving AXI4_WRITE  ID=0x7  ADDR=0x4ddda6be  LEN=232
# UVM_INFO ../src/mst/axi4_master_driver.sv(73) @ 95000: uvm_test_top.env.master_agent.drv [axi4_master_driver] Driving AXI4_READ  ID=0x6  ADDR=0x52a0f364  LEN=11
# UVM_INFO ../src/seq/axi4_cache_prot_seq.sv(57) @ 95000: uvm_test_top.env.master_agent.sqr@@cp_seq [axi4_cache_prot_seq] [11/16] Swept CACHE=0b1010 PROT=0b010 (Write & Read)
# UVM_INFO ../src/mst/axi4_master_driver.sv(73) @ 95000: uvm_test_top.env.master_agent.drv [axi4_master_driver] Driving AXI4_WRITE  ID=0xb  ADDR=0x289b0ed1  LEN=226
# UVM_INFO ../src/mst/axi4_master_driver.sv(73) @ 95000: uvm_test_top.env.master_agent.drv [axi4_master_driver] Driving AXI4_READ  ID=0x0  ADDR=0x48983f5b  LEN=127
# UVM_INFO ../src/seq/axi4_cache_prot_seq.sv(57) @ 95000: uvm_test_top.env.master_agent.sqr@@cp_seq [axi4_cache_prot_seq] [12/16] Swept CACHE=0b1011 PROT=0b011 (Write & Read)
# UVM_INFO ../src/mst/axi4_master_driver.sv(73) @ 95000: uvm_test_top.env.master_agent.drv [axi4_master_driver] Driving AXI4_WRITE  ID=0xc  ADDR=0x16107d91  LEN=50
# UVM_INFO ../src/mst/axi4_master_driver.sv(73) @ 95000: uvm_test_top.env.master_agent.drv [axi4_master_driver] Driving AXI4_READ  ID=0x3  ADDR=0x8d679b03  LEN=209
# UVM_INFO ../src/seq/axi4_cache_prot_seq.sv(57) @ 95000: uvm_test_top.env.master_agent.sqr@@cp_seq [axi4_cache_prot_seq] [13/16] Swept CACHE=0b1100 PROT=0b100 (Write & Read)
# UVM_INFO ../src/mst/axi4_master_driver.sv(73) @ 95000: uvm_test_top.env.master_agent.drv [axi4_master_driver] Driving AXI4_WRITE  ID=0xc  ADDR=0xddd9847e  LEN=128
# UVM_INFO ../src/mst/axi4_master_driver.sv(73) @ 95000: uvm_test_top.env.master_agent.drv [axi4_master_driver] Driving AXI4_READ  ID=0x4  ADDR=0x0a6bb534  LEN=0
# UVM_INFO ../src/seq/axi4_cache_prot_seq.sv(57) @ 95000: uvm_test_top.env.master_agent.sqr@@cp_seq [axi4_cache_prot_seq] [14/16] Swept CACHE=0b1101 PROT=0b101 (Write & Read)
# UVM_INFO ../src/mst/axi4_master_driver.sv(73) @ 95000: uvm_test_top.env.master_agent.drv [axi4_master_driver] Driving AXI4_WRITE  ID=0xb  ADDR=0x4330a521  LEN=32
# UVM_INFO ../src/mst/axi4_master_driver.sv(73) @ 95000: uvm_test_top.env.master_agent.drv [axi4_master_driver] Driving AXI4_READ  ID=0x3  ADDR=0xbe18b13d  LEN=1
# UVM_INFO ../src/seq/axi4_cache_prot_seq.sv(57) @ 95000: uvm_test_top.env.master_agent.sqr@@cp_seq [axi4_cache_prot_seq] [15/16] Swept CACHE=0b1110 PROT=0b110 (Write & Read)
# UVM_INFO ../src/mst/axi4_master_driver.sv(73) @ 95000: uvm_test_top.env.master_agent.drv [axi4_master_driver] Driving AXI4_WRITE  ID=0xe  ADDR=0x84ed901f  LEN=131
# UVM_INFO ../src/mst/axi4_master_driver.sv(73) @ 95000: uvm_test_top.env.master_agent.drv [axi4_master_driver] Driving AXI4_READ  ID=0x9  ADDR=0xa84c7028  LEN=88
# UVM_INFO ../src/seq/axi4_cache_prot_seq.sv(57) @ 95000: uvm_test_top.env.master_agent.sqr@@cp_seq [axi4_cache_prot_seq] [16/16] Swept CACHE=0b1111 PROT=0b111 (Write & Read)
# UVM_INFO ../src/seq/axi4_cache_prot_seq.sv(60) @ 95000: uvm_test_top.env.master_agent.sqr@@cp_seq [axi4_cache_prot_seq] Cache and prot attribute sweep sequence complete
# UVM_INFO ../src/slv/axi4_slave_driver.sv(358) @ 115000: uvm_test_top.env.slave_agent.drv [axi4_slave_driver] AR received: ID=0x4 ADDR=0xb0f817a9 LEN=15 LOCK=AXI4_LOCK_EXCLUSIVE
# UVM_INFO ../src/slv/axi4_slave_driver.sv(212) @ 115000: uvm_test_top.env.slave_agent.drv [axi4_slave_driver] AW received: ID=0x9 ADDR=0x5c8bf669 LEN=214 LOCK=AXI4_LOCK_NORMAL
# UVM_INFO ../src/slv/axi4_slave_monitor.sv(224) @ 115000: uvm_test_top.env.slave_agent.mon [axi4_slave_monitor] AR received: ID=0x4 ADDR=0xb0f817a9 LEN=15
# UVM_INFO ../src/slv/axi4_slave_monitor.sv(116) @ 115000: uvm_test_top.env.slave_agent.mon [axi4_slave_monitor] AW received: ID=0x9 ADDR=0x5c8bf669 LEN=214
# UVM_INFO ../src/mst/axi4_master_monitor.sv(246) @ 115000: uvm_test_top.env.master_agent.mon [axi4_master_monitor] AR observed: ID=0x4 ADDR=0xb0f817a9 LEN=15
# UVM_INFO ../src/mst/axi4_master_monitor.sv(124) @ 115000: uvm_test_top.env.master_agent.mon [axi4_master_monitor] AW observed: ID=0x9 ADDR=0x5c8bf669 LEN=214
# UVM_INFO ../src/slv/axi4_slave_driver.sv(212) @ 145000: uvm_test_top.env.slave_agent.drv [axi4_slave_driver] AW received: ID=0x9 ADDR=0xbf01499b LEN=35 LOCK=AXI4_LOCK_EXCLUSIVE
# UVM_INFO ../src/slv/axi4_slave_driver.sv(358) @ 145000: uvm_test_top.env.slave_agent.drv [axi4_slave_driver] AR received: ID=0xa ADDR=0x4c3e14c7 LEN=157 LOCK=AXI4_LOCK_EXCLUSIVE
# UVM_INFO ../src/mst/axi4_master_monitor.sv(124) @ 145000: uvm_test_top.env.master_agent.mon [axi4_master_monitor] AW observed: ID=0x9 ADDR=0xbf01499b LEN=35
# UVM_INFO ../src/mst/axi4_master_monitor.sv(246) @ 145000: uvm_test_top.env.master_agent.mon [axi4_master_monitor] AR observed: ID=0xa ADDR=0x4c3e14c7 LEN=157
# UVM_INFO ../src/slv/axi4_slave_monitor.sv(116) @ 145000: uvm_test_top.env.slave_agent.mon [axi4_slave_monitor] AW received: ID=0x9 ADDR=0xbf01499b LEN=35
# UVM_INFO ../src/slv/axi4_slave_monitor.sv(224) @ 145000: uvm_test_top.env.slave_agent.mon [axi4_slave_monitor] AR received: ID=0xa ADDR=0x4c3e14c7 LEN=157
# UVM_INFO ../src/slv/axi4_slave_driver.sv(358) @ 175000: uvm_test_top.env.slave_agent.drv [axi4_slave_driver] AR received: ID=0x5 ADDR=0x8017857d LEN=196 LOCK=AXI4_LOCK_EXCLUSIVE
# UVM_INFO ../src/slv/axi4_slave_driver.sv(212) @ 175000: uvm_test_top.env.slave_agent.drv [axi4_slave_driver] AW received: ID=0xa ADDR=0x986afb69 LEN=118 LOCK=AXI4_LOCK_EXCLUSIVE
# UVM_INFO ../src/slv/axi4_slave_monitor.sv(224) @ 175000: uvm_test_top.env.slave_agent.mon [axi4_slave_monitor] AR received: ID=0x5 ADDR=0x8017857d LEN=196
# UVM_INFO ../src/slv/axi4_slave_monitor.sv(116) @ 175000: uvm_test_top.env.slave_agent.mon [axi4_slave_monitor] AW received: ID=0xa ADDR=0x986afb69 LEN=118
# UVM_INFO ../src/mst/axi4_master_monitor.sv(246) @ 175000: uvm_test_top.env.master_agent.mon [axi4_master_monitor] AR observed: ID=0x5 ADDR=0x8017857d LEN=196
# UVM_INFO ../src/mst/axi4_master_monitor.sv(124) @ 175000: uvm_test_top.env.master_agent.mon [axi4_master_monitor] AW observed: ID=0xa ADDR=0x986afb69 LEN=118
# UVM_INFO ../src/slv/axi4_slave_driver.sv(358) @ 205000: uvm_test_top.env.slave_agent.drv [axi4_slave_driver] AR received: ID=0x2 ADDR=0x5a8dc3fc LEN=117 LOCK=AXI4_LOCK_EXCLUSIVE
# UVM_INFO ../src/mst/axi4_master_monitor.sv(246) @ 205000: uvm_test_top.env.master_agent.mon [axi4_master_monitor] AR observed: ID=0x2 ADDR=0x5a8dc3fc LEN=117
# UVM_INFO ../src/slv/axi4_slave_monitor.sv(224) @ 205000: uvm_test_top.env.slave_agent.mon [axi4_slave_monitor] AR received: ID=0x2 ADDR=0x5a8dc3fc LEN=117
# UVM_INFO ../src/slv/axi4_slave_driver.sv(358) @ 235000: uvm_test_top.env.slave_agent.drv [axi4_slave_driver] AR received: ID=0x3 ADDR=0x4f5e0e6c LEN=52 LOCK=AXI4_LOCK_NORMAL
# UVM_INFO ../src/slv/axi4_slave_monitor.sv(224) @ 235000: uvm_test_top.env.slave_agent.mon [axi4_slave_monitor] AR received: ID=0x3 ADDR=0x4f5e0e6c LEN=52
# UVM_INFO ../src/mst/axi4_master_monitor.sv(246) @ 235000: uvm_test_top.env.master_agent.mon [axi4_master_monitor] AR observed: ID=0x3 ADDR=0x4f5e0e6c LEN=52
# UVM_INFO ../src/slv/axi4_slave_driver.sv(358) @ 265000: uvm_test_top.env.slave_agent.drv [axi4_slave_driver] AR received: ID=0x3 ADDR=0xb7fd680d LEN=94 LOCK=AXI4_LOCK_NORMAL
# UVM_INFO ../src/mst/axi4_master_monitor.sv(246) @ 265000: uvm_test_top.env.master_agent.mon [axi4_master_monitor] AR observed: ID=0x3 ADDR=0xb7fd680d LEN=94
# UVM_INFO ../src/slv/axi4_slave_monitor.sv(224) @ 265000: uvm_test_top.env.slave_agent.mon [axi4_slave_monitor] AR received: ID=0x3 ADDR=0xb7fd680d LEN=94
# UVM_INFO ../src/slv/axi4_slave_driver.sv(358) @ 295000: uvm_test_top.env.slave_agent.drv [axi4_slave_driver] AR received: ID=0x1 ADDR=0x7d6c9a86 LEN=111 LOCK=AXI4_LOCK_EXCLUSIVE
# UVM_INFO ../src/slv/axi4_slave_monitor.sv(224) @ 295000: uvm_test_top.env.slave_agent.mon [axi4_slave_monitor] AR received: ID=0x1 ADDR=0x7d6c9a86 LEN=111
# UVM_INFO ../src/mst/axi4_master_monitor.sv(246) @ 295000: uvm_test_top.env.master_agent.mon [axi4_master_monitor] AR observed: ID=0x1 ADDR=0x7d6c9a86 LEN=111
# UVM_INFO ../src/slv/axi4_slave_driver.sv(358) @ 325000: uvm_test_top.env.slave_agent.drv [axi4_slave_driver] AR received: ID=0xd ADDR=0xceb3ff99 LEN=117 LOCK=AXI4_LOCK_NORMAL
# UVM_INFO ../src/mst/axi4_master_monitor.sv(246) @ 325000: uvm_test_top.env.master_agent.mon [axi4_master_monitor] AR observed: ID=0xd ADDR=0xceb3ff99 LEN=117
# UVM_INFO ../src/slv/axi4_slave_monitor.sv(224) @ 325000: uvm_test_top.env.slave_agent.mon [axi4_slave_monitor] AR received: ID=0xd ADDR=0xceb3ff99 LEN=117
# UVM_INFO ../src/slv/axi4_slave_driver.sv(358) @ 355000: uvm_test_top.env.slave_agent.drv [axi4_slave_driver] AR received: ID=0xa ADDR=0x0e221900 LEN=15 LOCK=AXI4_LOCK_NORMAL
# UVM_INFO ../src/slv/axi4_slave_monitor.sv(224) @ 355000: uvm_test_top.env.slave_agent.mon [axi4_slave_monitor] AR received: ID=0xa ADDR=0x0e221900 LEN=15
# UVM_INFO ../src/mst/axi4_master_monitor.sv(246) @ 355000: uvm_test_top.env.master_agent.mon [axi4_master_monitor] AR observed: ID=0xa ADDR=0x0e221900 LEN=15
# UVM_INFO ../src/slv/axi4_slave_driver.sv(358) @ 385000: uvm_test_top.env.slave_agent.drv [axi4_slave_driver] AR received: ID=0x0 ADDR=0x30f56699 LEN=9 LOCK=AXI4_LOCK_NORMAL
# UVM_INFO ../src/mst/axi4_master_monitor.sv(246) @ 385000: uvm_test_top.env.master_agent.mon [axi4_master_monitor] AR observed: ID=0x0 ADDR=0x30f56699 LEN=9
# UVM_INFO ../src/slv/axi4_slave_monitor.sv(224) @ 385000: uvm_test_top.env.slave_agent.mon [axi4_slave_monitor] AR received: ID=0x0 ADDR=0x30f56699 LEN=9
# UVM_INFO ../src/slv/axi4_slave_driver.sv(358) @ 415000: uvm_test_top.env.slave_agent.drv [axi4_slave_driver] AR received: ID=0x6 ADDR=0x52a0f364 LEN=11 LOCK=AXI4_LOCK_NORMAL
# UVM_INFO ../src/slv/axi4_slave_monitor.sv(224) @ 415000: uvm_test_top.env.slave_agent.mon [axi4_slave_monitor] AR received: ID=0x6 ADDR=0x52a0f364 LEN=11
# UVM_INFO ../src/mst/axi4_master_monitor.sv(246) @ 415000: uvm_test_top.env.master_agent.mon [axi4_master_monitor] AR observed: ID=0x6 ADDR=0x52a0f364 LEN=11
# UVM_INFO ../src/mst/axi4_master_driver.sv(348) @ 435000: uvm_test_top.env.master_agent.drv [axi4_master_driver] Master driver received all R beats for ID=0x4
# UVM_INFO ../src/slv/axi4_slave_driver.sv(464) @ 435000: uvm_test_top.env.slave_agent.drv [axi4_slave_driver] Read complete: ID=0x4 ADDR=0xb0f817a9 RESP=AXI4_RESP_EXOKAY  16 beats sent
# UVM_INFO ../src/slv/axi4_slave_monitor.sv(287) @ 435000: uvm_test_top.env.slave_agent.mon [axi4_slave_monitor] Read data sent: ID=0x4 ADDR=0xb0f817a9 16 beats
# UVM_INFO ../src/env/axi4_scoreboard.sv(108) @ 435000: uvm_test_top.env.scb [axi4_scoreboard] Slave AXI4_READ received: ID=0x4 ADDR=0xb0f817a9 LEN=15
# UVM_INFO ../src/mst/axi4_master_monitor.sv(314) @ 435000: uvm_test_top.env.master_agent.mon [axi4_master_monitor] Read complete: ID=0x4 ADDR=0xb0f817a9 16 beats
# UVM_INFO ../src/env/axi4_scoreboard.sv(87) @ 435000: uvm_test_top.env.scb [axi4_scoreboard] Master AXI4_READ received: ID=0x4 ADDR=0xb0f817a9 LEN=15
# UVM_INFO ../src/env/axi4_scoreboard.sv(291) @ 435000: uvm_test_top.env.scb [axi4_scoreboard] [READ] MATCH #1: ID=0x4 ADDR=0xb0f817a9 LEN=15
# UVM_INFO ../src/slv/axi4_slave_driver.sv(358) @ 445000: uvm_test_top.env.slave_agent.drv [axi4_slave_driver] AR received: ID=0x0 ADDR=0x48983f5b LEN=127 LOCK=AXI4_LOCK_NORMAL
# UVM_INFO ../src/mst/axi4_master_monitor.sv(246) @ 445000: uvm_test_top.env.master_agent.mon [axi4_master_monitor] AR observed: ID=0x0 ADDR=0x48983f5b LEN=127
# UVM_INFO ../src/slv/axi4_slave_monitor.sv(224) @ 445000: uvm_test_top.env.slave_agent.mon [axi4_slave_monitor] AR received: ID=0x0 ADDR=0x48983f5b LEN=127
# UVM_INFO ../src/slv/axi4_slave_driver.sv(358) @ 475000: uvm_test_top.env.slave_agent.drv [axi4_slave_driver] AR received: ID=0x3 ADDR=0x8d679b03 LEN=209 LOCK=AXI4_LOCK_NORMAL
# UVM_INFO ../src/slv/axi4_slave_monitor.sv(224) @ 475000: uvm_test_top.env.slave_agent.mon [axi4_slave_monitor] AR received: ID=0x3 ADDR=0x8d679b03 LEN=209
# UVM_INFO ../src/mst/axi4_master_monitor.sv(246) @ 475000: uvm_test_top.env.master_agent.mon [axi4_master_monitor] AR observed: ID=0x3 ADDR=0x8d679b03 LEN=209
# UVM_INFO ../src/slv/axi4_slave_driver.sv(358) @ 505000: uvm_test_top.env.slave_agent.drv [axi4_slave_driver] AR received: ID=0x4 ADDR=0x0a6bb534 LEN=0 LOCK=AXI4_LOCK_NORMAL
# UVM_INFO ../src/mst/axi4_master_monitor.sv(246) @ 505000: uvm_test_top.env.master_agent.mon [axi4_master_monitor] AR observed: ID=0x4 ADDR=0x0a6bb534 LEN=0
# UVM_INFO ../src/slv/axi4_slave_monitor.sv(224) @ 505000: uvm_test_top.env.slave_agent.mon [axi4_slave_monitor] AR received: ID=0x4 ADDR=0x0a6bb534 LEN=0
# UVM_INFO ../src/slv/axi4_slave_driver.sv(358) @ 535000: uvm_test_top.env.slave_agent.drv [axi4_slave_driver] AR received: ID=0x3 ADDR=0xbe18b13d LEN=1 LOCK=AXI4_LOCK_NORMAL
# UVM_INFO ../src/slv/axi4_slave_monitor.sv(224) @ 535000: uvm_test_top.env.slave_agent.mon [axi4_slave_monitor] AR received: ID=0x3 ADDR=0xbe18b13d LEN=1
# UVM_INFO ../src/mst/axi4_master_monitor.sv(246) @ 535000: uvm_test_top.env.master_agent.mon [axi4_master_monitor] AR observed: ID=0x3 ADDR=0xbe18b13d LEN=1
# UVM_INFO ../src/slv/axi4_slave_driver.sv(358) @ 565000: uvm_test_top.env.slave_agent.drv [axi4_slave_driver] AR received: ID=0x9 ADDR=0xa84c7028 LEN=88 LOCK=AXI4_LOCK_NORMAL
# UVM_INFO ../src/mst/axi4_master_monitor.sv(246) @ 565000: uvm_test_top.env.master_agent.mon [axi4_master_monitor] AR observed: ID=0x9 ADDR=0xa84c7028 LEN=88
# UVM_INFO ../src/slv/axi4_slave_monitor.sv(224) @ 565000: uvm_test_top.env.slave_agent.mon [axi4_slave_monitor] AR received: ID=0x9 ADDR=0xa84c7028 LEN=88
# UVM_INFO ../src/test/axi4_cache_prot_test.sv(32) @ 1095000: uvm_test_top [axi4_cache_prot_test] Cache and protection sweep test complete
# UVM_INFO ../src/mst/axi4_master_driver.sv(348) @ 3595000: uvm_test_top.env.master_agent.drv [axi4_master_driver] Master driver received all R beats for ID=0xa
# UVM_INFO ../src/slv/axi4_slave_driver.sv(464) @ 3595000: uvm_test_top.env.slave_agent.drv [axi4_slave_driver] Read complete: ID=0xa ADDR=0x4c3e14c7 RESP=AXI4_RESP_EXOKAY  158 beats sent
# UVM_INFO ../src/slv/axi4_slave_monitor.sv(287) @ 3595000: uvm_test_top.env.slave_agent.mon [axi4_slave_monitor] Read data sent: ID=0xa ADDR=0x4c3e14c7 158 beats
# UVM_INFO ../src/env/axi4_scoreboard.sv(108) @ 3595000: uvm_test_top.env.scb [axi4_scoreboard] Slave AXI4_READ received: ID=0xa ADDR=0x4c3e14c7 LEN=157
# UVM_INFO ../src/mst/axi4_master_monitor.sv(314) @ 3595000: uvm_test_top.env.master_agent.mon [axi4_master_monitor] Read complete: ID=0xa ADDR=0x4c3e14c7 158 beats
# UVM_INFO ../src/env/axi4_scoreboard.sv(87) @ 3595000: uvm_test_top.env.scb [axi4_scoreboard] Master AXI4_READ received: ID=0xa ADDR=0x4c3e14c7 LEN=157
# UVM_INFO ../src/env/axi4_scoreboard.sv(291) @ 3595000: uvm_test_top.env.scb [axi4_scoreboard] [READ] MATCH #2: ID=0xa ADDR=0x4c3e14c7 LEN=157
# UVM_INFO ../src/slv/axi4_slave_monitor.sv(167) @ 4415000: uvm_test_top.env.slave_agent.mon [axi4_slave_monitor] W data assembled: ID=0x9 ADDR=0x5c8bf669 215 beats
# UVM_INFO ../src/mst/axi4_master_monitor.sv(184) @ 4415000: uvm_test_top.env.master_agent.mon [axi4_master_monitor] W data assembled: ID=0x9 ADDR=0x5c8bf669 215 beats
# UVM_INFO ../src/mst/axi4_master_driver.sv(289) @ 4445000: uvm_test_top.env.master_agent.drv [axi4_master_driver] Master driver received B response: ID=0x9 RESP=AXI4_RESP_OKAY
# UVM_INFO ../src/slv/axi4_slave_driver.sv(320) @ 4445000: uvm_test_top.env.slave_agent.drv [axi4_slave_driver] Write complete: ID=0x9 RESP=AXI4_RESP_OKAY
# UVM_INFO ../src/mst/axi4_master_monitor.sv(210) @ 4445000: uvm_test_top.env.master_agent.mon [axi4_master_monitor] Write complete: ID=0x9 ADDR=0x5c8bf669 RESP=AXI4_RESP_OKAY
# UVM_INFO ../src/env/axi4_scoreboard.sv(87) @ 4445000: uvm_test_top.env.scb [axi4_scoreboard] Master AXI4_WRITE received: ID=0x9 ADDR=0x5c8bf669 LEN=214
# UVM_INFO ../src/slv/axi4_slave_monitor.sv(189) @ 4445000: uvm_test_top.env.slave_agent.mon [axi4_slave_monitor] Write response sent: ID=0x9 ADDR=0x5c8bf669 RESP=AXI4_RESP_OKAY
# UVM_INFO ../src/env/axi4_scoreboard.sv(108) @ 4445000: uvm_test_top.env.scb [axi4_scoreboard] Slave AXI4_WRITE received: ID=0x9 ADDR=0x5c8bf669 LEN=214
# UVM_INFO ../src/env/axi4_scoreboard.sv(291) @ 4445000: uvm_test_top.env.scb [axi4_scoreboard] [WRITE] MATCH #3: ID=0x9 ADDR=0x5c8bf669 LEN=214
# UVM_INFO ../src/env/axi4_scoreboard.sv(219) @ 4445000: uvm_test_top.env.scb [axi4_scoreboard] [REF_MEM_WRITE] Addr=0x5c8bf66a Data=0xf0
# UVM_INFO ../src/env/axi4_scoreboard.sv(219) @ 4445000: uvm_test_top.env.scb [axi4_scoreboard] [REF_MEM_WRITE] Addr=0x5c8bf668 Data=0x8b
# UVM_INFO ../src/env/axi4_scoreboard.sv(219) @ 4445000: uvm_test_top.env.scb [axi4_scoreboard] [REF_MEM_WRITE] Addr=0x5c8bf669 Data=0xd5
# UVM_INFO ../src/env/axi4_scoreboard.sv(219) @ 4445000: uvm_test_top.env.scb [axi4_scoreboard] [REF_MEM_WRITE] Addr=0x5c8bf669 Data=0x81
# UVM_INFO ../src/env/axi4_scoreboard.sv(219) @ 4445000: uvm_test_top.env.scb [axi4_scoreboard] [REF_MEM_WRITE] Addr=0x5c8bf66a Data=0x8c
# UVM_INFO ../src/env/axi4_scoreboard.sv(219) @ 4445000: uvm_test_top.env.scb [axi4_scoreboard] [REF_MEM_WRITE] Addr=0x5c8bf66e Data=0x08
# UVM_INFO ../src/env/axi4_scoreboard.sv(219) @ 4445000: uvm_test_top.env.scb [axi4_scoreboard] [REF_MEM_WRITE] Addr=0x5c8bf66d Data=0xe3
# UVM_INFO ../src/env/axi4_scoreboard.sv(219) @ 4445000: uvm_test_top.env.scb [axi4_scoreboard] [REF_MEM_WRITE] Addr=0x5c8bf66f Data=0xb5
# UVM_INFO ../src/env/axi4_scoreboard.sv(219) @ 4445000: uvm_test_top.env.scb [axi4_scoreboard] [REF_MEM_WRITE] Addr=0x5c8bf66c Data=0x13
# UVM_INFO ../src/env/axi4_scoreboard.sv(219) @ 4445000: uvm_test_top.env.scb [axi4_scoreboard] [REF_MEM_WRITE] Addr=0x5c8bf673 Data=0x05
# UVM_INFO ../src/env/axi4_scoreboard.sv(219) @ 4445000: uvm_test_top.env.scb [axi4_scoreboard] [REF_MEM_WRITE] Addr=0x5c8bf670 Data=0x46
# UVM_INFO ../src/env/axi4_scoreboard.sv(219) @ 4445000: uvm_test_top.env.scb [axi4_scoreboard] [REF_MEM_WRITE] Addr=0x5c8bf672 Data=0xe3
# UVM_INFO ../src/env/axi4_scoreboard.sv(219) @ 4445000: uvm_test_top.env.scb [axi4_scoreboard] [REF_MEM_WRITE] Addr=0x5c8bf670 Data=0x26
# UVM_INFO ../src/env/axi4_scoreboard.sv(219) @ 4445000: uvm_test_top.env.scb [axi4_scoreboard] [REF_MEM_WRITE] Addr=0x5c8bf672 Data=0x71
# UVM_INFO ../src/env/axi4_scoreboard.sv(219) @ 4445000: uvm_test_top.env.scb [axi4_scoreboard] [REF_MEM_WRITE] Addr=0x5c8bf670 Data=0x00
# UVM_INFO ../src/env/axi4_scoreboard.sv(219) @ 4445000: uvm_test_top.env.scb [axi4_scoreboard] [REF_MEM_WRITE] Addr=0x5c8bf671 Data=0xfe
# UVM_INFO ../src/env/axi4_scoreboard.sv(219) @ 4445000: uvm_test_top.env.scb [axi4_scoreboard] [REF_MEM_WRITE] Addr=0x5c8bf672 Data=0x2d
# UVM_INFO ../src/env/axi4_scoreboard.sv(219) @ 4445000: uvm_test_top.env.scb [axi4_scoreboard] [REF_MEM_WRITE] Addr=0x5c8bf673 Data=0x01
# UVM_INFO ../src/env/axi4_scoreboard.sv(219) @ 4445000: uvm_test_top.env.scb [axi4_scoreboard] [REF_MEM_WRITE] Addr=0x5c8bf674 Data=0x4b
# UVM_INFO ../src/env/axi4_scoreboard.sv(219) @ 4445000: uvm_test_top.env.scb [axi4_scoreboard] [REF_MEM_WRITE] Addr=0x5c8bf675 Data=0xd7
# UVM_INFO ../src/env/axi4_scoreboard.sv(219) @ 4445000: uvm_test_top.env.scb [axi4_scoreboard] [REF_MEM_WRITE] Addr=0x5c8bf677 Data=0x4e
# UVM_INFO ../src/env/axi4_scoreboard.sv(219) @ 4445000: uvm_test_top.env.scb [axi4_scoreboard] [REF_MEM_WRITE] Addr=0x5c8bf674 Data=0xa3
# UVM_INFO ../src/env/axi4_scoreboard.sv(219) @ 4445000: uvm_test_top.env.scb [axi4_scoreboard] [REF_MEM_WRITE] Addr=0x5c8bf676 Data=0xc6
# UVM_INFO ../src/env/axi4_scoreboard.sv(219) @ 4445000: uvm_test_top.env.scb [axi4_scoreboard] [REF_MEM_WRITE] Addr=0x5c8bf677 Data=0xfa
# UVM_INFO ../src/env/axi4_scoreboard.sv(219) @ 4445000: uvm_test_top.env.scb [axi4_scoreboard] [REF_MEM_WRITE] Addr=0x5c8bf675 Data=0x7b
# UVM_INFO ../src/env/axi4_scoreboard.sv(219) @ 4445000: uvm_test_top.env.scb [axi4_scoreboard] [REF_MEM_WRITE] Addr=0x5c8bf676 Data=0xff
# UVM_INFO ../src/env/axi4_scoreboard.sv(219) @ 4445000: uvm_test_top.env.scb [axi4_scoreboard] [REF_MEM_WRITE] Addr=0x5c8bf679 Data=0xa3
# UVM_INFO ../src/env/axi4_scoreboard.sv(219) @ 4445000: uvm_test_top.env.scb [axi4_scoreboard] [REF_MEM_WRITE] Addr=0x5c8bf67a Data=0xc6
# UVM_INFO ../src/env/axi4_scoreboard.sv(219) @ 4445000: uvm_test_top.env.scb [axi4_scoreboard] [REF_MEM_WRITE] Addr=0x5c8bf679 Data=0x8c
# UVM_INFO ../src/env/axi4_scoreboard.sv(219) @ 4445000: uvm_test_top.env.scb [axi4_scoreboard] [REF_MEM_WRITE] Addr=0x5c8bf67b Data=0x1a
# UVM_INFO ../src/env/axi4_scoreboard.sv(219) @ 4445000: uvm_test_top.env.scb [axi4_scoreboard] [REF_MEM_WRITE] Addr=0x5c8bf67a Data=0xb0
# UVM_INFO ../src/env/axi4_scoreboard.sv(219) @ 4445000: uvm_test_top.env.scb [axi4_scoreboard] [REF_MEM_WRITE] Addr=0x5c8bf67e Data=0xb9
# UVM_INFO ../src/env/axi4_scoreboard.sv(219) @ 4445000: uvm_test_top.env.scb [axi4_scoreboard] [REF_MEM_WRITE] Addr=0x5c8bf67f Data=0x30
# UVM_INFO ../src/env/axi4_scoreboard.sv(219) @ 4445000: uvm_test_top.env.scb [axi4_scoreboard] [REF_MEM_WRITE] Addr=0x5c8bf67c Data=0xf4
# UVM_INFO ../src/env/axi4_scoreboard.sv(219) @ 4445000: uvm_test_top.env.scb [axi4_scoreboard] [REF_MEM_WRITE] Addr=0x5c8bf67e Data=0x68
# UVM_INFO ../src/env/axi4_scoreboard.sv(219) @ 4445000: uvm_test_top.env.scb [axi4_scoreboard] [REF_MEM_WRITE] Addr=0x5c8bf67e Data=0x2c
# UVM_INFO ../src/env/axi4_scoreboard.sv(219) @ 4445000: uvm_test_top.env.scb [axi4_scoreboard] [REF_MEM_WRITE] Addr=0x5c8bf680 Data=0x71
# UVM_INFO ../src/env/axi4_scoreboard.sv(219) @ 4445000: uvm_test_top.env.scb [axi4_scoreboard] [REF_MEM_WRITE] Addr=0x5c8bf680 Data=0x17
# UVM_INFO ../src/env/axi4_scoreboard.sv(219) @ 4445000: uvm_test_top.env.scb [axi4_scoreboard] [REF_MEM_WRITE] Addr=0x5c8bf681 Data=0xaf
# UVM_INFO ../src/env/axi4_scoreboard.sv(219) @ 4445000: uvm_test_top.env.scb [axi4_scoreboard] [REF_MEM_WRITE] Addr=0x5c8bf682 Data=0xbc
# UVM_INFO ../src/env/axi4_scoreboard.sv(219) @ 4445000: uvm_test_top.env.scb [axi4_scoreboard] [REF_MEM_WRITE] Addr=0x5c8bf683 Data=0x6a
# UVM_INFO ../src/env/axi4_scoreboard.sv(219) @ 4445000: uvm_test_top.env.scb [axi4_scoreboard] [REF_MEM_WRITE] Addr=0x5c8bf680 Data=0x71
# UVM_INFO ../src/env/axi4_scoreboard.sv(219) @ 4445000: uvm_test_top.env.scb [axi4_scoreboard] [REF_MEM_WRITE] Addr=0x5c8bf682 Data=0x72
# UVM_INFO ../src/env/axi4_scoreboard.sv(219) @ 4445000: uvm_test_top.env.scb [axi4_scoreboard] [REF_MEM_WRITE] Addr=0x5c8bf684 Data=0x10
# UVM_INFO ../src/env/axi4_scoreboard.sv(219) @ 4445000: uvm_test_top.env.scb [axi4_scoreboard] [REF_MEM_WRITE] Addr=0x5c8bf686 Data=0xef
# UVM_INFO ../src/env/axi4_scoreboard.sv(219) @ 4445000: uvm_test_top.env.scb [axi4_scoreboard] [REF_MEM_WRITE] Addr=0x5c8bf684 Data=0x4a
# UVM_INFO ../src/env/axi4_scoreboard.sv(219) @ 4445000: uvm_test_top.env.scb [axi4_scoreboard] [REF_MEM_WRITE] Addr=0x5c8bf685 Data=0x91
# UVM_INFO ../src/env/axi4_scoreboard.sv(219) @ 4445000: uvm_test_top.env.scb [axi4_scoreboard] [REF_MEM_WRITE] Addr=0x5c8bf687 Data=0xfa
# UVM_INFO ../src/env/axi4_scoreboard.sv(219) @ 4445000: uvm_test_top.env.scb [axi4_scoreboard] [REF_MEM_WRITE] Addr=0x5c8bf684 Data=0xfd
# UVM_INFO ../src/env/axi4_scoreboard.sv(219) @ 4445000: uvm_test_top.env.scb [axi4_scoreboard] [REF_MEM_WRITE] Addr=0x5c8bf686 Data=0x4e
# UVM_INFO ../src/env/axi4_scoreboard.sv(219) @ 4445000: uvm_test_top.env.scb [axi4_scoreboard] [REF_MEM_WRITE] Addr=0x5c8bf686 Data=0x41
# UVM_INFO ../src/env/axi4_scoreboard.sv(219) @ 4445000: uvm_test_top.env.scb [axi4_scoreboard] [REF_MEM_WRITE] Addr=0x5c8bf687 Data=0xc8
# UVM_INFO ../src/env/axi4_scoreboard.sv(219) @ 4445000: uvm_test_top.env.scb [axi4_scoreboard] [REF_MEM_WRITE] Addr=0x5c8bf688 Data=0x17
# UVM_INFO ../src/env/axi4_scoreboard.sv(219) @ 4445000: uvm_test_top.env.scb [axi4_scoreboard] [REF_MEM_WRITE] Addr=0x5c8bf689 Data=0x27
# UVM_INFO ../src/env/axi4_scoreboard.sv(219) @ 4445000: uvm_test_top.env.scb [axi4_scoreboard] [REF_MEM_WRITE] Addr=0x5c8bf688 Data=0x0a
# UVM_INFO ../src/env/axi4_scoreboard.sv(219) @ 4445000: uvm_test_top.env.scb [axi4_scoreboard] [REF_MEM_WRITE] Addr=0x5c8bf689 Data=0xef
# UVM_INFO ../src/env/axi4_scoreboard.sv(219) @ 4445000: uvm_test_top.env.scb [axi4_scoreboard] [REF_MEM_WRITE] Addr=0x5c8bf68b Data=0xe8
# UVM_INFO ../src/env/axi4_scoreboard.sv(219) @ 4445000: uvm_test_top.env.scb [axi4_scoreboard] [REF_MEM_WRITE] Addr=0x5c8bf688 Data=0xd5
# UVM_INFO ../src/env/axi4_scoreboard.sv(219) @ 4445000: uvm_test_top.env.scb [axi4_scoreboard] [REF_MEM_WRITE] Addr=0x5c8bf68a Data=0xaf
# UVM_INFO ../src/env/axi4_scoreboard.sv(219) @ 4445000: uvm_test_top.env.scb [axi4_scoreboard] [REF_MEM_WRITE] Addr=0x5c8bf689 Data=0x28
# UVM_INFO ../src/env/axi4_scoreboard.sv(219) @ 4445000: uvm_test_top.env.scb [axi4_scoreboard] [REF_MEM_WRITE] Addr=0x5c8bf68a Data=0x55
# UVM_INFO ../src/env/axi4_scoreboard.sv(219) @ 4445000: uvm_test_top.env.scb [axi4_scoreboard] [REF_MEM_WRITE] Addr=0x5c8bf68c Data=0x79
# UVM_INFO ../src/env/axi4_scoreboard.sv(219) @ 4445000: uvm_test_top.env.scb [axi4_scoreboard] [REF_MEM_WRITE] Addr=0x5c8bf68d Data=0x4a
# UVM_INFO ../src/env/axi4_scoreboard.sv(219) @ 4445000: uvm_test_top.env.scb [axi4_scoreboard] [REF_MEM_WRITE] Addr=0x5c8bf68e Data=0xbe
# UVM_INFO ../src/env/axi4_scoreboard.sv(219) @ 4445000: uvm_test_top.env.scb [axi4_scoreboard] [REF_MEM_WRITE] Addr=0x5c8bf68c Data=0xe7
# UVM_INFO ../src/env/axi4_scoreboard.sv(219) @ 4445000: uvm_test_top.env.scb [axi4_scoreboard] [REF_MEM_WRITE] Addr=0x5c8bf68d Data=0x4b
# UVM_INFO ../src/env/axi4_scoreboard.sv(219) @ 4445000: uvm_test_top.env.scb [axi4_scoreboard] [REF_MEM_WRITE] Addr=0x5c8bf68e Data=0xad
# UVM_INFO ../src/env/axi4_scoreboard.sv(219) @ 4445000: uvm_test_top.env.scb [axi4_scoreboard] [REF_MEM_WRITE] Addr=0x5c8bf68c Data=0x74
# UVM_INFO ../src/env/axi4_scoreboard.sv(219) @ 4445000: uvm_test_top.env.scb [axi4_scoreboard] [REF_MEM_WRITE] Addr=0x5c8bf68d Data=0x51
# UVM_INFO ../src/env/axi4_scoreboard.sv(219) @ 4445000: uvm_test_top.env.scb [axi4_scoreboard] [REF_MEM_WRITE] Addr=0x5c8bf691 Data=0x9c
# UVM_INFO ../src/env/axi4_scoreboard.sv(219) @ 4445000: uvm_test_top.env.scb [axi4_scoreboard] [REF_MEM_WRITE] Addr=0x5c8bf692 Data=0x80
# UVM_INFO ../src/env/axi4_scoreboard.sv(219) @ 4445000: uvm_test_top.env.scb [axi4_scoreboard] [REF_MEM_WRITE] Addr=0x5c8bf691 Data=0xed
# UVM_INFO ../src/env/axi4_scoreboard.sv(219) @ 4445000: uvm_test_top.env.scb [axi4_scoreboard] [REF_MEM_WRITE] Addr=0x5c8bf692 Data=0x67
# UVM_INFO ../src/env/axi4_scoreboard.sv(219) @ 4445000: uvm_test_top.env.scb [axi4_scoreboard] [REF_MEM_WRITE] Addr=0x5c8bf690 Data=0x48
# UVM_INFO ../src/env/axi4_scoreboard.sv(219) @ 4445000: uvm_test_top.env.scb [axi4_scoreboard] [REF_MEM_WRITE] Addr=0x5c8bf693 Data=0xed
# UVM_INFO ../src/env/axi4_scoreboard.sv(219) @ 4445000: uvm_test_top.env.scb [axi4_scoreboard] [REF_MEM_WRITE] Addr=0x5c8bf690 Data=0x9f
# UVM_INFO ../src/env/axi4_scoreboard.sv(219) @ 4445000: uvm_test_top.env.scb [axi4_scoreboard] [REF_MEM_WRITE] Addr=0x5c8bf692 Data=0x4b
# UVM_INFO ../src/env/axi4_scoreboard.sv(219) @ 4445000: uvm_test_top.env.scb [axi4_scoreboard] [REF_MEM_WRITE] Addr=0x5c8bf693 Data=0xe1
# UVM_INFO ../src/env/axi4_scoreboard.sv(219) @ 4445000: uvm_test_top.env.scb [axi4_scoreboard] [REF_MEM_WRITE] Addr=0x5c8bf694 Data=0x60
# UVM_INFO ../src/env/axi4_scoreboard.sv(219) @ 4445000: uvm_test_top.env.scb [axi4_scoreboard] [REF_MEM_WRITE] Addr=0x5c8bf695 Data=0xcc
# UVM_INFO ../src/env/axi4_scoreboard.sv(219) @ 4445000: uvm_test_top.env.scb [axi4_scoreboard] [REF_MEM_WRITE] Addr=0x5c8bf694 Data=0xa7
# UVM_INFO ../src/env/axi4_scoreboard.sv(219) @ 4445000: uvm_test_top.env.scb [axi4_scoreboard] [REF_MEM_WRITE] Addr=0x5c8bf695 Data=0x7a
# UVM_INFO ../src/env/axi4_scoreboard.sv(219) @ 4445000: uvm_test_top.env.scb [axi4_scoreboard] [REF_MEM_WRITE] Addr=0x5c8bf697 Data=0x3d
# UVM_INFO ../src/env/axi4_scoreboard.sv(219) @ 4445000: uvm_test_top.env.scb [axi4_scoreboard] [REF_MEM_WRITE] Addr=0x5c8bf694 Data=0x7b
# UVM_INFO ../src/env/axi4_scoreboard.sv(219) @ 4445000: uvm_test_top.env.scb [axi4_scoreboard] [REF_MEM_WRITE] Addr=0x5c8bf695 Data=0xa9
# UVM_INFO ../src/env/axi4_scoreboard.sv(219) @ 4445000: uvm_test_top.env.scb [axi4_scoreboard] [REF_MEM_WRITE] Addr=0x5c8bf697 Data=0xef
# UVM_INFO ../src/env/axi4_scoreboard.sv(219) @ 4445000: uvm_test_top.env.scb [axi4_scoreboard] [REF_MEM_WRITE] Addr=0x5c8bf697 Data=0x69
# UVM_INFO ../src/env/axi4_scoreboard.sv(219) @ 4445000: uvm_test_top.env.scb [axi4_scoreboard] [REF_MEM_WRITE] Addr=0x5c8bf699 Data=0xbc
# UVM_INFO ../src/env/axi4_scoreboard.sv(219) @ 4445000: uvm_test_top.env.scb [axi4_scoreboard] [REF_MEM_WRITE] Addr=0x5c8bf69a Data=0x54
# UVM_INFO ../src/env/axi4_scoreboard.sv(219) @ 4445000: uvm_test_top.env.scb [axi4_scoreboard] [REF_MEM_WRITE] Addr=0x5c8bf69a Data=0x53
# UVM_INFO ../src/env/axi4_scoreboard.sv(219) @ 4445000: uvm_test_top.env.scb [axi4_scoreboard] [REF_MEM_WRITE] Addr=0x5c8bf698 Data=0x8f
# UVM_INFO ../src/env/axi4_scoreboard.sv(219) @ 4445000: uvm_test_top.env.scb [axi4_scoreboard] [REF_MEM_WRITE] Addr=0x5c8bf699 Data=0xac
# UVM_INFO ../src/env/axi4_scoreboard.sv(219) @ 4445000: uvm_test_top.env.scb [axi4_scoreboard] [REF_MEM_WRITE] Addr=0x5c8bf69a Data=0xe7
# UVM_INFO ../src/env/axi4_scoreboard.sv(219) @ 4445000: uvm_test_top.env.scb [axi4_scoreboard] [REF_MEM_WRITE] Addr=0x5c8bf699 Data=0xc9
# UVM_INFO ../src/env/axi4_scoreboard.sv(219) @ 4445000: uvm_test_top.env.scb [axi4_scoreboard] [REF_MEM_WRITE] Addr=0x5c8bf69a Data=0xa1
# UVM_INFO ../src/env/axi4_scoreboard.sv(219) @ 4445000: uvm_test_top.env.scb [axi4_scoreboard] [REF_MEM_WRITE] Addr=0x5c8bf69c Data=0x22
# UVM_INFO ../src/env/axi4_scoreboard.sv(219) @ 4445000: uvm_test_top.env.scb [axi4_scoreboard] [REF_MEM_WRITE] Addr=0x5c8bf69d Data=0x71
# UVM_INFO ../src/env/axi4_scoreboard.sv(219) @ 4445000: uvm_test_top.env.scb [axi4_scoreboard] [REF_MEM_WRITE] Addr=0x5c8bf69e Data=0xe4
# UVM_INFO ../src/env/axi4_scoreboard.sv(219) @ 4445000: uvm_test_top.env.scb [axi4_scoreboard] [REF_MEM_WRITE] Addr=0x5c8bf69f Data=0xd5
# UVM_INFO ../src/env/axi4_scoreboard.sv(219) @ 4445000: uvm_test_top.env.scb [axi4_scoreboard] [REF_MEM_WRITE] Addr=0x5c8bf69c Data=0xb6
# UVM_INFO ../src/env/axi4_scoreboard.sv(219) @ 4445000: uvm_test_top.env.scb [axi4_scoreboard] [REF_MEM_WRITE] Addr=0x5c8bf69e Data=0x64
# UVM_INFO ../src/env/axi4_scoreboard.sv(219) @ 4445000: uvm_test_top.env.scb [axi4_scoreboard] [REF_MEM_WRITE] Addr=0x5c8bf69f Data=0x71
# UVM_INFO ../src/env/axi4_scoreboard.sv(219) @ 4445000: uvm_test_top.env.scb [axi4_scoreboard] [REF_MEM_WRITE] Addr=0x5c8bf69d Data=0x4d
# UVM_INFO ../src/env/axi4_scoreboard.sv(219) @ 4445000: uvm_test_top.env.scb [axi4_scoreboard] [REF_MEM_WRITE] Addr=0x5c8bf6a0 Data=0x9c
# UVM_INFO ../src/env/axi4_scoreboard.sv(219) @ 4445000: uvm_test_top.env.scb [axi4_scoreboard] [REF_MEM_WRITE] Addr=0x5c8bf6a1 Data=0x55
# UVM_INFO ../src/env/axi4_scoreboard.sv(219) @ 4445000: uvm_test_top.env.scb [axi4_scoreboard] [REF_MEM_WRITE] Addr=0x5c8bf6a2 Data=0xc1
# UVM_INFO ../src/env/axi4_scoreboard.sv(219) @ 4445000: uvm_test_top.env.scb [axi4_scoreboard] [REF_MEM_WRITE] Addr=0x5c8bf6a1 Data=0xc9
# UVM_INFO ../src/env/axi4_scoreboard.sv(219) @ 4445000: uvm_test_top.env.scb [axi4_scoreboard] [REF_MEM_WRITE] Addr=0x5c8bf6a3 Data=0x02
# UVM_INFO ../src/env/axi4_scoreboard.sv(219) @ 4445000: uvm_test_top.env.scb [axi4_scoreboard] [REF_MEM_WRITE] Addr=0x5c8bf6a4 Data=0xa3
# UVM_INFO ../src/env/axi4_scoreboard.sv(219) @ 4445000: uvm_test_top.env.scb [axi4_scoreboard] [REF_MEM_WRITE] Addr=0x5c8bf6a5 Data=0xbe
# UVM_INFO ../src/env/axi4_scoreboard.sv(219) @ 4445000: uvm_test_top.env.scb [axi4_scoreboard] [REF_MEM_WRITE] Addr=0x5c8bf6a5 Data=0xc7
# UVM_INFO ../src/env/axi4_scoreboard.sv(219) @ 4445000: uvm_test_top.env.scb [axi4_scoreboard] [REF_MEM_WRITE] Addr=0x5c8bf6a6 Data=0x2f
# UVM_INFO ../src/env/axi4_scoreboard.sv(219) @ 4445000: uvm_test_top.env.scb [axi4_scoreboard] [REF_MEM_WRITE] Addr=0x5c8bf6a7 Data=0x31
# UVM_INFO ../src/env/axi4_scoreboard.sv(219) @ 4445000: uvm_test_top.env.scb [axi4_scoreboard] [REF_MEM_WRITE] Addr=0x5c8bf6a9 Data=0x03
# UVM_INFO ../src/env/axi4_scoreboard.sv(219) @ 4445000: uvm_test_top.env.scb [axi4_scoreboard] [REF_MEM_WRITE] Addr=0x5c8bf6aa Data=0x54
# UVM_INFO ../src/env/axi4_scoreboard.sv(219) @ 4445000: uvm_test_top.env.scb [axi4_scoreboard] [REF_MEM_WRITE] Addr=0x5c8bf6aa Data=0xed
# UVM_INFO ../src/env/axi4_scoreboard.sv(219) @ 4445000: uvm_test_top.env.scb [axi4_scoreboard] [REF_MEM_WRITE] Addr=0x5c8bf6ab Data=0xec
# UVM_INFO ../src/env/axi4_scoreboard.sv(219) @ 4445000: uvm_test_top.env.scb [axi4_scoreboard] [REF_MEM_WRITE] Addr=0x5c8bf6a8 Data=0x71
# UVM_INFO ../src/env/axi4_scoreboard.sv(219) @ 4445000: uvm_test_top.env.scb [axi4_scoreboard] [REF_MEM_WRITE] Addr=0x5c8bf6a9 Data=0x72
# UVM_INFO ../src/env/axi4_scoreboard.sv(219) @ 4445000: uvm_test_top.env.scb [axi4_scoreboard] [REF_MEM_WRITE] Addr=0x5c8bf6ab Data=0xcc
# UVM_INFO ../src/env/axi4_scoreboard.sv(219) @ 4445000: uvm_test_top.env.scb [axi4_scoreboard] [REF_MEM_WRITE] Addr=0x5c8bf6a8 Data=0x6a
# UVM_INFO ../src/env/axi4_scoreboard.sv(219) @ 4445000: uvm_test_top.env.scb [axi4_scoreboard] [REF_MEM_WRITE] Addr=0x5c8bf6aa Data=0xff
# UVM_INFO ../src/env/axi4_scoreboard.sv(219) @ 4445000: uvm_test_top.env.scb [axi4_scoreboard] [REF_MEM_WRITE] Addr=0x5c8bf6ab Data=0x55
# UVM_INFO ../src/env/axi4_scoreboard.sv(219) @ 4445000: uvm_test_top.env.scb [axi4_scoreboard] [REF_MEM_WRITE] Addr=0x5c8bf6ac Data=0x97
# UVM_INFO ../src/env/axi4_scoreboard.sv(219) @ 4445000: uvm_test_top.env.scb [axi4_scoreboard] [REF_MEM_WRITE] Addr=0x5c8bf6ac Data=0xc6
# UVM_INFO ../src/env/axi4_scoreboard.sv(219) @ 4445000: uvm_test_top.env.scb [axi4_scoreboard] [REF_MEM_WRITE] Addr=0x5c8bf6ad Data=0xd9
# UVM_INFO ../src/env/axi4_scoreboard.sv(219) @ 4445000: uvm_test_top.env.scb [axi4_scoreboard] [REF_MEM_WRITE] Addr=0x5c8bf6ae Data=0xc9
# UVM_INFO ../src/env/axi4_scoreboard.sv(219) @ 4445000: uvm_test_top.env.scb [axi4_scoreboard] [REF_MEM_WRITE] Addr=0x5c8bf6af Data=0xf3
# UVM_INFO ../src/env/axi4_scoreboard.sv(219) @ 4445000: uvm_test_top.env.scb [axi4_scoreboard] [REF_MEM_WRITE] Addr=0x5c8bf6ad Data=0x88
# UVM_INFO ../src/env/axi4_scoreboard.sv(219) @ 4445000: uvm_test_top.env.scb [axi4_scoreboard] [REF_MEM_WRITE] Addr=0x5c8bf6ae Data=0x12
# UVM_INFO ../src/env/axi4_scoreboard.sv(219) @ 4445000: uvm_test_top.env.scb [axi4_scoreboard] [REF_MEM_WRITE] Addr=0x5c8bf6af Data=0x80
# UVM_INFO ../src/env/axi4_scoreboard.sv(219) @ 4445000: uvm_test_top.env.scb [axi4_scoreboard] [REF_MEM_WRITE] Addr=0x5c8bf6ac Data=0x55
# UVM_INFO ../src/env/axi4_scoreboard.sv(219) @ 4445000: uvm_test_top.env.scb [axi4_scoreboard] [REF_MEM_WRITE] Addr=0x5c8bf6b0 Data=0x32
# UVM_INFO ../src/env/axi4_scoreboard.sv(219) @ 4445000: uvm_test_top.env.scb [axi4_scoreboard] [REF_MEM_WRITE] Addr=0x5c8bf6b1 Data=0x20
# UVM_INFO ../src/env/axi4_scoreboard.sv(219) @ 4445000: uvm_test_top.env.scb [axi4_scoreboard] [REF_MEM_WRITE] Addr=0x5c8bf6b2 Data=0xda
# UVM_INFO ../src/env/axi4_scoreboard.sv(219) @ 4445000: uvm_test_top.env.scb [axi4_scoreboard] [REF_MEM_WRITE] Addr=0x5c8bf6b2 Data=0x4b
# UVM_INFO ../src/env/axi4_scoreboard.sv(219) @ 4445000: uvm_test_top.env.scb [axi4_scoreboard] [REF_MEM_WRITE] Addr=0x5c8bf6b3 Data=0xba
# UVM_INFO ../src/env/axi4_scoreboard.sv(219) @ 4445000: uvm_test_top.env.scb [axi4_scoreboard] [REF_MEM_WRITE] Addr=0x5c8bf6b0 Data=0xbf
# UVM_INFO ../src/env/axi4_scoreboard.sv(219) @ 4445000: uvm_test_top.env.scb [axi4_scoreboard] [REF_MEM_WRITE] Addr=0x5c8bf6b1 Data=0x31
# UVM_INFO ../src/env/axi4_scoreboard.sv(219) @ 4445000: uvm_test_top.env.scb [axi4_scoreboard] [REF_MEM_WRITE] Addr=0x5c8bf6b3 Data=0xb2
# UVM_INFO ../src/env/axi4_scoreboard.sv(219) @ 4445000: uvm_test_top.env.scb [axi4_scoreboard] [REF_MEM_WRITE] Addr=0x5c8bf6b0 Data=0x64
# UVM_INFO ../src/env/axi4_scoreboard.sv(219) @ 4445000: uvm_test_top.env.scb [axi4_scoreboard] [REF_MEM_WRITE] Addr=0x5c8bf6b1 Data=0x06
# UVM_INFO ../src/env/axi4_scoreboard.sv(219) @ 4445000: uvm_test_top.env.scb [axi4_scoreboard] [REF_MEM_WRITE] Addr=0x5c8bf6b2 Data=0x16
# UVM_INFO ../src/env/axi4_scoreboard.sv(219) @ 4445000: uvm_test_top.env.scb [axi4_scoreboard] [REF_MEM_WRITE] Addr=0x5c8bf6b3 Data=0x6a
# UVM_INFO ../src/env/axi4_scoreboard.sv(219) @ 4445000: uvm_test_top.env.scb [axi4_scoreboard] [REF_MEM_WRITE] Addr=0x5c8bf6b4 Data=0x11
# UVM_INFO ../src/env/axi4_scoreboard.sv(219) @ 4445000: uvm_test_top.env.scb [axi4_scoreboard] [REF_MEM_WRITE] Addr=0x5c8bf6b6 Data=0x90
# UVM_INFO ../src/env/axi4_scoreboard.sv(219) @ 4445000: uvm_test_top.env.scb [axi4_scoreboard] [REF_MEM_WRITE] Addr=0x5c8bf6b4 Data=0x6f
# UVM_INFO ../src/env/axi4_scoreboard.sv(219) @ 4445000: uvm_test_top.env.scb [axi4_scoreboard] [REF_MEM_WRITE] Addr=0x5c8bf6b5 Data=0xb6
# UVM_INFO ../src/env/axi4_scoreboard.sv(219) @ 4445000: uvm_test_top.env.scb [axi4_scoreboard] [REF_MEM_WRITE] Addr=0x5c8bf6b6 Data=0xb2
# UVM_INFO ../src/env/axi4_scoreboard.sv(219) @ 4445000: uvm_test_top.env.scb [axi4_scoreboard] [REF_MEM_WRITE] Addr=0x5c8bf6bb Data=0xdc
# UVM_INFO ../src/env/axi4_scoreboard.sv(219) @ 4445000: uvm_test_top.env.scb [axi4_scoreboard] [REF_MEM_WRITE] Addr=0x5c8bf6ba Data=0x6d
# UVM_INFO ../src/env/axi4_scoreboard.sv(219) @ 4445000: uvm_test_top.env.scb [axi4_scoreboard] [REF_MEM_WRITE] Addr=0x5c8bf6bb Data=0x60
# UVM_INFO ../src/env/axi4_scoreboard.sv(219) @ 4445000: uvm_test_top.env.scb [axi4_scoreboard] [REF_MEM_WRITE] Addr=0x5c8bf6ba Data=0xd0
# UVM_INFO ../src/env/axi4_scoreboard.sv(219) @ 4445000: uvm_test_top.env.scb [axi4_scoreboard] [REF_MEM_WRITE] Addr=0x5c8bf6bb Data=0x9f
# UVM_INFO ../src/env/axi4_scoreboard.sv(219) @ 4445000: uvm_test_top.env.scb [axi4_scoreboard] [REF_MEM_WRITE] Addr=0x5c8bf6ba Data=0xda
# UVM_INFO ../src/env/axi4_scoreboard.sv(219) @ 4445000: uvm_test_top.env.scb [axi4_scoreboard] [REF_MEM_WRITE] Addr=0x5c8bf6bb Data=0xf2
# UVM_INFO ../src/env/axi4_scoreboard.sv(219) @ 4445000: uvm_test_top.env.scb [axi4_scoreboard] [REF_MEM_WRITE] Addr=0x5c8bf6bc Data=0x50
# UVM_INFO ../src/env/axi4_scoreboard.sv(219) @ 4445000: uvm_test_top.env.scb [axi4_scoreboard] [REF_MEM_WRITE] Addr=0x5c8bf6be Data=0x49
# UVM_INFO ../src/env/axi4_scoreboard.sv(219) @ 4445000: uvm_test_top.env.scb [axi4_scoreboard] [REF_MEM_WRITE] Addr=0x5c8bf6bf Data=0x1a
# UVM_INFO ../src/env/axi4_scoreboard.sv(219) @ 4445000: uvm_test_top.env.scb [axi4_scoreboard] [REF_MEM_WRITE] Addr=0x5c8bf6bd Data=0xe8
# UVM_INFO ../src/env/axi4_scoreboard.sv(219) @ 4445000: uvm_test_top.env.scb [axi4_scoreboard] [REF_MEM_WRITE] Addr=0x5c8bf6be Data=0xc3
# UVM_INFO ../src/env/axi4_scoreboard.sv(219) @ 4445000: uvm_test_top.env.scb [axi4_scoreboard] [REF_MEM_WRITE] Addr=0x5c8bf6bf Data=0xd2
# UVM_INFO ../src/env/axi4_scoreboard.sv(219) @ 4445000: uvm_test_top.env.scb [axi4_scoreboard] [REF_MEM_WRITE] Addr=0x5c8bf6bc Data=0xa7
# UVM_INFO ../src/env/axi4_scoreboard.sv(219) @ 4445000: uvm_test_top.env.scb [axi4_scoreboard] [REF_MEM_WRITE] Addr=0x5c8bf6bd Data=0x9d
# UVM_INFO ../src/env/axi4_scoreboard.sv(219) @ 4445000: uvm_test_top.env.scb [axi4_scoreboard] [REF_MEM_WRITE] Addr=0x5c8bf6be Data=0xfa
# UVM_INFO ../src/env/axi4_scoreboard.sv(219) @ 4445000: uvm_test_top.env.scb [axi4_scoreboard] [REF_MEM_WRITE] Addr=0x5c8bf6c1 Data=0x66
# UVM_INFO ../src/env/axi4_scoreboard.sv(219) @ 4445000: uvm_test_top.env.scb [axi4_scoreboard] [REF_MEM_WRITE] Addr=0x5c8bf6c2 Data=0x36
# UVM_INFO ../src/env/axi4_scoreboard.sv(219) @ 4445000: uvm_test_top.env.scb [axi4_scoreboard] [REF_MEM_WRITE] Addr=0x5c8bf6c3 Data=0x63
# UVM_INFO ../src/env/axi4_scoreboard.sv(219) @ 4445000: uvm_test_top.env.scb [axi4_scoreboard] [REF_MEM_WRITE] Addr=0x5c8bf6c2 Data=0x18
# UVM_INFO ../src/env/axi4_scoreboard.sv(219) @ 4445000: uvm_test_top.env.scb [axi4_scoreboard] [REF_MEM_WRITE] Addr=0x5c8bf6c1 Data=0xa3
# UVM_INFO ../src/env/axi4_scoreboard.sv(219) @ 4445000: uvm_test_top.env.scb [axi4_scoreboard] [REF_MEM_WRITE] Addr=0x5c8bf6c1 Data=0xe4
# UVM_INFO ../src/env/axi4_scoreboard.sv(219) @ 4445000: uvm_test_top.env.scb [axi4_scoreboard] [REF_MEM_WRITE] Addr=0x5c8bf6c4 Data=0x01
# UVM_INFO ../src/env/axi4_scoreboard.sv(219) @ 4445000: uvm_test_top.env.scb [axi4_scoreboard] [REF_MEM_WRITE] Addr=0x5c8bf6c6 Data=0x59
# UVM_INFO ../src/env/axi4_scoreboard.sv(219) @ 4445000: uvm_test_top.env.scb [axi4_scoreboard] [REF_MEM_WRITE] Addr=0x5c8bf6c7 Data=0x56
# UVM_INFO ../src/env/axi4_scoreboard.sv(219) @ 4445000: uvm_test_top.env.scb [axi4_scoreboard] [REF_MEM_WRITE] Addr=0x5c8bf6c6 Data=0xdc
# UVM_INFO ../src/env/axi4_scoreboard.sv(219) @ 4445000: uvm_test_top.env.scb [axi4_scoreboard] [REF_MEM_WRITE] Addr=0x5c8bf6c5 Data=0x9b
# UVM_INFO ../src/env/axi4_scoreboard.sv(219) @ 4445000: uvm_test_top.env.scb [axi4_scoreboard] [REF_MEM_WRITE] Addr=0x5c8bf6c6 Data=0xb3
# UVM_INFO ../src/env/axi4_scoreboard.sv(219) @ 4445000: uvm_test_top.env.scb [axi4_scoreboard] [REF_MEM_WRITE] Addr=0x5c8bf6c7 Data=0x77
# UVM_INFO ../src/env/axi4_scoreboard.sv(219) @ 4445000: uvm_test_top.env.scb [axi4_scoreboard] [REF_MEM_WRITE] Addr=0x5c8bf6c8 Data=0x8b
# UVM_INFO ../src/env/axi4_scoreboard.sv(219) @ 4445000: uvm_test_top.env.scb [axi4_scoreboard] [REF_MEM_WRITE] Addr=0x5c8bf6ca Data=0xac
# UVM_INFO ../src/env/axi4_scoreboard.sv(219) @ 4445000: uvm_test_top.env.scb [axi4_scoreboard] [REF_MEM_WRITE] Addr=0x5c8bf6cb Data=0x51
# UVM_INFO ../src/env/axi4_scoreboard.sv(219) @ 4445000: uvm_test_top.env.scb [axi4_scoreboard] [REF_MEM_WRITE] Addr=0x5c8bf6c8 Data=0x79
# UVM_INFO ../src/env/axi4_scoreboard.sv(219) @ 4445000: uvm_test_top.env.scb [axi4_scoreboard] [REF_MEM_WRITE] Addr=0x5c8bf6ca Data=0x6a
# UVM_INFO ../src/env/axi4_scoreboard.sv(219) @ 4445000: uvm_test_top.env.scb [axi4_scoreboard] [REF_MEM_WRITE] Addr=0x5c8bf6c9 Data=0x81
# UVM_INFO ../src/env/axi4_scoreboard.sv(219) @ 4445000: uvm_test_top.env.scb [axi4_scoreboard] [REF_MEM_WRITE] Addr=0x5c8bf6cf Data=0x0c
# UVM_INFO ../src/env/axi4_scoreboard.sv(219) @ 4445000: uvm_test_top.env.scb [axi4_scoreboard] [REF_MEM_WRITE] Addr=0x5c8bf6cc Data=0xa6
# UVM_INFO ../src/env/axi4_scoreboard.sv(219) @ 4445000: uvm_test_top.env.scb [axi4_scoreboard] [REF_MEM_WRITE] Addr=0x5c8bf6ce Data=0x17
# UVM_INFO ../src/env/axi4_scoreboard.sv(219) @ 4445000: uvm_test_top.env.scb [axi4_scoreboard] [REF_MEM_WRITE] Addr=0x5c8bf6cf Data=0xe6
# UVM_INFO ../src/env/axi4_scoreboard.sv(219) @ 4445000: uvm_test_top.env.scb [axi4_scoreboard] [REF_MEM_WRITE] Addr=0x5c8bf6cc Data=0x02
# UVM_INFO ../src/env/axi4_scoreboard.sv(219) @ 4445000: uvm_test_top.env.scb [axi4_scoreboard] [REF_MEM_WRITE] Addr=0x5c8bf6ce Data=0xc0
# UVM_INFO ../src/env/axi4_scoreboard.sv(219) @ 4445000: uvm_test_top.env.scb [axi4_scoreboard] [REF_MEM_WRITE] Addr=0x5c8bf6cf Data=0xc6
# UVM_INFO ../src/env/axi4_scoreboard.sv(219) @ 4445000: uvm_test_top.env.scb [axi4_scoreboard] [REF_MEM_WRITE] Addr=0x5c8bf6d0 Data=0x45
# UVM_INFO ../src/env/axi4_scoreboard.sv(219) @ 4445000: uvm_test_top.env.scb [axi4_scoreboard] [REF_MEM_WRITE] Addr=0x5c8bf6d2 Data=0xcc
# UVM_INFO ../src/env/axi4_scoreboard.sv(219) @ 4445000: uvm_test_top.env.scb [axi4_scoreboard] [REF_MEM_WRITE] Addr=0x5c8bf6d3 Data=0x98
# UVM_INFO ../src/env/axi4_scoreboard.sv(219) @ 4445000: uvm_test_top.env.scb [axi4_scoreboard] [REF_MEM_WRITE] Addr=0x5c8bf6d2 Data=0x2d
# UVM_INFO ../src/env/axi4_scoreboard.sv(219) @ 4445000: uvm_test_top.env.scb [axi4_scoreboard] [REF_MEM_WRITE] Addr=0x5c8bf6d0 Data=0xed
# UVM_INFO ../src/env/axi4_scoreboard.sv(219) @ 4445000: uvm_test_top.env.scb [axi4_scoreboard] [REF_MEM_WRITE] Addr=0x5c8bf6d1 Data=0xa6
# UVM_INFO ../src/env/axi4_scoreboard.sv(219) @ 4445000: uvm_test_top.env.scb [axi4_scoreboard] [REF_MEM_WRITE] Addr=0x5c8bf6d2 Data=0x63
# UVM_INFO ../src/env/axi4_scoreboard.sv(219) @ 4445000: uvm_test_top.env.scb [axi4_scoreboard] [REF_MEM_WRITE] Addr=0x5c8bf6d1 Data=0x90
# UVM_INFO ../src/env/axi4_scoreboard.sv(219) @ 4445000: uvm_test_top.env.scb [axi4_scoreboard] [REF_MEM_WRITE] Addr=0x5c8bf6d2 Data=0xb6
# UVM_INFO ../src/env/axi4_scoreboard.sv(219) @ 4445000: uvm_test_top.env.scb [axi4_scoreboard] [REF_MEM_WRITE] Addr=0x5c8bf6d4 Data=0x5c
# UVM_INFO ../src/env/axi4_scoreboard.sv(219) @ 4445000: uvm_test_top.env.scb [axi4_scoreboard] [REF_MEM_WRITE] Addr=0x5c8bf6d6 Data=0xb7
# UVM_INFO ../src/env/axi4_scoreboard.sv(219) @ 4445000: uvm_test_top.env.scb [axi4_scoreboard] [REF_MEM_WRITE] Addr=0x5c8bf6d7 Data=0x3b
# UVM_INFO ../src/env/axi4_scoreboard.sv(219) @ 4445000: uvm_test_top.env.scb [axi4_scoreboard] [REF_MEM_WRITE] Addr=0x5c8bf6d4 Data=0x33
# UVM_INFO ../src/env/axi4_scoreboard.sv(219) @ 4445000: uvm_test_top.env.scb [axi4_scoreboard] [REF_MEM_WRITE] Addr=0x5c8bf6d5 Data=0x1a
# UVM_INFO ../src/env/axi4_scoreboard.sv(219) @ 4445000: uvm_test_top.env.scb [axi4_scoreboard] [REF_MEM_WRITE] Addr=0x5c8bf6d6 Data=0x30
# UVM_INFO ../src/env/axi4_scoreboard.sv(219) @ 4445000: uvm_test_top.env.scb [axi4_scoreboard] [REF_MEM_WRITE] Addr=0x5c8bf6d7 Data=0x25
# UVM_INFO ../src/env/axi4_scoreboard.sv(219) @ 4445000: uvm_test_top.env.scb [axi4_scoreboard] [REF_MEM_WRITE] Addr=0x5c8bf6d4 Data=0xc9
# UVM_INFO ../src/env/axi4_scoreboard.sv(219) @ 4445000: uvm_test_top.env.scb [axi4_scoreboard] [REF_MEM_WRITE] Addr=0x5c8bf6d5 Data=0xc7
# UVM_INFO ../src/env/axi4_scoreboard.sv(219) @ 4445000: uvm_test_top.env.scb [axi4_scoreboard] [REF_MEM_WRITE] Addr=0x5c8bf6d7 Data=0xef
# UVM_INFO ../src/env/axi4_scoreboard.sv(219) @ 4445000: uvm_test_top.env.scb [axi4_scoreboard] [REF_MEM_WRITE] Addr=0x5c8bf6d5 Data=0x36
# UVM_INFO ../src/env/axi4_scoreboard.sv(219) @ 4445000: uvm_test_top.env.scb [axi4_scoreboard] [REF_MEM_WRITE] Addr=0x5c8bf6d6 Data=0x3b
# UVM_INFO ../src/env/axi4_scoreboard.sv(219) @ 4445000: uvm_test_top.env.scb [axi4_scoreboard] [REF_MEM_WRITE] Addr=0x5c8bf6d7 Data=0x25
# UVM_INFO ../src/env/axi4_scoreboard.sv(219) @ 4445000: uvm_test_top.env.scb [axi4_scoreboard] [REF_MEM_WRITE] Addr=0x5c8bf6da Data=0xf2
# UVM_INFO ../src/env/axi4_scoreboard.sv(219) @ 4445000: uvm_test_top.env.scb [axi4_scoreboard] [REF_MEM_WRITE] Addr=0x5c8bf6db Data=0xa0
# UVM_INFO ../src/env/axi4_scoreboard.sv(219) @ 4445000: uvm_test_top.env.scb [axi4_scoreboard] [REF_MEM_WRITE] Addr=0x5c8bf6da Data=0x7a
# UVM_INFO ../src/env/axi4_scoreboard.sv(219) @ 4445000: uvm_test_top.env.scb [axi4_scoreboard] [REF_MEM_WRITE] Addr=0x5c8bf6da Data=0xea
# UVM_INFO ../src/env/axi4_scoreboard.sv(219) @ 4445000: uvm_test_top.env.scb [axi4_scoreboard] [REF_MEM_WRITE] Addr=0x5c8bf6db Data=0x26
# UVM_INFO ../src/env/axi4_scoreboard.sv(219) @ 4445000: uvm_test_top.env.scb [axi4_scoreboard] [REF_MEM_WRITE] Addr=0x5c8bf6d9 Data=0x09
# UVM_INFO ../src/env/axi4_scoreboard.sv(219) @ 4445000: uvm_test_top.env.scb [axi4_scoreboard] [REF_MEM_WRITE] Addr=0x5c8bf6da Data=0xf7
# UVM_INFO ../src/env/axi4_scoreboard.sv(219) @ 4445000: uvm_test_top.env.scb [axi4_scoreboard] [REF_MEM_WRITE] Addr=0x5c8bf6dc Data=0x87
# UVM_INFO ../src/env/axi4_scoreboard.sv(219) @ 4445000: uvm_test_top.env.scb [axi4_scoreboard] [REF_MEM_WRITE] Addr=0x5c8bf6df Data=0x85
# UVM_INFO ../src/env/axi4_scoreboard.sv(219) @ 4445000: uvm_test_top.env.scb [axi4_scoreboard] [REF_MEM_WRITE] Addr=0x5c8bf6df Data=0xab
# UVM_INFO ../src/env/axi4_scoreboard.sv(219) @ 4445000: uvm_test_top.env.scb [axi4_scoreboard] [REF_MEM_WRITE] Addr=0x5c8bf6dd Data=0x33
# UVM_INFO ../src/env/axi4_scoreboard.sv(219) @ 4445000: uvm_test_top.env.scb [axi4_scoreboard] [REF_MEM_WRITE] Addr=0x5c8bf6de Data=0x15
# UVM_INFO ../src/env/axi4_scoreboard.sv(219) @ 4445000: uvm_test_top.env.scb [axi4_scoreboard] [REF_MEM_WRITE] Addr=0x5c8bf6df Data=0x36
# UVM_INFO ../src/env/axi4_scoreboard.sv(219) @ 4445000: uvm_test_top.env.scb [axi4_scoreboard] [REF_MEM_WRITE] Addr=0x5c8bf6e0 Data=0xae
# UVM_INFO ../src/env/axi4_scoreboard.sv(219) @ 4445000: uvm_test_top.env.scb [axi4_scoreboard] [REF_MEM_WRITE] Addr=0x5c8bf6e2 Data=0x62
# UVM_INFO ../src/env/axi4_scoreboard.sv(219) @ 4445000: uvm_test_top.env.scb [axi4_scoreboard] [REF_MEM_WRITE] Addr=0x5c8bf6e0 Data=0xb4
# UVM_INFO ../src/env/axi4_scoreboard.sv(219) @ 4445000: uvm_test_top.env.scb [axi4_scoreboard] [REF_MEM_WRITE] Addr=0x5c8bf6e2 Data=0x4a
# UVM_INFO ../src/env/axi4_scoreboard.sv(219) @ 4445000: uvm_test_top.env.scb [axi4_scoreboard] [REF_MEM_WRITE] Addr=0x5c8bf6e0 Data=0x1e
# UVM_INFO ../src/env/axi4_scoreboard.sv(219) @ 4445000: uvm_test_top.env.scb [axi4_scoreboard] [REF_MEM_WRITE] Addr=0x5c8bf6e1 Data=0xa1
# UVM_INFO ../src/env/axi4_scoreboard.sv(219) @ 4445000: uvm_test_top.env.scb [axi4_scoreboard] [REF_MEM_WRITE] Addr=0x5c8bf6e3 Data=0xaf
# UVM_INFO ../src/env/axi4_scoreboard.sv(219) @ 4445000: uvm_test_top.env.scb [axi4_scoreboard] [REF_MEM_WRITE] Addr=0x5c8bf6e0 Data=0xe0
# UVM_INFO ../src/env/axi4_scoreboard.sv(219) @ 4445000: uvm_test_top.env.scb [axi4_scoreboard] [REF_MEM_WRITE] Addr=0x5c8bf6e2 Data=0xf5
# UVM_INFO ../src/env/axi4_scoreboard.sv(219) @ 4445000: uvm_test_top.env.scb [axi4_scoreboard] [REF_MEM_WRITE] Addr=0x5c8bf6e7 Data=0xe9
# UVM_INFO ../src/env/axi4_scoreboard.sv(219) @ 4445000: uvm_test_top.env.scb [axi4_scoreboard] [REF_MEM_WRITE] Addr=0x5c8bf6e6 Data=0x4a
# UVM_INFO ../src/env/axi4_scoreboard.sv(219) @ 4445000: uvm_test_top.env.scb [axi4_scoreboard] [REF_MEM_WRITE] Addr=0x5c8bf6e7 Data=0x4d
# UVM_INFO ../src/env/axi4_scoreboard.sv(219) @ 4445000: uvm_test_top.env.scb [axi4_scoreboard] [REF_MEM_WRITE] Addr=0x5c8bf6e6 Data=0x42
# UVM_INFO ../src/env/axi4_scoreboard.sv(219) @ 4445000: uvm_test_top.env.scb [axi4_scoreboard] [REF_MEM_WRITE] Addr=0x5c8bf6e5 Data=0x19
# UVM_INFO ../src/env/axi4_scoreboard.sv(219) @ 4445000: uvm_test_top.env.scb [axi4_scoreboard] [REF_MEM_WRITE] Addr=0x5c8bf6e6 Data=0x5c
# UVM_INFO ../src/env/axi4_scoreboard.sv(219) @ 4445000: uvm_test_top.env.scb [axi4_scoreboard] [REF_MEM_WRITE] Addr=0x5c8bf6e7 Data=0x9d
# UVM_INFO ../src/env/axi4_scoreboard.sv(219) @ 4445000: uvm_test_top.env.scb [axi4_scoreboard] [REF_MEM_WRITE] Addr=0x5c8bf6e9 Data=0xe7
# UVM_INFO ../src/env/axi4_scoreboard.sv(219) @ 4445000: uvm_test_top.env.scb [axi4_scoreboard] [REF_MEM_WRITE] Addr=0x5c8bf6ea Data=0x28
# UVM_INFO ../src/env/axi4_scoreboard.sv(219) @ 4445000: uvm_test_top.env.scb [axi4_scoreboard] [REF_MEM_WRITE] Addr=0x5c8bf6e8 Data=0xc5
# UVM_INFO ../src/env/axi4_scoreboard.sv(219) @ 4445000: uvm_test_top.env.scb [axi4_scoreboard] [REF_MEM_WRITE] Addr=0x5c8bf6ea Data=0x9a
# UVM_INFO ../src/env/axi4_scoreboard.sv(219) @ 4445000: uvm_test_top.env.scb [axi4_scoreboard] [REF_MEM_WRITE] Addr=0x5c8bf6eb Data=0xe2
# UVM_INFO ../src/env/axi4_scoreboard.sv(219) @ 4445000: uvm_test_top.env.scb [axi4_scoreboard] [REF_MEM_WRITE] Addr=0x5c8bf6e8 Data=0xf7
# UVM_INFO ../src/env/axi4_scoreboard.sv(219) @ 4445000: uvm_test_top.env.scb [axi4_scoreboard] [REF_MEM_WRITE] Addr=0x5c8bf6e9 Data=0x0e
# UVM_INFO ../src/env/axi4_scoreboard.sv(219) @ 4445000: uvm_test_top.env.scb [axi4_scoreboard] [REF_MEM_WRITE] Addr=0x5c8bf6ed Data=0x90
# UVM_INFO ../src/env/axi4_scoreboard.sv(219) @ 4445000: uvm_test_top.env.scb [axi4_scoreboard] [REF_MEM_WRITE] Addr=0x5c8bf6ee Data=0x79
# UVM_INFO ../src/env/axi4_scoreboard.sv(219) @ 4445000: uvm_test_top.env.scb [axi4_scoreboard] [REF_MEM_WRITE] Addr=0x5c8bf6ed Data=0xa3
# UVM_INFO ../src/env/axi4_scoreboard.sv(219) @ 4445000: uvm_test_top.env.scb [axi4_scoreboard] [REF_MEM_WRITE] Addr=0x5c8bf6ef Data=0x7f
# UVM_INFO ../src/env/axi4_scoreboard.sv(219) @ 4445000: uvm_test_top.env.scb [axi4_scoreboard] [REF_MEM_WRITE] Addr=0x5c8bf6ee Data=0xbb
# UVM_INFO ../src/env/axi4_scoreboard.sv(219) @ 4445000: uvm_test_top.env.scb [axi4_scoreboard] [REF_MEM_WRITE] Addr=0x5c8bf6ef Data=0x6d
# UVM_INFO ../src/env/axi4_scoreboard.sv(219) @ 4445000: uvm_test_top.env.scb [axi4_scoreboard] [REF_MEM_WRITE] Addr=0x5c8bf6f3 Data=0x35
# UVM_INFO ../src/env/axi4_scoreboard.sv(219) @ 4445000: uvm_test_top.env.scb [axi4_scoreboard] [REF_MEM_WRITE] Addr=0x5c8bf6f1 Data=0x33
# UVM_INFO ../src/env/axi4_scoreboard.sv(219) @ 4445000: uvm_test_top.env.scb [axi4_scoreboard] [REF_MEM_WRITE] Addr=0x5c8bf6f2 Data=0x98
# UVM_INFO ../src/env/axi4_scoreboard.sv(219) @ 4445000: uvm_test_top.env.scb [axi4_scoreboard] [REF_MEM_WRITE] Addr=0x5c8bf6f0 Data=0xb4
# UVM_INFO ../src/env/axi4_scoreboard.sv(219) @ 4445000: uvm_test_top.env.scb [axi4_scoreboard] [REF_MEM_WRITE] Addr=0x5c8bf6f1 Data=0xa6
# UVM_INFO ../src/env/axi4_scoreboard.sv(219) @ 4445000: uvm_test_top.env.scb [axi4_scoreboard] [REF_MEM_WRITE] Addr=0x5c8bf6f3 Data=0xb2
# UVM_INFO ../src/env/axi4_scoreboard.sv(219) @ 4445000: uvm_test_top.env.scb [axi4_scoreboard] [REF_MEM_WRITE] Addr=0x5c8bf6f1 Data=0x4c
# UVM_INFO ../src/env/axi4_scoreboard.sv(219) @ 4445000: uvm_test_top.env.scb [axi4_scoreboard] [REF_MEM_WRITE] Addr=0x5c8bf6f2 Data=0x39
# UVM_INFO ../src/env/axi4_scoreboard.sv(219) @ 4445000: uvm_test_top.env.scb [axi4_scoreboard] [REF_MEM_WRITE] Addr=0x5c8bf6f4 Data=0xf5
# UVM_INFO ../src/env/axi4_scoreboard.sv(219) @ 4445000: uvm_test_top.env.scb [axi4_scoreboard] [REF_MEM_WRITE] Addr=0x5c8bf6f5 Data=0x51
# UVM_INFO ../src/env/axi4_scoreboard.sv(219) @ 4445000: uvm_test_top.env.scb [axi4_scoreboard] [REF_MEM_WRITE] Addr=0x5c8bf6f6 Data=0xae
# UVM_INFO ../src/env/axi4_scoreboard.sv(219) @ 4445000: uvm_test_top.env.scb [axi4_scoreboard] [REF_MEM_WRITE] Addr=0x5c8bf6f7 Data=0x8f
# UVM_INFO ../src/env/axi4_scoreboard.sv(219) @ 4445000: uvm_test_top.env.scb [axi4_scoreboard] [REF_MEM_WRITE] Addr=0x5c8bf6f4 Data=0x62
# UVM_INFO ../src/env/axi4_scoreboard.sv(219) @ 4445000: uvm_test_top.env.scb [axi4_scoreboard] [REF_MEM_WRITE] Addr=0x5c8bf6f5 Data=0xaa
# UVM_INFO ../src/env/axi4_scoreboard.sv(219) @ 4445000: uvm_test_top.env.scb [axi4_scoreboard] [REF_MEM_WRITE] Addr=0x5c8bf6f6 Data=0x24
# UVM_INFO ../src/env/axi4_scoreboard.sv(219) @ 4445000: uvm_test_top.env.scb [axi4_scoreboard] [REF_MEM_WRITE] Addr=0x5c8bf6f7 Data=0x5e
# UVM_INFO ../src/env/axi4_scoreboard.sv(219) @ 4445000: uvm_test_top.env.scb [axi4_scoreboard] [REF_MEM_WRITE] Addr=0x5c8bf6f4 Data=0x25
# UVM_INFO ../src/env/axi4_scoreboard.sv(219) @ 4445000: uvm_test_top.env.scb [axi4_scoreboard] [REF_MEM_WRITE] Addr=0x5c8bf6f5 Data=0xa6
# UVM_INFO ../src/env/axi4_scoreboard.sv(219) @ 4445000: uvm_test_top.env.scb [axi4_scoreboard] [REF_MEM_WRITE] Addr=0x5c8bf6f7 Data=0xfe
# UVM_INFO ../src/env/axi4_scoreboard.sv(219) @ 4445000: uvm_test_top.env.scb [axi4_scoreboard] [REF_MEM_WRITE] Addr=0x5c8bf6f4 Data=0x76
# UVM_INFO ../src/env/axi4_scoreboard.sv(219) @ 4445000: uvm_test_top.env.scb [axi4_scoreboard] [REF_MEM_WRITE] Addr=0x5c8bf6f7 Data=0x06
# UVM_INFO ../src/env/axi4_scoreboard.sv(219) @ 4445000: uvm_test_top.env.scb [axi4_scoreboard] [REF_MEM_WRITE] Addr=0x5c8bf6f9 Data=0xb8
# UVM_INFO ../src/env/axi4_scoreboard.sv(219) @ 4445000: uvm_test_top.env.scb [axi4_scoreboard] [REF_MEM_WRITE] Addr=0x5c8bf6fa Data=0x50
# UVM_INFO ../src/env/axi4_scoreboard.sv(219) @ 4445000: uvm_test_top.env.scb [axi4_scoreboard] [REF_MEM_WRITE] Addr=0x5c8bf6fb Data=0x83
# UVM_INFO ../src/env/axi4_scoreboard.sv(219) @ 4445000: uvm_test_top.env.scb [axi4_scoreboard] [REF_MEM_WRITE] Addr=0x5c8bf6f9 Data=0xaa
# UVM_INFO ../src/env/axi4_scoreboard.sv(219) @ 4445000: uvm_test_top.env.scb [axi4_scoreboard] [REF_MEM_WRITE] Addr=0x5c8bf6fa Data=0xac
# UVM_INFO ../src/env/axi4_scoreboard.sv(219) @ 4445000: uvm_test_top.env.scb [axi4_scoreboard] [REF_MEM_WRITE] Addr=0x5c8bf6fb Data=0x96
# UVM_INFO ../src/env/axi4_scoreboard.sv(219) @ 4445000: uvm_test_top.env.scb [axi4_scoreboard] [REF_MEM_WRITE] Addr=0x5c8bf6f8 Data=0x9e
# UVM_INFO ../src/env/axi4_scoreboard.sv(219) @ 4445000: uvm_test_top.env.scb [axi4_scoreboard] [REF_MEM_WRITE] Addr=0x5c8bf6f9 Data=0x85
# UVM_INFO ../src/env/axi4_scoreboard.sv(219) @ 4445000: uvm_test_top.env.scb [axi4_scoreboard] [REF_MEM_WRITE] Addr=0x5c8bf6f9 Data=0xdd
# UVM_INFO ../src/env/axi4_scoreboard.sv(219) @ 4445000: uvm_test_top.env.scb [axi4_scoreboard] [REF_MEM_WRITE] Addr=0x5c8bf6fb Data=0x72
# UVM_INFO ../src/env/axi4_scoreboard.sv(219) @ 4445000: uvm_test_top.env.scb [axi4_scoreboard] [REF_MEM_WRITE] Addr=0x5c8bf6fd Data=0x07
# UVM_INFO ../src/env/axi4_scoreboard.sv(219) @ 4445000: uvm_test_top.env.scb [axi4_scoreboard] [REF_MEM_WRITE] Addr=0x5c8bf6fe Data=0xa5
# UVM_INFO ../src/env/axi4_scoreboard.sv(219) @ 4445000: uvm_test_top.env.scb [axi4_scoreboard] [REF_MEM_WRITE] Addr=0x5c8bf6fc Data=0xec
# UVM_INFO ../src/env/axi4_scoreboard.sv(219) @ 4445000: uvm_test_top.env.scb [axi4_scoreboard] [REF_MEM_WRITE] Addr=0x5c8bf6fd Data=0x64
# UVM_INFO ../src/env/axi4_scoreboard.sv(219) @ 4445000: uvm_test_top.env.scb [axi4_scoreboard] [REF_MEM_WRITE] Addr=0x5c8bf6ff Data=0xa4
# UVM_INFO ../src/env/axi4_scoreboard.sv(219) @ 4445000: uvm_test_top.env.scb [axi4_scoreboard] [REF_MEM_WRITE] Addr=0x5c8bf6fc Data=0xd8
# UVM_INFO ../src/env/axi4_scoreboard.sv(219) @ 4445000: uvm_test_top.env.scb [axi4_scoreboard] [REF_MEM_WRITE] Addr=0x5c8bf6fd Data=0xaa
# UVM_INFO ../src/env/axi4_scoreboard.sv(219) @ 4445000: uvm_test_top.env.scb [axi4_scoreboard] [REF_MEM_WRITE] Addr=0x5c8bf701 Data=0x65
# UVM_INFO ../src/env/axi4_scoreboard.sv(219) @ 4445000: uvm_test_top.env.scb [axi4_scoreboard] [REF_MEM_WRITE] Addr=0x5c8bf702 Data=0xda
# UVM_INFO ../src/env/axi4_scoreboard.sv(219) @ 4445000: uvm_test_top.env.scb [axi4_scoreboard] [REF_MEM_WRITE] Addr=0x5c8bf702 Data=0xc3
# UVM_INFO ../src/env/axi4_scoreboard.sv(219) @ 4445000: uvm_test_top.env.scb [axi4_scoreboard] [REF_MEM_WRITE] Addr=0x5c8bf700 Data=0xfc
# UVM_INFO ../src/env/axi4_scoreboard.sv(219) @ 4445000: uvm_test_top.env.scb [axi4_scoreboard] [REF_MEM_WRITE] Addr=0x5c8bf701 Data=0x5d
# UVM_INFO ../src/env/axi4_scoreboard.sv(219) @ 4445000: uvm_test_top.env.scb [axi4_scoreboard] [REF_MEM_WRITE] Addr=0x5c8bf702 Data=0x48
# UVM_INFO ../src/env/axi4_scoreboard.sv(219) @ 4445000: uvm_test_top.env.scb [axi4_scoreboard] [REF_MEM_WRITE] Addr=0x5c8bf703 Data=0x65
# UVM_INFO ../src/env/axi4_scoreboard.sv(219) @ 4445000: uvm_test_top.env.scb [axi4_scoreboard] [REF_MEM_WRITE] Addr=0x5c8bf700 Data=0x44
# UVM_INFO ../src/env/axi4_scoreboard.sv(219) @ 4445000: uvm_test_top.env.scb [axi4_scoreboard] [REF_MEM_WRITE] Addr=0x5c8bf701 Data=0x49
# UVM_INFO ../src/env/axi4_scoreboard.sv(219) @ 4445000: uvm_test_top.env.scb [axi4_scoreboard] [REF_MEM_WRITE] Addr=0x5c8bf703 Data=0x8a
# UVM_INFO ../src/env/axi4_scoreboard.sv(219) @ 4445000: uvm_test_top.env.scb [axi4_scoreboard] [REF_MEM_WRITE] Addr=0x5c8bf705 Data=0x2d
# UVM_INFO ../src/env/axi4_scoreboard.sv(219) @ 4445000: uvm_test_top.env.scb [axi4_scoreboard] [REF_MEM_WRITE] Addr=0x5c8bf706 Data=0xdd
# UVM_INFO ../src/env/axi4_scoreboard.sv(219) @ 4445000: uvm_test_top.env.scb [axi4_scoreboard] [REF_MEM_WRITE] Addr=0x5c8bf707 Data=0x11
# UVM_INFO ../src/env/axi4_scoreboard.sv(219) @ 4445000: uvm_test_top.env.scb [axi4_scoreboard] [REF_MEM_WRITE] Addr=0x5c8bf704 Data=0xa7
# UVM_INFO ../src/env/axi4_scoreboard.sv(219) @ 4445000: uvm_test_top.env.scb [axi4_scoreboard] [REF_MEM_WRITE] Addr=0x5c8bf705 Data=0xb6
# UVM_INFO ../src/env/axi4_scoreboard.sv(219) @ 4445000: uvm_test_top.env.scb [axi4_scoreboard] [REF_MEM_WRITE] Addr=0x5c8bf705 Data=0x7b
# UVM_INFO ../src/env/axi4_scoreboard.sv(219) @ 4445000: uvm_test_top.env.scb [axi4_scoreboard] [REF_MEM_WRITE] Addr=0x5c8bf708 Data=0x9c
# UVM_INFO ../src/env/axi4_scoreboard.sv(219) @ 4445000: uvm_test_top.env.scb [axi4_scoreboard] [REF_MEM_WRITE] Addr=0x5c8bf70b Data=0x2e
# UVM_INFO ../src/env/axi4_scoreboard.sv(219) @ 4445000: uvm_test_top.env.scb [axi4_scoreboard] [REF_MEM_WRITE] Addr=0x5c8bf709 Data=0xae
# UVM_INFO ../src/env/axi4_scoreboard.sv(219) @ 4445000: uvm_test_top.env.scb [axi4_scoreboard] [REF_MEM_WRITE] Addr=0x5c8bf70a Data=0x4c
# UVM_INFO ../src/env/axi4_scoreboard.sv(219) @ 4445000: uvm_test_top.env.scb [axi4_scoreboard] [REF_MEM_WRITE] Addr=0x5c8bf70b Data=0xd4
# UVM_INFO ../src/env/axi4_scoreboard.sv(219) @ 4445000: uvm_test_top.env.scb [axi4_scoreboard] [REF_MEM_WRITE] Addr=0x5c8bf709 Data=0x0d
# UVM_INFO ../src/env/axi4_scoreboard.sv(219) @ 4445000: uvm_test_top.env.scb [axi4_scoreboard] [REF_MEM_WRITE] Addr=0x5c8bf70d Data=0x13
# UVM_INFO ../src/env/axi4_scoreboard.sv(219) @ 4445000: uvm_test_top.env.scb [axi4_scoreboard] [REF_MEM_WRITE] Addr=0x5c8bf70d Data=0xab
# UVM_INFO ../src/env/axi4_scoreboard.sv(219) @ 4445000: uvm_test_top.env.scb [axi4_scoreboard] [REF_MEM_WRITE] Addr=0x5c8bf70e Data=0x81
# UVM_INFO ../src/env/axi4_scoreboard.sv(219) @ 4445000: uvm_test_top.env.scb [axi4_scoreboard] [REF_MEM_WRITE] Addr=0x5c8bf70f Data=0x58
# UVM_INFO ../src/env/axi4_scoreboard.sv(219) @ 4445000: uvm_test_top.env.scb [axi4_scoreboard] [REF_MEM_WRITE] Addr=0x5c8bf70c Data=0xbf
# UVM_INFO ../src/env/axi4_scoreboard.sv(219) @ 4445000: uvm_test_top.env.scb [axi4_scoreboard] [REF_MEM_WRITE] Addr=0x5c8bf70e Data=0xfc
# UVM_INFO ../src/env/axi4_scoreboard.sv(219) @ 4445000: uvm_test_top.env.scb [axi4_scoreboard] [REF_MEM_WRITE] Addr=0x5c8bf70d Data=0xad
# UVM_INFO ../src/env/axi4_scoreboard.sv(219) @ 4445000: uvm_test_top.env.scb [axi4_scoreboard] [REF_MEM_WRITE] Addr=0x5c8bf710 Data=0xd6
# UVM_INFO ../src/env/axi4_scoreboard.sv(219) @ 4445000: uvm_test_top.env.scb [axi4_scoreboard] [REF_MEM_WRITE] Addr=0x5c8bf710 Data=0x4f
# UVM_INFO ../src/env/axi4_scoreboard.sv(219) @ 4445000: uvm_test_top.env.scb [axi4_scoreboard] [REF_MEM_WRITE] Addr=0x5c8bf711 Data=0x88
# UVM_INFO ../src/env/axi4_scoreboard.sv(219) @ 4445000: uvm_test_top.env.scb [axi4_scoreboard] [REF_MEM_WRITE] Addr=0x5c8bf710 Data=0xb2
# UVM_INFO ../src/env/axi4_scoreboard.sv(219) @ 4445000: uvm_test_top.env.scb [axi4_scoreboard] [REF_MEM_WRITE] Addr=0x5c8bf712 Data=0xd1
# UVM_INFO ../src/env/axi4_scoreboard.sv(219) @ 4445000: uvm_test_top.env.scb [axi4_scoreboard] [REF_MEM_WRITE] Addr=0x5c8bf713 Data=0xf4
# UVM_INFO ../src/env/axi4_scoreboard.sv(219) @ 4445000: uvm_test_top.env.scb [axi4_scoreboard] [REF_MEM_WRITE] Addr=0x5c8bf714 Data=0x5d
# UVM_INFO ../src/env/axi4_scoreboard.sv(219) @ 4445000: uvm_test_top.env.scb [axi4_scoreboard] [REF_MEM_WRITE] Addr=0x5c8bf715 Data=0x11
# UVM_INFO ../src/env/axi4_scoreboard.sv(219) @ 4445000: uvm_test_top.env.scb [axi4_scoreboard] [REF_MEM_WRITE] Addr=0x5c8bf716 Data=0x54
# UVM_INFO ../src/env/axi4_scoreboard.sv(219) @ 4445000: uvm_test_top.env.scb [axi4_scoreboard] [REF_MEM_WRITE] Addr=0x5c8bf715 Data=0x0e
# UVM_INFO ../src/env/axi4_scoreboard.sv(219) @ 4445000: uvm_test_top.env.scb [axi4_scoreboard] [REF_MEM_WRITE] Addr=0x5c8bf715 Data=0xa1
# UVM_INFO ../src/env/axi4_scoreboard.sv(219) @ 4445000: uvm_test_top.env.scb [axi4_scoreboard] [REF_MEM_WRITE] Addr=0x5c8bf716 Data=0x1f
# UVM_INFO ../src/env/axi4_scoreboard.sv(219) @ 4445000: uvm_test_top.env.scb [axi4_scoreboard] [REF_MEM_WRITE] Addr=0x5c8bf717 Data=0xe4
# UVM_INFO ../src/env/axi4_scoreboard.sv(219) @ 4445000: uvm_test_top.env.scb [axi4_scoreboard] [REF_MEM_WRITE] Addr=0x5c8bf715 Data=0x08
# UVM_INFO ../src/env/axi4_scoreboard.sv(219) @ 4445000: uvm_test_top.env.scb [axi4_scoreboard] [REF_MEM_WRITE] Addr=0x5c8bf717 Data=0xc9
# UVM_INFO ../src/env/axi4_scoreboard.sv(219) @ 4445000: uvm_test_top.env.scb [axi4_scoreboard] [REF_MEM_WRITE] Addr=0x5c8bf719 Data=0x60
# UVM_INFO ../src/env/axi4_scoreboard.sv(219) @ 4445000: uvm_test_top.env.scb [axi4_scoreboard] [REF_MEM_WRITE] Addr=0x5c8bf71a Data=0x8c
# UVM_INFO ../src/env/axi4_scoreboard.sv(219) @ 4445000: uvm_test_top.env.scb [axi4_scoreboard] [REF_MEM_WRITE] Addr=0x5c8bf71b Data=0xc8
# UVM_INFO ../src/env/axi4_scoreboard.sv(219) @ 4445000: uvm_test_top.env.scb [axi4_scoreboard] [REF_MEM_WRITE] Addr=0x5c8bf718 Data=0x3d
# UVM_INFO ../src/env/axi4_scoreboard.sv(219) @ 4445000: uvm_test_top.env.scb [axi4_scoreboard] [REF_MEM_WRITE] Addr=0x5c8bf719 Data=0xd4
# UVM_INFO ../src/env/axi4_scoreboard.sv(219) @ 4445000: uvm_test_top.env.scb [axi4_scoreboard] [REF_MEM_WRITE] Addr=0x5c8bf71a Data=0xe4
# UVM_INFO ../src/env/axi4_scoreboard.sv(219) @ 4445000: uvm_test_top.env.scb [axi4_scoreboard] [REF_MEM_WRITE] Addr=0x5c8bf718 Data=0x8a
# UVM_INFO ../src/env/axi4_scoreboard.sv(219) @ 4445000: uvm_test_top.env.scb [axi4_scoreboard] [REF_MEM_WRITE] Addr=0x5c8bf71a Data=0x56
# UVM_INFO ../src/env/axi4_scoreboard.sv(219) @ 4445000: uvm_test_top.env.scb [axi4_scoreboard] [REF_MEM_WRITE] Addr=0x5c8bf719 Data=0xb8
# UVM_INFO ../src/env/axi4_scoreboard.sv(219) @ 4445000: uvm_test_top.env.scb [axi4_scoreboard] [REF_MEM_WRITE] Addr=0x5c8bf71c Data=0x3f
# UVM_INFO ../src/env/axi4_scoreboard.sv(219) @ 4445000: uvm_test_top.env.scb [axi4_scoreboard] [REF_MEM_WRITE] Addr=0x5c8bf71d Data=0xb7
# UVM_INFO ../src/env/axi4_scoreboard.sv(219) @ 4445000: uvm_test_top.env.scb [axi4_scoreboard] [REF_MEM_WRITE] Addr=0x5c8bf71f Data=0x64
# UVM_INFO ../src/env/axi4_scoreboard.sv(219) @ 4445000: uvm_test_top.env.scb [axi4_scoreboard] [REF_MEM_WRITE] Addr=0x5c8bf71e Data=0xe4
# UVM_INFO ../src/env/axi4_scoreboard.sv(219) @ 4445000: uvm_test_top.env.scb [axi4_scoreboard] [REF_MEM_WRITE] Addr=0x5c8bf71f Data=0x76
# UVM_INFO ../src/env/axi4_scoreboard.sv(219) @ 4445000: uvm_test_top.env.scb [axi4_scoreboard] [REF_MEM_WRITE] Addr=0x5c8bf71c Data=0xe2
# UVM_INFO ../src/env/axi4_scoreboard.sv(219) @ 4445000: uvm_test_top.env.scb [axi4_scoreboard] [REF_MEM_WRITE] Addr=0x5c8bf71d Data=0x8a
# UVM_INFO ../src/env/axi4_scoreboard.sv(219) @ 4445000: uvm_test_top.env.scb [axi4_scoreboard] [REF_MEM_WRITE] Addr=0x5c8bf71c Data=0x7b
# UVM_INFO ../src/env/axi4_scoreboard.sv(219) @ 4445000: uvm_test_top.env.scb [axi4_scoreboard] [REF_MEM_WRITE] Addr=0x5c8bf71e Data=0x8a
# UVM_INFO ../src/env/axi4_scoreboard.sv(219) @ 4445000: uvm_test_top.env.scb [axi4_scoreboard] [REF_MEM_WRITE] Addr=0x5c8bf720 Data=0xc4
# UVM_INFO ../src/env/axi4_scoreboard.sv(219) @ 4445000: uvm_test_top.env.scb [axi4_scoreboard] [REF_MEM_WRITE] Addr=0x5c8bf721 Data=0x8f
# UVM_INFO ../src/env/axi4_scoreboard.sv(219) @ 4445000: uvm_test_top.env.scb [axi4_scoreboard] [REF_MEM_WRITE] Addr=0x5c8bf722 Data=0xc9
# UVM_INFO ../src/env/axi4_scoreboard.sv(219) @ 4445000: uvm_test_top.env.scb [axi4_scoreboard] [REF_MEM_WRITE] Addr=0x5c8bf720 Data=0x9d
# UVM_INFO ../src/env/axi4_scoreboard.sv(219) @ 4445000: uvm_test_top.env.scb [axi4_scoreboard] [REF_MEM_WRITE] Addr=0x5c8bf720 Data=0xfd
# UVM_INFO ../src/env/axi4_scoreboard.sv(219) @ 4445000: uvm_test_top.env.scb [axi4_scoreboard] [REF_MEM_WRITE] Addr=0x5c8bf721 Data=0x26
# UVM_INFO ../src/env/axi4_scoreboard.sv(219) @ 4445000: uvm_test_top.env.scb [axi4_scoreboard] [REF_MEM_WRITE] Addr=0x5c8bf721 Data=0x9d
# UVM_INFO ../src/env/axi4_scoreboard.sv(219) @ 4445000: uvm_test_top.env.scb [axi4_scoreboard] [REF_MEM_WRITE] Addr=0x5c8bf722 Data=0xb6
# UVM_INFO ../src/env/axi4_scoreboard.sv(219) @ 4445000: uvm_test_top.env.scb [axi4_scoreboard] [REF_MEM_WRITE] Addr=0x5c8bf723 Data=0x39
# UVM_INFO ../src/env/axi4_scoreboard.sv(219) @ 4445000: uvm_test_top.env.scb [axi4_scoreboard] [REF_MEM_WRITE] Addr=0x5c8bf725 Data=0x45
# UVM_INFO ../src/env/axi4_scoreboard.sv(219) @ 4445000: uvm_test_top.env.scb [axi4_scoreboard] [REF_MEM_WRITE] Addr=0x5c8bf727 Data=0xad
# UVM_INFO ../src/env/axi4_scoreboard.sv(219) @ 4445000: uvm_test_top.env.scb [axi4_scoreboard] [REF_MEM_WRITE] Addr=0x5c8bf724 Data=0xe9
# UVM_INFO ../src/env/axi4_scoreboard.sv(219) @ 4445000: uvm_test_top.env.scb [axi4_scoreboard] [REF_MEM_WRITE] Addr=0x5c8bf726 Data=0x5d
# UVM_INFO ../src/env/axi4_scoreboard.sv(219) @ 4445000: uvm_test_top.env.scb [axi4_scoreboard] [REF_MEM_WRITE] Addr=0x5c8bf724 Data=0xab
# UVM_INFO ../src/env/axi4_scoreboard.sv(219) @ 4445000: uvm_test_top.env.scb [axi4_scoreboard] [REF_MEM_WRITE] Addr=0x5c8bf726 Data=0x72
# UVM_INFO ../src/env/axi4_scoreboard.sv(219) @ 4445000: uvm_test_top.env.scb [axi4_scoreboard] [REF_MEM_WRITE] Addr=0x5c8bf727 Data=0x70
# UVM_INFO ../src/env/axi4_scoreboard.sv(219) @ 4445000: uvm_test_top.env.scb [axi4_scoreboard] [REF_MEM_WRITE] Addr=0x5c8bf724 Data=0x47
# UVM_INFO ../src/env/axi4_scoreboard.sv(219) @ 4445000: uvm_test_top.env.scb [axi4_scoreboard] [REF_MEM_WRITE] Addr=0x5c8bf726 Data=0x09
# UVM_INFO ../src/env/axi4_scoreboard.sv(219) @ 4445000: uvm_test_top.env.scb [axi4_scoreboard] [REF_MEM_WRITE] Addr=0x5c8bf727 Data=0xa4
# UVM_INFO ../src/env/axi4_scoreboard.sv(219) @ 4445000: uvm_test_top.env.scb [axi4_scoreboard] [REF_MEM_WRITE] Addr=0x5c8bf729 Data=0xf1
# UVM_INFO ../src/env/axi4_scoreboard.sv(219) @ 4445000: uvm_test_top.env.scb [axi4_scoreboard] [REF_MEM_WRITE] Addr=0x5c8bf729 Data=0xcd
# UVM_INFO ../src/env/axi4_scoreboard.sv(219) @ 4445000: uvm_test_top.env.scb [axi4_scoreboard] [REF_MEM_WRITE] Addr=0x5c8bf72b Data=0x05
# UVM_INFO ../src/env/axi4_scoreboard.sv(219) @ 4445000: uvm_test_top.env.scb [axi4_scoreboard] [REF_MEM_WRITE] Addr=0x5c8bf728 Data=0xb7
# UVM_INFO ../src/env/axi4_scoreboard.sv(219) @ 4445000: uvm_test_top.env.scb [axi4_scoreboard] [REF_MEM_WRITE] Addr=0x5c8bf729 Data=0xd7
# UVM_INFO ../src/env/axi4_scoreboard.sv(219) @ 4445000: uvm_test_top.env.scb [axi4_scoreboard] [REF_MEM_WRITE] Addr=0x5c8bf72a Data=0x47
# UVM_INFO ../src/env/axi4_scoreboard.sv(219) @ 4445000: uvm_test_top.env.scb [axi4_scoreboard] [REF_MEM_WRITE] Addr=0x5c8bf72b Data=0xe4
# UVM_INFO ../src/env/axi4_scoreboard.sv(219) @ 4445000: uvm_test_top.env.scb [axi4_scoreboard] [REF_MEM_WRITE] Addr=0x5c8bf72a Data=0xcc
# UVM_INFO ../src/env/axi4_scoreboard.sv(219) @ 4445000: uvm_test_top.env.scb [axi4_scoreboard] [REF_MEM_WRITE] Addr=0x5c8bf72c Data=0x4e
# UVM_INFO ../src/env/axi4_scoreboard.sv(219) @ 4445000: uvm_test_top.env.scb [axi4_scoreboard] [REF_MEM_WRITE] Addr=0x5c8bf72d Data=0x46
# UVM_INFO ../src/env/axi4_scoreboard.sv(219) @ 4445000: uvm_test_top.env.scb [axi4_scoreboard] [REF_MEM_WRITE] Addr=0x5c8bf72e Data=0x73
# UVM_INFO ../src/env/axi4_scoreboard.sv(219) @ 4445000: uvm_test_top.env.scb [axi4_scoreboard] [REF_MEM_WRITE] Addr=0x5c8bf72f Data=0xc9
# UVM_INFO ../src/env/axi4_scoreboard.sv(219) @ 4445000: uvm_test_top.env.scb [axi4_scoreboard] [REF_MEM_WRITE] Addr=0x5c8bf72c Data=0x0b
# UVM_INFO ../src/env/axi4_scoreboard.sv(219) @ 4445000: uvm_test_top.env.scb [axi4_scoreboard] [REF_MEM_WRITE] Addr=0x5c8bf72d Data=0xe1
# UVM_INFO ../src/env/axi4_scoreboard.sv(219) @ 4445000: uvm_test_top.env.scb [axi4_scoreboard] [REF_MEM_WRITE] Addr=0x5c8bf72f Data=0x04
# UVM_INFO ../src/env/axi4_scoreboard.sv(219) @ 4445000: uvm_test_top.env.scb [axi4_scoreboard] [REF_MEM_WRITE] Addr=0x5c8bf72c Data=0x14
# UVM_INFO ../src/env/axi4_scoreboard.sv(219) @ 4445000: uvm_test_top.env.scb [axi4_scoreboard] [REF_MEM_WRITE] Addr=0x5c8bf72d Data=0x9a
# UVM_INFO ../src/env/axi4_scoreboard.sv(219) @ 4445000: uvm_test_top.env.scb [axi4_scoreboard] [REF_MEM_WRITE] Addr=0x5c8bf72e Data=0x05
# UVM_INFO ../src/env/axi4_scoreboard.sv(219) @ 4445000: uvm_test_top.env.scb [axi4_scoreboard] [REF_MEM_WRITE] Addr=0x5c8bf72f Data=0xa0
# UVM_INFO ../src/env/axi4_scoreboard.sv(219) @ 4445000: uvm_test_top.env.scb [axi4_scoreboard] [REF_MEM_WRITE] Addr=0x5c8bf72d Data=0xb0
# UVM_INFO ../src/env/axi4_scoreboard.sv(219) @ 4445000: uvm_test_top.env.scb [axi4_scoreboard] [REF_MEM_WRITE] Addr=0x5c8bf72e Data=0xcf
# UVM_INFO ../src/env/axi4_scoreboard.sv(219) @ 4445000: uvm_test_top.env.scb [axi4_scoreboard] [REF_MEM_WRITE] Addr=0x5c8bf72f Data=0x6f
# UVM_INFO ../src/env/axi4_scoreboard.sv(219) @ 4445000: uvm_test_top.env.scb [axi4_scoreboard] [REF_MEM_WRITE] Addr=0x5c8bf733 Data=0x0f
# UVM_INFO ../src/env/axi4_scoreboard.sv(219) @ 4445000: uvm_test_top.env.scb [axi4_scoreboard] [REF_MEM_WRITE] Addr=0x5c8bf731 Data=0x2e
# UVM_INFO ../src/env/axi4_scoreboard.sv(219) @ 4445000: uvm_test_top.env.scb [axi4_scoreboard] [REF_MEM_WRITE] Addr=0x5c8bf732 Data=0x11
# UVM_INFO ../src/env/axi4_scoreboard.sv(219) @ 4445000: uvm_test_top.env.scb [axi4_scoreboard] [REF_MEM_WRITE] Addr=0x5c8bf733 Data=0xde
# UVM_INFO ../src/env/axi4_scoreboard.sv(219) @ 4445000: uvm_test_top.env.scb [axi4_scoreboard] [REF_MEM_WRITE] Addr=0x5c8bf731 Data=0xa3
# UVM_INFO ../src/env/axi4_scoreboard.sv(219) @ 4445000: uvm_test_top.env.scb [axi4_scoreboard] [REF_MEM_WRITE] Addr=0x5c8bf732 Data=0xbf
# UVM_INFO ../src/env/axi4_scoreboard.sv(219) @ 4445000: uvm_test_top.env.scb [axi4_scoreboard] [REF_MEM_WRITE] Addr=0x5c8bf733 Data=0x93
# UVM_INFO ../src/env/axi4_scoreboard.sv(219) @ 4445000: uvm_test_top.env.scb [axi4_scoreboard] [REF_MEM_WRITE] Addr=0x5c8bf731 Data=0x76
# UVM_INFO ../src/env/axi4_scoreboard.sv(219) @ 4445000: uvm_test_top.env.scb [axi4_scoreboard] [REF_MEM_WRITE] Addr=0x5c8bf732 Data=0xa4
# UVM_INFO ../src/env/axi4_scoreboard.sv(219) @ 4445000: uvm_test_top.env.scb [axi4_scoreboard] [REF_MEM_WRITE] Addr=0x5c8bf733 Data=0x25
# UVM_INFO ../src/env/axi4_scoreboard.sv(219) @ 4445000: uvm_test_top.env.scb [axi4_scoreboard] [REF_MEM_WRITE] Addr=0x5c8bf734 Data=0x5a
# UVM_INFO ../src/env/axi4_scoreboard.sv(219) @ 4445000: uvm_test_top.env.scb [axi4_scoreboard] [REF_MEM_WRITE] Addr=0x5c8bf736 Data=0x50
# UVM_INFO ../src/env/axi4_scoreboard.sv(219) @ 4445000: uvm_test_top.env.scb [axi4_scoreboard] [REF_MEM_WRITE] Addr=0x5c8bf734 Data=0x01
# UVM_INFO ../src/env/axi4_scoreboard.sv(219) @ 4445000: uvm_test_top.env.scb [axi4_scoreboard] [REF_MEM_WRITE] Addr=0x5c8bf735 Data=0xe5
# UVM_INFO ../src/env/axi4_scoreboard.sv(219) @ 4445000: uvm_test_top.env.scb [axi4_scoreboard] [REF_MEM_WRITE] Addr=0x5c8bf736 Data=0x08
# UVM_INFO ../src/env/axi4_scoreboard.sv(219) @ 4445000: uvm_test_top.env.scb [axi4_scoreboard] [REF_MEM_WRITE] Addr=0x5c8bf734 Data=0xe3
# UVM_INFO ../src/env/axi4_scoreboard.sv(219) @ 4445000: uvm_test_top.env.scb [axi4_scoreboard] [REF_MEM_WRITE] Addr=0x5c8bf735 Data=0x21
# UVM_INFO ../src/env/axi4_scoreboard.sv(219) @ 4445000: uvm_test_top.env.scb [axi4_scoreboard] [REF_MEM_WRITE] Addr=0x5c8bf736 Data=0x4c
# UVM_INFO ../src/env/axi4_scoreboard.sv(219) @ 4445000: uvm_test_top.env.scb [axi4_scoreboard] [REF_MEM_WRITE] Addr=0x5c8bf737 Data=0xb0
# UVM_INFO ../src/env/axi4_scoreboard.sv(219) @ 4445000: uvm_test_top.env.scb [axi4_scoreboard] [REF_MEM_WRITE] Addr=0x5c8bf737 Data=0x98
# UVM_INFO ../src/env/axi4_scoreboard.sv(219) @ 4445000: uvm_test_top.env.scb [axi4_scoreboard] [REF_MEM_WRITE] Addr=0x5c8bf739 Data=0x76
# UVM_INFO ../src/env/axi4_scoreboard.sv(219) @ 4445000: uvm_test_top.env.scb [axi4_scoreboard] [REF_MEM_WRITE] Addr=0x5c8bf73a Data=0x12
# UVM_INFO ../src/env/axi4_scoreboard.sv(219) @ 4445000: uvm_test_top.env.scb [axi4_scoreboard] [REF_MEM_WRITE] Addr=0x5c8bf738 Data=0x59
# UVM_INFO ../src/env/axi4_scoreboard.sv(219) @ 4445000: uvm_test_top.env.scb [axi4_scoreboard] [REF_MEM_WRITE] Addr=0x5c8bf739 Data=0x2b
# UVM_INFO ../src/env/axi4_scoreboard.sv(219) @ 4445000: uvm_test_top.env.scb [axi4_scoreboard] [REF_MEM_WRITE] Addr=0x5c8bf73b Data=0x5d
# UVM_INFO ../src/env/axi4_scoreboard.sv(219) @ 4445000: uvm_test_top.env.scb [axi4_scoreboard] [REF_MEM_WRITE] Addr=0x5c8bf738 Data=0x1e
# UVM_INFO ../src/env/axi4_scoreboard.sv(219) @ 4445000: uvm_test_top.env.scb [axi4_scoreboard] [REF_MEM_WRITE] Addr=0x5c8bf73a Data=0x6a
# UVM_INFO ../src/env/axi4_scoreboard.sv(219) @ 4445000: uvm_test_top.env.scb [axi4_scoreboard] [REF_MEM_WRITE] Addr=0x5c8bf738 Data=0x1b
# UVM_INFO ../src/env/axi4_scoreboard.sv(219) @ 4445000: uvm_test_top.env.scb [axi4_scoreboard] [REF_MEM_WRITE] Addr=0x5c8bf73a Data=0x0c
# UVM_INFO ../src/env/axi4_scoreboard.sv(219) @ 4445000: uvm_test_top.env.scb [axi4_scoreboard] [REF_MEM_WRITE] Addr=0x5c8bf73c Data=0x4a
# UVM_INFO ../src/env/axi4_scoreboard.sv(219) @ 4445000: uvm_test_top.env.scb [axi4_scoreboard] [REF_MEM_WRITE] Addr=0x5c8bf73d Data=0x03
# UVM_INFO ../src/env/axi4_scoreboard.sv(219) @ 4445000: uvm_test_top.env.scb [axi4_scoreboard] [REF_MEM_WRITE] Addr=0x5c8bf73d Data=0xae
# UVM_INFO ../src/env/axi4_scoreboard.sv(219) @ 4445000: uvm_test_top.env.scb [axi4_scoreboard] [REF_MEM_WRITE] Addr=0x5c8bf73f Data=0xb3
# UVM_INFO ../src/env/axi4_scoreboard.sv(219) @ 4445000: uvm_test_top.env.scb [axi4_scoreboard] [REF_MEM_WRITE] Addr=0x5c8bf73c Data=0xe1
# UVM_INFO ../src/env/axi4_scoreboard.sv(219) @ 4445000: uvm_test_top.env.scb [axi4_scoreboard] [REF_MEM_WRITE] Addr=0x5c8bf73d Data=0x7a
# UVM_INFO ../src/env/axi4_scoreboard.sv(219) @ 4445000: uvm_test_top.env.scb [axi4_scoreboard] [REF_MEM_WRITE] Addr=0x5c8bf73f Data=0x8e
# UVM_INFO ../src/slv/axi4_slave_monitor.sv(167) @ 5135000: uvm_test_top.env.slave_agent.mon [axi4_slave_monitor] W data assembled: ID=0x9 ADDR=0xbf01499b 36 beats
# UVM_INFO ../src/mst/axi4_master_monitor.sv(184) @ 5135000: uvm_test_top.env.master_agent.mon [axi4_master_monitor] W data assembled: ID=0x9 ADDR=0xbf01499b 36 beats
# UVM_INFO ../src/mst/axi4_master_driver.sv(289) @ 5165000: uvm_test_top.env.master_agent.drv [axi4_master_driver] Master driver received B response: ID=0x9 RESP=AXI4_RESP_OKAY
# UVM_INFO ../src/slv/axi4_slave_driver.sv(320) @ 5165000: uvm_test_top.env.slave_agent.drv [axi4_slave_driver] Write complete: ID=0x9 RESP=AXI4_RESP_OKAY
# UVM_INFO ../src/mst/axi4_master_monitor.sv(210) @ 5165000: uvm_test_top.env.master_agent.mon [axi4_master_monitor] Write complete: ID=0x9 ADDR=0xbf01499b RESP=AXI4_RESP_OKAY
# UVM_INFO ../src/env/axi4_scoreboard.sv(87) @ 5165000: uvm_test_top.env.scb [axi4_scoreboard] Master AXI4_WRITE received: ID=0x9 ADDR=0xbf01499b LEN=35
# UVM_INFO ../src/slv/axi4_slave_monitor.sv(189) @ 5165000: uvm_test_top.env.slave_agent.mon [axi4_slave_monitor] Write response sent: ID=0x9 ADDR=0xbf01499b RESP=AXI4_RESP_OKAY
# UVM_INFO ../src/env/axi4_scoreboard.sv(108) @ 5165000: uvm_test_top.env.scb [axi4_scoreboard] Slave AXI4_WRITE received: ID=0x9 ADDR=0xbf01499b LEN=35
# UVM_INFO ../src/env/axi4_scoreboard.sv(291) @ 5165000: uvm_test_top.env.scb [axi4_scoreboard] [WRITE] MATCH #4: ID=0x9 ADDR=0xbf01499b LEN=35
# UVM_INFO ../src/env/axi4_scoreboard.sv(226) @ 5165000: uvm_test_top.env.scb [axi4_scoreboard] [REF_MEM_WRITE_IGNORED] Write ignored for ADDR=0xbf01499b LOCK=AXI4_LOCK_EXCLUSIVE RESP=AXI4_RESP_OKAY
# UVM_INFO ../src/slv/axi4_slave_monitor.sv(167) @ 7515000: uvm_test_top.env.slave_agent.mon [axi4_slave_monitor] W data assembled: ID=0xa ADDR=0x986afb69 119 beats
# UVM_INFO ../src/mst/axi4_master_monitor.sv(184) @ 7515000: uvm_test_top.env.master_agent.mon [axi4_master_monitor] W data assembled: ID=0xa ADDR=0x986afb69 119 beats
# UVM_INFO ../src/mst/axi4_master_driver.sv(348) @ 7535000: uvm_test_top.env.master_agent.drv [axi4_master_driver] Master driver received all R beats for ID=0x5
# UVM_INFO ../src/slv/axi4_slave_driver.sv(464) @ 7535000: uvm_test_top.env.slave_agent.drv [axi4_slave_driver] Read complete: ID=0x5 ADDR=0x8017857d RESP=AXI4_RESP_EXOKAY  197 beats sent
# UVM_INFO ../src/slv/axi4_slave_monitor.sv(287) @ 7535000: uvm_test_top.env.slave_agent.mon [axi4_slave_monitor] Read data sent: ID=0x5 ADDR=0x8017857d 197 beats
# UVM_INFO ../src/env/axi4_scoreboard.sv(108) @ 7535000: uvm_test_top.env.scb [axi4_scoreboard] Slave AXI4_READ received: ID=0x5 ADDR=0x8017857d LEN=196
# UVM_INFO ../src/mst/axi4_master_monitor.sv(314) @ 7535000: uvm_test_top.env.master_agent.mon [axi4_master_monitor] Read complete: ID=0x5 ADDR=0x8017857d 197 beats
# UVM_INFO ../src/env/axi4_scoreboard.sv(87) @ 7535000: uvm_test_top.env.scb [axi4_scoreboard] Master AXI4_READ received: ID=0x5 ADDR=0x8017857d LEN=196
# UVM_INFO ../src/env/axi4_scoreboard.sv(291) @ 7535000: uvm_test_top.env.scb [axi4_scoreboard] [READ] MATCH #5: ID=0x5 ADDR=0x8017857d LEN=196
# UVM_INFO ../src/mst/axi4_master_driver.sv(289) @ 7545000: uvm_test_top.env.master_agent.drv [axi4_master_driver] Master driver received B response: ID=0xa RESP=AXI4_RESP_OKAY
# UVM_INFO ../src/slv/axi4_slave_driver.sv(320) @ 7545000: uvm_test_top.env.slave_agent.drv [axi4_slave_driver] Write complete: ID=0xa RESP=AXI4_RESP_OKAY
# UVM_INFO ../src/mst/axi4_master_monitor.sv(210) @ 7545000: uvm_test_top.env.master_agent.mon [axi4_master_monitor] Write complete: ID=0xa ADDR=0x986afb69 RESP=AXI4_RESP_OKAY
# UVM_INFO ../src/env/axi4_scoreboard.sv(87) @ 7545000: uvm_test_top.env.scb [axi4_scoreboard] Master AXI4_WRITE received: ID=0xa ADDR=0x986afb69 LEN=118
# UVM_INFO ../src/slv/axi4_slave_monitor.sv(189) @ 7545000: uvm_test_top.env.slave_agent.mon [axi4_slave_monitor] Write response sent: ID=0xa ADDR=0x986afb69 RESP=AXI4_RESP_OKAY
# UVM_INFO ../src/env/axi4_scoreboard.sv(108) @ 7545000: uvm_test_top.env.scb [axi4_scoreboard] Slave AXI4_WRITE received: ID=0xa ADDR=0x986afb69 LEN=118
# UVM_INFO ../src/env/axi4_scoreboard.sv(291) @ 7545000: uvm_test_top.env.scb [axi4_scoreboard] [WRITE] MATCH #6: ID=0xa ADDR=0x986afb69 LEN=118
# UVM_INFO ../src/env/axi4_scoreboard.sv(226) @ 7545000: uvm_test_top.env.scb [axi4_scoreboard] [REF_MEM_WRITE_IGNORED] Write ignored for ADDR=0x986afb69 LOCK=AXI4_LOCK_EXCLUSIVE RESP=AXI4_RESP_OKAY
# UVM_INFO ../src/slv/axi4_slave_driver.sv(212) @ 7585000: uvm_test_top.env.slave_agent.drv [axi4_slave_driver] AW received: ID=0x6 ADDR=0x7cd37421 LEN=74 LOCK=AXI4_LOCK_EXCLUSIVE
# UVM_INFO ../src/mst/axi4_master_monitor.sv(124) @ 7585000: uvm_test_top.env.master_agent.mon [axi4_master_monitor] AW observed: ID=0x6 ADDR=0x7cd37421 LEN=74
# UVM_INFO ../src/slv/axi4_slave_monitor.sv(116) @ 7585000: uvm_test_top.env.slave_agent.mon [axi4_slave_monitor] AW received: ID=0x6 ADDR=0x7cd37421 LEN=74
# UVM_INFO ../src/slv/axi4_slave_monitor.sv(167) @ 9015000: uvm_test_top.env.slave_agent.mon [axi4_slave_monitor] W data assembled: ID=0x6 ADDR=0x7cd37421 75 beats
# UVM_INFO ../src/mst/axi4_master_monitor.sv(184) @ 9015000: uvm_test_top.env.master_agent.mon [axi4_master_monitor] W data assembled: ID=0x6 ADDR=0x7cd37421 75 beats
# UVM_INFO ../src/mst/axi4_master_driver.sv(289) @ 9045000: uvm_test_top.env.master_agent.drv [axi4_master_driver] Master driver received B response: ID=0x6 RESP=AXI4_RESP_OKAY
# UVM_INFO ../src/slv/axi4_slave_driver.sv(320) @ 9045000: uvm_test_top.env.slave_agent.drv [axi4_slave_driver] Write complete: ID=0x6 RESP=AXI4_RESP_OKAY
# UVM_INFO ../src/mst/axi4_master_monitor.sv(210) @ 9045000: uvm_test_top.env.master_agent.mon [axi4_master_monitor] Write complete: ID=0x6 ADDR=0x7cd37421 RESP=AXI4_RESP_OKAY
# UVM_INFO ../src/env/axi4_scoreboard.sv(87) @ 9045000: uvm_test_top.env.scb [axi4_scoreboard] Master AXI4_WRITE received: ID=0x6 ADDR=0x7cd37421 LEN=74
# UVM_INFO ../src/slv/axi4_slave_monitor.sv(189) @ 9045000: uvm_test_top.env.slave_agent.mon [axi4_slave_monitor] Write response sent: ID=0x6 ADDR=0x7cd37421 RESP=AXI4_RESP_OKAY
# UVM_INFO ../src/env/axi4_scoreboard.sv(108) @ 9045000: uvm_test_top.env.scb [axi4_scoreboard] Slave AXI4_WRITE received: ID=0x6 ADDR=0x7cd37421 LEN=74
# UVM_INFO ../src/env/axi4_scoreboard.sv(291) @ 9045000: uvm_test_top.env.scb [axi4_scoreboard] [WRITE] MATCH #7: ID=0x6 ADDR=0x7cd37421 LEN=74
# UVM_INFO ../src/env/axi4_scoreboard.sv(226) @ 9045000: uvm_test_top.env.scb [axi4_scoreboard] [REF_MEM_WRITE_IGNORED] Write ignored for ADDR=0x7cd37421 LOCK=AXI4_LOCK_EXCLUSIVE RESP=AXI4_RESP_OKAY
# UVM_INFO ../src/slv/axi4_slave_driver.sv(212) @ 9085000: uvm_test_top.env.slave_agent.drv [axi4_slave_driver] AW received: ID=0x6 ADDR=0x7f09b6b2 LEN=162 LOCK=AXI4_LOCK_NORMAL
# UVM_INFO ../src/mst/axi4_master_monitor.sv(124) @ 9085000: uvm_test_top.env.master_agent.mon [axi4_master_monitor] AW observed: ID=0x6 ADDR=0x7f09b6b2 LEN=162
# UVM_INFO ../src/slv/axi4_slave_monitor.sv(116) @ 9085000: uvm_test_top.env.slave_agent.mon [axi4_slave_monitor] AW received: ID=0x6 ADDR=0x7f09b6b2 LEN=162
# UVM_INFO ../src/slv/axi4_slave_driver.sv(212) @ 9115000: uvm_test_top.env.slave_agent.drv [axi4_slave_driver] AW received: ID=0xb ADDR=0x220b5a61 LEN=133 LOCK=AXI4_LOCK_EXCLUSIVE
# UVM_INFO ../src/slv/axi4_slave_monitor.sv(116) @ 9115000: uvm_test_top.env.slave_agent.mon [axi4_slave_monitor] AW received: ID=0xb ADDR=0x220b5a61 LEN=133
# UVM_INFO ../src/mst/axi4_master_monitor.sv(124) @ 9115000: uvm_test_top.env.master_agent.mon [axi4_master_monitor] AW observed: ID=0xb ADDR=0x220b5a61 LEN=133
# UVM_INFO ../src/slv/axi4_slave_driver.sv(212) @ 9145000: uvm_test_top.env.slave_agent.drv [axi4_slave_driver] AW received: ID=0xd ADDR=0x68075595 LEN=155 LOCK=AXI4_LOCK_NORMAL
# UVM_INFO ../src/mst/axi4_master_monitor.sv(124) @ 9145000: uvm_test_top.env.master_agent.mon [axi4_master_monitor] AW observed: ID=0xd ADDR=0x68075595 LEN=155
# UVM_INFO ../src/slv/axi4_slave_monitor.sv(116) @ 9145000: uvm_test_top.env.slave_agent.mon [axi4_slave_monitor] AW received: ID=0xd ADDR=0x68075595 LEN=155
# UVM_INFO ../src/slv/axi4_slave_driver.sv(212) @ 9175000: uvm_test_top.env.slave_agent.drv [axi4_slave_driver] AW received: ID=0x4 ADDR=0x4138ae8f LEN=28 LOCK=AXI4_LOCK_EXCLUSIVE
# UVM_INFO ../src/slv/axi4_slave_monitor.sv(116) @ 9175000: uvm_test_top.env.slave_agent.mon [axi4_slave_monitor] AW received: ID=0x4 ADDR=0x4138ae8f LEN=28
# UVM_INFO ../src/mst/axi4_master_monitor.sv(124) @ 9175000: uvm_test_top.env.master_agent.mon [axi4_master_monitor] AW observed: ID=0x4 ADDR=0x4138ae8f LEN=28
# UVM_INFO ../src/slv/axi4_slave_driver.sv(212) @ 9205000: uvm_test_top.env.slave_agent.drv [axi4_slave_driver] AW received: ID=0x4 ADDR=0x9558a708 LEN=108 LOCK=AXI4_LOCK_EXCLUSIVE
# UVM_INFO ../src/mst/axi4_master_monitor.sv(124) @ 9205000: uvm_test_top.env.master_agent.mon [axi4_master_monitor] AW observed: ID=0x4 ADDR=0x9558a708 LEN=108
# UVM_INFO ../src/slv/axi4_slave_monitor.sv(116) @ 9205000: uvm_test_top.env.slave_agent.mon [axi4_slave_monitor] AW received: ID=0x4 ADDR=0x9558a708 LEN=108
# UVM_INFO ../src/slv/axi4_slave_driver.sv(212) @ 9235000: uvm_test_top.env.slave_agent.drv [axi4_slave_driver] AW received: ID=0xd ADDR=0x58173291 LEN=189 LOCK=AXI4_LOCK_EXCLUSIVE
# UVM_INFO ../src/slv/axi4_slave_monitor.sv(116) @ 9235000: uvm_test_top.env.slave_agent.mon [axi4_slave_monitor] AW received: ID=0xd ADDR=0x58173291 LEN=189
# UVM_INFO ../src/mst/axi4_master_monitor.sv(124) @ 9235000: uvm_test_top.env.master_agent.mon [axi4_master_monitor] AW observed: ID=0xd ADDR=0x58173291 LEN=189
# UVM_INFO ../src/slv/axi4_slave_driver.sv(212) @ 9265000: uvm_test_top.env.slave_agent.drv [axi4_slave_driver] AW received: ID=0x7 ADDR=0x4ddda6be LEN=232 LOCK=AXI4_LOCK_NORMAL
# UVM_INFO ../src/mst/axi4_master_monitor.sv(124) @ 9265000: uvm_test_top.env.master_agent.mon [axi4_master_monitor] AW observed: ID=0x7 ADDR=0x4ddda6be LEN=232
# UVM_INFO ../src/slv/axi4_slave_monitor.sv(116) @ 9265000: uvm_test_top.env.slave_agent.mon [axi4_slave_monitor] AW received: ID=0x7 ADDR=0x4ddda6be LEN=232
# UVM_INFO ../src/slv/axi4_slave_driver.sv(212) @ 9295000: uvm_test_top.env.slave_agent.drv [axi4_slave_driver] AW received: ID=0xb ADDR=0x289b0ed1 LEN=226 LOCK=AXI4_LOCK_NORMAL
# UVM_INFO ../src/slv/axi4_slave_monitor.sv(116) @ 9295000: uvm_test_top.env.slave_agent.mon [axi4_slave_monitor] AW received: ID=0xb ADDR=0x289b0ed1 LEN=226
# UVM_INFO ../src/mst/axi4_master_monitor.sv(124) @ 9295000: uvm_test_top.env.master_agent.mon [axi4_master_monitor] AW observed: ID=0xb ADDR=0x289b0ed1 LEN=226
# UVM_INFO ../src/slv/axi4_slave_driver.sv(212) @ 9325000: uvm_test_top.env.slave_agent.drv [axi4_slave_driver] AW received: ID=0xc ADDR=0x16107d91 LEN=50 LOCK=AXI4_LOCK_EXCLUSIVE
# UVM_INFO ../src/mst/axi4_master_monitor.sv(124) @ 9325000: uvm_test_top.env.master_agent.mon [axi4_master_monitor] AW observed: ID=0xc ADDR=0x16107d91 LEN=50
# UVM_INFO ../src/slv/axi4_slave_monitor.sv(116) @ 9325000: uvm_test_top.env.slave_agent.mon [axi4_slave_monitor] AW received: ID=0xc ADDR=0x16107d91 LEN=50
# UVM_INFO ../src/slv/axi4_slave_driver.sv(212) @ 9355000: uvm_test_top.env.slave_agent.drv [axi4_slave_driver] AW received: ID=0xc ADDR=0xddd9847e LEN=128 LOCK=AXI4_LOCK_NORMAL
# UVM_INFO ../src/slv/axi4_slave_monitor.sv(116) @ 9355000: uvm_test_top.env.slave_agent.mon [axi4_slave_monitor] AW received: ID=0xc ADDR=0xddd9847e LEN=128
