# vsim -c -coverage -sv_seed 21264836 "+UVM_TESTNAME=axi4_exclusive_test" "+UVM_VERBOSITY=UVM_HIGH" "+DUMP_VCD" -l ./report/logs/axi4_exclusive_test_run_8_seed_21264836.log -do "coverage save -onexit ./report/coverage/axi4_exclusive_test_run_8_seed_21264836.ucdb; run -all; quit -f" opt_tb_top 
# Start time: 11:25:30 on Jun 05,2026
# //  Questa Sim-64
# //  Version 10.6b linux_x86_64 May 25 2017
# //
# //  Copyright 1991-2017 Mentor Graphics Corporation
# //  All Rights Reserved.
# //
# //  QuestaSim and its associated documentation contain trade
# //  secrets and commercial or financial information that are the property of
# //  Mentor Graphics Corporation and are privileged, confidential,
# //  and exempt from disclosure under the Freedom of Information Act,
# //  5 U.S.C. Section 552. Furthermore, this information
# //  is prohibited from disclosure under the Trade Secrets Act,
# //  18 U.S.C. Section 1905.
# //
# Loading sv_std.std
# Loading work.axi4_if(fast)
# Loading mtiUvm.uvm_pkg
# Loading work.axi4_pkg(fast)
# Loading work.axi4_test_pkg(fast)
# Loading work.tb_top(fast)
# Loading work.axi4_if(fast)
# Loading work.axi4_sva(fast)
# Loading mtiUvm.questa_uvm_pkg(fast)
# Loading /cadtools/mentor/Questa_10.6b/questasim/uvm-1.1d/linux_x86_64/uvm_dpi.so
# coverage save -onexit ./report/coverage/axi4_exclusive_test_run_8_seed_21264836.ucdb
#  run -all
# ----------------------------------------------------------------
# UVM-1.1d
# (C) 2007-2013 Mentor Graphics Corporation
# (C) 2007-2013 Cadence Design Systems, Inc.
# (C) 2006-2013 Synopsys, Inc.
# (C) 2011-2013 Cypress Semiconductor Corp.
# ----------------------------------------------------------------
# 
#   ***********       IMPORTANT RELEASE NOTES         ************
# 
#   You are using a version of the UVM library that has been compiled
#   with `UVM_NO_DEPRECATED undefined.
#   See http://www.eda.org/svdb/view.php?id=3313 for more details.
# 
#   You are using a version of the UVM library that has been compiled
#   with `UVM_OBJECT_MUST_HAVE_CONSTRUCTOR undefined.
#   See http://www.eda.org/svdb/view.php?id=3770 for more details.
# 
#       (Specify +UVM_NO_RELNOTES to turn off this notice)
# 
# UVM_INFO verilog_src/questa_uvm_pkg-1.2/src/questa_uvm_pkg.sv(215) @ 0: reporter [Questa UVM] QUESTA_UVM-1.2.3
# UVM_INFO verilog_src/questa_uvm_pkg-1.2/src/questa_uvm_pkg.sv(217) @ 0: reporter [Questa UVM]  questa_uvm::init(+struct)
# UVM_INFO ../src/tb_top.sv(128) @ 0: reporter [TB_TOP] Virtual interface set in config_db
# UVM_INFO @ 0: reporter [RNTST] Running test axi4_exclusive_test...
# UVM_INFO ../src/tb_top.sv(142) @ 0: reporter [TB_TOP] Waveform VCD dumping enabled (axi4_vip.vcd)
# UVM_INFO ../src/env/axi4_vip_env.sv(83) @ 0: uvm_test_top.env [axi4_vip_env] slave_vif not set - reusing master_vif (passthrough mode)
# UVM_INFO ../src/env/axi4_vip_env.sv(93) @ 0: uvm_test_top.env [axi4_vip_env] Scoreboard created
# UVM_INFO ../src/env/axi4_vip_env.sv(100) @ 0: uvm_test_top.env [axi4_vip_env] Coverage collectors created
# UVM_INFO ../src/mst/axi4_master_agent.sv(69) @ 0: uvm_test_top.env.master_agent [axi4_master_agent] ACTIVE mode - driver + sequencer created
# UVM_INFO ../src/slv/axi4_slave_agent.sv(82) @ 0: uvm_test_top.env.slave_agent [axi4_slave_agent] ACTIVE mode — ready_delay=[0:0] resp_delay=[0:0]
# UVM_INFO ../src/env/axi4_vip_env.sv(116) @ 0: uvm_test_top.env [axi4_vip_env] Scoreboard connected: master_mon.ap -> scb, slave_mon.ap -> scb
# UVM_INFO ../src/env/axi4_vip_env.sv(124) @ 0: uvm_test_top.env [axi4_vip_env] Coverage connected: master_mon.ap -> master_cov, slave_mon.ap -> slave_cov
# UVM_INFO @ 0: reporter [UVMTOP] UVM testbench topology:
# ---------------------------------------------------------------
# Name                       Type                     Size  Value
# ---------------------------------------------------------------
# uvm_test_top               axi4_exclusive_test      -     @473 
#   env                      axi4_vip_env             -     @488 
#     master_agent           axi4_master_agent        -     @503 
#       drv                  axi4_master_driver       -     @567 
#         rsp_port           uvm_analysis_port        -     @582 
#         seq_item_port      uvm_seq_item_pull_port   -     @574 
#       mon                  axi4_master_monitor      -     @559 
#         ap                 uvm_analysis_port        -     @700 
#       sqr                  axi4_master_sequencer    -     @590 
#         rsp_export         uvm_analysis_export      -     @597 
#         seq_item_export    uvm_seq_item_pull_imp    -     @691 
#         arbitration_queue  array                    0     -    
#         lock_queue         array                    0     -    
#         num_last_reqs      integral                 32    'd1  
#         num_last_rsps      integral                 32    'd1  
#     master_cov             axi4_coverage            -     @524 
#       analysis_imp         uvm_analysis_imp         -     @531 
#     scb                    axi4_scoreboard          -     @517 
#       master_export        uvm_analysis_imp_master  -     @714 
#       slave_export         uvm_analysis_imp_slave   -     @722 
#     slave_agent            axi4_slave_agent         -     @510 
#       drv                  axi4_slave_driver        -     @753 
#         rsp_port           uvm_analysis_port        -     @768 
#         seq_item_port      uvm_seq_item_pull_port   -     @760 
#       mon                  axi4_slave_monitor       -     @735 
#         ap                 uvm_analysis_port        -     @890 
#       sqr                  axi4_slave_sequencer     -     @776 
#         rsp_export         uvm_analysis_export      -     @783 
#         seq_item_export    uvm_seq_item_pull_imp    -     @877 
#         arbitration_queue  array                    0     -    
#         lock_queue         array                    0     -    
#         num_last_reqs      integral                 32    'd1  
#         num_last_rsps      integral                 32    'd1  
#     slave_cov              axi4_coverage            -     @539 
#       analysis_imp         uvm_analysis_imp         -     @546 
# ---------------------------------------------------------------
# 
# UVM_INFO verilog_src/questa_uvm_pkg-1.2/src/questa_uvm_pkg.sv(277) @ 0: reporter [Questa UVM] End Of Elaboration
# UVM_INFO ../src/test/axi4_exclusive_test.sv(24) @ 0: uvm_test_top [axi4_exclusive_test] Starting exclusive access test
# UVM_INFO ../src/seq/axi4_exclusive_seq.sv(26) @ 0: uvm_test_top.env.master_agent.sqr@@excl_seq [axi4_exclusive_seq] Starting exclusive access sequence: 10 iterations
# UVM_INFO ../src/seq/axi4_exclusive_seq.sv(44) @ 0: uvm_test_top.env.master_agent.sqr@@excl_seq [axi4_exclusive_seq] [1/10] Running Exclusive Read-Write pair to ADDR=0x1f95c4dc ID=0xe
# UVM_INFO ../src/tb_top.sv(49) @ 95000: reporter [TOP_TB] Reset de-asserted
# UVM_INFO ../src/slv/axi4_slave_driver.sv(70) @ 95000: uvm_test_top.env.slave_agent.drv [axi4_slave_driver] Reset deasserted - slave driver active
# UVM_INFO ../src/mst/axi4_master_driver.sv(46) @ 95000: uvm_test_top.env.master_agent.drv [axi4_master_driver] Reset deasserted - master driver active
# UVM_INFO ../src/mst/axi4_master_monitor.sv(77) @ 95000: uvm_test_top.env.master_agent.mon [axi4_master_monitor] Reset deasserted — monitor active
# UVM_INFO ../src/slv/axi4_slave_monitor.sv(71) @ 95000: uvm_test_top.env.slave_agent.mon [axi4_slave_monitor] Reset deasserted — monitor active
# UVM_INFO ../src/mst/axi4_master_driver.sv(55) @ 95000: uvm_test_top.env.master_agent.drv [axi4_master_driver] Driving AXI4_READ  ID=0xe  ADDR=0x1f95c4dc  LEN=0
# UVM_INFO ../src/slv/axi4_slave_driver.sv(300) @ 115000: uvm_test_top.env.slave_agent.drv [axi4_slave_driver] AR received: ID=0xe ADDR=0x1f95c4dc LEN=0 LOCK=AXI4_LOCK_EXCLUSIVE
# UVM_INFO ../src/slv/axi4_slave_monitor.sv(224) @ 115000: uvm_test_top.env.slave_agent.mon [axi4_slave_monitor] AR received: ID=0xe ADDR=0x1f95c4dc LEN=0
# UVM_INFO ../src/mst/axi4_master_monitor.sv(246) @ 115000: uvm_test_top.env.master_agent.mon [axi4_master_monitor] AR observed: ID=0xe ADDR=0x1f95c4dc LEN=0
# UVM_INFO ../src/mst/axi4_master_driver.sv(254) @ 135000: uvm_test_top.env.master_agent.drv [axi4_master_driver] Read complete: 1 beats received
# UVM_INFO ../src/slv/axi4_slave_driver.sv(349) @ 135000: uvm_test_top.env.slave_agent.drv [axi4_slave_driver] Read complete: ID=0xe ADDR=0x1f95c4dc RESP=AXI4_RESP_EXOKAY  1 beats sent
# UVM_INFO ../src/slv/axi4_slave_monitor.sv(287) @ 135000: uvm_test_top.env.slave_agent.mon [axi4_slave_monitor] Read data sent: ID=0xe ADDR=0x1f95c4dc 1 beats
# UVM_INFO ../src/env/axi4_scoreboard.sv(103) @ 135000: uvm_test_top.env.scb [axi4_scoreboard] Slave AXI4_READ received: ID=0xe ADDR=0x1f95c4dc LEN=0
# UVM_INFO ../src/mst/axi4_master_monitor.sv(314) @ 135000: uvm_test_top.env.master_agent.mon [axi4_master_monitor] Read complete: ID=0xe ADDR=0x1f95c4dc 1 beats
# UVM_INFO ../src/env/axi4_scoreboard.sv(82) @ 135000: uvm_test_top.env.scb [axi4_scoreboard] Master AXI4_READ received: ID=0xe ADDR=0x1f95c4dc LEN=0
# UVM_INFO ../src/env/axi4_scoreboard.sv(154) @ 135000: uvm_test_top.env.scb [axi4_scoreboard] [READ] MATCH #1: ID=0xe ADDR=0x1f95c4dc LEN=0
# UVM_INFO ../src/seq/axi4_exclusive_seq.sv(60) @ 135000: uvm_test_top.env.master_agent.sqr@@excl_seq [axi4_exclusive_seq] Exclusive Read complete: RESP=AXI4_RESP_EXOKAY
# UVM_INFO ../src/mst/axi4_master_driver.sv(55) @ 135000: uvm_test_top.env.master_agent.drv [axi4_master_driver] Driving AXI4_WRITE  ID=0xe  ADDR=0x1f95c4dc  LEN=0
# UVM_INFO ../src/mst/axi4_master_driver.sv(106) @ 135000: uvm_test_top.env.master_agent.drv [axi4_master_driver] Write order: W -> AW (W first)
# UVM_INFO ../src/slv/axi4_slave_driver.sv(165) @ 205000: uvm_test_top.env.slave_agent.drv [axi4_slave_driver] AW received: ID=0xe ADDR=0x1f95c4dc LEN=0 LOCK=AXI4_LOCK_EXCLUSIVE
# UVM_INFO ../src/mst/axi4_master_monitor.sv(124) @ 205000: uvm_test_top.env.master_agent.mon [axi4_master_monitor] AW observed: ID=0xe ADDR=0x1f95c4dc LEN=0
# UVM_INFO ../src/slv/axi4_slave_monitor.sv(116) @ 205000: uvm_test_top.env.slave_agent.mon [axi4_slave_monitor] AW received: ID=0xe ADDR=0x1f95c4dc LEN=0
# UVM_INFO ../src/mst/axi4_master_monitor.sv(184) @ 205000: uvm_test_top.env.master_agent.mon [axi4_master_monitor] W data assembled: ID=0xe ADDR=0x1f95c4dc 1 beats
# UVM_INFO ../src/slv/axi4_slave_monitor.sv(167) @ 205000: uvm_test_top.env.slave_agent.mon [axi4_slave_monitor] W data assembled: ID=0xe ADDR=0x1f95c4dc 1 beats
# UVM_INFO ../src/mst/axi4_master_driver.sv(197) @ 225000: uvm_test_top.env.master_agent.drv [axi4_master_driver] Write response: AXI4_RESP_EXOKAY
# UVM_INFO ../src/slv/axi4_slave_driver.sv(261) @ 225000: uvm_test_top.env.slave_agent.drv [axi4_slave_driver] Write complete: ID=0xe ADDR=0x1f95c4dc RESP=AXI4_RESP_EXOKAY  1 beats processed
# UVM_INFO ../src/mst/axi4_master_monitor.sv(210) @ 225000: uvm_test_top.env.master_agent.mon [axi4_master_monitor] Write complete: ID=0xe ADDR=0x1f95c4dc RESP=AXI4_RESP_EXOKAY
# UVM_INFO ../src/env/axi4_scoreboard.sv(82) @ 225000: uvm_test_top.env.scb [axi4_scoreboard] Master AXI4_WRITE received: ID=0xe ADDR=0x1f95c4dc LEN=0
# UVM_INFO ../src/slv/axi4_slave_monitor.sv(189) @ 225000: uvm_test_top.env.slave_agent.mon [axi4_slave_monitor] Write response sent: ID=0xe ADDR=0x1f95c4dc RESP=AXI4_RESP_EXOKAY
# UVM_INFO ../src/env/axi4_scoreboard.sv(103) @ 225000: uvm_test_top.env.scb [axi4_scoreboard] Slave AXI4_WRITE received: ID=0xe ADDR=0x1f95c4dc LEN=0
# UVM_INFO ../src/env/axi4_scoreboard.sv(154) @ 225000: uvm_test_top.env.scb [axi4_scoreboard] [WRITE] MATCH #2: ID=0xe ADDR=0x1f95c4dc LEN=0
# UVM_INFO ../src/seq/axi4_exclusive_seq.sv(76) @ 225000: uvm_test_top.env.master_agent.sqr@@excl_seq [axi4_exclusive_seq] Exclusive Write complete: RESP=AXI4_RESP_EXOKAY
# UVM_INFO ../src/mst/axi4_master_driver.sv(55) @ 225000: uvm_test_top.env.master_agent.drv [axi4_master_driver] Driving AXI4_WRITE  ID=0xe  ADDR=0x1f95c4dc  LEN=0
# UVM_INFO ../src/mst/axi4_master_driver.sv(94) @ 225000: uvm_test_top.env.master_agent.drv [axi4_master_driver] Write order: AW || W (parallel)
# UVM_INFO ../src/slv/axi4_slave_driver.sv(165) @ 255000: uvm_test_top.env.slave_agent.drv [axi4_slave_driver] AW received: ID=0xe ADDR=0x1f95c4dc LEN=0 LOCK=AXI4_LOCK_EXCLUSIVE
# UVM_INFO ../src/slv/axi4_slave_monitor.sv(116) @ 255000: uvm_test_top.env.slave_agent.mon [axi4_slave_monitor] AW received: ID=0xe ADDR=0x1f95c4dc LEN=0
# UVM_INFO ../src/mst/axi4_master_monitor.sv(124) @ 255000: uvm_test_top.env.master_agent.mon [axi4_master_monitor] AW observed: ID=0xe ADDR=0x1f95c4dc LEN=0
# UVM_INFO ../src/slv/axi4_slave_monitor.sv(167) @ 255000: uvm_test_top.env.slave_agent.mon [axi4_slave_monitor] W data assembled: ID=0xe ADDR=0x1f95c4dc 1 beats
# UVM_INFO ../src/mst/axi4_master_monitor.sv(184) @ 255000: uvm_test_top.env.master_agent.mon [axi4_master_monitor] W data assembled: ID=0xe ADDR=0x1f95c4dc 1 beats
# UVM_INFO ../src/mst/axi4_master_driver.sv(197) @ 275000: uvm_test_top.env.master_agent.drv [axi4_master_driver] Write response: AXI4_RESP_OKAY
# UVM_INFO ../src/slv/axi4_slave_driver.sv(261) @ 275000: uvm_test_top.env.slave_agent.drv [axi4_slave_driver] Write complete: ID=0xe ADDR=0x1f95c4dc RESP=AXI4_RESP_OKAY  1 beats processed
# UVM_INFO ../src/slv/axi4_slave_monitor.sv(189) @ 275000: uvm_test_top.env.slave_agent.mon [axi4_slave_monitor] Write response sent: ID=0xe ADDR=0x1f95c4dc RESP=AXI4_RESP_OKAY
# UVM_INFO ../src/env/axi4_scoreboard.sv(103) @ 275000: uvm_test_top.env.scb [axi4_scoreboard] Slave AXI4_WRITE received: ID=0xe ADDR=0x1f95c4dc LEN=0
# UVM_INFO ../src/mst/axi4_master_monitor.sv(210) @ 275000: uvm_test_top.env.master_agent.mon [axi4_master_monitor] Write complete: ID=0xe ADDR=0x1f95c4dc RESP=AXI4_RESP_OKAY
# UVM_INFO ../src/env/axi4_scoreboard.sv(82) @ 275000: uvm_test_top.env.scb [axi4_scoreboard] Master AXI4_WRITE received: ID=0xe ADDR=0x1f95c4dc LEN=0
# UVM_INFO ../src/env/axi4_scoreboard.sv(154) @ 275000: uvm_test_top.env.scb [axi4_scoreboard] [WRITE] MATCH #3: ID=0xe ADDR=0x1f95c4dc LEN=0
# UVM_INFO ../src/seq/axi4_exclusive_seq.sv(93) @ 275000: uvm_test_top.env.master_agent.sqr@@excl_seq [axi4_exclusive_seq] Failing Exclusive Write complete: RESP=AXI4_RESP_OKAY (Expected OKAY, no EXOKAY)
# UVM_INFO ../src/seq/axi4_exclusive_seq.sv(44) @ 275000: uvm_test_top.env.master_agent.sqr@@excl_seq [axi4_exclusive_seq] [2/10] Running Exclusive Read-Write pair to ADDR=0x80018864 ID=0xd
# UVM_INFO ../src/mst/axi4_master_driver.sv(55) @ 275000: uvm_test_top.env.master_agent.drv [axi4_master_driver] Driving AXI4_READ  ID=0xd  ADDR=0x80018864  LEN=0
# UVM_INFO ../src/slv/axi4_slave_driver.sv(300) @ 305000: uvm_test_top.env.slave_agent.drv [axi4_slave_driver] AR received: ID=0xd ADDR=0x80018864 LEN=0 LOCK=AXI4_LOCK_EXCLUSIVE
# UVM_INFO ../src/mst/axi4_master_monitor.sv(246) @ 305000: uvm_test_top.env.master_agent.mon [axi4_master_monitor] AR observed: ID=0xd ADDR=0x80018864 LEN=0
# UVM_INFO ../src/slv/axi4_slave_monitor.sv(224) @ 305000: uvm_test_top.env.slave_agent.mon [axi4_slave_monitor] AR received: ID=0xd ADDR=0x80018864 LEN=0
# UVM_INFO ../src/mst/axi4_master_driver.sv(254) @ 325000: uvm_test_top.env.master_agent.drv [axi4_master_driver] Read complete: 1 beats received
# UVM_INFO ../src/slv/axi4_slave_driver.sv(349) @ 325000: uvm_test_top.env.slave_agent.drv [axi4_slave_driver] Read complete: ID=0xd ADDR=0x80018864 RESP=AXI4_RESP_EXOKAY  1 beats sent
# UVM_INFO ../src/mst/axi4_master_monitor.sv(314) @ 325000: uvm_test_top.env.master_agent.mon [axi4_master_monitor] Read complete: ID=0xd ADDR=0x80018864 1 beats
# UVM_INFO ../src/env/axi4_scoreboard.sv(82) @ 325000: uvm_test_top.env.scb [axi4_scoreboard] Master AXI4_READ received: ID=0xd ADDR=0x80018864 LEN=0
# UVM_INFO ../src/slv/axi4_slave_monitor.sv(287) @ 325000: uvm_test_top.env.slave_agent.mon [axi4_slave_monitor] Read data sent: ID=0xd ADDR=0x80018864 1 beats
# UVM_INFO ../src/env/axi4_scoreboard.sv(103) @ 325000: uvm_test_top.env.scb [axi4_scoreboard] Slave AXI4_READ received: ID=0xd ADDR=0x80018864 LEN=0
# UVM_INFO ../src/env/axi4_scoreboard.sv(154) @ 325000: uvm_test_top.env.scb [axi4_scoreboard] [READ] MATCH #4: ID=0xd ADDR=0x80018864 LEN=0
# UVM_INFO ../src/seq/axi4_exclusive_seq.sv(60) @ 325000: uvm_test_top.env.master_agent.sqr@@excl_seq [axi4_exclusive_seq] Exclusive Read complete: RESP=AXI4_RESP_EXOKAY
# UVM_INFO ../src/mst/axi4_master_driver.sv(55) @ 325000: uvm_test_top.env.master_agent.drv [axi4_master_driver] Driving AXI4_WRITE  ID=0xd  ADDR=0x80018864  LEN=0
# UVM_INFO ../src/mst/axi4_master_driver.sv(94) @ 325000: uvm_test_top.env.master_agent.drv [axi4_master_driver] Write order: AW || W (parallel)
# UVM_INFO ../src/slv/axi4_slave_driver.sv(165) @ 355000: uvm_test_top.env.slave_agent.drv [axi4_slave_driver] AW received: ID=0xd ADDR=0x80018864 LEN=0 LOCK=AXI4_LOCK_EXCLUSIVE
# UVM_INFO ../src/slv/axi4_slave_monitor.sv(116) @ 355000: uvm_test_top.env.slave_agent.mon [axi4_slave_monitor] AW received: ID=0xd ADDR=0x80018864 LEN=0
# UVM_INFO ../src/mst/axi4_master_monitor.sv(124) @ 355000: uvm_test_top.env.master_agent.mon [axi4_master_monitor] AW observed: ID=0xd ADDR=0x80018864 LEN=0
# UVM_INFO ../src/slv/axi4_slave_monitor.sv(167) @ 355000: uvm_test_top.env.slave_agent.mon [axi4_slave_monitor] W data assembled: ID=0xd ADDR=0x80018864 1 beats
# UVM_INFO ../src/mst/axi4_master_monitor.sv(184) @ 355000: uvm_test_top.env.master_agent.mon [axi4_master_monitor] W data assembled: ID=0xd ADDR=0x80018864 1 beats
# UVM_INFO ../src/mst/axi4_master_driver.sv(197) @ 375000: uvm_test_top.env.master_agent.drv [axi4_master_driver] Write response: AXI4_RESP_EXOKAY
# UVM_INFO ../src/slv/axi4_slave_driver.sv(261) @ 375000: uvm_test_top.env.slave_agent.drv [axi4_slave_driver] Write complete: ID=0xd ADDR=0x80018864 RESP=AXI4_RESP_EXOKAY  1 beats processed
# UVM_INFO ../src/slv/axi4_slave_monitor.sv(189) @ 375000: uvm_test_top.env.slave_agent.mon [axi4_slave_monitor] Write response sent: ID=0xd ADDR=0x80018864 RESP=AXI4_RESP_EXOKAY
# UVM_INFO ../src/env/axi4_scoreboard.sv(103) @ 375000: uvm_test_top.env.scb [axi4_scoreboard] Slave AXI4_WRITE received: ID=0xd ADDR=0x80018864 LEN=0
# UVM_INFO ../src/mst/axi4_master_monitor.sv(210) @ 375000: uvm_test_top.env.master_agent.mon [axi4_master_monitor] Write complete: ID=0xd ADDR=0x80018864 RESP=AXI4_RESP_EXOKAY
# UVM_INFO ../src/env/axi4_scoreboard.sv(82) @ 375000: uvm_test_top.env.scb [axi4_scoreboard] Master AXI4_WRITE received: ID=0xd ADDR=0x80018864 LEN=0
# UVM_INFO ../src/env/axi4_scoreboard.sv(154) @ 375000: uvm_test_top.env.scb [axi4_scoreboard] [WRITE] MATCH #5: ID=0xd ADDR=0x80018864 LEN=0
# UVM_INFO ../src/seq/axi4_exclusive_seq.sv(76) @ 375000: uvm_test_top.env.master_agent.sqr@@excl_seq [axi4_exclusive_seq] Exclusive Write complete: RESP=AXI4_RESP_EXOKAY
# UVM_INFO ../src/mst/axi4_master_driver.sv(55) @ 375000: uvm_test_top.env.master_agent.drv [axi4_master_driver] Driving AXI4_WRITE  ID=0xd  ADDR=0x80018864  LEN=0
# UVM_INFO ../src/mst/axi4_master_driver.sv(94) @ 375000: uvm_test_top.env.master_agent.drv [axi4_master_driver] Write order: AW || W (parallel)
# UVM_INFO ../src/slv/axi4_slave_driver.sv(165) @ 405000: uvm_test_top.env.slave_agent.drv [axi4_slave_driver] AW received: ID=0xd ADDR=0x80018864 LEN=0 LOCK=AXI4_LOCK_EXCLUSIVE
# UVM_INFO ../src/mst/axi4_master_monitor.sv(124) @ 405000: uvm_test_top.env.master_agent.mon [axi4_master_monitor] AW observed: ID=0xd ADDR=0x80018864 LEN=0
# UVM_INFO ../src/slv/axi4_slave_monitor.sv(116) @ 405000: uvm_test_top.env.slave_agent.mon [axi4_slave_monitor] AW received: ID=0xd ADDR=0x80018864 LEN=0
# UVM_INFO ../src/mst/axi4_master_monitor.sv(184) @ 405000: uvm_test_top.env.master_agent.mon [axi4_master_monitor] W data assembled: ID=0xd ADDR=0x80018864 1 beats
# UVM_INFO ../src/slv/axi4_slave_monitor.sv(167) @ 405000: uvm_test_top.env.slave_agent.mon [axi4_slave_monitor] W data assembled: ID=0xd ADDR=0x80018864 1 beats
# UVM_INFO ../src/mst/axi4_master_driver.sv(197) @ 425000: uvm_test_top.env.master_agent.drv [axi4_master_driver] Write response: AXI4_RESP_OKAY
# UVM_INFO ../src/slv/axi4_slave_driver.sv(261) @ 425000: uvm_test_top.env.slave_agent.drv [axi4_slave_driver] Write complete: ID=0xd ADDR=0x80018864 RESP=AXI4_RESP_OKAY  1 beats processed
# UVM_INFO ../src/mst/axi4_master_monitor.sv(210) @ 425000: uvm_test_top.env.master_agent.mon [axi4_master_monitor] Write complete: ID=0xd ADDR=0x80018864 RESP=AXI4_RESP_OKAY
# UVM_INFO ../src/env/axi4_scoreboard.sv(82) @ 425000: uvm_test_top.env.scb [axi4_scoreboard] Master AXI4_WRITE received: ID=0xd ADDR=0x80018864 LEN=0
# UVM_INFO ../src/slv/axi4_slave_monitor.sv(189) @ 425000: uvm_test_top.env.slave_agent.mon [axi4_slave_monitor] Write response sent: ID=0xd ADDR=0x80018864 RESP=AXI4_RESP_OKAY
# UVM_INFO ../src/env/axi4_scoreboard.sv(103) @ 425000: uvm_test_top.env.scb [axi4_scoreboard] Slave AXI4_WRITE received: ID=0xd ADDR=0x80018864 LEN=0
# UVM_INFO ../src/env/axi4_scoreboard.sv(154) @ 425000: uvm_test_top.env.scb [axi4_scoreboard] [WRITE] MATCH #6: ID=0xd ADDR=0x80018864 LEN=0
# UVM_INFO ../src/seq/axi4_exclusive_seq.sv(93) @ 425000: uvm_test_top.env.master_agent.sqr@@excl_seq [axi4_exclusive_seq] Failing Exclusive Write complete: RESP=AXI4_RESP_OKAY (Expected OKAY, no EXOKAY)
# UVM_INFO ../src/seq/axi4_exclusive_seq.sv(44) @ 425000: uvm_test_top.env.master_agent.sqr@@excl_seq [axi4_exclusive_seq] [3/10] Running Exclusive Read-Write pair to ADDR=0x8c833eb4 ID=0xd
# UVM_INFO ../src/mst/axi4_master_driver.sv(55) @ 425000: uvm_test_top.env.master_agent.drv [axi4_master_driver] Driving AXI4_READ  ID=0xd  ADDR=0x8c833eb4  LEN=0
# UVM_INFO ../src/slv/axi4_slave_driver.sv(300) @ 455000: uvm_test_top.env.slave_agent.drv [axi4_slave_driver] AR received: ID=0xd ADDR=0x8c833eb4 LEN=0 LOCK=AXI4_LOCK_EXCLUSIVE
# UVM_INFO ../src/slv/axi4_slave_monitor.sv(224) @ 455000: uvm_test_top.env.slave_agent.mon [axi4_slave_monitor] AR received: ID=0xd ADDR=0x8c833eb4 LEN=0
# UVM_INFO ../src/mst/axi4_master_monitor.sv(246) @ 455000: uvm_test_top.env.master_agent.mon [axi4_master_monitor] AR observed: ID=0xd ADDR=0x8c833eb4 LEN=0
# UVM_INFO ../src/mst/axi4_master_driver.sv(254) @ 475000: uvm_test_top.env.master_agent.drv [axi4_master_driver] Read complete: 1 beats received
# UVM_INFO ../src/slv/axi4_slave_driver.sv(349) @ 475000: uvm_test_top.env.slave_agent.drv [axi4_slave_driver] Read complete: ID=0xd ADDR=0x8c833eb4 RESP=AXI4_RESP_EXOKAY  1 beats sent
# UVM_INFO ../src/slv/axi4_slave_monitor.sv(287) @ 475000: uvm_test_top.env.slave_agent.mon [axi4_slave_monitor] Read data sent: ID=0xd ADDR=0x8c833eb4 1 beats
# UVM_INFO ../src/env/axi4_scoreboard.sv(103) @ 475000: uvm_test_top.env.scb [axi4_scoreboard] Slave AXI4_READ received: ID=0xd ADDR=0x8c833eb4 LEN=0
# UVM_INFO ../src/mst/axi4_master_monitor.sv(314) @ 475000: uvm_test_top.env.master_agent.mon [axi4_master_monitor] Read complete: ID=0xd ADDR=0x8c833eb4 1 beats
# UVM_INFO ../src/env/axi4_scoreboard.sv(82) @ 475000: uvm_test_top.env.scb [axi4_scoreboard] Master AXI4_READ received: ID=0xd ADDR=0x8c833eb4 LEN=0
# UVM_INFO ../src/env/axi4_scoreboard.sv(154) @ 475000: uvm_test_top.env.scb [axi4_scoreboard] [READ] MATCH #7: ID=0xd ADDR=0x8c833eb4 LEN=0
# UVM_INFO ../src/seq/axi4_exclusive_seq.sv(60) @ 475000: uvm_test_top.env.master_agent.sqr@@excl_seq [axi4_exclusive_seq] Exclusive Read complete: RESP=AXI4_RESP_EXOKAY
# UVM_INFO ../src/mst/axi4_master_driver.sv(55) @ 475000: uvm_test_top.env.master_agent.drv [axi4_master_driver] Driving AXI4_WRITE  ID=0xd  ADDR=0x8c833eb4  LEN=0
# UVM_INFO ../src/mst/axi4_master_driver.sv(94) @ 475000: uvm_test_top.env.master_agent.drv [axi4_master_driver] Write order: AW || W (parallel)
# UVM_INFO ../src/slv/axi4_slave_driver.sv(165) @ 505000: uvm_test_top.env.slave_agent.drv [axi4_slave_driver] AW received: ID=0xd ADDR=0x8c833eb4 LEN=0 LOCK=AXI4_LOCK_EXCLUSIVE
# UVM_INFO ../src/mst/axi4_master_monitor.sv(124) @ 505000: uvm_test_top.env.master_agent.mon [axi4_master_monitor] AW observed: ID=0xd ADDR=0x8c833eb4 LEN=0
# UVM_INFO ../src/slv/axi4_slave_monitor.sv(116) @ 505000: uvm_test_top.env.slave_agent.mon [axi4_slave_monitor] AW received: ID=0xd ADDR=0x8c833eb4 LEN=0
# UVM_INFO ../src/mst/axi4_master_monitor.sv(184) @ 505000: uvm_test_top.env.master_agent.mon [axi4_master_monitor] W data assembled: ID=0xd ADDR=0x8c833eb4 1 beats
# UVM_INFO ../src/slv/axi4_slave_monitor.sv(167) @ 505000: uvm_test_top.env.slave_agent.mon [axi4_slave_monitor] W data assembled: ID=0xd ADDR=0x8c833eb4 1 beats
# UVM_INFO ../src/mst/axi4_master_driver.sv(197) @ 525000: uvm_test_top.env.master_agent.drv [axi4_master_driver] Write response: AXI4_RESP_EXOKAY
# UVM_INFO ../src/slv/axi4_slave_driver.sv(261) @ 525000: uvm_test_top.env.slave_agent.drv [axi4_slave_driver] Write complete: ID=0xd ADDR=0x8c833eb4 RESP=AXI4_RESP_EXOKAY  1 beats processed
# UVM_INFO ../src/mst/axi4_master_monitor.sv(210) @ 525000: uvm_test_top.env.master_agent.mon [axi4_master_monitor] Write complete: ID=0xd ADDR=0x8c833eb4 RESP=AXI4_RESP_EXOKAY
# UVM_INFO ../src/env/axi4_scoreboard.sv(82) @ 525000: uvm_test_top.env.scb [axi4_scoreboard] Master AXI4_WRITE received: ID=0xd ADDR=0x8c833eb4 LEN=0
# UVM_INFO ../src/slv/axi4_slave_monitor.sv(189) @ 525000: uvm_test_top.env.slave_agent.mon [axi4_slave_monitor] Write response sent: ID=0xd ADDR=0x8c833eb4 RESP=AXI4_RESP_EXOKAY
# UVM_INFO ../src/env/axi4_scoreboard.sv(103) @ 525000: uvm_test_top.env.scb [axi4_scoreboard] Slave AXI4_WRITE received: ID=0xd ADDR=0x8c833eb4 LEN=0
# UVM_INFO ../src/env/axi4_scoreboard.sv(154) @ 525000: uvm_test_top.env.scb [axi4_scoreboard] [WRITE] MATCH #8: ID=0xd ADDR=0x8c833eb4 LEN=0
# UVM_INFO ../src/seq/axi4_exclusive_seq.sv(76) @ 525000: uvm_test_top.env.master_agent.sqr@@excl_seq [axi4_exclusive_seq] Exclusive Write complete: RESP=AXI4_RESP_EXOKAY
# UVM_INFO ../src/mst/axi4_master_driver.sv(55) @ 525000: uvm_test_top.env.master_agent.drv [axi4_master_driver] Driving AXI4_WRITE  ID=0xd  ADDR=0x8c833eb4  LEN=0
# UVM_INFO ../src/mst/axi4_master_driver.sv(101) @ 525000: uvm_test_top.env.master_agent.drv [axi4_master_driver] Write order: AW -> W (sequential)
# UVM_INFO ../src/slv/axi4_slave_driver.sv(165) @ 555000: uvm_test_top.env.slave_agent.drv [axi4_slave_driver] AW received: ID=0xd ADDR=0x8c833eb4 LEN=0 LOCK=AXI4_LOCK_EXCLUSIVE
# UVM_INFO ../src/slv/axi4_slave_monitor.sv(116) @ 555000: uvm_test_top.env.slave_agent.mon [axi4_slave_monitor] AW received: ID=0xd ADDR=0x8c833eb4 LEN=0
# UVM_INFO ../src/mst/axi4_master_monitor.sv(124) @ 555000: uvm_test_top.env.master_agent.mon [axi4_master_monitor] AW observed: ID=0xd ADDR=0x8c833eb4 LEN=0
# UVM_INFO ../src/slv/axi4_slave_monitor.sv(167) @ 575000: uvm_test_top.env.slave_agent.mon [axi4_slave_monitor] W data assembled: ID=0xd ADDR=0x8c833eb4 1 beats
# UVM_INFO ../src/mst/axi4_master_monitor.sv(184) @ 575000: uvm_test_top.env.master_agent.mon [axi4_master_monitor] W data assembled: ID=0xd ADDR=0x8c833eb4 1 beats
# UVM_INFO ../src/mst/axi4_master_driver.sv(197) @ 605000: uvm_test_top.env.master_agent.drv [axi4_master_driver] Write response: AXI4_RESP_OKAY
# UVM_INFO ../src/slv/axi4_slave_driver.sv(261) @ 605000: uvm_test_top.env.slave_agent.drv [axi4_slave_driver] Write complete: ID=0xd ADDR=0x8c833eb4 RESP=AXI4_RESP_OKAY  1 beats processed
# UVM_INFO ../src/mst/axi4_master_monitor.sv(210) @ 605000: uvm_test_top.env.master_agent.mon [axi4_master_monitor] Write complete: ID=0xd ADDR=0x8c833eb4 RESP=AXI4_RESP_OKAY
# UVM_INFO ../src/env/axi4_scoreboard.sv(82) @ 605000: uvm_test_top.env.scb [axi4_scoreboard] Master AXI4_WRITE received: ID=0xd ADDR=0x8c833eb4 LEN=0
# UVM_INFO ../src/slv/axi4_slave_monitor.sv(189) @ 605000: uvm_test_top.env.slave_agent.mon [axi4_slave_monitor] Write response sent: ID=0xd ADDR=0x8c833eb4 RESP=AXI4_RESP_OKAY
# UVM_INFO ../src/env/axi4_scoreboard.sv(103) @ 605000: uvm_test_top.env.scb [axi4_scoreboard] Slave AXI4_WRITE received: ID=0xd ADDR=0x8c833eb4 LEN=0
# UVM_INFO ../src/env/axi4_scoreboard.sv(154) @ 605000: uvm_test_top.env.scb [axi4_scoreboard] [WRITE] MATCH #9: ID=0xd ADDR=0x8c833eb4 LEN=0
# UVM_INFO ../src/seq/axi4_exclusive_seq.sv(93) @ 605000: uvm_test_top.env.master_agent.sqr@@excl_seq [axi4_exclusive_seq] Failing Exclusive Write complete: RESP=AXI4_RESP_OKAY (Expected OKAY, no EXOKAY)
# UVM_INFO ../src/seq/axi4_exclusive_seq.sv(44) @ 605000: uvm_test_top.env.master_agent.sqr@@excl_seq [axi4_exclusive_seq] [4/10] Running Exclusive Read-Write pair to ADDR=0x1bc96ba8 ID=0x7
# UVM_INFO ../src/mst/axi4_master_driver.sv(55) @ 605000: uvm_test_top.env.master_agent.drv [axi4_master_driver] Driving AXI4_READ  ID=0x7  ADDR=0x1bc96ba8  LEN=0
# UVM_INFO ../src/slv/axi4_slave_driver.sv(300) @ 635000: uvm_test_top.env.slave_agent.drv [axi4_slave_driver] AR received: ID=0x7 ADDR=0x1bc96ba8 LEN=0 LOCK=AXI4_LOCK_EXCLUSIVE
# UVM_INFO ../src/slv/axi4_slave_monitor.sv(224) @ 635000: uvm_test_top.env.slave_agent.mon [axi4_slave_monitor] AR received: ID=0x7 ADDR=0x1bc96ba8 LEN=0
# UVM_INFO ../src/mst/axi4_master_monitor.sv(246) @ 635000: uvm_test_top.env.master_agent.mon [axi4_master_monitor] AR observed: ID=0x7 ADDR=0x1bc96ba8 LEN=0
# UVM_INFO ../src/mst/axi4_master_driver.sv(254) @ 655000: uvm_test_top.env.master_agent.drv [axi4_master_driver] Read complete: 1 beats received
# UVM_INFO ../src/slv/axi4_slave_driver.sv(349) @ 655000: uvm_test_top.env.slave_agent.drv [axi4_slave_driver] Read complete: ID=0x7 ADDR=0x1bc96ba8 RESP=AXI4_RESP_EXOKAY  1 beats sent
# UVM_INFO ../src/slv/axi4_slave_monitor.sv(287) @ 655000: uvm_test_top.env.slave_agent.mon [axi4_slave_monitor] Read data sent: ID=0x7 ADDR=0x1bc96ba8 1 beats
# UVM_INFO ../src/env/axi4_scoreboard.sv(103) @ 655000: uvm_test_top.env.scb [axi4_scoreboard] Slave AXI4_READ received: ID=0x7 ADDR=0x1bc96ba8 LEN=0
# UVM_INFO ../src/mst/axi4_master_monitor.sv(314) @ 655000: uvm_test_top.env.master_agent.mon [axi4_master_monitor] Read complete: ID=0x7 ADDR=0x1bc96ba8 1 beats
# UVM_INFO ../src/env/axi4_scoreboard.sv(82) @ 655000: uvm_test_top.env.scb [axi4_scoreboard] Master AXI4_READ received: ID=0x7 ADDR=0x1bc96ba8 LEN=0
# UVM_INFO ../src/env/axi4_scoreboard.sv(154) @ 655000: uvm_test_top.env.scb [axi4_scoreboard] [READ] MATCH #10: ID=0x7 ADDR=0x1bc96ba8 LEN=0
# UVM_INFO ../src/seq/axi4_exclusive_seq.sv(60) @ 655000: uvm_test_top.env.master_agent.sqr@@excl_seq [axi4_exclusive_seq] Exclusive Read complete: RESP=AXI4_RESP_EXOKAY
# UVM_INFO ../src/mst/axi4_master_driver.sv(55) @ 655000: uvm_test_top.env.master_agent.drv [axi4_master_driver] Driving AXI4_WRITE  ID=0x7  ADDR=0x1bc96ba8  LEN=0
# UVM_INFO ../src/mst/axi4_master_driver.sv(106) @ 655000: uvm_test_top.env.master_agent.drv [axi4_master_driver] Write order: W -> AW (W first)
# UVM_INFO ../src/slv/axi4_slave_driver.sv(165) @ 725000: uvm_test_top.env.slave_agent.drv [axi4_slave_driver] AW received: ID=0x7 ADDR=0x1bc96ba8 LEN=0 LOCK=AXI4_LOCK_EXCLUSIVE
# UVM_INFO ../src/mst/axi4_master_monitor.sv(124) @ 725000: uvm_test_top.env.master_agent.mon [axi4_master_monitor] AW observed: ID=0x7 ADDR=0x1bc96ba8 LEN=0
# UVM_INFO ../src/slv/axi4_slave_monitor.sv(116) @ 725000: uvm_test_top.env.slave_agent.mon [axi4_slave_monitor] AW received: ID=0x7 ADDR=0x1bc96ba8 LEN=0
# UVM_INFO ../src/mst/axi4_master_monitor.sv(184) @ 725000: uvm_test_top.env.master_agent.mon [axi4_master_monitor] W data assembled: ID=0x7 ADDR=0x1bc96ba8 1 beats
# UVM_INFO ../src/slv/axi4_slave_monitor.sv(167) @ 725000: uvm_test_top.env.slave_agent.mon [axi4_slave_monitor] W data assembled: ID=0x7 ADDR=0x1bc96ba8 1 beats
# UVM_INFO ../src/mst/axi4_master_driver.sv(197) @ 745000: uvm_test_top.env.master_agent.drv [axi4_master_driver] Write response: AXI4_RESP_EXOKAY
# UVM_INFO ../src/slv/axi4_slave_driver.sv(261) @ 745000: uvm_test_top.env.slave_agent.drv [axi4_slave_driver] Write complete: ID=0x7 ADDR=0x1bc96ba8 RESP=AXI4_RESP_EXOKAY  1 beats processed
# UVM_INFO ../src/mst/axi4_master_monitor.sv(210) @ 745000: uvm_test_top.env.master_agent.mon [axi4_master_monitor] Write complete: ID=0x7 ADDR=0x1bc96ba8 RESP=AXI4_RESP_EXOKAY
# UVM_INFO ../src/env/axi4_scoreboard.sv(82) @ 745000: uvm_test_top.env.scb [axi4_scoreboard] Master AXI4_WRITE received: ID=0x7 ADDR=0x1bc96ba8 LEN=0
# UVM_INFO ../src/slv/axi4_slave_monitor.sv(189) @ 745000: uvm_test_top.env.slave_agent.mon [axi4_slave_monitor] Write response sent: ID=0x7 ADDR=0x1bc96ba8 RESP=AXI4_RESP_EXOKAY
# UVM_INFO ../src/env/axi4_scoreboard.sv(103) @ 745000: uvm_test_top.env.scb [axi4_scoreboard] Slave AXI4_WRITE received: ID=0x7 ADDR=0x1bc96ba8 LEN=0
# UVM_INFO ../src/env/axi4_scoreboard.sv(154) @ 745000: uvm_test_top.env.scb [axi4_scoreboard] [WRITE] MATCH #11: ID=0x7 ADDR=0x1bc96ba8 LEN=0
# UVM_INFO ../src/seq/axi4_exclusive_seq.sv(76) @ 745000: uvm_test_top.env.master_agent.sqr@@excl_seq [axi4_exclusive_seq] Exclusive Write complete: RESP=AXI4_RESP_EXOKAY
# UVM_INFO ../src/mst/axi4_master_driver.sv(55) @ 745000: uvm_test_top.env.master_agent.drv [axi4_master_driver] Driving AXI4_WRITE  ID=0x7  ADDR=0x1bc96ba8  LEN=0
# UVM_INFO ../src/mst/axi4_master_driver.sv(94) @ 745000: uvm_test_top.env.master_agent.drv [axi4_master_driver] Write order: AW || W (parallel)
# UVM_INFO ../src/slv/axi4_slave_driver.sv(165) @ 775000: uvm_test_top.env.slave_agent.drv [axi4_slave_driver] AW received: ID=0x7 ADDR=0x1bc96ba8 LEN=0 LOCK=AXI4_LOCK_EXCLUSIVE
# UVM_INFO ../src/slv/axi4_slave_monitor.sv(116) @ 775000: uvm_test_top.env.slave_agent.mon [axi4_slave_monitor] AW received: ID=0x7 ADDR=0x1bc96ba8 LEN=0
# UVM_INFO ../src/mst/axi4_master_monitor.sv(124) @ 775000: uvm_test_top.env.master_agent.mon [axi4_master_monitor] AW observed: ID=0x7 ADDR=0x1bc96ba8 LEN=0
# UVM_INFO ../src/slv/axi4_slave_monitor.sv(167) @ 775000: uvm_test_top.env.slave_agent.mon [axi4_slave_monitor] W data assembled: ID=0x7 ADDR=0x1bc96ba8 1 beats
# UVM_INFO ../src/mst/axi4_master_monitor.sv(184) @ 775000: uvm_test_top.env.master_agent.mon [axi4_master_monitor] W data assembled: ID=0x7 ADDR=0x1bc96ba8 1 beats
# UVM_INFO ../src/mst/axi4_master_driver.sv(197) @ 795000: uvm_test_top.env.master_agent.drv [axi4_master_driver] Write response: AXI4_RESP_OKAY
# UVM_INFO ../src/slv/axi4_slave_driver.sv(261) @ 795000: uvm_test_top.env.slave_agent.drv [axi4_slave_driver] Write complete: ID=0x7 ADDR=0x1bc96ba8 RESP=AXI4_RESP_OKAY  1 beats processed
# UVM_INFO ../src/slv/axi4_slave_monitor.sv(189) @ 795000: uvm_test_top.env.slave_agent.mon [axi4_slave_monitor] Write response sent: ID=0x7 ADDR=0x1bc96ba8 RESP=AXI4_RESP_OKAY
# UVM_INFO ../src/env/axi4_scoreboard.sv(103) @ 795000: uvm_test_top.env.scb [axi4_scoreboard] Slave AXI4_WRITE received: ID=0x7 ADDR=0x1bc96ba8 LEN=0
# UVM_INFO ../src/mst/axi4_master_monitor.sv(210) @ 795000: uvm_test_top.env.master_agent.mon [axi4_master_monitor] Write complete: ID=0x7 ADDR=0x1bc96ba8 RESP=AXI4_RESP_OKAY
# UVM_INFO ../src/env/axi4_scoreboard.sv(82) @ 795000: uvm_test_top.env.scb [axi4_scoreboard] Master AXI4_WRITE received: ID=0x7 ADDR=0x1bc96ba8 LEN=0
# UVM_INFO ../src/env/axi4_scoreboard.sv(154) @ 795000: uvm_test_top.env.scb [axi4_scoreboard] [WRITE] MATCH #12: ID=0x7 ADDR=0x1bc96ba8 LEN=0
# UVM_INFO ../src/seq/axi4_exclusive_seq.sv(93) @ 795000: uvm_test_top.env.master_agent.sqr@@excl_seq [axi4_exclusive_seq] Failing Exclusive Write complete: RESP=AXI4_RESP_OKAY (Expected OKAY, no EXOKAY)
# UVM_INFO ../src/seq/axi4_exclusive_seq.sv(44) @ 795000: uvm_test_top.env.master_agent.sqr@@excl_seq [axi4_exclusive_seq] [5/10] Running Exclusive Read-Write pair to ADDR=0xddf0a718 ID=0x8
# UVM_INFO ../src/mst/axi4_master_driver.sv(55) @ 795000: uvm_test_top.env.master_agent.drv [axi4_master_driver] Driving AXI4_READ  ID=0x8  ADDR=0xddf0a718  LEN=0
# UVM_INFO ../src/slv/axi4_slave_driver.sv(300) @ 825000: uvm_test_top.env.slave_agent.drv [axi4_slave_driver] AR received: ID=0x8 ADDR=0xddf0a718 LEN=0 LOCK=AXI4_LOCK_EXCLUSIVE
# UVM_INFO ../src/mst/axi4_master_monitor.sv(246) @ 825000: uvm_test_top.env.master_agent.mon [axi4_master_monitor] AR observed: ID=0x8 ADDR=0xddf0a718 LEN=0
# UVM_INFO ../src/slv/axi4_slave_monitor.sv(224) @ 825000: uvm_test_top.env.slave_agent.mon [axi4_slave_monitor] AR received: ID=0x8 ADDR=0xddf0a718 LEN=0
# UVM_INFO ../src/mst/axi4_master_driver.sv(254) @ 845000: uvm_test_top.env.master_agent.drv [axi4_master_driver] Read complete: 1 beats received
# UVM_INFO ../src/slv/axi4_slave_driver.sv(349) @ 845000: uvm_test_top.env.slave_agent.drv [axi4_slave_driver] Read complete: ID=0x8 ADDR=0xddf0a718 RESP=AXI4_RESP_EXOKAY  1 beats sent
# UVM_INFO ../src/mst/axi4_master_monitor.sv(314) @ 845000: uvm_test_top.env.master_agent.mon [axi4_master_monitor] Read complete: ID=0x8 ADDR=0xddf0a718 1 beats
# UVM_INFO ../src/env/axi4_scoreboard.sv(82) @ 845000: uvm_test_top.env.scb [axi4_scoreboard] Master AXI4_READ received: ID=0x8 ADDR=0xddf0a718 LEN=0
# UVM_INFO ../src/slv/axi4_slave_monitor.sv(287) @ 845000: uvm_test_top.env.slave_agent.mon [axi4_slave_monitor] Read data sent: ID=0x8 ADDR=0xddf0a718 1 beats
# UVM_INFO ../src/env/axi4_scoreboard.sv(103) @ 845000: uvm_test_top.env.scb [axi4_scoreboard] Slave AXI4_READ received: ID=0x8 ADDR=0xddf0a718 LEN=0
# UVM_INFO ../src/env/axi4_scoreboard.sv(154) @ 845000: uvm_test_top.env.scb [axi4_scoreboard] [READ] MATCH #13: ID=0x8 ADDR=0xddf0a718 LEN=0
# UVM_INFO ../src/seq/axi4_exclusive_seq.sv(60) @ 845000: uvm_test_top.env.master_agent.sqr@@excl_seq [axi4_exclusive_seq] Exclusive Read complete: RESP=AXI4_RESP_EXOKAY
# UVM_INFO ../src/mst/axi4_master_driver.sv(55) @ 845000: uvm_test_top.env.master_agent.drv [axi4_master_driver] Driving AXI4_WRITE  ID=0x8  ADDR=0xddf0a718  LEN=0
# UVM_INFO ../src/mst/axi4_master_driver.sv(106) @ 845000: uvm_test_top.env.master_agent.drv [axi4_master_driver] Write order: W -> AW (W first)
# UVM_INFO ../src/slv/axi4_slave_driver.sv(165) @ 915000: uvm_test_top.env.slave_agent.drv [axi4_slave_driver] AW received: ID=0x8 ADDR=0xddf0a718 LEN=0 LOCK=AXI4_LOCK_EXCLUSIVE
# UVM_INFO ../src/slv/axi4_slave_monitor.sv(116) @ 915000: uvm_test_top.env.slave_agent.mon [axi4_slave_monitor] AW received: ID=0x8 ADDR=0xddf0a718 LEN=0
# UVM_INFO ../src/mst/axi4_master_monitor.sv(124) @ 915000: uvm_test_top.env.master_agent.mon [axi4_master_monitor] AW observed: ID=0x8 ADDR=0xddf0a718 LEN=0
# UVM_INFO ../src/slv/axi4_slave_monitor.sv(167) @ 915000: uvm_test_top.env.slave_agent.mon [axi4_slave_monitor] W data assembled: ID=0x8 ADDR=0xddf0a718 1 beats
# UVM_INFO ../src/mst/axi4_master_monitor.sv(184) @ 915000: uvm_test_top.env.master_agent.mon [axi4_master_monitor] W data assembled: ID=0x8 ADDR=0xddf0a718 1 beats
# UVM_INFO ../src/mst/axi4_master_driver.sv(197) @ 935000: uvm_test_top.env.master_agent.drv [axi4_master_driver] Write response: AXI4_RESP_EXOKAY
# UVM_INFO ../src/slv/axi4_slave_driver.sv(261) @ 935000: uvm_test_top.env.slave_agent.drv [axi4_slave_driver] Write complete: ID=0x8 ADDR=0xddf0a718 RESP=AXI4_RESP_EXOKAY  1 beats processed
# UVM_INFO ../src/slv/axi4_slave_monitor.sv(189) @ 935000: uvm_test_top.env.slave_agent.mon [axi4_slave_monitor] Write response sent: ID=0x8 ADDR=0xddf0a718 RESP=AXI4_RESP_EXOKAY
# UVM_INFO ../src/env/axi4_scoreboard.sv(103) @ 935000: uvm_test_top.env.scb [axi4_scoreboard] Slave AXI4_WRITE received: ID=0x8 ADDR=0xddf0a718 LEN=0
# UVM_INFO ../src/mst/axi4_master_monitor.sv(210) @ 935000: uvm_test_top.env.master_agent.mon [axi4_master_monitor] Write complete: ID=0x8 ADDR=0xddf0a718 RESP=AXI4_RESP_EXOKAY
# UVM_INFO ../src/env/axi4_scoreboard.sv(82) @ 935000: uvm_test_top.env.scb [axi4_scoreboard] Master AXI4_WRITE received: ID=0x8 ADDR=0xddf0a718 LEN=0
# UVM_INFO ../src/env/axi4_scoreboard.sv(154) @ 935000: uvm_test_top.env.scb [axi4_scoreboard] [WRITE] MATCH #14: ID=0x8 ADDR=0xddf0a718 LEN=0
# UVM_INFO ../src/seq/axi4_exclusive_seq.sv(76) @ 935000: uvm_test_top.env.master_agent.sqr@@excl_seq [axi4_exclusive_seq] Exclusive Write complete: RESP=AXI4_RESP_EXOKAY
# UVM_INFO ../src/mst/axi4_master_driver.sv(55) @ 935000: uvm_test_top.env.master_agent.drv [axi4_master_driver] Driving AXI4_WRITE  ID=0x8  ADDR=0xddf0a718  LEN=0
# UVM_INFO ../src/mst/axi4_master_driver.sv(94) @ 935000: uvm_test_top.env.master_agent.drv [axi4_master_driver] Write order: AW || W (parallel)
# UVM_INFO ../src/slv/axi4_slave_driver.sv(165) @ 965000: uvm_test_top.env.slave_agent.drv [axi4_slave_driver] AW received: ID=0x8 ADDR=0xddf0a718 LEN=0 LOCK=AXI4_LOCK_EXCLUSIVE
# UVM_INFO ../src/mst/axi4_master_monitor.sv(124) @ 965000: uvm_test_top.env.master_agent.mon [axi4_master_monitor] AW observed: ID=0x8 ADDR=0xddf0a718 LEN=0
# UVM_INFO ../src/slv/axi4_slave_monitor.sv(116) @ 965000: uvm_test_top.env.slave_agent.mon [axi4_slave_monitor] AW received: ID=0x8 ADDR=0xddf0a718 LEN=0
# UVM_INFO ../src/mst/axi4_master_monitor.sv(184) @ 965000: uvm_test_top.env.master_agent.mon [axi4_master_monitor] W data assembled: ID=0x8 ADDR=0xddf0a718 1 beats
# UVM_INFO ../src/slv/axi4_slave_monitor.sv(167) @ 965000: uvm_test_top.env.slave_agent.mon [axi4_slave_monitor] W data assembled: ID=0x8 ADDR=0xddf0a718 1 beats
# UVM_INFO ../src/mst/axi4_master_driver.sv(197) @ 985000: uvm_test_top.env.master_agent.drv [axi4_master_driver] Write response: AXI4_RESP_OKAY
# UVM_INFO ../src/slv/axi4_slave_driver.sv(261) @ 985000: uvm_test_top.env.slave_agent.drv [axi4_slave_driver] Write complete: ID=0x8 ADDR=0xddf0a718 RESP=AXI4_RESP_OKAY  1 beats processed
# UVM_INFO ../src/mst/axi4_master_monitor.sv(210) @ 985000: uvm_test_top.env.master_agent.mon [axi4_master_monitor] Write complete: ID=0x8 ADDR=0xddf0a718 RESP=AXI4_RESP_OKAY
# UVM_INFO ../src/env/axi4_scoreboard.sv(82) @ 985000: uvm_test_top.env.scb [axi4_scoreboard] Master AXI4_WRITE received: ID=0x8 ADDR=0xddf0a718 LEN=0
# UVM_INFO ../src/slv/axi4_slave_monitor.sv(189) @ 985000: uvm_test_top.env.slave_agent.mon [axi4_slave_monitor] Write response sent: ID=0x8 ADDR=0xddf0a718 RESP=AXI4_RESP_OKAY
# UVM_INFO ../src/env/axi4_scoreboard.sv(103) @ 985000: uvm_test_top.env.scb [axi4_scoreboard] Slave AXI4_WRITE received: ID=0x8 ADDR=0xddf0a718 LEN=0
# UVM_INFO ../src/env/axi4_scoreboard.sv(154) @ 985000: uvm_test_top.env.scb [axi4_scoreboard] [WRITE] MATCH #15: ID=0x8 ADDR=0xddf0a718 LEN=0
# UVM_INFO ../src/seq/axi4_exclusive_seq.sv(93) @ 985000: uvm_test_top.env.master_agent.sqr@@excl_seq [axi4_exclusive_seq] Failing Exclusive Write complete: RESP=AXI4_RESP_OKAY (Expected OKAY, no EXOKAY)
# UVM_INFO ../src/seq/axi4_exclusive_seq.sv(44) @ 985000: uvm_test_top.env.master_agent.sqr@@excl_seq [axi4_exclusive_seq] [6/10] Running Exclusive Read-Write pair to ADDR=0x3fd7509c ID=0x8
# UVM_INFO ../src/mst/axi4_master_driver.sv(55) @ 985000: uvm_test_top.env.master_agent.drv [axi4_master_driver] Driving AXI4_READ  ID=0x8  ADDR=0x3fd7509c  LEN=0
# UVM_INFO ../src/slv/axi4_slave_driver.sv(300) @ 1015000: uvm_test_top.env.slave_agent.drv [axi4_slave_driver] AR received: ID=0x8 ADDR=0x3fd7509c LEN=0 LOCK=AXI4_LOCK_EXCLUSIVE
# UVM_INFO ../src/slv/axi4_slave_monitor.sv(224) @ 1015000: uvm_test_top.env.slave_agent.mon [axi4_slave_monitor] AR received: ID=0x8 ADDR=0x3fd7509c LEN=0
# UVM_INFO ../src/mst/axi4_master_monitor.sv(246) @ 1015000: uvm_test_top.env.master_agent.mon [axi4_master_monitor] AR observed: ID=0x8 ADDR=0x3fd7509c LEN=0
# UVM_INFO ../src/mst/axi4_master_driver.sv(254) @ 1035000: uvm_test_top.env.master_agent.drv [axi4_master_driver] Read complete: 1 beats received
# UVM_INFO ../src/slv/axi4_slave_driver.sv(349) @ 1035000: uvm_test_top.env.slave_agent.drv [axi4_slave_driver] Read complete: ID=0x8 ADDR=0x3fd7509c RESP=AXI4_RESP_EXOKAY  1 beats sent
# UVM_INFO ../src/slv/axi4_slave_monitor.sv(287) @ 1035000: uvm_test_top.env.slave_agent.mon [axi4_slave_monitor] Read data sent: ID=0x8 ADDR=0x3fd7509c 1 beats
# UVM_INFO ../src/env/axi4_scoreboard.sv(103) @ 1035000: uvm_test_top.env.scb [axi4_scoreboard] Slave AXI4_READ received: ID=0x8 ADDR=0x3fd7509c LEN=0
# UVM_INFO ../src/mst/axi4_master_monitor.sv(314) @ 1035000: uvm_test_top.env.master_agent.mon [axi4_master_monitor] Read complete: ID=0x8 ADDR=0x3fd7509c 1 beats
# UVM_INFO ../src/env/axi4_scoreboard.sv(82) @ 1035000: uvm_test_top.env.scb [axi4_scoreboard] Master AXI4_READ received: ID=0x8 ADDR=0x3fd7509c LEN=0
# UVM_INFO ../src/env/axi4_scoreboard.sv(154) @ 1035000: uvm_test_top.env.scb [axi4_scoreboard] [READ] MATCH #16: ID=0x8 ADDR=0x3fd7509c LEN=0
# UVM_INFO ../src/seq/axi4_exclusive_seq.sv(60) @ 1035000: uvm_test_top.env.master_agent.sqr@@excl_seq [axi4_exclusive_seq] Exclusive Read complete: RESP=AXI4_RESP_EXOKAY
# UVM_INFO ../src/mst/axi4_master_driver.sv(55) @ 1035000: uvm_test_top.env.master_agent.drv [axi4_master_driver] Driving AXI4_WRITE  ID=0x8  ADDR=0x3fd7509c  LEN=0
# UVM_INFO ../src/mst/axi4_master_driver.sv(94) @ 1035000: uvm_test_top.env.master_agent.drv [axi4_master_driver] Write order: AW || W (parallel)
# UVM_INFO ../src/slv/axi4_slave_driver.sv(165) @ 1065000: uvm_test_top.env.slave_agent.drv [axi4_slave_driver] AW received: ID=0x8 ADDR=0x3fd7509c LEN=0 LOCK=AXI4_LOCK_EXCLUSIVE
# UVM_INFO ../src/mst/axi4_master_monitor.sv(124) @ 1065000: uvm_test_top.env.master_agent.mon [axi4_master_monitor] AW observed: ID=0x8 ADDR=0x3fd7509c LEN=0
# UVM_INFO ../src/slv/axi4_slave_monitor.sv(116) @ 1065000: uvm_test_top.env.slave_agent.mon [axi4_slave_monitor] AW received: ID=0x8 ADDR=0x3fd7509c LEN=0
# UVM_INFO ../src/mst/axi4_master_monitor.sv(184) @ 1065000: uvm_test_top.env.master_agent.mon [axi4_master_monitor] W data assembled: ID=0x8 ADDR=0x3fd7509c 1 beats
# UVM_INFO ../src/slv/axi4_slave_monitor.sv(167) @ 1065000: uvm_test_top.env.slave_agent.mon [axi4_slave_monitor] W data assembled: ID=0x8 ADDR=0x3fd7509c 1 beats
# UVM_INFO ../src/mst/axi4_master_driver.sv(197) @ 1085000: uvm_test_top.env.master_agent.drv [axi4_master_driver] Write response: AXI4_RESP_EXOKAY
# UVM_INFO ../src/slv/axi4_slave_driver.sv(261) @ 1085000: uvm_test_top.env.slave_agent.drv [axi4_slave_driver] Write complete: ID=0x8 ADDR=0x3fd7509c RESP=AXI4_RESP_EXOKAY  1 beats processed
# UVM_INFO ../src/mst/axi4_master_monitor.sv(210) @ 1085000: uvm_test_top.env.master_agent.mon [axi4_master_monitor] Write complete: ID=0x8 ADDR=0x3fd7509c RESP=AXI4_RESP_EXOKAY
# UVM_INFO ../src/env/axi4_scoreboard.sv(82) @ 1085000: uvm_test_top.env.scb [axi4_scoreboard] Master AXI4_WRITE received: ID=0x8 ADDR=0x3fd7509c LEN=0
# UVM_INFO ../src/slv/axi4_slave_monitor.sv(189) @ 1085000: uvm_test_top.env.slave_agent.mon [axi4_slave_monitor] Write response sent: ID=0x8 ADDR=0x3fd7509c RESP=AXI4_RESP_EXOKAY
# UVM_INFO ../src/env/axi4_scoreboard.sv(103) @ 1085000: uvm_test_top.env.scb [axi4_scoreboard] Slave AXI4_WRITE received: ID=0x8 ADDR=0x3fd7509c LEN=0
# UVM_INFO ../src/env/axi4_scoreboard.sv(154) @ 1085000: uvm_test_top.env.scb [axi4_scoreboard] [WRITE] MATCH #17: ID=0x8 ADDR=0x3fd7509c LEN=0
# UVM_INFO ../src/seq/axi4_exclusive_seq.sv(76) @ 1085000: uvm_test_top.env.master_agent.sqr@@excl_seq [axi4_exclusive_seq] Exclusive Write complete: RESP=AXI4_RESP_EXOKAY
# UVM_INFO ../src/mst/axi4_master_driver.sv(55) @ 1085000: uvm_test_top.env.master_agent.drv [axi4_master_driver] Driving AXI4_WRITE  ID=0x8  ADDR=0x3fd7509c  LEN=0
# UVM_INFO ../src/mst/axi4_master_driver.sv(101) @ 1085000: uvm_test_top.env.master_agent.drv [axi4_master_driver] Write order: AW -> W (sequential)
# UVM_INFO ../src/slv/axi4_slave_driver.sv(165) @ 1115000: uvm_test_top.env.slave_agent.drv [axi4_slave_driver] AW received: ID=0x8 ADDR=0x3fd7509c LEN=0 LOCK=AXI4_LOCK_EXCLUSIVE
# UVM_INFO ../src/slv/axi4_slave_monitor.sv(116) @ 1115000: uvm_test_top.env.slave_agent.mon [axi4_slave_monitor] AW received: ID=0x8 ADDR=0x3fd7509c LEN=0
# UVM_INFO ../src/mst/axi4_master_monitor.sv(124) @ 1115000: uvm_test_top.env.master_agent.mon [axi4_master_monitor] AW observed: ID=0x8 ADDR=0x3fd7509c LEN=0
# UVM_INFO ../src/slv/axi4_slave_monitor.sv(167) @ 1135000: uvm_test_top.env.slave_agent.mon [axi4_slave_monitor] W data assembled: ID=0x8 ADDR=0x3fd7509c 1 beats
# UVM_INFO ../src/mst/axi4_master_monitor.sv(184) @ 1135000: uvm_test_top.env.master_agent.mon [axi4_master_monitor] W data assembled: ID=0x8 ADDR=0x3fd7509c 1 beats
# UVM_INFO ../src/mst/axi4_master_driver.sv(197) @ 1165000: uvm_test_top.env.master_agent.drv [axi4_master_driver] Write response: AXI4_RESP_OKAY
# UVM_INFO ../src/slv/axi4_slave_driver.sv(261) @ 1165000: uvm_test_top.env.slave_agent.drv [axi4_slave_driver] Write complete: ID=0x8 ADDR=0x3fd7509c RESP=AXI4_RESP_OKAY  1 beats processed
# UVM_INFO ../src/mst/axi4_master_monitor.sv(210) @ 1165000: uvm_test_top.env.master_agent.mon [axi4_master_monitor] Write complete: ID=0x8 ADDR=0x3fd7509c RESP=AXI4_RESP_OKAY
# UVM_INFO ../src/env/axi4_scoreboard.sv(82) @ 1165000: uvm_test_top.env.scb [axi4_scoreboard] Master AXI4_WRITE received: ID=0x8 ADDR=0x3fd7509c LEN=0
# UVM_INFO ../src/slv/axi4_slave_monitor.sv(189) @ 1165000: uvm_test_top.env.slave_agent.mon [axi4_slave_monitor] Write response sent: ID=0x8 ADDR=0x3fd7509c RESP=AXI4_RESP_OKAY
# UVM_INFO ../src/env/axi4_scoreboard.sv(103) @ 1165000: uvm_test_top.env.scb [axi4_scoreboard] Slave AXI4_WRITE received: ID=0x8 ADDR=0x3fd7509c LEN=0
# UVM_INFO ../src/env/axi4_scoreboard.sv(154) @ 1165000: uvm_test_top.env.scb [axi4_scoreboard] [WRITE] MATCH #18: ID=0x8 ADDR=0x3fd7509c LEN=0
# UVM_INFO ../src/seq/axi4_exclusive_seq.sv(93) @ 1165000: uvm_test_top.env.master_agent.sqr@@excl_seq [axi4_exclusive_seq] Failing Exclusive Write complete: RESP=AXI4_RESP_OKAY (Expected OKAY, no EXOKAY)
# UVM_INFO ../src/seq/axi4_exclusive_seq.sv(44) @ 1165000: uvm_test_top.env.master_agent.sqr@@excl_seq [axi4_exclusive_seq] [7/10] Running Exclusive Read-Write pair to ADDR=0xc1cc965c ID=0xe
# UVM_INFO ../src/mst/axi4_master_driver.sv(55) @ 1165000: uvm_test_top.env.master_agent.drv [axi4_master_driver] Driving AXI4_READ  ID=0xe  ADDR=0xc1cc965c  LEN=0
# UVM_INFO ../src/slv/axi4_slave_driver.sv(300) @ 1195000: uvm_test_top.env.slave_agent.drv [axi4_slave_driver] AR received: ID=0xe ADDR=0xc1cc965c LEN=0 LOCK=AXI4_LOCK_EXCLUSIVE
# UVM_INFO ../src/slv/axi4_slave_monitor.sv(224) @ 1195000: uvm_test_top.env.slave_agent.mon [axi4_slave_monitor] AR received: ID=0xe ADDR=0xc1cc965c LEN=0
# UVM_INFO ../src/mst/axi4_master_monitor.sv(246) @ 1195000: uvm_test_top.env.master_agent.mon [axi4_master_monitor] AR observed: ID=0xe ADDR=0xc1cc965c LEN=0
# UVM_INFO ../src/mst/axi4_master_driver.sv(254) @ 1215000: uvm_test_top.env.master_agent.drv [axi4_master_driver] Read complete: 1 beats received
# UVM_INFO ../src/slv/axi4_slave_driver.sv(349) @ 1215000: uvm_test_top.env.slave_agent.drv [axi4_slave_driver] Read complete: ID=0xe ADDR=0xc1cc965c RESP=AXI4_RESP_EXOKAY  1 beats sent
# UVM_INFO ../src/slv/axi4_slave_monitor.sv(287) @ 1215000: uvm_test_top.env.slave_agent.mon [axi4_slave_monitor] Read data sent: ID=0xe ADDR=0xc1cc965c 1 beats
# UVM_INFO ../src/env/axi4_scoreboard.sv(103) @ 1215000: uvm_test_top.env.scb [axi4_scoreboard] Slave AXI4_READ received: ID=0xe ADDR=0xc1cc965c LEN=0
# UVM_INFO ../src/mst/axi4_master_monitor.sv(314) @ 1215000: uvm_test_top.env.master_agent.mon [axi4_master_monitor] Read complete: ID=0xe ADDR=0xc1cc965c 1 beats
# UVM_INFO ../src/env/axi4_scoreboard.sv(82) @ 1215000: uvm_test_top.env.scb [axi4_scoreboard] Master AXI4_READ received: ID=0xe ADDR=0xc1cc965c LEN=0
# UVM_INFO ../src/env/axi4_scoreboard.sv(154) @ 1215000: uvm_test_top.env.scb [axi4_scoreboard] [READ] MATCH #19: ID=0xe ADDR=0xc1cc965c LEN=0
# UVM_INFO ../src/seq/axi4_exclusive_seq.sv(60) @ 1215000: uvm_test_top.env.master_agent.sqr@@excl_seq [axi4_exclusive_seq] Exclusive Read complete: RESP=AXI4_RESP_EXOKAY
# UVM_INFO ../src/mst/axi4_master_driver.sv(55) @ 1215000: uvm_test_top.env.master_agent.drv [axi4_master_driver] Driving AXI4_WRITE  ID=0xe  ADDR=0xc1cc965c  LEN=0
# UVM_INFO ../src/mst/axi4_master_driver.sv(94) @ 1215000: uvm_test_top.env.master_agent.drv [axi4_master_driver] Write order: AW || W (parallel)
# UVM_INFO ../src/slv/axi4_slave_driver.sv(165) @ 1245000: uvm_test_top.env.slave_agent.drv [axi4_slave_driver] AW received: ID=0xe ADDR=0xc1cc965c LEN=0 LOCK=AXI4_LOCK_EXCLUSIVE
# UVM_INFO ../src/mst/axi4_master_monitor.sv(124) @ 1245000: uvm_test_top.env.master_agent.mon [axi4_master_monitor] AW observed: ID=0xe ADDR=0xc1cc965c LEN=0
# UVM_INFO ../src/slv/axi4_slave_monitor.sv(116) @ 1245000: uvm_test_top.env.slave_agent.mon [axi4_slave_monitor] AW received: ID=0xe ADDR=0xc1cc965c LEN=0
# UVM_INFO ../src/mst/axi4_master_monitor.sv(184) @ 1245000: uvm_test_top.env.master_agent.mon [axi4_master_monitor] W data assembled: ID=0xe ADDR=0xc1cc965c 1 beats
# UVM_INFO ../src/slv/axi4_slave_monitor.sv(167) @ 1245000: uvm_test_top.env.slave_agent.mon [axi4_slave_monitor] W data assembled: ID=0xe ADDR=0xc1cc965c 1 beats
# UVM_INFO ../src/mst/axi4_master_driver.sv(197) @ 1265000: uvm_test_top.env.master_agent.drv [axi4_master_driver] Write response: AXI4_RESP_EXOKAY
# UVM_INFO ../src/slv/axi4_slave_driver.sv(261) @ 1265000: uvm_test_top.env.slave_agent.drv [axi4_slave_driver] Write complete: ID=0xe ADDR=0xc1cc965c RESP=AXI4_RESP_EXOKAY  1 beats processed
# UVM_INFO ../src/mst/axi4_master_monitor.sv(210) @ 1265000: uvm_test_top.env.master_agent.mon [axi4_master_monitor] Write complete: ID=0xe ADDR=0xc1cc965c RESP=AXI4_RESP_EXOKAY
# UVM_INFO ../src/env/axi4_scoreboard.sv(82) @ 1265000: uvm_test_top.env.scb [axi4_scoreboard] Master AXI4_WRITE received: ID=0xe ADDR=0xc1cc965c LEN=0
# UVM_INFO ../src/slv/axi4_slave_monitor.sv(189) @ 1265000: uvm_test_top.env.slave_agent.mon [axi4_slave_monitor] Write response sent: ID=0xe ADDR=0xc1cc965c RESP=AXI4_RESP_EXOKAY
# UVM_INFO ../src/env/axi4_scoreboard.sv(103) @ 1265000: uvm_test_top.env.scb [axi4_scoreboard] Slave AXI4_WRITE received: ID=0xe ADDR=0xc1cc965c LEN=0
# UVM_INFO ../src/env/axi4_scoreboard.sv(154) @ 1265000: uvm_test_top.env.scb [axi4_scoreboard] [WRITE] MATCH #20: ID=0xe ADDR=0xc1cc965c LEN=0
# UVM_INFO ../src/seq/axi4_exclusive_seq.sv(76) @ 1265000: uvm_test_top.env.master_agent.sqr@@excl_seq [axi4_exclusive_seq] Exclusive Write complete: RESP=AXI4_RESP_EXOKAY
# UVM_INFO ../src/mst/axi4_master_driver.sv(55) @ 1265000: uvm_test_top.env.master_agent.drv [axi4_master_driver] Driving AXI4_WRITE  ID=0xe  ADDR=0xc1cc965c  LEN=0
# UVM_INFO ../src/mst/axi4_master_driver.sv(94) @ 1265000: uvm_test_top.env.master_agent.drv [axi4_master_driver] Write order: AW || W (parallel)
# UVM_INFO ../src/slv/axi4_slave_driver.sv(165) @ 1295000: uvm_test_top.env.slave_agent.drv [axi4_slave_driver] AW received: ID=0xe ADDR=0xc1cc965c LEN=0 LOCK=AXI4_LOCK_EXCLUSIVE
# UVM_INFO ../src/slv/axi4_slave_monitor.sv(116) @ 1295000: uvm_test_top.env.slave_agent.mon [axi4_slave_monitor] AW received: ID=0xe ADDR=0xc1cc965c LEN=0
# UVM_INFO ../src/mst/axi4_master_monitor.sv(124) @ 1295000: uvm_test_top.env.master_agent.mon [axi4_master_monitor] AW observed: ID=0xe ADDR=0xc1cc965c LEN=0
# UVM_INFO ../src/slv/axi4_slave_monitor.sv(167) @ 1295000: uvm_test_top.env.slave_agent.mon [axi4_slave_monitor] W data assembled: ID=0xe ADDR=0xc1cc965c 1 beats
# UVM_INFO ../src/mst/axi4_master_monitor.sv(184) @ 1295000: uvm_test_top.env.master_agent.mon [axi4_master_monitor] W data assembled: ID=0xe ADDR=0xc1cc965c 1 beats
# UVM_INFO ../src/mst/axi4_master_driver.sv(197) @ 1315000: uvm_test_top.env.master_agent.drv [axi4_master_driver] Write response: AXI4_RESP_OKAY
# UVM_INFO ../src/slv/axi4_slave_driver.sv(261) @ 1315000: uvm_test_top.env.slave_agent.drv [axi4_slave_driver] Write complete: ID=0xe ADDR=0xc1cc965c RESP=AXI4_RESP_OKAY  1 beats processed
# UVM_INFO ../src/slv/axi4_slave_monitor.sv(189) @ 1315000: uvm_test_top.env.slave_agent.mon [axi4_slave_monitor] Write response sent: ID=0xe ADDR=0xc1cc965c RESP=AXI4_RESP_OKAY
# UVM_INFO ../src/env/axi4_scoreboard.sv(103) @ 1315000: uvm_test_top.env.scb [axi4_scoreboard] Slave AXI4_WRITE received: ID=0xe ADDR=0xc1cc965c LEN=0
# UVM_INFO ../src/mst/axi4_master_monitor.sv(210) @ 1315000: uvm_test_top.env.master_agent.mon [axi4_master_monitor] Write complete: ID=0xe ADDR=0xc1cc965c RESP=AXI4_RESP_OKAY
# UVM_INFO ../src/env/axi4_scoreboard.sv(82) @ 1315000: uvm_test_top.env.scb [axi4_scoreboard] Master AXI4_WRITE received: ID=0xe ADDR=0xc1cc965c LEN=0
# UVM_INFO ../src/env/axi4_scoreboard.sv(154) @ 1315000: uvm_test_top.env.scb [axi4_scoreboard] [WRITE] MATCH #21: ID=0xe ADDR=0xc1cc965c LEN=0
# UVM_INFO ../src/seq/axi4_exclusive_seq.sv(93) @ 1315000: uvm_test_top.env.master_agent.sqr@@excl_seq [axi4_exclusive_seq] Failing Exclusive Write complete: RESP=AXI4_RESP_OKAY (Expected OKAY, no EXOKAY)
# UVM_INFO ../src/seq/axi4_exclusive_seq.sv(44) @ 1315000: uvm_test_top.env.master_agent.sqr@@excl_seq [axi4_exclusive_seq] [8/10] Running Exclusive Read-Write pair to ADDR=0x7dd37390 ID=0x3
# UVM_INFO ../src/mst/axi4_master_driver.sv(55) @ 1315000: uvm_test_top.env.master_agent.drv [axi4_master_driver] Driving AXI4_READ  ID=0x3  ADDR=0x7dd37390  LEN=0
# UVM_INFO ../src/slv/axi4_slave_driver.sv(300) @ 1345000: uvm_test_top.env.slave_agent.drv [axi4_slave_driver] AR received: ID=0x3 ADDR=0x7dd37390 LEN=0 LOCK=AXI4_LOCK_EXCLUSIVE
# UVM_INFO ../src/mst/axi4_master_monitor.sv(246) @ 1345000: uvm_test_top.env.master_agent.mon [axi4_master_monitor] AR observed: ID=0x3 ADDR=0x7dd37390 LEN=0
# UVM_INFO ../src/slv/axi4_slave_monitor.sv(224) @ 1345000: uvm_test_top.env.slave_agent.mon [axi4_slave_monitor] AR received: ID=0x3 ADDR=0x7dd37390 LEN=0
# UVM_INFO ../src/mst/axi4_master_driver.sv(254) @ 1365000: uvm_test_top.env.master_agent.drv [axi4_master_driver] Read complete: 1 beats received
# UVM_INFO ../src/slv/axi4_slave_driver.sv(349) @ 1365000: uvm_test_top.env.slave_agent.drv [axi4_slave_driver] Read complete: ID=0x3 ADDR=0x7dd37390 RESP=AXI4_RESP_EXOKAY  1 beats sent
# UVM_INFO ../src/mst/axi4_master_monitor.sv(314) @ 1365000: uvm_test_top.env.master_agent.mon [axi4_master_monitor] Read complete: ID=0x3 ADDR=0x7dd37390 1 beats
# UVM_INFO ../src/env/axi4_scoreboard.sv(82) @ 1365000: uvm_test_top.env.scb [axi4_scoreboard] Master AXI4_READ received: ID=0x3 ADDR=0x7dd37390 LEN=0
# UVM_INFO ../src/slv/axi4_slave_monitor.sv(287) @ 1365000: uvm_test_top.env.slave_agent.mon [axi4_slave_monitor] Read data sent: ID=0x3 ADDR=0x7dd37390 1 beats
# UVM_INFO ../src/env/axi4_scoreboard.sv(103) @ 1365000: uvm_test_top.env.scb [axi4_scoreboard] Slave AXI4_READ received: ID=0x3 ADDR=0x7dd37390 LEN=0
# UVM_INFO ../src/env/axi4_scoreboard.sv(154) @ 1365000: uvm_test_top.env.scb [axi4_scoreboard] [READ] MATCH #22: ID=0x3 ADDR=0x7dd37390 LEN=0
# UVM_INFO ../src/seq/axi4_exclusive_seq.sv(60) @ 1365000: uvm_test_top.env.master_agent.sqr@@excl_seq [axi4_exclusive_seq] Exclusive Read complete: RESP=AXI4_RESP_EXOKAY
# UVM_INFO ../src/mst/axi4_master_driver.sv(55) @ 1365000: uvm_test_top.env.master_agent.drv [axi4_master_driver] Driving AXI4_WRITE  ID=0x3  ADDR=0x7dd37390  LEN=0
# UVM_INFO ../src/mst/axi4_master_driver.sv(94) @ 1365000: uvm_test_top.env.master_agent.drv [axi4_master_driver] Write order: AW || W (parallel)
# UVM_INFO ../src/slv/axi4_slave_driver.sv(165) @ 1395000: uvm_test_top.env.slave_agent.drv [axi4_slave_driver] AW received: ID=0x3 ADDR=0x7dd37390 LEN=0 LOCK=AXI4_LOCK_EXCLUSIVE
# UVM_INFO ../src/slv/axi4_slave_monitor.sv(116) @ 1395000: uvm_test_top.env.slave_agent.mon [axi4_slave_monitor] AW received: ID=0x3 ADDR=0x7dd37390 LEN=0
# UVM_INFO ../src/mst/axi4_master_monitor.sv(124) @ 1395000: uvm_test_top.env.master_agent.mon [axi4_master_monitor] AW observed: ID=0x3 ADDR=0x7dd37390 LEN=0
# UVM_INFO ../src/slv/axi4_slave_monitor.sv(167) @ 1395000: uvm_test_top.env.slave_agent.mon [axi4_slave_monitor] W data assembled: ID=0x3 ADDR=0x7dd37390 1 beats
# UVM_INFO ../src/mst/axi4_master_monitor.sv(184) @ 1395000: uvm_test_top.env.master_agent.mon [axi4_master_monitor] W data assembled: ID=0x3 ADDR=0x7dd37390 1 beats
# UVM_INFO ../src/mst/axi4_master_driver.sv(197) @ 1415000: uvm_test_top.env.master_agent.drv [axi4_master_driver] Write response: AXI4_RESP_EXOKAY
# UVM_INFO ../src/slv/axi4_slave_driver.sv(261) @ 1415000: uvm_test_top.env.slave_agent.drv [axi4_slave_driver] Write complete: ID=0x3 ADDR=0x7dd37390 RESP=AXI4_RESP_EXOKAY  1 beats processed
# UVM_INFO ../src/slv/axi4_slave_monitor.sv(189) @ 1415000: uvm_test_top.env.slave_agent.mon [axi4_slave_monitor] Write response sent: ID=0x3 ADDR=0x7dd37390 RESP=AXI4_RESP_EXOKAY
# UVM_INFO ../src/env/axi4_scoreboard.sv(103) @ 1415000: uvm_test_top.env.scb [axi4_scoreboard] Slave AXI4_WRITE received: ID=0x3 ADDR=0x7dd37390 LEN=0
# UVM_INFO ../src/mst/axi4_master_monitor.sv(210) @ 1415000: uvm_test_top.env.master_agent.mon [axi4_master_monitor] Write complete: ID=0x3 ADDR=0x7dd37390 RESP=AXI4_RESP_EXOKAY
# UVM_INFO ../src/env/axi4_scoreboard.sv(82) @ 1415000: uvm_test_top.env.scb [axi4_scoreboard] Master AXI4_WRITE received: ID=0x3 ADDR=0x7dd37390 LEN=0
# UVM_INFO ../src/env/axi4_scoreboard.sv(154) @ 1415000: uvm_test_top.env.scb [axi4_scoreboard] [WRITE] MATCH #23: ID=0x3 ADDR=0x7dd37390 LEN=0
# UVM_INFO ../src/seq/axi4_exclusive_seq.sv(76) @ 1415000: uvm_test_top.env.master_agent.sqr@@excl_seq [axi4_exclusive_seq] Exclusive Write complete: RESP=AXI4_RESP_EXOKAY
# UVM_INFO ../src/mst/axi4_master_driver.sv(55) @ 1415000: uvm_test_top.env.master_agent.drv [axi4_master_driver] Driving AXI4_WRITE  ID=0x3  ADDR=0x7dd37390  LEN=0
# UVM_INFO ../src/mst/axi4_master_driver.sv(106) @ 1415000: uvm_test_top.env.master_agent.drv [axi4_master_driver] Write order: W -> AW (W first)
# UVM_INFO ../src/slv/axi4_slave_driver.sv(165) @ 1465000: uvm_test_top.env.slave_agent.drv [axi4_slave_driver] AW received: ID=0x3 ADDR=0x7dd37390 LEN=0 LOCK=AXI4_LOCK_EXCLUSIVE
# UVM_INFO ../src/mst/axi4_master_monitor.sv(124) @ 1465000: uvm_test_top.env.master_agent.mon [axi4_master_monitor] AW observed: ID=0x3 ADDR=0x7dd37390 LEN=0
# UVM_INFO ../src/slv/axi4_slave_monitor.sv(116) @ 1465000: uvm_test_top.env.slave_agent.mon [axi4_slave_monitor] AW received: ID=0x3 ADDR=0x7dd37390 LEN=0
# UVM_INFO ../src/mst/axi4_master_monitor.sv(184) @ 1465000: uvm_test_top.env.master_agent.mon [axi4_master_monitor] W data assembled: ID=0x3 ADDR=0x7dd37390 1 beats
# UVM_INFO ../src/slv/axi4_slave_monitor.sv(167) @ 1465000: uvm_test_top.env.slave_agent.mon [axi4_slave_monitor] W data assembled: ID=0x3 ADDR=0x7dd37390 1 beats
# UVM_INFO ../src/mst/axi4_master_driver.sv(197) @ 1485000: uvm_test_top.env.master_agent.drv [axi4_master_driver] Write response: AXI4_RESP_OKAY
# UVM_INFO ../src/slv/axi4_slave_driver.sv(261) @ 1485000: uvm_test_top.env.slave_agent.drv [axi4_slave_driver] Write complete: ID=0x3 ADDR=0x7dd37390 RESP=AXI4_RESP_OKAY  1 beats processed
# UVM_INFO ../src/mst/axi4_master_monitor.sv(210) @ 1485000: uvm_test_top.env.master_agent.mon [axi4_master_monitor] Write complete: ID=0x3 ADDR=0x7dd37390 RESP=AXI4_RESP_OKAY
# UVM_INFO ../src/env/axi4_scoreboard.sv(82) @ 1485000: uvm_test_top.env.scb [axi4_scoreboard] Master AXI4_WRITE received: ID=0x3 ADDR=0x7dd37390 LEN=0
# UVM_INFO ../src/slv/axi4_slave_monitor.sv(189) @ 1485000: uvm_test_top.env.slave_agent.mon [axi4_slave_monitor] Write response sent: ID=0x3 ADDR=0x7dd37390 RESP=AXI4_RESP_OKAY
# UVM_INFO ../src/env/axi4_scoreboard.sv(103) @ 1485000: uvm_test_top.env.scb [axi4_scoreboard] Slave AXI4_WRITE received: ID=0x3 ADDR=0x7dd37390 LEN=0
# UVM_INFO ../src/env/axi4_scoreboard.sv(154) @ 1485000: uvm_test_top.env.scb [axi4_scoreboard] [WRITE] MATCH #24: ID=0x3 ADDR=0x7dd37390 LEN=0
# UVM_INFO ../src/seq/axi4_exclusive_seq.sv(93) @ 1485000: uvm_test_top.env.master_agent.sqr@@excl_seq [axi4_exclusive_seq] Failing Exclusive Write complete: RESP=AXI4_RESP_OKAY (Expected OKAY, no EXOKAY)
# UVM_INFO ../src/seq/axi4_exclusive_seq.sv(44) @ 1485000: uvm_test_top.env.master_agent.sqr@@excl_seq [axi4_exclusive_seq] [9/10] Running Exclusive Read-Write pair to ADDR=0x9ede3f68 ID=0x4
# UVM_INFO ../src/mst/axi4_master_driver.sv(55) @ 1485000: uvm_test_top.env.master_agent.drv [axi4_master_driver] Driving AXI4_READ  ID=0x4  ADDR=0x9ede3f68  LEN=0
# UVM_INFO ../src/slv/axi4_slave_driver.sv(300) @ 1515000: uvm_test_top.env.slave_agent.drv [axi4_slave_driver] AR received: ID=0x4 ADDR=0x9ede3f68 LEN=0 LOCK=AXI4_LOCK_EXCLUSIVE
# UVM_INFO ../src/slv/axi4_slave_monitor.sv(224) @ 1515000: uvm_test_top.env.slave_agent.mon [axi4_slave_monitor] AR received: ID=0x4 ADDR=0x9ede3f68 LEN=0
# UVM_INFO ../src/mst/axi4_master_monitor.sv(246) @ 1515000: uvm_test_top.env.master_agent.mon [axi4_master_monitor] AR observed: ID=0x4 ADDR=0x9ede3f68 LEN=0
# UVM_INFO ../src/mst/axi4_master_driver.sv(254) @ 1535000: uvm_test_top.env.master_agent.drv [axi4_master_driver] Read complete: 1 beats received
# UVM_INFO ../src/slv/axi4_slave_driver.sv(349) @ 1535000: uvm_test_top.env.slave_agent.drv [axi4_slave_driver] Read complete: ID=0x4 ADDR=0x9ede3f68 RESP=AXI4_RESP_EXOKAY  1 beats sent
# UVM_INFO ../src/slv/axi4_slave_monitor.sv(287) @ 1535000: uvm_test_top.env.slave_agent.mon [axi4_slave_monitor] Read data sent: ID=0x4 ADDR=0x9ede3f68 1 beats
# UVM_INFO ../src/env/axi4_scoreboard.sv(103) @ 1535000: uvm_test_top.env.scb [axi4_scoreboard] Slave AXI4_READ received: ID=0x4 ADDR=0x9ede3f68 LEN=0
# UVM_INFO ../src/mst/axi4_master_monitor.sv(314) @ 1535000: uvm_test_top.env.master_agent.mon [axi4_master_monitor] Read complete: ID=0x4 ADDR=0x9ede3f68 1 beats
# UVM_INFO ../src/env/axi4_scoreboard.sv(82) @ 1535000: uvm_test_top.env.scb [axi4_scoreboard] Master AXI4_READ received: ID=0x4 ADDR=0x9ede3f68 LEN=0
# UVM_INFO ../src/env/axi4_scoreboard.sv(154) @ 1535000: uvm_test_top.env.scb [axi4_scoreboard] [READ] MATCH #25: ID=0x4 ADDR=0x9ede3f68 LEN=0
# UVM_INFO ../src/seq/axi4_exclusive_seq.sv(60) @ 1535000: uvm_test_top.env.master_agent.sqr@@excl_seq [axi4_exclusive_seq] Exclusive Read complete: RESP=AXI4_RESP_EXOKAY
# UVM_INFO ../src/mst/axi4_master_driver.sv(55) @ 1535000: uvm_test_top.env.master_agent.drv [axi4_master_driver] Driving AXI4_WRITE  ID=0x4  ADDR=0x9ede3f68  LEN=0
# UVM_INFO ../src/mst/axi4_master_driver.sv(94) @ 1535000: uvm_test_top.env.master_agent.drv [axi4_master_driver] Write order: AW || W (parallel)
# UVM_INFO ../src/slv/axi4_slave_driver.sv(165) @ 1565000: uvm_test_top.env.slave_agent.drv [axi4_slave_driver] AW received: ID=0x4 ADDR=0x9ede3f68 LEN=0 LOCK=AXI4_LOCK_EXCLUSIVE
# UVM_INFO ../src/mst/axi4_master_monitor.sv(124) @ 1565000: uvm_test_top.env.master_agent.mon [axi4_master_monitor] AW observed: ID=0x4 ADDR=0x9ede3f68 LEN=0
# UVM_INFO ../src/slv/axi4_slave_monitor.sv(116) @ 1565000: uvm_test_top.env.slave_agent.mon [axi4_slave_monitor] AW received: ID=0x4 ADDR=0x9ede3f68 LEN=0
# UVM_INFO ../src/mst/axi4_master_monitor.sv(184) @ 1565000: uvm_test_top.env.master_agent.mon [axi4_master_monitor] W data assembled: ID=0x4 ADDR=0x9ede3f68 1 beats
# UVM_INFO ../src/slv/axi4_slave_monitor.sv(167) @ 1565000: uvm_test_top.env.slave_agent.mon [axi4_slave_monitor] W data assembled: ID=0x4 ADDR=0x9ede3f68 1 beats
# UVM_INFO ../src/mst/axi4_master_driver.sv(197) @ 1585000: uvm_test_top.env.master_agent.drv [axi4_master_driver] Write response: AXI4_RESP_EXOKAY
# UVM_INFO ../src/slv/axi4_slave_driver.sv(261) @ 1585000: uvm_test_top.env.slave_agent.drv [axi4_slave_driver] Write complete: ID=0x4 ADDR=0x9ede3f68 RESP=AXI4_RESP_EXOKAY  1 beats processed
# UVM_INFO ../src/mst/axi4_master_monitor.sv(210) @ 1585000: uvm_test_top.env.master_agent.mon [axi4_master_monitor] Write complete: ID=0x4 ADDR=0x9ede3f68 RESP=AXI4_RESP_EXOKAY
# UVM_INFO ../src/env/axi4_scoreboard.sv(82) @ 1585000: uvm_test_top.env.scb [axi4_scoreboard] Master AXI4_WRITE received: ID=0x4 ADDR=0x9ede3f68 LEN=0
# UVM_INFO ../src/slv/axi4_slave_monitor.sv(189) @ 1585000: uvm_test_top.env.slave_agent.mon [axi4_slave_monitor] Write response sent: ID=0x4 ADDR=0x9ede3f68 RESP=AXI4_RESP_EXOKAY
# UVM_INFO ../src/env/axi4_scoreboard.sv(103) @ 1585000: uvm_test_top.env.scb [axi4_scoreboard] Slave AXI4_WRITE received: ID=0x4 ADDR=0x9ede3f68 LEN=0
# UVM_INFO ../src/env/axi4_scoreboard.sv(154) @ 1585000: uvm_test_top.env.scb [axi4_scoreboard] [WRITE] MATCH #26: ID=0x4 ADDR=0x9ede3f68 LEN=0
# UVM_INFO ../src/seq/axi4_exclusive_seq.sv(76) @ 1585000: uvm_test_top.env.master_agent.sqr@@excl_seq [axi4_exclusive_seq] Exclusive Write complete: RESP=AXI4_RESP_EXOKAY
# UVM_INFO ../src/mst/axi4_master_driver.sv(55) @ 1585000: uvm_test_top.env.master_agent.drv [axi4_master_driver] Driving AXI4_WRITE  ID=0x4  ADDR=0x9ede3f68  LEN=0
# UVM_INFO ../src/mst/axi4_master_driver.sv(101) @ 1585000: uvm_test_top.env.master_agent.drv [axi4_master_driver] Write order: AW -> W (sequential)
# UVM_INFO ../src/slv/axi4_slave_driver.sv(165) @ 1615000: uvm_test_top.env.slave_agent.drv [axi4_slave_driver] AW received: ID=0x4 ADDR=0x9ede3f68 LEN=0 LOCK=AXI4_LOCK_EXCLUSIVE
# UVM_INFO ../src/slv/axi4_slave_monitor.sv(116) @ 1615000: uvm_test_top.env.slave_agent.mon [axi4_slave_monitor] AW received: ID=0x4 ADDR=0x9ede3f68 LEN=0
# UVM_INFO ../src/mst/axi4_master_monitor.sv(124) @ 1615000: uvm_test_top.env.master_agent.mon [axi4_master_monitor] AW observed: ID=0x4 ADDR=0x9ede3f68 LEN=0
# UVM_INFO ../src/slv/axi4_slave_monitor.sv(167) @ 1635000: uvm_test_top.env.slave_agent.mon [axi4_slave_monitor] W data assembled: ID=0x4 ADDR=0x9ede3f68 1 beats
# UVM_INFO ../src/mst/axi4_master_monitor.sv(184) @ 1635000: uvm_test_top.env.master_agent.mon [axi4_master_monitor] W data assembled: ID=0x4 ADDR=0x9ede3f68 1 beats
# UVM_INFO ../src/mst/axi4_master_driver.sv(197) @ 1665000: uvm_test_top.env.master_agent.drv [axi4_master_driver] Write response: AXI4_RESP_OKAY
# UVM_INFO ../src/slv/axi4_slave_driver.sv(261) @ 1665000: uvm_test_top.env.slave_agent.drv [axi4_slave_driver] Write complete: ID=0x4 ADDR=0x9ede3f68 RESP=AXI4_RESP_OKAY  1 beats processed
# UVM_INFO ../src/mst/axi4_master_monitor.sv(210) @ 1665000: uvm_test_top.env.master_agent.mon [axi4_master_monitor] Write complete: ID=0x4 ADDR=0x9ede3f68 RESP=AXI4_RESP_OKAY
# UVM_INFO ../src/env/axi4_scoreboard.sv(82) @ 1665000: uvm_test_top.env.scb [axi4_scoreboard] Master AXI4_WRITE received: ID=0x4 ADDR=0x9ede3f68 LEN=0
# UVM_INFO ../src/slv/axi4_slave_monitor.sv(189) @ 1665000: uvm_test_top.env.slave_agent.mon [axi4_slave_monitor] Write response sent: ID=0x4 ADDR=0x9ede3f68 RESP=AXI4_RESP_OKAY
# UVM_INFO ../src/env/axi4_scoreboard.sv(103) @ 1665000: uvm_test_top.env.scb [axi4_scoreboard] Slave AXI4_WRITE received: ID=0x4 ADDR=0x9ede3f68 LEN=0
# UVM_INFO ../src/env/axi4_scoreboard.sv(154) @ 1665000: uvm_test_top.env.scb [axi4_scoreboard] [WRITE] MATCH #27: ID=0x4 ADDR=0x9ede3f68 LEN=0
# UVM_INFO ../src/seq/axi4_exclusive_seq.sv(93) @ 1665000: uvm_test_top.env.master_agent.sqr@@excl_seq [axi4_exclusive_seq] Failing Exclusive Write complete: RESP=AXI4_RESP_OKAY (Expected OKAY, no EXOKAY)
# UVM_INFO ../src/seq/axi4_exclusive_seq.sv(44) @ 1665000: uvm_test_top.env.master_agent.sqr@@excl_seq [axi4_exclusive_seq] [10/10] Running Exclusive Read-Write pair to ADDR=0xd3da06cc ID=0x3
# UVM_INFO ../src/mst/axi4_master_driver.sv(55) @ 1665000: uvm_test_top.env.master_agent.drv [axi4_master_driver] Driving AXI4_READ  ID=0x3  ADDR=0xd3da06cc  LEN=0
# UVM_INFO ../src/slv/axi4_slave_driver.sv(300) @ 1695000: uvm_test_top.env.slave_agent.drv [axi4_slave_driver] AR received: ID=0x3 ADDR=0xd3da06cc LEN=0 LOCK=AXI4_LOCK_EXCLUSIVE
# UVM_INFO ../src/slv/axi4_slave_monitor.sv(224) @ 1695000: uvm_test_top.env.slave_agent.mon [axi4_slave_monitor] AR received: ID=0x3 ADDR=0xd3da06cc LEN=0
# UVM_INFO ../src/mst/axi4_master_monitor.sv(246) @ 1695000: uvm_test_top.env.master_agent.mon [axi4_master_monitor] AR observed: ID=0x3 ADDR=0xd3da06cc LEN=0
# UVM_INFO ../src/mst/axi4_master_driver.sv(254) @ 1715000: uvm_test_top.env.master_agent.drv [axi4_master_driver] Read complete: 1 beats received
# UVM_INFO ../src/slv/axi4_slave_driver.sv(349) @ 1715000: uvm_test_top.env.slave_agent.drv [axi4_slave_driver] Read complete: ID=0x3 ADDR=0xd3da06cc RESP=AXI4_RESP_EXOKAY  1 beats sent
# UVM_INFO ../src/slv/axi4_slave_monitor.sv(287) @ 1715000: uvm_test_top.env.slave_agent.mon [axi4_slave_monitor] Read data sent: ID=0x3 ADDR=0xd3da06cc 1 beats
# UVM_INFO ../src/env/axi4_scoreboard.sv(103) @ 1715000: uvm_test_top.env.scb [axi4_scoreboard] Slave AXI4_READ received: ID=0x3 ADDR=0xd3da06cc LEN=0
# UVM_INFO ../src/mst/axi4_master_monitor.sv(314) @ 1715000: uvm_test_top.env.master_agent.mon [axi4_master_monitor] Read complete: ID=0x3 ADDR=0xd3da06cc 1 beats
# UVM_INFO ../src/env/axi4_scoreboard.sv(82) @ 1715000: uvm_test_top.env.scb [axi4_scoreboard] Master AXI4_READ received: ID=0x3 ADDR=0xd3da06cc LEN=0
# UVM_INFO ../src/env/axi4_scoreboard.sv(154) @ 1715000: uvm_test_top.env.scb [axi4_scoreboard] [READ] MATCH #28: ID=0x3 ADDR=0xd3da06cc LEN=0
# UVM_INFO ../src/seq/axi4_exclusive_seq.sv(60) @ 1715000: uvm_test_top.env.master_agent.sqr@@excl_seq [axi4_exclusive_seq] Exclusive Read complete: RESP=AXI4_RESP_EXOKAY
# UVM_INFO ../src/mst/axi4_master_driver.sv(55) @ 1715000: uvm_test_top.env.master_agent.drv [axi4_master_driver] Driving AXI4_WRITE  ID=0x3  ADDR=0xd3da06cc  LEN=0
# UVM_INFO ../src/mst/axi4_master_driver.sv(106) @ 1715000: uvm_test_top.env.master_agent.drv [axi4_master_driver] Write order: W -> AW (W first)
# UVM_INFO ../src/slv/axi4_slave_driver.sv(165) @ 1785000: uvm_test_top.env.slave_agent.drv [axi4_slave_driver] AW received: ID=0x3 ADDR=0xd3da06cc LEN=0 LOCK=AXI4_LOCK_EXCLUSIVE
# UVM_INFO ../src/mst/axi4_master_monitor.sv(124) @ 1785000: uvm_test_top.env.master_agent.mon [axi4_master_monitor] AW observed: ID=0x3 ADDR=0xd3da06cc LEN=0
# UVM_INFO ../src/slv/axi4_slave_monitor.sv(116) @ 1785000: uvm_test_top.env.slave_agent.mon [axi4_slave_monitor] AW received: ID=0x3 ADDR=0xd3da06cc LEN=0
# UVM_INFO ../src/mst/axi4_master_monitor.sv(184) @ 1785000: uvm_test_top.env.master_agent.mon [axi4_master_monitor] W data assembled: ID=0x3 ADDR=0xd3da06cc 1 beats
# UVM_INFO ../src/slv/axi4_slave_monitor.sv(167) @ 1785000: uvm_test_top.env.slave_agent.mon [axi4_slave_monitor] W data assembled: ID=0x3 ADDR=0xd3da06cc 1 beats
# UVM_INFO ../src/mst/axi4_master_driver.sv(197) @ 1805000: uvm_test_top.env.master_agent.drv [axi4_master_driver] Write response: AXI4_RESP_EXOKAY
# UVM_INFO ../src/slv/axi4_slave_driver.sv(261) @ 1805000: uvm_test_top.env.slave_agent.drv [axi4_slave_driver] Write complete: ID=0x3 ADDR=0xd3da06cc RESP=AXI4_RESP_EXOKAY  1 beats processed
# UVM_INFO ../src/mst/axi4_master_monitor.sv(210) @ 1805000: uvm_test_top.env.master_agent.mon [axi4_master_monitor] Write complete: ID=0x3 ADDR=0xd3da06cc RESP=AXI4_RESP_EXOKAY
# UVM_INFO ../src/env/axi4_scoreboard.sv(82) @ 1805000: uvm_test_top.env.scb [axi4_scoreboard] Master AXI4_WRITE received: ID=0x3 ADDR=0xd3da06cc LEN=0
# UVM_INFO ../src/slv/axi4_slave_monitor.sv(189) @ 1805000: uvm_test_top.env.slave_agent.mon [axi4_slave_monitor] Write response sent: ID=0x3 ADDR=0xd3da06cc RESP=AXI4_RESP_EXOKAY
# UVM_INFO ../src/env/axi4_scoreboard.sv(103) @ 1805000: uvm_test_top.env.scb [axi4_scoreboard] Slave AXI4_WRITE received: ID=0x3 ADDR=0xd3da06cc LEN=0
# UVM_INFO ../src/env/axi4_scoreboard.sv(154) @ 1805000: uvm_test_top.env.scb [axi4_scoreboard] [WRITE] MATCH #29: ID=0x3 ADDR=0xd3da06cc LEN=0
# UVM_INFO ../src/seq/axi4_exclusive_seq.sv(76) @ 1805000: uvm_test_top.env.master_agent.sqr@@excl_seq [axi4_exclusive_seq] Exclusive Write complete: RESP=AXI4_RESP_EXOKAY
# UVM_INFO ../src/mst/axi4_master_driver.sv(55) @ 1805000: uvm_test_top.env.master_agent.drv [axi4_master_driver] Driving AXI4_WRITE  ID=0x3  ADDR=0xd3da06cc  LEN=0
# UVM_INFO ../src/mst/axi4_master_driver.sv(106) @ 1805000: uvm_test_top.env.master_agent.drv [axi4_master_driver] Write order: W -> AW (W first)
# UVM_INFO ../src/slv/axi4_slave_driver.sv(165) @ 1865000: uvm_test_top.env.slave_agent.drv [axi4_slave_driver] AW received: ID=0x3 ADDR=0xd3da06cc LEN=0 LOCK=AXI4_LOCK_EXCLUSIVE
# UVM_INFO ../src/mst/axi4_master_monitor.sv(124) @ 1865000: uvm_test_top.env.master_agent.mon [axi4_master_monitor] AW observed: ID=0x3 ADDR=0xd3da06cc LEN=0
# UVM_INFO ../src/slv/axi4_slave_monitor.sv(116) @ 1865000: uvm_test_top.env.slave_agent.mon [axi4_slave_monitor] AW received: ID=0x3 ADDR=0xd3da06cc LEN=0
# UVM_INFO ../src/mst/axi4_master_monitor.sv(184) @ 1865000: uvm_test_top.env.master_agent.mon [axi4_master_monitor] W data assembled: ID=0x3 ADDR=0xd3da06cc 1 beats
# UVM_INFO ../src/slv/axi4_slave_monitor.sv(167) @ 1865000: uvm_test_top.env.slave_agent.mon [axi4_slave_monitor] W data assembled: ID=0x3 ADDR=0xd3da06cc 1 beats
# UVM_INFO ../src/mst/axi4_master_driver.sv(197) @ 1885000: uvm_test_top.env.master_agent.drv [axi4_master_driver] Write response: AXI4_RESP_OKAY
# UVM_INFO ../src/slv/axi4_slave_driver.sv(261) @ 1885000: uvm_test_top.env.slave_agent.drv [axi4_slave_driver] Write complete: ID=0x3 ADDR=0xd3da06cc RESP=AXI4_RESP_OKAY  1 beats processed
# UVM_INFO ../src/mst/axi4_master_monitor.sv(210) @ 1885000: uvm_test_top.env.master_agent.mon [axi4_master_monitor] Write complete: ID=0x3 ADDR=0xd3da06cc RESP=AXI4_RESP_OKAY
# UVM_INFO ../src/env/axi4_scoreboard.sv(82) @ 1885000: uvm_test_top.env.scb [axi4_scoreboard] Master AXI4_WRITE received: ID=0x3 ADDR=0xd3da06cc LEN=0
# UVM_INFO ../src/slv/axi4_slave_monitor.sv(189) @ 1885000: uvm_test_top.env.slave_agent.mon [axi4_slave_monitor] Write response sent: ID=0x3 ADDR=0xd3da06cc RESP=AXI4_RESP_OKAY
# UVM_INFO ../src/env/axi4_scoreboard.sv(103) @ 1885000: uvm_test_top.env.scb [axi4_scoreboard] Slave AXI4_WRITE received: ID=0x3 ADDR=0xd3da06cc LEN=0
# UVM_INFO ../src/env/axi4_scoreboard.sv(154) @ 1885000: uvm_test_top.env.scb [axi4_scoreboard] [WRITE] MATCH #30: ID=0x3 ADDR=0xd3da06cc LEN=0
# UVM_INFO ../src/seq/axi4_exclusive_seq.sv(93) @ 1885000: uvm_test_top.env.master_agent.sqr@@excl_seq [axi4_exclusive_seq] Failing Exclusive Write complete: RESP=AXI4_RESP_OKAY (Expected OKAY, no EXOKAY)
# UVM_INFO ../src/seq/axi4_exclusive_seq.sv(96) @ 1885000: uvm_test_top.env.master_agent.sqr@@excl_seq [axi4_exclusive_seq] Exclusive access sequence complete
# UVM_INFO ../src/test/axi4_exclusive_test.sv(33) @ 2885000: uvm_test_top [axi4_exclusive_test] Exclusive access test complete
# UVM_INFO verilog_src/uvm-1.1d/src/base/uvm_objection.svh(1268) @ 2885000: reporter [TEST_DONE] 'run' phase is ready to proceed to the 'extract' phase
# UVM_INFO ../src/env/axi4_scoreboard.sv(218) @ 2885000: uvm_test_top.env.scb [axi4_scoreboard] 
# ========================================
#          SCOREBOARD SUMMARY
# ========================================
#   Master transactions : 30
#   Slave transactions  : 30
#   Matches             : 30
#   Mismatches          : 0
#   Unmatched master WR : 0
#   Unmatched master RD : 0
#   Unmatched slave  WR : 0
#   Unmatched slave  RD : 0
# ========================================
#   RESULT : PASS
# ========================================
# UVM_INFO ../src/test/axi4_base_test.sv(91) @ 2885000: uvm_test_top [axi4_exclusive_test] 
# === TEST PASSED ===
# 
# 
# --- UVM Report Summary ---
# 
# ** Report counts by severity
# UVM_INFO :  456
# UVM_WARNING :    0
# UVM_ERROR :    0
# UVM_FATAL :    0
# ** Report counts by id
# [Questa UVM]     3
# [RNTST]     1
# [TB_TOP]     2
# [TEST_DONE]     1
# [TOP_TB]     1
# [UVMTOP]     1
# [axi4_exclusive_seq]    42
# [axi4_exclusive_test]     3
# [axi4_master_agent]     1
# [axi4_master_driver]    81
# [axi4_master_monitor]    81
# [axi4_scoreboard]    91
# [axi4_slave_agent]     1
# [axi4_slave_driver]    61
# [axi4_slave_monitor]    81
# [axi4_vip_env]     5
# ** Note: $finish    : /cadtools/mentor/Questa_10.6b/questasim/linux_x86_64/../verilog_src/uvm-1.1d/src/base/uvm_root.svh(430)
#    Time: 2885 ns  Iteration: 55  Instance: /tb_top
# Saving coverage database on exit...
# End time: 11:26:12 on Jun 05,2026, Elapsed time: 0:00:42
# Errors: 0, Warnings: 0
