# vsim -c -coverage -sv_seed 45742987 "+UVM_TESTNAME=axi4_unaligned_test" "+UVM_VERBOSITY=UVM_HIGH" "+DUMP_VCD" -l ./report/logs/axi4_unaligned_test_run_3_seed_45742987.log -do "coverage save -onexit ./report/coverage/axi4_unaligned_test_run_3_seed_45742987.ucdb; run -all; quit -f" opt_tb_top 
# Start time: 14:06:28 on Jun 11,2026
# //  Questa Sim-64
# //  Version 10.6b linux_x86_64 May 25 2017
# //
# //  Copyright 1991-2017 Mentor Graphics Corporation
# //  All Rights Reserved.
# //
# //  QuestaSim and its associated documentation contain trade
# //  secrets and commercial or financial information that are the property of
# //  Mentor Graphics Corporation and are privileged, confidential,
# //  and exempt from disclosure under the Freedom of Information Act,
# //  5 U.S.C. Section 552. Furthermore, this information
# //  is prohibited from disclosure under the Trade Secrets Act,
# //  18 U.S.C. Section 1905.
# //
# Loading sv_std.std
# Loading work.axi4_if(fast)
# Loading mtiUvm.uvm_pkg
# Loading work.axi4_pkg(fast)
# Loading work.axi4_test_pkg(fast)
# Loading work.tb_top(fast)
# Loading work.axi4_if(fast)
# Loading work.axi4_sva(fast)
# Loading mtiUvm.questa_uvm_pkg(fast)
# Loading /cadtools/mentor/Questa_10.6b/questasim/uvm-1.1d/linux_x86_64/uvm_dpi.so
# coverage save -onexit ./report/coverage/axi4_unaligned_test_run_3_seed_45742987.ucdb
#  run -all
# ----------------------------------------------------------------
# UVM-1.1d
# (C) 2007-2013 Mentor Graphics Corporation
# (C) 2007-2013 Cadence Design Systems, Inc.
# (C) 2006-2013 Synopsys, Inc.
# (C) 2011-2013 Cypress Semiconductor Corp.
# ----------------------------------------------------------------
# 
#   ***********       IMPORTANT RELEASE NOTES         ************
# 
#   You are using a version of the UVM library that has been compiled
#   with `UVM_NO_DEPRECATED undefined.
#   See http://www.eda.org/svdb/view.php?id=3313 for more details.
# 
#   You are using a version of the UVM library that has been compiled
#   with `UVM_OBJECT_MUST_HAVE_CONSTRUCTOR undefined.
#   See http://www.eda.org/svdb/view.php?id=3770 for more details.
# 
#       (Specify +UVM_NO_RELNOTES to turn off this notice)
# 
# UVM_INFO verilog_src/questa_uvm_pkg-1.2/src/questa_uvm_pkg.sv(215) @ 0: reporter [Questa UVM] QUESTA_UVM-1.2.3
# UVM_INFO verilog_src/questa_uvm_pkg-1.2/src/questa_uvm_pkg.sv(217) @ 0: reporter [Questa UVM]  questa_uvm::init(+struct)
# UVM_INFO ../src/tb_top.sv(128) @ 0: reporter [TB_TOP] Virtual interface set in config_db
# UVM_INFO @ 0: reporter [RNTST] Running test axi4_unaligned_test...
# UVM_INFO ../src/tb_top.sv(142) @ 0: reporter [TB_TOP] Waveform VCD dumping enabled (axi4_vip.vcd)
# UVM_INFO ../src/env/axi4_vip_env.sv(83) @ 0: uvm_test_top.env [axi4_vip_env] slave_vif not set - reusing master_vif (passthrough mode)
# UVM_INFO ../src/env/axi4_vip_env.sv(93) @ 0: uvm_test_top.env [axi4_vip_env] Scoreboard created
# UVM_INFO ../src/env/axi4_vip_env.sv(100) @ 0: uvm_test_top.env [axi4_vip_env] Coverage collectors created
# UVM_INFO ../src/mst/axi4_master_agent.sv(69) @ 0: uvm_test_top.env.master_agent [axi4_master_agent] ACTIVE mode - driver + sequencer created
# UVM_INFO ../src/slv/axi4_slave_agent.sv(82) @ 0: uvm_test_top.env.slave_agent [axi4_slave_agent] ACTIVE mode — ready_delay=[0:0] resp_delay=[0:0]
# UVM_INFO ../src/env/axi4_vip_env.sv(116) @ 0: uvm_test_top.env [axi4_vip_env] Scoreboard connected: master_mon.ap -> scb, slave_mon.ap -> scb
# UVM_INFO ../src/env/axi4_vip_env.sv(124) @ 0: uvm_test_top.env [axi4_vip_env] Coverage connected: master_mon.ap -> master_cov, slave_mon.ap -> slave_cov
# UVM_INFO @ 0: reporter [UVMTOP] UVM testbench topology:
# ---------------------------------------------------------------
# Name                       Type                     Size  Value
# ---------------------------------------------------------------
# uvm_test_top               axi4_unaligned_test      -     @473 
#   env                      axi4_vip_env             -     @488 
#     master_agent           axi4_master_agent        -     @503 
#       drv                  axi4_master_driver       -     @567 
#         rsp_port           uvm_analysis_port        -     @582 
#         seq_item_port      uvm_seq_item_pull_port   -     @574 
#       mon                  axi4_master_monitor      -     @559 
#         ap                 uvm_analysis_port        -     @700 
#       sqr                  axi4_master_sequencer    -     @590 
#         rsp_export         uvm_analysis_export      -     @597 
#         seq_item_export    uvm_seq_item_pull_imp    -     @691 
#         arbitration_queue  array                    0     -    
#         lock_queue         array                    0     -    
#         num_last_reqs      integral                 32    'd1  
#         num_last_rsps      integral                 32    'd1  
#     master_cov             axi4_coverage            -     @524 
#       analysis_imp         uvm_analysis_imp         -     @531 
#     scb                    axi4_scoreboard          -     @517 
#       master_export        uvm_analysis_imp_master  -     @714 
#       slave_export         uvm_analysis_imp_slave   -     @722 
#     slave_agent            axi4_slave_agent         -     @510 
#       drv                  axi4_slave_driver        -     @753 
#         rsp_port           uvm_analysis_port        -     @768 
#         seq_item_port      uvm_seq_item_pull_port   -     @760 
#       mon                  axi4_slave_monitor       -     @735 
#         ap                 uvm_analysis_port        -     @892 
#       sqr                  axi4_slave_sequencer     -     @776 
#         rsp_export         uvm_analysis_export      -     @783 
#         seq_item_export    uvm_seq_item_pull_imp    -     @877 
#         arbitration_queue  array                    0     -    
#         lock_queue         array                    0     -    
#         num_last_reqs      integral                 32    'd1  
#         num_last_rsps      integral                 32    'd1  
#     slave_cov              axi4_coverage            -     @539 
#       analysis_imp         uvm_analysis_imp         -     @546 
# ---------------------------------------------------------------
# 
# UVM_INFO verilog_src/questa_uvm_pkg-1.2/src/questa_uvm_pkg.sv(277) @ 0: reporter [Questa UVM] End Of Elaboration
# UVM_INFO ../src/test/axi4_unaligned_test.sv(24) @ 0: uvm_test_top [axi4_unaligned_test] Starting unaligned access test
# UVM_INFO ../src/seq/axi4_unaligned_seq.sv(28) @ 0: uvm_test_top.env.master_agent.sqr@@unalign_seq [axi4_unaligned_seq] Starting unaligned access sequence: 40 transactions
# UVM_INFO ../src/tb_top.sv(49) @ 95000: reporter [TOP_TB] Reset de-asserted
# UVM_INFO ../src/slv/axi4_slave_driver.sv(122) @ 95000: uvm_test_top.env.slave_agent.drv [axi4_slave_driver] Reset deasserted - slave driver active
# UVM_INFO ../src/mst/axi4_master_driver.sv(64) @ 95000: uvm_test_top.env.master_agent.drv [axi4_master_driver] Reset deasserted - master driver active
# UVM_INFO ../src/mst/axi4_master_monitor.sv(77) @ 95000: uvm_test_top.env.master_agent.mon [axi4_master_monitor] Reset deasserted - monitor active
# UVM_INFO ../src/slv/axi4_slave_monitor.sv(71) @ 95000: uvm_test_top.env.slave_agent.mon [axi4_slave_monitor] Reset deasserted - monitor active
# UVM_INFO ../src/mst/axi4_master_driver.sv(73) @ 95000: uvm_test_top.env.master_agent.drv [axi4_master_driver] Driving AXI4_WRITE  ID=0xd  ADDR=0xdc71fd21  LEN=114
# UVM_INFO ../src/seq/axi4_unaligned_seq.sv(54) @ 95000: uvm_test_top.env.master_agent.sqr@@unalign_seq [axi4_unaligned_seq] [1/40] Unaligned AXI4_WRITE: ADDR=0xdc71fd21 SIZE=AXI4_SIZE_2B BURST=AXI4_BURST_INCR (AlignmentOffset=1)
# UVM_INFO ../src/mst/axi4_master_driver.sv(73) @ 95000: uvm_test_top.env.master_agent.drv [axi4_master_driver] Driving AXI4_READ  ID=0x8  ADDR=0x32121fc7  LEN=198
# UVM_INFO ../src/seq/axi4_unaligned_seq.sv(54) @ 95000: uvm_test_top.env.master_agent.sqr@@unalign_seq [axi4_unaligned_seq] [2/40] Unaligned AXI4_READ: ADDR=0x32121fc7 SIZE=AXI4_SIZE_4B BURST=AXI4_BURST_INCR (AlignmentOffset=3)
# UVM_INFO ../src/mst/axi4_master_driver.sv(73) @ 95000: uvm_test_top.env.master_agent.drv [axi4_master_driver] Driving AXI4_READ  ID=0x2  ADDR=0xa3c901df  LEN=156
# UVM_INFO ../src/seq/axi4_unaligned_seq.sv(54) @ 95000: uvm_test_top.env.master_agent.sqr@@unalign_seq [axi4_unaligned_seq] [3/40] Unaligned AXI4_READ: ADDR=0xa3c901df SIZE=AXI4_SIZE_2B BURST=AXI4_BURST_INCR (AlignmentOffset=1)
# UVM_INFO ../src/mst/axi4_master_driver.sv(73) @ 95000: uvm_test_top.env.master_agent.drv [axi4_master_driver] Driving AXI4_WRITE  ID=0xa  ADDR=0x937c40d5  LEN=148
# UVM_INFO ../src/seq/axi4_unaligned_seq.sv(54) @ 95000: uvm_test_top.env.master_agent.sqr@@unalign_seq [axi4_unaligned_seq] [4/40] Unaligned AXI4_WRITE: ADDR=0x937c40d5 SIZE=AXI4_SIZE_2B BURST=AXI4_BURST_INCR (AlignmentOffset=1)
# UVM_INFO ../src/mst/axi4_master_driver.sv(73) @ 95000: uvm_test_top.env.master_agent.drv [axi4_master_driver] Driving AXI4_WRITE  ID=0x9  ADDR=0x2c4bbe3d  LEN=58
# UVM_INFO ../src/seq/axi4_unaligned_seq.sv(54) @ 95000: uvm_test_top.env.master_agent.sqr@@unalign_seq [axi4_unaligned_seq] [5/40] Unaligned AXI4_WRITE: ADDR=0x2c4bbe3d SIZE=AXI4_SIZE_2B BURST=AXI4_BURST_INCR (AlignmentOffset=1)
# UVM_INFO ../src/mst/axi4_master_driver.sv(73) @ 95000: uvm_test_top.env.master_agent.drv [axi4_master_driver] Driving AXI4_WRITE  ID=0xf  ADDR=0x90fcdab3  LEN=153
# UVM_INFO ../src/seq/axi4_unaligned_seq.sv(54) @ 95000: uvm_test_top.env.master_agent.sqr@@unalign_seq [axi4_unaligned_seq] [6/40] Unaligned AXI4_WRITE: ADDR=0x90fcdab3 SIZE=AXI4_SIZE_2B BURST=AXI4_BURST_INCR (AlignmentOffset=1)
# UVM_INFO ../src/mst/axi4_master_driver.sv(73) @ 95000: uvm_test_top.env.master_agent.drv [axi4_master_driver] Driving AXI4_READ  ID=0x4  ADDR=0x11bde115  LEN=168
# UVM_INFO ../src/seq/axi4_unaligned_seq.sv(54) @ 95000: uvm_test_top.env.master_agent.sqr@@unalign_seq [axi4_unaligned_seq] [7/40] Unaligned AXI4_READ: ADDR=0x11bde115 SIZE=AXI4_SIZE_4B BURST=AXI4_BURST_INCR (AlignmentOffset=1)
# UVM_INFO ../src/mst/axi4_master_driver.sv(73) @ 95000: uvm_test_top.env.master_agent.drv [axi4_master_driver] Driving AXI4_WRITE  ID=0xd  ADDR=0x375c888b  LEN=210
# UVM_INFO ../src/seq/axi4_unaligned_seq.sv(54) @ 95000: uvm_test_top.env.master_agent.sqr@@unalign_seq [axi4_unaligned_seq] [8/40] Unaligned AXI4_WRITE: ADDR=0x375c888b SIZE=AXI4_SIZE_2B BURST=AXI4_BURST_INCR (AlignmentOffset=1)
# UVM_INFO ../src/mst/axi4_master_driver.sv(73) @ 95000: uvm_test_top.env.master_agent.drv [axi4_master_driver] Driving AXI4_WRITE  ID=0xf  ADDR=0xd7682e41  LEN=18
# UVM_INFO ../src/seq/axi4_unaligned_seq.sv(54) @ 95000: uvm_test_top.env.master_agent.sqr@@unalign_seq [axi4_unaligned_seq] [9/40] Unaligned AXI4_WRITE: ADDR=0xd7682e41 SIZE=AXI4_SIZE_2B BURST=AXI4_BURST_INCR (AlignmentOffset=1)
# UVM_INFO ../src/mst/axi4_master_driver.sv(73) @ 95000: uvm_test_top.env.master_agent.drv [axi4_master_driver] Driving AXI4_WRITE  ID=0x4  ADDR=0x7f974682  LEN=161
# UVM_INFO ../src/seq/axi4_unaligned_seq.sv(54) @ 95000: uvm_test_top.env.master_agent.sqr@@unalign_seq [axi4_unaligned_seq] [10/40] Unaligned AXI4_WRITE: ADDR=0x7f974682 SIZE=AXI4_SIZE_4B BURST=AXI4_BURST_INCR (AlignmentOffset=2)
# UVM_INFO ../src/mst/axi4_master_driver.sv(73) @ 95000: uvm_test_top.env.master_agent.drv [axi4_master_driver] Driving AXI4_WRITE  ID=0x6  ADDR=0x5d6bde1f  LEN=4
# UVM_INFO ../src/seq/axi4_unaligned_seq.sv(54) @ 95000: uvm_test_top.env.master_agent.sqr@@unalign_seq [axi4_unaligned_seq] [11/40] Unaligned AXI4_WRITE: ADDR=0x5d6bde1f SIZE=AXI4_SIZE_4B BURST=AXI4_BURST_INCR (AlignmentOffset=3)
# UVM_INFO ../src/mst/axi4_master_driver.sv(73) @ 95000: uvm_test_top.env.master_agent.drv [axi4_master_driver] Driving AXI4_WRITE  ID=0xc  ADDR=0x250cabf5  LEN=220
# UVM_INFO ../src/seq/axi4_unaligned_seq.sv(54) @ 95000: uvm_test_top.env.master_agent.sqr@@unalign_seq [axi4_unaligned_seq] [12/40] Unaligned AXI4_WRITE: ADDR=0x250cabf5 SIZE=AXI4_SIZE_4B BURST=AXI4_BURST_INCR (AlignmentOffset=1)
# UVM_INFO ../src/mst/axi4_master_driver.sv(73) @ 95000: uvm_test_top.env.master_agent.drv [axi4_master_driver] Driving AXI4_WRITE  ID=0xf  ADDR=0x29ca8e11  LEN=45
# UVM_INFO ../src/seq/axi4_unaligned_seq.sv(54) @ 95000: uvm_test_top.env.master_agent.sqr@@unalign_seq [axi4_unaligned_seq] [13/40] Unaligned AXI4_WRITE: ADDR=0x29ca8e11 SIZE=AXI4_SIZE_4B BURST=AXI4_BURST_INCR (AlignmentOffset=1)
# UVM_INFO ../src/mst/axi4_master_driver.sv(73) @ 95000: uvm_test_top.env.master_agent.drv [axi4_master_driver] Driving AXI4_READ  ID=0x8  ADDR=0xd048d2b6  LEN=161
# UVM_INFO ../src/seq/axi4_unaligned_seq.sv(54) @ 95000: uvm_test_top.env.master_agent.sqr@@unalign_seq [axi4_unaligned_seq] [14/40] Unaligned AXI4_READ: ADDR=0xd048d2b6 SIZE=AXI4_SIZE_4B BURST=AXI4_BURST_INCR (AlignmentOffset=2)
# UVM_INFO ../src/mst/axi4_master_driver.sv(73) @ 95000: uvm_test_top.env.master_agent.drv [axi4_master_driver] Driving AXI4_WRITE  ID=0xf  ADDR=0x1c6344b9  LEN=106
# UVM_INFO ../src/seq/axi4_unaligned_seq.sv(54) @ 95000: uvm_test_top.env.master_agent.sqr@@unalign_seq [axi4_unaligned_seq] [15/40] Unaligned AXI4_WRITE: ADDR=0x1c6344b9 SIZE=AXI4_SIZE_2B BURST=AXI4_BURST_INCR (AlignmentOffset=1)
# UVM_INFO ../src/mst/axi4_master_driver.sv(73) @ 95000: uvm_test_top.env.master_agent.drv [axi4_master_driver] Driving AXI4_WRITE  ID=0x1  ADDR=0x71dde4db  LEN=46
# UVM_INFO ../src/seq/axi4_unaligned_seq.sv(54) @ 95000: uvm_test_top.env.master_agent.sqr@@unalign_seq [axi4_unaligned_seq] [16/40] Unaligned AXI4_WRITE: ADDR=0x71dde4db SIZE=AXI4_SIZE_2B BURST=AXI4_BURST_INCR (AlignmentOffset=1)
# UVM_INFO ../src/mst/axi4_master_driver.sv(73) @ 95000: uvm_test_top.env.master_agent.drv [axi4_master_driver] Driving AXI4_READ  ID=0x1  ADDR=0x47980ed3  LEN=89
# UVM_INFO ../src/seq/axi4_unaligned_seq.sv(54) @ 95000: uvm_test_top.env.master_agent.sqr@@unalign_seq [axi4_unaligned_seq] [17/40] Unaligned AXI4_READ: ADDR=0x47980ed3 SIZE=AXI4_SIZE_2B BURST=AXI4_BURST_INCR (AlignmentOffset=1)
# UVM_INFO ../src/mst/axi4_master_driver.sv(73) @ 95000: uvm_test_top.env.master_agent.drv [axi4_master_driver] Driving AXI4_READ  ID=0xe  ADDR=0xb9e005bb  LEN=13
# UVM_INFO ../src/seq/axi4_unaligned_seq.sv(54) @ 95000: uvm_test_top.env.master_agent.sqr@@unalign_seq [axi4_unaligned_seq] [18/40] Unaligned AXI4_READ: ADDR=0xb9e005bb SIZE=AXI4_SIZE_2B BURST=AXI4_BURST_FIXED (AlignmentOffset=1)
# UVM_INFO ../src/mst/axi4_master_driver.sv(73) @ 95000: uvm_test_top.env.master_agent.drv [axi4_master_driver] Driving AXI4_WRITE  ID=0xe  ADDR=0x681f7173  LEN=180
# UVM_INFO ../src/seq/axi4_unaligned_seq.sv(54) @ 95000: uvm_test_top.env.master_agent.sqr@@unalign_seq [axi4_unaligned_seq] [19/40] Unaligned AXI4_WRITE: ADDR=0x681f7173 SIZE=AXI4_SIZE_4B BURST=AXI4_BURST_INCR (AlignmentOffset=3)
# UVM_INFO ../src/mst/axi4_master_driver.sv(73) @ 95000: uvm_test_top.env.master_agent.drv [axi4_master_driver] Driving AXI4_READ  ID=0x9  ADDR=0x4f88224e  LEN=213
# UVM_INFO ../src/seq/axi4_unaligned_seq.sv(54) @ 95000: uvm_test_top.env.master_agent.sqr@@unalign_seq [axi4_unaligned_seq] [20/40] Unaligned AXI4_READ: ADDR=0x4f88224e SIZE=AXI4_SIZE_4B BURST=AXI4_BURST_INCR (AlignmentOffset=2)
# UVM_INFO ../src/mst/axi4_master_driver.sv(73) @ 95000: uvm_test_top.env.master_agent.drv [axi4_master_driver] Driving AXI4_WRITE  ID=0x1  ADDR=0x0d9245ba  LEN=116
# UVM_INFO ../src/seq/axi4_unaligned_seq.sv(54) @ 95000: uvm_test_top.env.master_agent.sqr@@unalign_seq [axi4_unaligned_seq] [21/40] Unaligned AXI4_WRITE: ADDR=0x0d9245ba SIZE=AXI4_SIZE_4B BURST=AXI4_BURST_INCR (AlignmentOffset=2)
# UVM_INFO ../src/mst/axi4_master_driver.sv(73) @ 95000: uvm_test_top.env.master_agent.drv [axi4_master_driver] Driving AXI4_WRITE  ID=0x7  ADDR=0x9e71bc4f  LEN=245
# UVM_INFO ../src/seq/axi4_unaligned_seq.sv(54) @ 95000: uvm_test_top.env.master_agent.sqr@@unalign_seq [axi4_unaligned_seq] [22/40] Unaligned AXI4_WRITE: ADDR=0x9e71bc4f SIZE=AXI4_SIZE_4B BURST=AXI4_BURST_INCR (AlignmentOffset=3)
# UVM_INFO ../src/mst/axi4_master_driver.sv(73) @ 95000: uvm_test_top.env.master_agent.drv [axi4_master_driver] Driving AXI4_READ  ID=0x5  ADDR=0x293597d9  LEN=98
# UVM_INFO ../src/seq/axi4_unaligned_seq.sv(54) @ 95000: uvm_test_top.env.master_agent.sqr@@unalign_seq [axi4_unaligned_seq] [23/40] Unaligned AXI4_READ: ADDR=0x293597d9 SIZE=AXI4_SIZE_2B BURST=AXI4_BURST_INCR (AlignmentOffset=1)
# UVM_INFO ../src/mst/axi4_master_driver.sv(73) @ 95000: uvm_test_top.env.master_agent.drv [axi4_master_driver] Driving AXI4_READ  ID=0x5  ADDR=0x5ddf13ca  LEN=122
# UVM_INFO ../src/seq/axi4_unaligned_seq.sv(54) @ 95000: uvm_test_top.env.master_agent.sqr@@unalign_seq [axi4_unaligned_seq] [24/40] Unaligned AXI4_READ: ADDR=0x5ddf13ca SIZE=AXI4_SIZE_4B BURST=AXI4_BURST_INCR (AlignmentOffset=2)
# UVM_INFO ../src/mst/axi4_master_driver.sv(73) @ 95000: uvm_test_top.env.master_agent.drv [axi4_master_driver] Driving AXI4_READ  ID=0xd  ADDR=0xb6b3b821  LEN=171
# UVM_INFO ../src/seq/axi4_unaligned_seq.sv(54) @ 95000: uvm_test_top.env.master_agent.sqr@@unalign_seq [axi4_unaligned_seq] [25/40] Unaligned AXI4_READ: ADDR=0xb6b3b821 SIZE=AXI4_SIZE_4B BURST=AXI4_BURST_INCR (AlignmentOffset=1)
# UVM_INFO ../src/mst/axi4_master_driver.sv(73) @ 95000: uvm_test_top.env.master_agent.drv [axi4_master_driver] Driving AXI4_WRITE  ID=0x5  ADDR=0xddac96e9  LEN=219
# UVM_INFO ../src/seq/axi4_unaligned_seq.sv(54) @ 95000: uvm_test_top.env.master_agent.sqr@@unalign_seq [axi4_unaligned_seq] [26/40] Unaligned AXI4_WRITE: ADDR=0xddac96e9 SIZE=AXI4_SIZE_2B BURST=AXI4_BURST_INCR (AlignmentOffset=1)
# UVM_INFO ../src/mst/axi4_master_driver.sv(73) @ 95000: uvm_test_top.env.master_agent.drv [axi4_master_driver] Driving AXI4_WRITE  ID=0x6  ADDR=0xabd2003d  LEN=42
# UVM_INFO ../src/seq/axi4_unaligned_seq.sv(54) @ 95000: uvm_test_top.env.master_agent.sqr@@unalign_seq [axi4_unaligned_seq] [27/40] Unaligned AXI4_WRITE: ADDR=0xabd2003d SIZE=AXI4_SIZE_2B BURST=AXI4_BURST_INCR (AlignmentOffset=1)
# UVM_INFO ../src/mst/axi4_master_driver.sv(73) @ 95000: uvm_test_top.env.master_agent.drv [axi4_master_driver] Driving AXI4_READ  ID=0xd  ADDR=0x47d1480f  LEN=241
# UVM_INFO ../src/seq/axi4_unaligned_seq.sv(54) @ 95000: uvm_test_top.env.master_agent.sqr@@unalign_seq [axi4_unaligned_seq] [28/40] Unaligned AXI4_READ: ADDR=0x47d1480f SIZE=AXI4_SIZE_2B BURST=AXI4_BURST_INCR (AlignmentOffset=1)
# UVM_INFO ../src/mst/axi4_master_driver.sv(73) @ 95000: uvm_test_top.env.master_agent.drv [axi4_master_driver] Driving AXI4_WRITE  ID=0x9  ADDR=0x2506d2b5  LEN=89
# UVM_INFO ../src/seq/axi4_unaligned_seq.sv(54) @ 95000: uvm_test_top.env.master_agent.sqr@@unalign_seq [axi4_unaligned_seq] [29/40] Unaligned AXI4_WRITE: ADDR=0x2506d2b5 SIZE=AXI4_SIZE_4B BURST=AXI4_BURST_INCR (AlignmentOffset=1)
# UVM_INFO ../src/mst/axi4_master_driver.sv(73) @ 95000: uvm_test_top.env.master_agent.drv [axi4_master_driver] Driving AXI4_WRITE  ID=0xe  ADDR=0x8d588f95  LEN=111
# UVM_INFO ../src/seq/axi4_unaligned_seq.sv(54) @ 95000: uvm_test_top.env.master_agent.sqr@@unalign_seq [axi4_unaligned_seq] [30/40] Unaligned AXI4_WRITE: ADDR=0x8d588f95 SIZE=AXI4_SIZE_4B BURST=AXI4_BURST_INCR (AlignmentOffset=1)
# UVM_INFO ../src/mst/axi4_master_driver.sv(73) @ 95000: uvm_test_top.env.master_agent.drv [axi4_master_driver] Driving AXI4_READ  ID=0x2  ADDR=0x0c5ffe27  LEN=33
# UVM_INFO ../src/seq/axi4_unaligned_seq.sv(54) @ 95000: uvm_test_top.env.master_agent.sqr@@unalign_seq [axi4_unaligned_seq] [31/40] Unaligned AXI4_READ: ADDR=0x0c5ffe27 SIZE=AXI4_SIZE_4B BURST=AXI4_BURST_INCR (AlignmentOffset=3)
# UVM_INFO ../src/mst/axi4_master_driver.sv(73) @ 95000: uvm_test_top.env.master_agent.drv [axi4_master_driver] Driving AXI4_READ  ID=0x0  ADDR=0x445d674f  LEN=138
# UVM_INFO ../src/seq/axi4_unaligned_seq.sv(54) @ 95000: uvm_test_top.env.master_agent.sqr@@unalign_seq [axi4_unaligned_seq] [32/40] Unaligned AXI4_READ: ADDR=0x445d674f SIZE=AXI4_SIZE_2B BURST=AXI4_BURST_INCR (AlignmentOffset=1)
# UVM_INFO ../src/mst/axi4_master_driver.sv(73) @ 95000: uvm_test_top.env.master_agent.drv [axi4_master_driver] Driving AXI4_READ  ID=0x2  ADDR=0x23e507cf  LEN=38
# UVM_INFO ../src/seq/axi4_unaligned_seq.sv(54) @ 95000: uvm_test_top.env.master_agent.sqr@@unalign_seq [axi4_unaligned_seq] [33/40] Unaligned AXI4_READ: ADDR=0x23e507cf SIZE=AXI4_SIZE_2B BURST=AXI4_BURST_INCR (AlignmentOffset=1)
# UVM_INFO ../src/mst/axi4_master_driver.sv(73) @ 95000: uvm_test_top.env.master_agent.drv [axi4_master_driver] Driving AXI4_READ  ID=0x2  ADDR=0x3a1b31f1  LEN=53
# UVM_INFO ../src/seq/axi4_unaligned_seq.sv(54) @ 95000: uvm_test_top.env.master_agent.sqr@@unalign_seq [axi4_unaligned_seq] [34/40] Unaligned AXI4_READ: ADDR=0x3a1b31f1 SIZE=AXI4_SIZE_2B BURST=AXI4_BURST_INCR (AlignmentOffset=1)
# UVM_INFO ../src/mst/axi4_master_driver.sv(73) @ 95000: uvm_test_top.env.master_agent.drv [axi4_master_driver] Driving AXI4_READ  ID=0x7  ADDR=0xb2c84e4d  LEN=91
# UVM_INFO ../src/seq/axi4_unaligned_seq.sv(54) @ 95000: uvm_test_top.env.master_agent.sqr@@unalign_seq [axi4_unaligned_seq] [35/40] Unaligned AXI4_READ: ADDR=0xb2c84e4d SIZE=AXI4_SIZE_2B BURST=AXI4_BURST_INCR (AlignmentOffset=1)
# UVM_INFO ../src/mst/axi4_master_driver.sv(73) @ 95000: uvm_test_top.env.master_agent.drv [axi4_master_driver] Driving AXI4_WRITE  ID=0x1  ADDR=0x838c455b  LEN=21
# UVM_INFO ../src/seq/axi4_unaligned_seq.sv(54) @ 95000: uvm_test_top.env.master_agent.sqr@@unalign_seq [axi4_unaligned_seq] [36/40] Unaligned AXI4_WRITE: ADDR=0x838c455b SIZE=AXI4_SIZE_2B BURST=AXI4_BURST_INCR (AlignmentOffset=1)
# UVM_INFO ../src/mst/axi4_master_driver.sv(73) @ 95000: uvm_test_top.env.master_agent.drv [axi4_master_driver] Driving AXI4_WRITE  ID=0xe  ADDR=0xb6048789  LEN=11
# UVM_INFO ../src/seq/axi4_unaligned_seq.sv(54) @ 95000: uvm_test_top.env.master_agent.sqr@@unalign_seq [axi4_unaligned_seq] [37/40] Unaligned AXI4_WRITE: ADDR=0xb6048789 SIZE=AXI4_SIZE_2B BURST=AXI4_BURST_INCR (AlignmentOffset=1)
# UVM_INFO ../src/mst/axi4_master_driver.sv(73) @ 95000: uvm_test_top.env.master_agent.drv [axi4_master_driver] Driving AXI4_WRITE  ID=0xb  ADDR=0x008dda6f  LEN=5
# UVM_INFO ../src/seq/axi4_unaligned_seq.sv(54) @ 95000: uvm_test_top.env.master_agent.sqr@@unalign_seq [axi4_unaligned_seq] [38/40] Unaligned AXI4_WRITE: ADDR=0x008dda6f SIZE=AXI4_SIZE_2B BURST=AXI4_BURST_INCR (AlignmentOffset=1)
# UVM_INFO ../src/mst/axi4_master_driver.sv(73) @ 95000: uvm_test_top.env.master_agent.drv [axi4_master_driver] Driving AXI4_WRITE  ID=0x6  ADDR=0xce2afacb  LEN=60
# UVM_INFO ../src/seq/axi4_unaligned_seq.sv(54) @ 95000: uvm_test_top.env.master_agent.sqr@@unalign_seq [axi4_unaligned_seq] [39/40] Unaligned AXI4_WRITE: ADDR=0xce2afacb SIZE=AXI4_SIZE_2B BURST=AXI4_BURST_INCR (AlignmentOffset=1)
# UVM_INFO ../src/mst/axi4_master_driver.sv(73) @ 95000: uvm_test_top.env.master_agent.drv [axi4_master_driver] Driving AXI4_WRITE  ID=0xd  ADDR=0x6c568dd6  LEN=166
# UVM_INFO ../src/seq/axi4_unaligned_seq.sv(54) @ 95000: uvm_test_top.env.master_agent.sqr@@unalign_seq [axi4_unaligned_seq] [40/40] Unaligned AXI4_WRITE: ADDR=0x6c568dd6 SIZE=AXI4_SIZE_4B BURST=AXI4_BURST_INCR (AlignmentOffset=2)
# UVM_INFO ../src/seq/axi4_unaligned_seq.sv(57) @ 95000: uvm_test_top.env.master_agent.sqr@@unalign_seq [axi4_unaligned_seq] Unaligned access sequence complete
# UVM_INFO ../src/slv/axi4_slave_driver.sv(358) @ 115000: uvm_test_top.env.slave_agent.drv [axi4_slave_driver] AR received: ID=0x8 ADDR=0x32121fc7 LEN=198 LOCK=AXI4_LOCK_EXCLUSIVE
# UVM_INFO ../src/slv/axi4_slave_driver.sv(212) @ 115000: uvm_test_top.env.slave_agent.drv [axi4_slave_driver] AW received: ID=0xd ADDR=0xdc71fd21 LEN=114 LOCK=AXI4_LOCK_NORMAL
# UVM_INFO ../src/slv/axi4_slave_monitor.sv(224) @ 115000: uvm_test_top.env.slave_agent.mon [axi4_slave_monitor] AR received: ID=0x8 ADDR=0x32121fc7 LEN=198
# UVM_INFO ../src/slv/axi4_slave_monitor.sv(116) @ 115000: uvm_test_top.env.slave_agent.mon [axi4_slave_monitor] AW received: ID=0xd ADDR=0xdc71fd21 LEN=114
# UVM_INFO ../src/mst/axi4_master_monitor.sv(246) @ 115000: uvm_test_top.env.master_agent.mon [axi4_master_monitor] AR observed: ID=0x8 ADDR=0x32121fc7 LEN=198
# UVM_INFO ../src/mst/axi4_master_monitor.sv(124) @ 115000: uvm_test_top.env.master_agent.mon [axi4_master_monitor] AW observed: ID=0xd ADDR=0xdc71fd21 LEN=114
# UVM_INFO ../src/slv/axi4_slave_driver.sv(212) @ 145000: uvm_test_top.env.slave_agent.drv [axi4_slave_driver] AW received: ID=0xa ADDR=0x937c40d5 LEN=148 LOCK=AXI4_LOCK_NORMAL
# UVM_INFO ../src/slv/axi4_slave_driver.sv(358) @ 145000: uvm_test_top.env.slave_agent.drv [axi4_slave_driver] AR received: ID=0x2 ADDR=0xa3c901df LEN=156 LOCK=AXI4_LOCK_NORMAL
# UVM_INFO ../src/mst/axi4_master_monitor.sv(124) @ 145000: uvm_test_top.env.master_agent.mon [axi4_master_monitor] AW observed: ID=0xa ADDR=0x937c40d5 LEN=148
# UVM_INFO ../src/mst/axi4_master_monitor.sv(246) @ 145000: uvm_test_top.env.master_agent.mon [axi4_master_monitor] AR observed: ID=0x2 ADDR=0xa3c901df LEN=156
# UVM_INFO ../src/slv/axi4_slave_monitor.sv(116) @ 145000: uvm_test_top.env.slave_agent.mon [axi4_slave_monitor] AW received: ID=0xa ADDR=0x937c40d5 LEN=148
# UVM_INFO ../src/slv/axi4_slave_monitor.sv(224) @ 145000: uvm_test_top.env.slave_agent.mon [axi4_slave_monitor] AR received: ID=0x2 ADDR=0xa3c901df LEN=156
# UVM_INFO ../src/slv/axi4_slave_driver.sv(358) @ 175000: uvm_test_top.env.slave_agent.drv [axi4_slave_driver] AR received: ID=0x4 ADDR=0x11bde115 LEN=168 LOCK=AXI4_LOCK_NORMAL
# UVM_INFO ../src/slv/axi4_slave_monitor.sv(224) @ 175000: uvm_test_top.env.slave_agent.mon [axi4_slave_monitor] AR received: ID=0x4 ADDR=0x11bde115 LEN=168
# UVM_INFO ../src/mst/axi4_master_monitor.sv(246) @ 175000: uvm_test_top.env.master_agent.mon [axi4_master_monitor] AR observed: ID=0x4 ADDR=0x11bde115 LEN=168
# UVM_INFO ../src/slv/axi4_slave_driver.sv(358) @ 205000: uvm_test_top.env.slave_agent.drv [axi4_slave_driver] AR received: ID=0x8 ADDR=0xd048d2b6 LEN=161 LOCK=AXI4_LOCK_EXCLUSIVE
# UVM_INFO ../src/mst/axi4_master_monitor.sv(246) @ 205000: uvm_test_top.env.master_agent.mon [axi4_master_monitor] AR observed: ID=0x8 ADDR=0xd048d2b6 LEN=161
# UVM_INFO ../src/slv/axi4_slave_monitor.sv(224) @ 205000: uvm_test_top.env.slave_agent.mon [axi4_slave_monitor] AR received: ID=0x8 ADDR=0xd048d2b6 LEN=161
# UVM_INFO ../src/slv/axi4_slave_driver.sv(358) @ 235000: uvm_test_top.env.slave_agent.drv [axi4_slave_driver] AR received: ID=0x1 ADDR=0x47980ed3 LEN=89 LOCK=AXI4_LOCK_EXCLUSIVE
# UVM_INFO ../src/slv/axi4_slave_monitor.sv(224) @ 235000: uvm_test_top.env.slave_agent.mon [axi4_slave_monitor] AR received: ID=0x1 ADDR=0x47980ed3 LEN=89
# UVM_INFO ../src/mst/axi4_master_monitor.sv(246) @ 235000: uvm_test_top.env.master_agent.mon [axi4_master_monitor] AR observed: ID=0x1 ADDR=0x47980ed3 LEN=89
# UVM_INFO ../src/slv/axi4_slave_driver.sv(358) @ 265000: uvm_test_top.env.slave_agent.drv [axi4_slave_driver] AR received: ID=0xe ADDR=0xb9e005bb LEN=13 LOCK=AXI4_LOCK_NORMAL
# UVM_INFO ../src/mst/axi4_master_monitor.sv(246) @ 265000: uvm_test_top.env.master_agent.mon [axi4_master_monitor] AR observed: ID=0xe ADDR=0xb9e005bb LEN=13
# UVM_INFO ../src/slv/axi4_slave_monitor.sv(224) @ 265000: uvm_test_top.env.slave_agent.mon [axi4_slave_monitor] AR received: ID=0xe ADDR=0xb9e005bb LEN=13
# UVM_INFO ../src/slv/axi4_slave_driver.sv(358) @ 295000: uvm_test_top.env.slave_agent.drv [axi4_slave_driver] AR received: ID=0x9 ADDR=0x4f88224e LEN=213 LOCK=AXI4_LOCK_NORMAL
# UVM_INFO ../src/slv/axi4_slave_monitor.sv(224) @ 295000: uvm_test_top.env.slave_agent.mon [axi4_slave_monitor] AR received: ID=0x9 ADDR=0x4f88224e LEN=213
# UVM_INFO ../src/mst/axi4_master_monitor.sv(246) @ 295000: uvm_test_top.env.master_agent.mon [axi4_master_monitor] AR observed: ID=0x9 ADDR=0x4f88224e LEN=213
# UVM_INFO ../src/slv/axi4_slave_driver.sv(358) @ 325000: uvm_test_top.env.slave_agent.drv [axi4_slave_driver] AR received: ID=0x5 ADDR=0x293597d9 LEN=98 LOCK=AXI4_LOCK_EXCLUSIVE
# UVM_INFO ../src/mst/axi4_master_monitor.sv(246) @ 325000: uvm_test_top.env.master_agent.mon [axi4_master_monitor] AR observed: ID=0x5 ADDR=0x293597d9 LEN=98
# UVM_INFO ../src/slv/axi4_slave_monitor.sv(224) @ 325000: uvm_test_top.env.slave_agent.mon [axi4_slave_monitor] AR received: ID=0x5 ADDR=0x293597d9 LEN=98
# UVM_INFO ../src/slv/axi4_slave_driver.sv(358) @ 355000: uvm_test_top.env.slave_agent.drv [axi4_slave_driver] AR received: ID=0x5 ADDR=0x5ddf13ca LEN=122 LOCK=AXI4_LOCK_EXCLUSIVE
# UVM_INFO ../src/slv/axi4_slave_monitor.sv(224) @ 355000: uvm_test_top.env.slave_agent.mon [axi4_slave_monitor] AR received: ID=0x5 ADDR=0x5ddf13ca LEN=122
# UVM_INFO ../src/mst/axi4_master_monitor.sv(246) @ 355000: uvm_test_top.env.master_agent.mon [axi4_master_monitor] AR observed: ID=0x5 ADDR=0x5ddf13ca LEN=122
# UVM_INFO ../src/slv/axi4_slave_driver.sv(358) @ 385000: uvm_test_top.env.slave_agent.drv [axi4_slave_driver] AR received: ID=0xd ADDR=0xb6b3b821 LEN=171 LOCK=AXI4_LOCK_EXCLUSIVE
# UVM_INFO ../src/mst/axi4_master_monitor.sv(246) @ 385000: uvm_test_top.env.master_agent.mon [axi4_master_monitor] AR observed: ID=0xd ADDR=0xb6b3b821 LEN=171
# UVM_INFO ../src/slv/axi4_slave_monitor.sv(224) @ 385000: uvm_test_top.env.slave_agent.mon [axi4_slave_monitor] AR received: ID=0xd ADDR=0xb6b3b821 LEN=171
# UVM_INFO ../src/slv/axi4_slave_driver.sv(358) @ 415000: uvm_test_top.env.slave_agent.drv [axi4_slave_driver] AR received: ID=0xd ADDR=0x47d1480f LEN=241 LOCK=AXI4_LOCK_EXCLUSIVE
# UVM_INFO ../src/slv/axi4_slave_monitor.sv(224) @ 415000: uvm_test_top.env.slave_agent.mon [axi4_slave_monitor] AR received: ID=0xd ADDR=0x47d1480f LEN=241
# UVM_INFO ../src/mst/axi4_master_monitor.sv(246) @ 415000: uvm_test_top.env.master_agent.mon [axi4_master_monitor] AR observed: ID=0xd ADDR=0x47d1480f LEN=241
# UVM_INFO ../src/slv/axi4_slave_driver.sv(358) @ 445000: uvm_test_top.env.slave_agent.drv [axi4_slave_driver] AR received: ID=0x2 ADDR=0x0c5ffe27 LEN=33 LOCK=AXI4_LOCK_EXCLUSIVE
# UVM_INFO ../src/mst/axi4_master_monitor.sv(246) @ 445000: uvm_test_top.env.master_agent.mon [axi4_master_monitor] AR observed: ID=0x2 ADDR=0x0c5ffe27 LEN=33
# UVM_INFO ../src/slv/axi4_slave_monitor.sv(224) @ 445000: uvm_test_top.env.slave_agent.mon [axi4_slave_monitor] AR received: ID=0x2 ADDR=0x0c5ffe27 LEN=33
# UVM_INFO ../src/slv/axi4_slave_driver.sv(358) @ 475000: uvm_test_top.env.slave_agent.drv [axi4_slave_driver] AR received: ID=0x0 ADDR=0x445d674f LEN=138 LOCK=AXI4_LOCK_EXCLUSIVE
# UVM_INFO ../src/slv/axi4_slave_monitor.sv(224) @ 475000: uvm_test_top.env.slave_agent.mon [axi4_slave_monitor] AR received: ID=0x0 ADDR=0x445d674f LEN=138
# UVM_INFO ../src/mst/axi4_master_monitor.sv(246) @ 475000: uvm_test_top.env.master_agent.mon [axi4_master_monitor] AR observed: ID=0x0 ADDR=0x445d674f LEN=138
# UVM_INFO ../src/slv/axi4_slave_driver.sv(358) @ 505000: uvm_test_top.env.slave_agent.drv [axi4_slave_driver] AR received: ID=0x2 ADDR=0x23e507cf LEN=38 LOCK=AXI4_LOCK_NORMAL
# UVM_INFO ../src/mst/axi4_master_monitor.sv(246) @ 505000: uvm_test_top.env.master_agent.mon [axi4_master_monitor] AR observed: ID=0x2 ADDR=0x23e507cf LEN=38
# UVM_INFO ../src/slv/axi4_slave_monitor.sv(224) @ 505000: uvm_test_top.env.slave_agent.mon [axi4_slave_monitor] AR received: ID=0x2 ADDR=0x23e507cf LEN=38
# UVM_INFO ../src/slv/axi4_slave_driver.sv(358) @ 535000: uvm_test_top.env.slave_agent.drv [axi4_slave_driver] AR received: ID=0x2 ADDR=0x3a1b31f1 LEN=53 LOCK=AXI4_LOCK_EXCLUSIVE
# UVM_INFO ../src/slv/axi4_slave_monitor.sv(224) @ 535000: uvm_test_top.env.slave_agent.mon [axi4_slave_monitor] AR received: ID=0x2 ADDR=0x3a1b31f1 LEN=53
# UVM_INFO ../src/mst/axi4_master_monitor.sv(246) @ 535000: uvm_test_top.env.master_agent.mon [axi4_master_monitor] AR observed: ID=0x2 ADDR=0x3a1b31f1 LEN=53
# UVM_INFO ../src/slv/axi4_slave_driver.sv(358) @ 565000: uvm_test_top.env.slave_agent.drv [axi4_slave_driver] AR received: ID=0x7 ADDR=0xb2c84e4d LEN=91 LOCK=AXI4_LOCK_NORMAL
# UVM_INFO ../src/mst/axi4_master_monitor.sv(246) @ 565000: uvm_test_top.env.master_agent.mon [axi4_master_monitor] AR observed: ID=0x7 ADDR=0xb2c84e4d LEN=91
# UVM_INFO ../src/slv/axi4_slave_monitor.sv(224) @ 565000: uvm_test_top.env.slave_agent.mon [axi4_slave_monitor] AR received: ID=0x7 ADDR=0xb2c84e4d LEN=91
# UVM_INFO ../src/test/axi4_unaligned_test.sv(33) @ 1095000: uvm_test_top [axi4_unaligned_test] Unaligned access test complete
# UVM_INFO ../src/mst/axi4_master_monitor.sv(184) @ 2385000: uvm_test_top.env.master_agent.mon [axi4_master_monitor] W data assembled: ID=0xd ADDR=0xdc71fd21 115 beats
# UVM_INFO ../src/slv/axi4_slave_monitor.sv(167) @ 2385000: uvm_test_top.env.slave_agent.mon [axi4_slave_monitor] W data assembled: ID=0xd ADDR=0xdc71fd21 115 beats
# UVM_INFO ../src/mst/axi4_master_driver.sv(289) @ 2415000: uvm_test_top.env.master_agent.drv [axi4_master_driver] Master driver received B response: ID=0xd RESP=AXI4_RESP_OKAY
# UVM_INFO ../src/slv/axi4_slave_driver.sv(320) @ 2415000: uvm_test_top.env.slave_agent.drv [axi4_slave_driver] Write complete: ID=0xd RESP=AXI4_RESP_OKAY
# UVM_INFO ../src/slv/axi4_slave_monitor.sv(189) @ 2415000: uvm_test_top.env.slave_agent.mon [axi4_slave_monitor] Write response sent: ID=0xd ADDR=0xdc71fd21 RESP=AXI4_RESP_OKAY
# UVM_INFO ../src/env/axi4_scoreboard.sv(108) @ 2415000: uvm_test_top.env.scb [axi4_scoreboard] Slave AXI4_WRITE received: ID=0xd ADDR=0xdc71fd21 LEN=114
# UVM_INFO ../src/mst/axi4_master_monitor.sv(210) @ 2415000: uvm_test_top.env.master_agent.mon [axi4_master_monitor] Write complete: ID=0xd ADDR=0xdc71fd21 RESP=AXI4_RESP_OKAY
# UVM_INFO ../src/env/axi4_scoreboard.sv(87) @ 2415000: uvm_test_top.env.scb [axi4_scoreboard] Master AXI4_WRITE received: ID=0xd ADDR=0xdc71fd21 LEN=114
# UVM_INFO ../src/env/axi4_scoreboard.sv(291) @ 2415000: uvm_test_top.env.scb [axi4_scoreboard] [WRITE] MATCH #1: ID=0xd ADDR=0xdc71fd21 LEN=114
# UVM_INFO ../src/env/axi4_scoreboard.sv(219) @ 2415000: uvm_test_top.env.scb [axi4_scoreboard] [REF_MEM_WRITE] Addr=0xdc71fd20 Data=0xae
# UVM_INFO ../src/env/axi4_scoreboard.sv(219) @ 2415000: uvm_test_top.env.scb [axi4_scoreboard] [REF_MEM_WRITE] Addr=0xdc71fd21 Data=0x99
# UVM_INFO ../src/env/axi4_scoreboard.sv(219) @ 2415000: uvm_test_top.env.scb [axi4_scoreboard] [REF_MEM_WRITE] Addr=0xdc71fd22 Data=0x74
# UVM_INFO ../src/env/axi4_scoreboard.sv(219) @ 2415000: uvm_test_top.env.scb [axi4_scoreboard] [REF_MEM_WRITE] Addr=0xdc71fd23 Data=0x58
# UVM_INFO ../src/env/axi4_scoreboard.sv(219) @ 2415000: uvm_test_top.env.scb [axi4_scoreboard] [REF_MEM_WRITE] Addr=0xdc71fd26 Data=0xce
# UVM_INFO ../src/env/axi4_scoreboard.sv(219) @ 2415000: uvm_test_top.env.scb [axi4_scoreboard] [REF_MEM_WRITE] Addr=0xdc71fd27 Data=0xca
# UVM_INFO ../src/env/axi4_scoreboard.sv(219) @ 2415000: uvm_test_top.env.scb [axi4_scoreboard] [REF_MEM_WRITE] Addr=0xdc71fd24 Data=0x74
# UVM_INFO ../src/env/axi4_scoreboard.sv(219) @ 2415000: uvm_test_top.env.scb [axi4_scoreboard] [REF_MEM_WRITE] Addr=0xdc71fd29 Data=0xc5
# UVM_INFO ../src/env/axi4_scoreboard.sv(219) @ 2415000: uvm_test_top.env.scb [axi4_scoreboard] [REF_MEM_WRITE] Addr=0xdc71fd29 Data=0x55
# UVM_INFO ../src/env/axi4_scoreboard.sv(219) @ 2415000: uvm_test_top.env.scb [axi4_scoreboard] [REF_MEM_WRITE] Addr=0xdc71fd2d Data=0x61
# UVM_INFO ../src/env/axi4_scoreboard.sv(219) @ 2415000: uvm_test_top.env.scb [axi4_scoreboard] [REF_MEM_WRITE] Addr=0xdc71fd2e Data=0x09
# UVM_INFO ../src/env/axi4_scoreboard.sv(219) @ 2415000: uvm_test_top.env.scb [axi4_scoreboard] [REF_MEM_WRITE] Addr=0xdc71fd2f Data=0x4c
# UVM_INFO ../src/env/axi4_scoreboard.sv(219) @ 2415000: uvm_test_top.env.scb [axi4_scoreboard] [REF_MEM_WRITE] Addr=0xdc71fd2c Data=0xde
# UVM_INFO ../src/env/axi4_scoreboard.sv(219) @ 2415000: uvm_test_top.env.scb [axi4_scoreboard] [REF_MEM_WRITE] Addr=0xdc71fd2e Data=0x45
# UVM_INFO ../src/env/axi4_scoreboard.sv(219) @ 2415000: uvm_test_top.env.scb [axi4_scoreboard] [REF_MEM_WRITE] Addr=0xdc71fd2f Data=0x8c
# UVM_INFO ../src/env/axi4_scoreboard.sv(219) @ 2415000: uvm_test_top.env.scb [axi4_scoreboard] [REF_MEM_WRITE] Addr=0xdc71fd30 Data=0xc4
# UVM_INFO ../src/env/axi4_scoreboard.sv(219) @ 2415000: uvm_test_top.env.scb [axi4_scoreboard] [REF_MEM_WRITE] Addr=0xdc71fd30 Data=0x8e
# UVM_INFO ../src/env/axi4_scoreboard.sv(219) @ 2415000: uvm_test_top.env.scb [axi4_scoreboard] [REF_MEM_WRITE] Addr=0xdc71fd32 Data=0x46
# UVM_INFO ../src/env/axi4_scoreboard.sv(219) @ 2415000: uvm_test_top.env.scb [axi4_scoreboard] [REF_MEM_WRITE] Addr=0xdc71fd37 Data=0x44
# UVM_INFO ../src/env/axi4_scoreboard.sv(219) @ 2415000: uvm_test_top.env.scb [axi4_scoreboard] [REF_MEM_WRITE] Addr=0xdc71fd34 Data=0xf3
# UVM_INFO ../src/env/axi4_scoreboard.sv(219) @ 2415000: uvm_test_top.env.scb [axi4_scoreboard] [REF_MEM_WRITE] Addr=0xdc71fd38 Data=0x6d
# UVM_INFO ../src/env/axi4_scoreboard.sv(219) @ 2415000: uvm_test_top.env.scb [axi4_scoreboard] [REF_MEM_WRITE] Addr=0xdc71fd39 Data=0x9d
# UVM_INFO ../src/env/axi4_scoreboard.sv(219) @ 2415000: uvm_test_top.env.scb [axi4_scoreboard] [REF_MEM_WRITE] Addr=0xdc71fd3a Data=0xad
# UVM_INFO ../src/env/axi4_scoreboard.sv(219) @ 2415000: uvm_test_top.env.scb [axi4_scoreboard] [REF_MEM_WRITE] Addr=0xdc71fd39 Data=0xaa
# UVM_INFO ../src/env/axi4_scoreboard.sv(219) @ 2415000: uvm_test_top.env.scb [axi4_scoreboard] [REF_MEM_WRITE] Addr=0xdc71fd3d Data=0xce
# UVM_INFO ../src/env/axi4_scoreboard.sv(219) @ 2415000: uvm_test_top.env.scb [axi4_scoreboard] [REF_MEM_WRITE] Addr=0xdc71fd3e Data=0x0a
# UVM_INFO ../src/env/axi4_scoreboard.sv(219) @ 2415000: uvm_test_top.env.scb [axi4_scoreboard] [REF_MEM_WRITE] Addr=0xdc71fd3f Data=0x34
# UVM_INFO ../src/env/axi4_scoreboard.sv(219) @ 2415000: uvm_test_top.env.scb [axi4_scoreboard] [REF_MEM_WRITE] Addr=0xdc71fd3c Data=0xa3
# UVM_INFO ../src/env/axi4_scoreboard.sv(219) @ 2415000: uvm_test_top.env.scb [axi4_scoreboard] [REF_MEM_WRITE] Addr=0xdc71fd3d Data=0xaa
# UVM_INFO ../src/env/axi4_scoreboard.sv(219) @ 2415000: uvm_test_top.env.scb [axi4_scoreboard] [REF_MEM_WRITE] Addr=0xdc71fd3f Data=0xa8
# UVM_INFO ../src/env/axi4_scoreboard.sv(219) @ 2415000: uvm_test_top.env.scb [axi4_scoreboard] [REF_MEM_WRITE] Addr=0xdc71fd40 Data=0x9c
# UVM_INFO ../src/env/axi4_scoreboard.sv(219) @ 2415000: uvm_test_top.env.scb [axi4_scoreboard] [REF_MEM_WRITE] Addr=0xdc71fd41 Data=0xc5
# UVM_INFO ../src/env/axi4_scoreboard.sv(219) @ 2415000: uvm_test_top.env.scb [axi4_scoreboard] [REF_MEM_WRITE] Addr=0xdc71fd42 Data=0x8b
# UVM_INFO ../src/env/axi4_scoreboard.sv(219) @ 2415000: uvm_test_top.env.scb [axi4_scoreboard] [REF_MEM_WRITE] Addr=0xdc71fd40 Data=0x94
# UVM_INFO ../src/env/axi4_scoreboard.sv(219) @ 2415000: uvm_test_top.env.scb [axi4_scoreboard] [REF_MEM_WRITE] Addr=0xdc71fd44 Data=0xcd
# UVM_INFO ../src/env/axi4_scoreboard.sv(219) @ 2415000: uvm_test_top.env.scb [axi4_scoreboard] [REF_MEM_WRITE] Addr=0xdc71fd46 Data=0xfe
# UVM_INFO ../src/env/axi4_scoreboard.sv(219) @ 2415000: uvm_test_top.env.scb [axi4_scoreboard] [REF_MEM_WRITE] Addr=0xdc71fd47 Data=0x0d
# UVM_INFO ../src/env/axi4_scoreboard.sv(219) @ 2415000: uvm_test_top.env.scb [axi4_scoreboard] [REF_MEM_WRITE] Addr=0xdc71fd44 Data=0xa4
# UVM_INFO ../src/env/axi4_scoreboard.sv(219) @ 2415000: uvm_test_top.env.scb [axi4_scoreboard] [REF_MEM_WRITE] Addr=0xdc71fd45 Data=0x10
# UVM_INFO ../src/env/axi4_scoreboard.sv(219) @ 2415000: uvm_test_top.env.scb [axi4_scoreboard] [REF_MEM_WRITE] Addr=0xdc71fd48 Data=0x57
# UVM_INFO ../src/env/axi4_scoreboard.sv(219) @ 2415000: uvm_test_top.env.scb [axi4_scoreboard] [REF_MEM_WRITE] Addr=0xdc71fd4a Data=0xf3
# UVM_INFO ../src/env/axi4_scoreboard.sv(219) @ 2415000: uvm_test_top.env.scb [axi4_scoreboard] [REF_MEM_WRITE] Addr=0xdc71fd49 Data=0x0d
# UVM_INFO ../src/env/axi4_scoreboard.sv(219) @ 2415000: uvm_test_top.env.scb [axi4_scoreboard] [REF_MEM_WRITE] Addr=0xdc71fd4d Data=0xb5
# UVM_INFO ../src/env/axi4_scoreboard.sv(219) @ 2415000: uvm_test_top.env.scb [axi4_scoreboard] [REF_MEM_WRITE] Addr=0xdc71fd4c Data=0x78
# UVM_INFO ../src/env/axi4_scoreboard.sv(219) @ 2415000: uvm_test_top.env.scb [axi4_scoreboard] [REF_MEM_WRITE] Addr=0xdc71fd4e Data=0x70
# UVM_INFO ../src/env/axi4_scoreboard.sv(219) @ 2415000: uvm_test_top.env.scb [axi4_scoreboard] [REF_MEM_WRITE] Addr=0xdc71fd51 Data=0x82
# UVM_INFO ../src/env/axi4_scoreboard.sv(219) @ 2415000: uvm_test_top.env.scb [axi4_scoreboard] [REF_MEM_WRITE] Addr=0xdc71fd50 Data=0x91
# UVM_INFO ../src/env/axi4_scoreboard.sv(219) @ 2415000: uvm_test_top.env.scb [axi4_scoreboard] [REF_MEM_WRITE] Addr=0xdc71fd52 Data=0x63
# UVM_INFO ../src/env/axi4_scoreboard.sv(219) @ 2415000: uvm_test_top.env.scb [axi4_scoreboard] [REF_MEM_WRITE] Addr=0xdc71fd54 Data=0x98
# UVM_INFO ../src/env/axi4_scoreboard.sv(219) @ 2415000: uvm_test_top.env.scb [axi4_scoreboard] [REF_MEM_WRITE] Addr=0xdc71fd55 Data=0x54
# UVM_INFO ../src/env/axi4_scoreboard.sv(219) @ 2415000: uvm_test_top.env.scb [axi4_scoreboard] [REF_MEM_WRITE] Addr=0xdc71fd54 Data=0x8e
# UVM_INFO ../src/env/axi4_scoreboard.sv(219) @ 2415000: uvm_test_top.env.scb [axi4_scoreboard] [REF_MEM_WRITE] Addr=0xdc71fd58 Data=0x41
# UVM_INFO ../src/env/axi4_scoreboard.sv(219) @ 2415000: uvm_test_top.env.scb [axi4_scoreboard] [REF_MEM_WRITE] Addr=0xdc71fd59 Data=0xb2
# UVM_INFO ../src/env/axi4_scoreboard.sv(219) @ 2415000: uvm_test_top.env.scb [axi4_scoreboard] [REF_MEM_WRITE] Addr=0xdc71fd5a Data=0xf3
# UVM_INFO ../src/env/axi4_scoreboard.sv(219) @ 2415000: uvm_test_top.env.scb [axi4_scoreboard] [REF_MEM_WRITE] Addr=0xdc71fd5e Data=0xf4
# UVM_INFO ../src/env/axi4_scoreboard.sv(219) @ 2415000: uvm_test_top.env.scb [axi4_scoreboard] [REF_MEM_WRITE] Addr=0xdc71fd5e Data=0xe5
# UVM_INFO ../src/env/axi4_scoreboard.sv(219) @ 2415000: uvm_test_top.env.scb [axi4_scoreboard] [REF_MEM_WRITE] Addr=0xdc71fd5f Data=0xf3
# UVM_INFO ../src/env/axi4_scoreboard.sv(219) @ 2415000: uvm_test_top.env.scb [axi4_scoreboard] [REF_MEM_WRITE] Addr=0xdc71fd60 Data=0xed
# UVM_INFO ../src/env/axi4_scoreboard.sv(219) @ 2415000: uvm_test_top.env.scb [axi4_scoreboard] [REF_MEM_WRITE] Addr=0xdc71fd61 Data=0xa9
# UVM_INFO ../src/env/axi4_scoreboard.sv(219) @ 2415000: uvm_test_top.env.scb [axi4_scoreboard] [REF_MEM_WRITE] Addr=0xdc71fd62 Data=0xfd
# UVM_INFO ../src/env/axi4_scoreboard.sv(219) @ 2415000: uvm_test_top.env.scb [axi4_scoreboard] [REF_MEM_WRITE] Addr=0xdc71fd63 Data=0xdb
# UVM_INFO ../src/env/axi4_scoreboard.sv(219) @ 2415000: uvm_test_top.env.scb [axi4_scoreboard] [REF_MEM_WRITE] Addr=0xdc71fd63 Data=0x61
# UVM_INFO ../src/env/axi4_scoreboard.sv(219) @ 2415000: uvm_test_top.env.scb [axi4_scoreboard] [REF_MEM_WRITE] Addr=0xdc71fd64 Data=0x18
# UVM_INFO ../src/env/axi4_scoreboard.sv(219) @ 2415000: uvm_test_top.env.scb [axi4_scoreboard] [REF_MEM_WRITE] Addr=0xdc71fd65 Data=0x85
# UVM_INFO ../src/env/axi4_scoreboard.sv(219) @ 2415000: uvm_test_top.env.scb [axi4_scoreboard] [REF_MEM_WRITE] Addr=0xdc71fd66 Data=0x19
# UVM_INFO ../src/env/axi4_scoreboard.sv(219) @ 2415000: uvm_test_top.env.scb [axi4_scoreboard] [REF_MEM_WRITE] Addr=0xdc71fd67 Data=0xc5
# UVM_INFO ../src/env/axi4_scoreboard.sv(219) @ 2415000: uvm_test_top.env.scb [axi4_scoreboard] [REF_MEM_WRITE] Addr=0xdc71fd65 Data=0x9c
# UVM_INFO ../src/env/axi4_scoreboard.sv(219) @ 2415000: uvm_test_top.env.scb [axi4_scoreboard] [REF_MEM_WRITE] Addr=0xdc71fd66 Data=0xc3
# UVM_INFO ../src/env/axi4_scoreboard.sv(219) @ 2415000: uvm_test_top.env.scb [axi4_scoreboard] [REF_MEM_WRITE] Addr=0xdc71fd67 Data=0xfe
# UVM_INFO ../src/env/axi4_scoreboard.sv(219) @ 2415000: uvm_test_top.env.scb [axi4_scoreboard] [REF_MEM_WRITE] Addr=0xdc71fd6a Data=0x3e
# UVM_INFO ../src/env/axi4_scoreboard.sv(219) @ 2415000: uvm_test_top.env.scb [axi4_scoreboard] [REF_MEM_WRITE] Addr=0xdc71fd6b Data=0x40
# UVM_INFO ../src/env/axi4_scoreboard.sv(219) @ 2415000: uvm_test_top.env.scb [axi4_scoreboard] [REF_MEM_WRITE] Addr=0xdc71fd6b Data=0x26
# UVM_INFO ../src/env/axi4_scoreboard.sv(219) @ 2415000: uvm_test_top.env.scb [axi4_scoreboard] [REF_MEM_WRITE] Addr=0xdc71fd6c Data=0x7e
# UVM_INFO ../src/env/axi4_scoreboard.sv(219) @ 2415000: uvm_test_top.env.scb [axi4_scoreboard] [REF_MEM_WRITE] Addr=0xdc71fd6d Data=0xfd
# UVM_INFO ../src/env/axi4_scoreboard.sv(219) @ 2415000: uvm_test_top.env.scb [axi4_scoreboard] [REF_MEM_WRITE] Addr=0xdc71fd6c Data=0xee
# UVM_INFO ../src/env/axi4_scoreboard.sv(219) @ 2415000: uvm_test_top.env.scb [axi4_scoreboard] [REF_MEM_WRITE] Addr=0xdc71fd6e Data=0x82
# UVM_INFO ../src/env/axi4_scoreboard.sv(219) @ 2415000: uvm_test_top.env.scb [axi4_scoreboard] [REF_MEM_WRITE] Addr=0xdc71fd71 Data=0x27
# UVM_INFO ../src/env/axi4_scoreboard.sv(219) @ 2415000: uvm_test_top.env.scb [axi4_scoreboard] [REF_MEM_WRITE] Addr=0xdc71fd73 Data=0xe6
# UVM_INFO ../src/env/axi4_scoreboard.sv(219) @ 2415000: uvm_test_top.env.scb [axi4_scoreboard] [REF_MEM_WRITE] Addr=0xdc71fd71 Data=0xf3
# UVM_INFO ../src/env/axi4_scoreboard.sv(219) @ 2415000: uvm_test_top.env.scb [axi4_scoreboard] [REF_MEM_WRITE] Addr=0xdc71fd75 Data=0x67
# UVM_INFO ../src/env/axi4_scoreboard.sv(219) @ 2415000: uvm_test_top.env.scb [axi4_scoreboard] [REF_MEM_WRITE] Addr=0xdc71fd76 Data=0x0e
# UVM_INFO ../src/env/axi4_scoreboard.sv(219) @ 2415000: uvm_test_top.env.scb [axi4_scoreboard] [REF_MEM_WRITE] Addr=0xdc71fd77 Data=0x4d
# UVM_INFO ../src/env/axi4_scoreboard.sv(219) @ 2415000: uvm_test_top.env.scb [axi4_scoreboard] [REF_MEM_WRITE] Addr=0xdc71fd74 Data=0xa0
# UVM_INFO ../src/env/axi4_scoreboard.sv(219) @ 2415000: uvm_test_top.env.scb [axi4_scoreboard] [REF_MEM_WRITE] Addr=0xdc71fd77 Data=0x8f
# UVM_INFO ../src/env/axi4_scoreboard.sv(219) @ 2415000: uvm_test_top.env.scb [axi4_scoreboard] [REF_MEM_WRITE] Addr=0xdc71fd79 Data=0x4c
# UVM_INFO ../src/env/axi4_scoreboard.sv(219) @ 2415000: uvm_test_top.env.scb [axi4_scoreboard] [REF_MEM_WRITE] Addr=0xdc71fd7a Data=0x1f
# UVM_INFO ../src/env/axi4_scoreboard.sv(219) @ 2415000: uvm_test_top.env.scb [axi4_scoreboard] [REF_MEM_WRITE] Addr=0xdc71fd79 Data=0xd0
# UVM_INFO ../src/env/axi4_scoreboard.sv(219) @ 2415000: uvm_test_top.env.scb [axi4_scoreboard] [REF_MEM_WRITE] Addr=0xdc71fd7a Data=0xb0
# UVM_INFO ../src/env/axi4_scoreboard.sv(219) @ 2415000: uvm_test_top.env.scb [axi4_scoreboard] [REF_MEM_WRITE] Addr=0xdc71fd7b Data=0x8b
# UVM_INFO ../src/env/axi4_scoreboard.sv(219) @ 2415000: uvm_test_top.env.scb [axi4_scoreboard] [REF_MEM_WRITE] Addr=0xdc71fd7d Data=0x48
# UVM_INFO ../src/env/axi4_scoreboard.sv(219) @ 2415000: uvm_test_top.env.scb [axi4_scoreboard] [REF_MEM_WRITE] Addr=0xdc71fd7e Data=0x16
# UVM_INFO ../src/env/axi4_scoreboard.sv(219) @ 2415000: uvm_test_top.env.scb [axi4_scoreboard] [REF_MEM_WRITE] Addr=0xdc71fd7d Data=0xf5
# UVM_INFO ../src/env/axi4_scoreboard.sv(219) @ 2415000: uvm_test_top.env.scb [axi4_scoreboard] [REF_MEM_WRITE] Addr=0xdc71fd7e Data=0x0d
# UVM_INFO ../src/env/axi4_scoreboard.sv(219) @ 2415000: uvm_test_top.env.scb [axi4_scoreboard] [REF_MEM_WRITE] Addr=0xdc71fd81 Data=0x95
# UVM_INFO ../src/env/axi4_scoreboard.sv(219) @ 2415000: uvm_test_top.env.scb [axi4_scoreboard] [REF_MEM_WRITE] Addr=0xdc71fd82 Data=0x8f
# UVM_INFO ../src/env/axi4_scoreboard.sv(219) @ 2415000: uvm_test_top.env.scb [axi4_scoreboard] [REF_MEM_WRITE] Addr=0xdc71fd81 Data=0x3e
# UVM_INFO ../src/env/axi4_scoreboard.sv(219) @ 2415000: uvm_test_top.env.scb [axi4_scoreboard] [REF_MEM_WRITE] Addr=0xdc71fd84 Data=0x51
# UVM_INFO ../src/env/axi4_scoreboard.sv(219) @ 2415000: uvm_test_top.env.scb [axi4_scoreboard] [REF_MEM_WRITE] Addr=0xdc71fd87 Data=0x06
# UVM_INFO ../src/env/axi4_scoreboard.sv(219) @ 2415000: uvm_test_top.env.scb [axi4_scoreboard] [REF_MEM_WRITE] Addr=0xdc71fd84 Data=0xf3
# UVM_INFO ../src/env/axi4_scoreboard.sv(219) @ 2415000: uvm_test_top.env.scb [axi4_scoreboard] [REF_MEM_WRITE] Addr=0xdc71fd85 Data=0x89
# UVM_INFO ../src/env/axi4_scoreboard.sv(219) @ 2415000: uvm_test_top.env.scb [axi4_scoreboard] [REF_MEM_WRITE] Addr=0xdc71fd86 Data=0x0e
# UVM_INFO ../src/env/axi4_scoreboard.sv(219) @ 2415000: uvm_test_top.env.scb [axi4_scoreboard] [REF_MEM_WRITE] Addr=0xdc71fd88 Data=0x41
# UVM_INFO ../src/env/axi4_scoreboard.sv(219) @ 2415000: uvm_test_top.env.scb [axi4_scoreboard] [REF_MEM_WRITE] Addr=0xdc71fd89 Data=0x33
# UVM_INFO ../src/env/axi4_scoreboard.sv(219) @ 2415000: uvm_test_top.env.scb [axi4_scoreboard] [REF_MEM_WRITE] Addr=0xdc71fd8b Data=0xf8
# UVM_INFO ../src/env/axi4_scoreboard.sv(219) @ 2415000: uvm_test_top.env.scb [axi4_scoreboard] [REF_MEM_WRITE] Addr=0xdc71fd88 Data=0xb8
# UVM_INFO ../src/env/axi4_scoreboard.sv(219) @ 2415000: uvm_test_top.env.scb [axi4_scoreboard] [REF_MEM_WRITE] Addr=0xdc71fd8a Data=0xde
# UVM_INFO ../src/env/axi4_scoreboard.sv(219) @ 2415000: uvm_test_top.env.scb [axi4_scoreboard] [REF_MEM_WRITE] Addr=0xdc71fd8c Data=0xa2
# UVM_INFO ../src/env/axi4_scoreboard.sv(219) @ 2415000: uvm_test_top.env.scb [axi4_scoreboard] [REF_MEM_WRITE] Addr=0xdc71fd8d Data=0x94
# UVM_INFO ../src/env/axi4_scoreboard.sv(219) @ 2415000: uvm_test_top.env.scb [axi4_scoreboard] [REF_MEM_WRITE] Addr=0xdc71fd8e Data=0x9b
# UVM_INFO ../src/env/axi4_scoreboard.sv(219) @ 2415000: uvm_test_top.env.scb [axi4_scoreboard] [REF_MEM_WRITE] Addr=0xdc71fd90 Data=0xdd
# UVM_INFO ../src/env/axi4_scoreboard.sv(219) @ 2415000: uvm_test_top.env.scb [axi4_scoreboard] [REF_MEM_WRITE] Addr=0xdc71fd93 Data=0x3a
# UVM_INFO ../src/env/axi4_scoreboard.sv(219) @ 2415000: uvm_test_top.env.scb [axi4_scoreboard] [REF_MEM_WRITE] Addr=0xdc71fd90 Data=0x9c
# UVM_INFO ../src/env/axi4_scoreboard.sv(219) @ 2415000: uvm_test_top.env.scb [axi4_scoreboard] [REF_MEM_WRITE] Addr=0xdc71fd92 Data=0xfc
# UVM_INFO ../src/env/axi4_scoreboard.sv(219) @ 2415000: uvm_test_top.env.scb [axi4_scoreboard] [REF_MEM_WRITE] Addr=0xdc71fd96 Data=0x53
# UVM_INFO ../src/env/axi4_scoreboard.sv(219) @ 2415000: uvm_test_top.env.scb [axi4_scoreboard] [REF_MEM_WRITE] Addr=0xdc71fd97 Data=0xdf
# UVM_INFO ../src/env/axi4_scoreboard.sv(219) @ 2415000: uvm_test_top.env.scb [axi4_scoreboard] [REF_MEM_WRITE] Addr=0xdc71fd95 Data=0xea
# UVM_INFO ../src/env/axi4_scoreboard.sv(219) @ 2415000: uvm_test_top.env.scb [axi4_scoreboard] [REF_MEM_WRITE] Addr=0xdc71fd9a Data=0x56
# UVM_INFO ../src/env/axi4_scoreboard.sv(219) @ 2415000: uvm_test_top.env.scb [axi4_scoreboard] [REF_MEM_WRITE] Addr=0xdc71fd98 Data=0xa6
# UVM_INFO ../src/env/axi4_scoreboard.sv(219) @ 2415000: uvm_test_top.env.scb [axi4_scoreboard] [REF_MEM_WRITE] Addr=0xdc71fd9d Data=0x57
# UVM_INFO ../src/env/axi4_scoreboard.sv(219) @ 2415000: uvm_test_top.env.scb [axi4_scoreboard] [REF_MEM_WRITE] Addr=0xdc71fd9e Data=0x67
# UVM_INFO ../src/env/axi4_scoreboard.sv(219) @ 2415000: uvm_test_top.env.scb [axi4_scoreboard] [REF_MEM_WRITE] Addr=0xdc71fd9f Data=0x83
# UVM_INFO ../src/env/axi4_scoreboard.sv(219) @ 2415000: uvm_test_top.env.scb [axi4_scoreboard] [REF_MEM_WRITE] Addr=0xdc71fd9c Data=0x85
# UVM_INFO ../src/env/axi4_scoreboard.sv(219) @ 2415000: uvm_test_top.env.scb [axi4_scoreboard] [REF_MEM_WRITE] Addr=0xdc71fd9d Data=0x96
# UVM_INFO ../src/env/axi4_scoreboard.sv(219) @ 2415000: uvm_test_top.env.scb [axi4_scoreboard] [REF_MEM_WRITE] Addr=0xdc71fda0 Data=0x28
# UVM_INFO ../src/env/axi4_scoreboard.sv(219) @ 2415000: uvm_test_top.env.scb [axi4_scoreboard] [REF_MEM_WRITE] Addr=0xdc71fda1 Data=0x7f
# UVM_INFO ../src/env/axi4_scoreboard.sv(219) @ 2415000: uvm_test_top.env.scb [axi4_scoreboard] [REF_MEM_WRITE] Addr=0xdc71fda1 Data=0x46
# UVM_INFO ../src/env/axi4_scoreboard.sv(219) @ 2415000: uvm_test_top.env.scb [axi4_scoreboard] [REF_MEM_WRITE] Addr=0xdc71fda2 Data=0x02
# UVM_INFO ../src/env/axi4_scoreboard.sv(219) @ 2415000: uvm_test_top.env.scb [axi4_scoreboard] [REF_MEM_WRITE] Addr=0xdc71fda3 Data=0x6c
# UVM_INFO ../src/env/axi4_scoreboard.sv(219) @ 2415000: uvm_test_top.env.scb [axi4_scoreboard] [REF_MEM_WRITE] Addr=0xdc71fda5 Data=0xb3
# UVM_INFO ../src/env/axi4_scoreboard.sv(219) @ 2415000: uvm_test_top.env.scb [axi4_scoreboard] [REF_MEM_WRITE] Addr=0xdc71fda4 Data=0xa6
# UVM_INFO ../src/env/axi4_scoreboard.sv(219) @ 2415000: uvm_test_top.env.scb [axi4_scoreboard] [REF_MEM_WRITE] Addr=0xdc71fda6 Data=0x73
# UVM_INFO ../src/env/axi4_scoreboard.sv(219) @ 2415000: uvm_test_top.env.scb [axi4_scoreboard] [REF_MEM_WRITE] Addr=0xdc71fda7 Data=0xcf
# UVM_INFO ../src/env/axi4_scoreboard.sv(219) @ 2415000: uvm_test_top.env.scb [axi4_scoreboard] [REF_MEM_WRITE] Addr=0xdc71fda9 Data=0x0b
# UVM_INFO ../src/env/axi4_scoreboard.sv(219) @ 2415000: uvm_test_top.env.scb [axi4_scoreboard] [REF_MEM_WRITE] Addr=0xdc71fdaa Data=0x94
# UVM_INFO ../src/env/axi4_scoreboard.sv(219) @ 2415000: uvm_test_top.env.scb [axi4_scoreboard] [REF_MEM_WRITE] Addr=0xdc71fda8 Data=0xb7
# UVM_INFO ../src/env/axi4_scoreboard.sv(219) @ 2415000: uvm_test_top.env.scb [axi4_scoreboard] [REF_MEM_WRITE] Addr=0xdc71fdab Data=0x8b
# UVM_INFO ../src/env/axi4_scoreboard.sv(219) @ 2415000: uvm_test_top.env.scb [axi4_scoreboard] [REF_MEM_WRITE] Addr=0xdc71fdae Data=0xf6
# UVM_INFO ../src/env/axi4_scoreboard.sv(219) @ 2415000: uvm_test_top.env.scb [axi4_scoreboard] [REF_MEM_WRITE] Addr=0xdc71fdaf Data=0x61
# UVM_INFO ../src/env/axi4_scoreboard.sv(219) @ 2415000: uvm_test_top.env.scb [axi4_scoreboard] [REF_MEM_WRITE] Addr=0xdc71fdb1 Data=0x69
# UVM_INFO ../src/env/axi4_scoreboard.sv(219) @ 2415000: uvm_test_top.env.scb [axi4_scoreboard] [REF_MEM_WRITE] Addr=0xdc71fdb0 Data=0x4f
# UVM_INFO ../src/env/axi4_scoreboard.sv(219) @ 2415000: uvm_test_top.env.scb [axi4_scoreboard] [REF_MEM_WRITE] Addr=0xdc71fdb1 Data=0xa4
# UVM_INFO ../src/env/axi4_scoreboard.sv(219) @ 2415000: uvm_test_top.env.scb [axi4_scoreboard] [REF_MEM_WRITE] Addr=0xdc71fdb5 Data=0xdc
# UVM_INFO ../src/env/axi4_scoreboard.sv(219) @ 2415000: uvm_test_top.env.scb [axi4_scoreboard] [REF_MEM_WRITE] Addr=0xdc71fdb6 Data=0x04
# UVM_INFO ../src/env/axi4_scoreboard.sv(219) @ 2415000: uvm_test_top.env.scb [axi4_scoreboard] [REF_MEM_WRITE] Addr=0xdc71fdb7 Data=0x8c
# UVM_INFO ../src/env/axi4_scoreboard.sv(219) @ 2415000: uvm_test_top.env.scb [axi4_scoreboard] [REF_MEM_WRITE] Addr=0xdc71fdb4 Data=0x72
# UVM_INFO ../src/env/axi4_scoreboard.sv(219) @ 2415000: uvm_test_top.env.scb [axi4_scoreboard] [REF_MEM_WRITE] Addr=0xdc71fdb6 Data=0xd2
# UVM_INFO ../src/env/axi4_scoreboard.sv(219) @ 2415000: uvm_test_top.env.scb [axi4_scoreboard] [REF_MEM_WRITE] Addr=0xdc71fdb7 Data=0xc9
# UVM_INFO ../src/env/axi4_scoreboard.sv(219) @ 2415000: uvm_test_top.env.scb [axi4_scoreboard] [REF_MEM_WRITE] Addr=0xdc71fdba Data=0x92
# UVM_INFO ../src/env/axi4_scoreboard.sv(219) @ 2415000: uvm_test_top.env.scb [axi4_scoreboard] [REF_MEM_WRITE] Addr=0xdc71fdbb Data=0x40
# UVM_INFO ../src/env/axi4_scoreboard.sv(219) @ 2415000: uvm_test_top.env.scb [axi4_scoreboard] [REF_MEM_WRITE] Addr=0xdc71fdbc Data=0xea
# UVM_INFO ../src/env/axi4_scoreboard.sv(219) @ 2415000: uvm_test_top.env.scb [axi4_scoreboard] [REF_MEM_WRITE] Addr=0xdc71fdbd Data=0x72
# UVM_INFO ../src/env/axi4_scoreboard.sv(219) @ 2415000: uvm_test_top.env.scb [axi4_scoreboard] [REF_MEM_WRITE] Addr=0xdc71fdbf Data=0x34
# UVM_INFO ../src/env/axi4_scoreboard.sv(219) @ 2415000: uvm_test_top.env.scb [axi4_scoreboard] [REF_MEM_WRITE] Addr=0xdc71fdbc Data=0xdd
# UVM_INFO ../src/env/axi4_scoreboard.sv(219) @ 2415000: uvm_test_top.env.scb [axi4_scoreboard] [REF_MEM_WRITE] Addr=0xdc71fdbd Data=0x94
# UVM_INFO ../src/env/axi4_scoreboard.sv(219) @ 2415000: uvm_test_top.env.scb [axi4_scoreboard] [REF_MEM_WRITE] Addr=0xdc71fdc1 Data=0x5f
# UVM_INFO ../src/env/axi4_scoreboard.sv(219) @ 2415000: uvm_test_top.env.scb [axi4_scoreboard] [REF_MEM_WRITE] Addr=0xdc71fdc0 Data=0xf9
# UVM_INFO ../src/env/axi4_scoreboard.sv(219) @ 2415000: uvm_test_top.env.scb [axi4_scoreboard] [REF_MEM_WRITE] Addr=0xdc71fdc1 Data=0xb6
# UVM_INFO ../src/env/axi4_scoreboard.sv(219) @ 2415000: uvm_test_top.env.scb [axi4_scoreboard] [REF_MEM_WRITE] Addr=0xdc71fdc2 Data=0x4f
# UVM_INFO ../src/env/axi4_scoreboard.sv(219) @ 2415000: uvm_test_top.env.scb [axi4_scoreboard] [REF_MEM_WRITE] Addr=0xdc71fdc5 Data=0x08
# UVM_INFO ../src/env/axi4_scoreboard.sv(219) @ 2415000: uvm_test_top.env.scb [axi4_scoreboard] [REF_MEM_WRITE] Addr=0xdc71fdc6 Data=0xc7
# UVM_INFO ../src/env/axi4_scoreboard.sv(219) @ 2415000: uvm_test_top.env.scb [axi4_scoreboard] [REF_MEM_WRITE] Addr=0xdc71fdca Data=0x7b
# UVM_INFO ../src/env/axi4_scoreboard.sv(219) @ 2415000: uvm_test_top.env.scb [axi4_scoreboard] [REF_MEM_WRITE] Addr=0xdc71fdca Data=0x9b
# UVM_INFO ../src/env/axi4_scoreboard.sv(219) @ 2415000: uvm_test_top.env.scb [axi4_scoreboard] [REF_MEM_WRITE] Addr=0xdc71fdcb Data=0x39
# UVM_INFO ../src/env/axi4_scoreboard.sv(219) @ 2415000: uvm_test_top.env.scb [axi4_scoreboard] [REF_MEM_WRITE] Addr=0xdc71fdcc Data=0xbd
# UVM_INFO ../src/env/axi4_scoreboard.sv(219) @ 2415000: uvm_test_top.env.scb [axi4_scoreboard] [REF_MEM_WRITE] Addr=0xdc71fdcd Data=0xff
# UVM_INFO ../src/env/axi4_scoreboard.sv(219) @ 2415000: uvm_test_top.env.scb [axi4_scoreboard] [REF_MEM_WRITE] Addr=0xdc71fdce Data=0xb7
# UVM_INFO ../src/env/axi4_scoreboard.sv(219) @ 2415000: uvm_test_top.env.scb [axi4_scoreboard] [REF_MEM_WRITE] Addr=0xdc71fdcf Data=0x60
# UVM_INFO ../src/env/axi4_scoreboard.sv(219) @ 2415000: uvm_test_top.env.scb [axi4_scoreboard] [REF_MEM_WRITE] Addr=0xdc71fdd0 Data=0xaf
# UVM_INFO ../src/env/axi4_scoreboard.sv(219) @ 2415000: uvm_test_top.env.scb [axi4_scoreboard] [REF_MEM_WRITE] Addr=0xdc71fdd1 Data=0xf4
# UVM_INFO ../src/env/axi4_scoreboard.sv(219) @ 2415000: uvm_test_top.env.scb [axi4_scoreboard] [REF_MEM_WRITE] Addr=0xdc71fdd2 Data=0x81
# UVM_INFO ../src/env/axi4_scoreboard.sv(219) @ 2415000: uvm_test_top.env.scb [axi4_scoreboard] [REF_MEM_WRITE] Addr=0xdc71fdd1 Data=0xd6
# UVM_INFO ../src/env/axi4_scoreboard.sv(219) @ 2415000: uvm_test_top.env.scb [axi4_scoreboard] [REF_MEM_WRITE] Addr=0xdc71fdd2 Data=0x12
# UVM_INFO ../src/env/axi4_scoreboard.sv(219) @ 2415000: uvm_test_top.env.scb [axi4_scoreboard] [REF_MEM_WRITE] Addr=0xdc71fdd3 Data=0x2c
# UVM_INFO ../src/env/axi4_scoreboard.sv(219) @ 2415000: uvm_test_top.env.scb [axi4_scoreboard] [REF_MEM_WRITE] Addr=0xdc71fdd5 Data=0x86
# UVM_INFO ../src/env/axi4_scoreboard.sv(219) @ 2415000: uvm_test_top.env.scb [axi4_scoreboard] [REF_MEM_WRITE] Addr=0xdc71fdd6 Data=0xc8
# UVM_INFO ../src/env/axi4_scoreboard.sv(219) @ 2415000: uvm_test_top.env.scb [axi4_scoreboard] [REF_MEM_WRITE] Addr=0xdc71fdd7 Data=0xf5
# UVM_INFO ../src/env/axi4_scoreboard.sv(219) @ 2415000: uvm_test_top.env.scb [axi4_scoreboard] [REF_MEM_WRITE] Addr=0xdc71fdd9 Data=0xfa
# UVM_INFO ../src/env/axi4_scoreboard.sv(219) @ 2415000: uvm_test_top.env.scb [axi4_scoreboard] [REF_MEM_WRITE] Addr=0xdc71fddb Data=0x3f
# UVM_INFO ../src/env/axi4_scoreboard.sv(219) @ 2415000: uvm_test_top.env.scb [axi4_scoreboard] [REF_MEM_WRITE] Addr=0xdc71fdde Data=0x2a
# UVM_INFO ../src/env/axi4_scoreboard.sv(219) @ 2415000: uvm_test_top.env.scb [axi4_scoreboard] [REF_MEM_WRITE] Addr=0xdc71fddc Data=0xb7
# UVM_INFO ../src/env/axi4_scoreboard.sv(219) @ 2415000: uvm_test_top.env.scb [axi4_scoreboard] [REF_MEM_WRITE] Addr=0xdc71fddd Data=0x3d
# UVM_INFO ../src/env/axi4_scoreboard.sv(219) @ 2415000: uvm_test_top.env.scb [axi4_scoreboard] [REF_MEM_WRITE] Addr=0xdc71fdde Data=0xa6
# UVM_INFO ../src/env/axi4_scoreboard.sv(219) @ 2415000: uvm_test_top.env.scb [axi4_scoreboard] [REF_MEM_WRITE] Addr=0xdc71fde0 Data=0xd4
# UVM_INFO ../src/env/axi4_scoreboard.sv(219) @ 2415000: uvm_test_top.env.scb [axi4_scoreboard] [REF_MEM_WRITE] Addr=0xdc71fde0 Data=0x72
# UVM_INFO ../src/env/axi4_scoreboard.sv(219) @ 2415000: uvm_test_top.env.scb [axi4_scoreboard] [REF_MEM_WRITE] Addr=0xdc71fde1 Data=0x78
# UVM_INFO ../src/env/axi4_scoreboard.sv(219) @ 2415000: uvm_test_top.env.scb [axi4_scoreboard] [REF_MEM_WRITE] Addr=0xdc71fde2 Data=0x2f
# UVM_INFO ../src/env/axi4_scoreboard.sv(219) @ 2415000: uvm_test_top.env.scb [axi4_scoreboard] [REF_MEM_WRITE] Addr=0xdc71fde3 Data=0xf6
# UVM_INFO ../src/env/axi4_scoreboard.sv(219) @ 2415000: uvm_test_top.env.scb [axi4_scoreboard] [REF_MEM_WRITE] Addr=0xdc71fde5 Data=0xa2
# UVM_INFO ../src/env/axi4_scoreboard.sv(219) @ 2415000: uvm_test_top.env.scb [axi4_scoreboard] [REF_MEM_WRITE] Addr=0xdc71fdea Data=0xcd
# UVM_INFO ../src/env/axi4_scoreboard.sv(219) @ 2415000: uvm_test_top.env.scb [axi4_scoreboard] [REF_MEM_WRITE] Addr=0xdc71fdeb Data=0xf5
# UVM_INFO ../src/env/axi4_scoreboard.sv(219) @ 2415000: uvm_test_top.env.scb [axi4_scoreboard] [REF_MEM_WRITE] Addr=0xdc71fde8 Data=0xae
# UVM_INFO ../src/env/axi4_scoreboard.sv(219) @ 2415000: uvm_test_top.env.scb [axi4_scoreboard] [REF_MEM_WRITE] Addr=0xdc71fde9 Data=0xd8
# UVM_INFO ../src/env/axi4_scoreboard.sv(219) @ 2415000: uvm_test_top.env.scb [axi4_scoreboard] [REF_MEM_WRITE] Addr=0xdc71fdea Data=0xc6
# UVM_INFO ../src/env/axi4_scoreboard.sv(219) @ 2415000: uvm_test_top.env.scb [axi4_scoreboard] [REF_MEM_WRITE] Addr=0xdc71fdeb Data=0x34
# UVM_INFO ../src/env/axi4_scoreboard.sv(219) @ 2415000: uvm_test_top.env.scb [axi4_scoreboard] [REF_MEM_WRITE] Addr=0xdc71fded Data=0x2d
# UVM_INFO ../src/env/axi4_scoreboard.sv(219) @ 2415000: uvm_test_top.env.scb [axi4_scoreboard] [REF_MEM_WRITE] Addr=0xdc71fdef Data=0x56
# UVM_INFO ../src/env/axi4_scoreboard.sv(219) @ 2415000: uvm_test_top.env.scb [axi4_scoreboard] [REF_MEM_WRITE] Addr=0xdc71fded Data=0xd8
# UVM_INFO ../src/env/axi4_scoreboard.sv(219) @ 2415000: uvm_test_top.env.scb [axi4_scoreboard] [REF_MEM_WRITE] Addr=0xdc71fdef Data=0x53
# UVM_INFO ../src/env/axi4_scoreboard.sv(219) @ 2415000: uvm_test_top.env.scb [axi4_scoreboard] [REF_MEM_WRITE] Addr=0xdc71fdf0 Data=0x3f
# UVM_INFO ../src/env/axi4_scoreboard.sv(219) @ 2415000: uvm_test_top.env.scb [axi4_scoreboard] [REF_MEM_WRITE] Addr=0xdc71fdf3 Data=0xef
# UVM_INFO ../src/env/axi4_scoreboard.sv(219) @ 2415000: uvm_test_top.env.scb [axi4_scoreboard] [REF_MEM_WRITE] Addr=0xdc71fdf1 Data=0xc9
# UVM_INFO ../src/env/axi4_scoreboard.sv(219) @ 2415000: uvm_test_top.env.scb [axi4_scoreboard] [REF_MEM_WRITE] Addr=0xdc71fdf2 Data=0x57
# UVM_INFO ../src/env/axi4_scoreboard.sv(219) @ 2415000: uvm_test_top.env.scb [axi4_scoreboard] [REF_MEM_WRITE] Addr=0xdc71fdf4 Data=0xe2
# UVM_INFO ../src/env/axi4_scoreboard.sv(219) @ 2415000: uvm_test_top.env.scb [axi4_scoreboard] [REF_MEM_WRITE] Addr=0xdc71fdf6 Data=0x9e
# UVM_INFO ../src/env/axi4_scoreboard.sv(219) @ 2415000: uvm_test_top.env.scb [axi4_scoreboard] [REF_MEM_WRITE] Addr=0xdc71fdf4 Data=0x8e
# UVM_INFO ../src/env/axi4_scoreboard.sv(219) @ 2415000: uvm_test_top.env.scb [axi4_scoreboard] [REF_MEM_WRITE] Addr=0xdc71fdf7 Data=0x2b
# UVM_INFO ../src/env/axi4_scoreboard.sv(219) @ 2415000: uvm_test_top.env.scb [axi4_scoreboard] [REF_MEM_WRITE] Addr=0xdc71fdf9 Data=0x16
# UVM_INFO ../src/env/axi4_scoreboard.sv(219) @ 2415000: uvm_test_top.env.scb [axi4_scoreboard] [REF_MEM_WRITE] Addr=0xdc71fdf8 Data=0x52
# UVM_INFO ../src/env/axi4_scoreboard.sv(219) @ 2415000: uvm_test_top.env.scb [axi4_scoreboard] [REF_MEM_WRITE] Addr=0xdc71fdfb Data=0x0d
# UVM_INFO ../src/env/axi4_scoreboard.sv(219) @ 2415000: uvm_test_top.env.scb [axi4_scoreboard] [REF_MEM_WRITE] Addr=0xdc71fdff Data=0x8a
# UVM_INFO ../src/env/axi4_scoreboard.sv(219) @ 2415000: uvm_test_top.env.scb [axi4_scoreboard] [REF_MEM_WRITE] Addr=0xdc71fdff Data=0x6e
# UVM_INFO ../src/env/axi4_scoreboard.sv(219) @ 2415000: uvm_test_top.env.scb [axi4_scoreboard] [REF_MEM_WRITE] Addr=0xdc71fe00 Data=0x22
# UVM_INFO ../src/env/axi4_scoreboard.sv(219) @ 2415000: uvm_test_top.env.scb [axi4_scoreboard] [REF_MEM_WRITE] Addr=0xdc71fe01 Data=0x47
# UVM_INFO ../src/env/axi4_scoreboard.sv(219) @ 2415000: uvm_test_top.env.scb [axi4_scoreboard] [REF_MEM_WRITE] Addr=0xdc71fe03 Data=0x69
# UVM_INFO ../src/env/axi4_scoreboard.sv(219) @ 2415000: uvm_test_top.env.scb [axi4_scoreboard] [REF_MEM_WRITE] Addr=0xdc71fe04 Data=0xce
# UVM_INFO ../src/env/axi4_scoreboard.sv(219) @ 2415000: uvm_test_top.env.scb [axi4_scoreboard] [REF_MEM_WRITE] Addr=0xdc71fe06 Data=0xf4
# UVM_INFO ../src/env/axi4_scoreboard.sv(219) @ 2415000: uvm_test_top.env.scb [axi4_scoreboard] [REF_MEM_WRITE] Addr=0xdc71fe07 Data=0x0a
# UVM_INFO ../src/mst/axi4_master_driver.sv(348) @ 4095000: uvm_test_top.env.master_agent.drv [axi4_master_driver] Master driver received all R beats for ID=0x8
# UVM_INFO ../src/slv/axi4_slave_driver.sv(464) @ 4095000: uvm_test_top.env.slave_agent.drv [axi4_slave_driver] Read complete: ID=0x8 ADDR=0x32121fc7 RESP=AXI4_RESP_EXOKAY  199 beats sent
# UVM_INFO ../src/slv/axi4_slave_monitor.sv(287) @ 4095000: uvm_test_top.env.slave_agent.mon [axi4_slave_monitor] Read data sent: ID=0x8 ADDR=0x32121fc7 199 beats
# UVM_INFO ../src/env/axi4_scoreboard.sv(108) @ 4095000: uvm_test_top.env.scb [axi4_scoreboard] Slave AXI4_READ received: ID=0x8 ADDR=0x32121fc7 LEN=198
# UVM_INFO ../src/mst/axi4_master_monitor.sv(314) @ 4095000: uvm_test_top.env.master_agent.mon [axi4_master_monitor] Read complete: ID=0x8 ADDR=0x32121fc7 199 beats
# UVM_INFO ../src/env/axi4_scoreboard.sv(87) @ 4095000: uvm_test_top.env.scb [axi4_scoreboard] Master AXI4_READ received: ID=0x8 ADDR=0x32121fc7 LEN=198
# UVM_INFO ../src/env/axi4_scoreboard.sv(291) @ 4095000: uvm_test_top.env.scb [axi4_scoreboard] [READ] MATCH #2: ID=0x8 ADDR=0x32121fc7 LEN=198
# UVM_INFO ../src/mst/axi4_master_monitor.sv(184) @ 5365000: uvm_test_top.env.master_agent.mon [axi4_master_monitor] W data assembled: ID=0xa ADDR=0x937c40d5 149 beats
# UVM_INFO ../src/slv/axi4_slave_monitor.sv(167) @ 5365000: uvm_test_top.env.slave_agent.mon [axi4_slave_monitor] W data assembled: ID=0xa ADDR=0x937c40d5 149 beats
# UVM_INFO ../src/mst/axi4_master_driver.sv(289) @ 5395000: uvm_test_top.env.master_agent.drv [axi4_master_driver] Master driver received B response: ID=0xa RESP=AXI4_RESP_OKAY
# UVM_INFO ../src/slv/axi4_slave_driver.sv(320) @ 5395000: uvm_test_top.env.slave_agent.drv [axi4_slave_driver] Write complete: ID=0xa RESP=AXI4_RESP_OKAY
# UVM_INFO ../src/slv/axi4_slave_monitor.sv(189) @ 5395000: uvm_test_top.env.slave_agent.mon [axi4_slave_monitor] Write response sent: ID=0xa ADDR=0x937c40d5 RESP=AXI4_RESP_OKAY
# UVM_INFO ../src/env/axi4_scoreboard.sv(108) @ 5395000: uvm_test_top.env.scb [axi4_scoreboard] Slave AXI4_WRITE received: ID=0xa ADDR=0x937c40d5 LEN=148
# UVM_INFO ../src/mst/axi4_master_monitor.sv(210) @ 5395000: uvm_test_top.env.master_agent.mon [axi4_master_monitor] Write complete: ID=0xa ADDR=0x937c40d5 RESP=AXI4_RESP_OKAY
# UVM_INFO ../src/env/axi4_scoreboard.sv(87) @ 5395000: uvm_test_top.env.scb [axi4_scoreboard] Master AXI4_WRITE received: ID=0xa ADDR=0x937c40d5 LEN=148
# UVM_INFO ../src/env/axi4_scoreboard.sv(291) @ 5395000: uvm_test_top.env.scb [axi4_scoreboard] [WRITE] MATCH #3: ID=0xa ADDR=0x937c40d5 LEN=148
# UVM_INFO ../src/env/axi4_scoreboard.sv(219) @ 5395000: uvm_test_top.env.scb [axi4_scoreboard] [REF_MEM_WRITE] Addr=0x937c40d5 Data=0x00
# UVM_INFO ../src/env/axi4_scoreboard.sv(219) @ 5395000: uvm_test_top.env.scb [axi4_scoreboard] [REF_MEM_WRITE] Addr=0x937c40d4 Data=0x06
# UVM_INFO ../src/env/axi4_scoreboard.sv(219) @ 5395000: uvm_test_top.env.scb [axi4_scoreboard] [REF_MEM_WRITE] Addr=0x937c40d6 Data=0xd2
# UVM_INFO ../src/env/axi4_scoreboard.sv(219) @ 5395000: uvm_test_top.env.scb [axi4_scoreboard] [REF_MEM_WRITE] Addr=0x937c40d9 Data=0x33
# UVM_INFO ../src/env/axi4_scoreboard.sv(219) @ 5395000: uvm_test_top.env.scb [axi4_scoreboard] [REF_MEM_WRITE] Addr=0x937c40da Data=0xa7
# UVM_INFO ../src/env/axi4_scoreboard.sv(219) @ 5395000: uvm_test_top.env.scb [axi4_scoreboard] [REF_MEM_WRITE] Addr=0x937c40db Data=0xb8
# UVM_INFO ../src/env/axi4_scoreboard.sv(219) @ 5395000: uvm_test_top.env.scb [axi4_scoreboard] [REF_MEM_WRITE] Addr=0x937c40dc Data=0x1e
# UVM_INFO ../src/env/axi4_scoreboard.sv(219) @ 5395000: uvm_test_top.env.scb [axi4_scoreboard] [REF_MEM_WRITE] Addr=0x937c40dd Data=0x4d
# UVM_INFO ../src/env/axi4_scoreboard.sv(219) @ 5395000: uvm_test_top.env.scb [axi4_scoreboard] [REF_MEM_WRITE] Addr=0x937c40dc Data=0x1d
# UVM_INFO ../src/env/axi4_scoreboard.sv(219) @ 5395000: uvm_test_top.env.scb [axi4_scoreboard] [REF_MEM_WRITE] Addr=0x937c40de Data=0xcb
# UVM_INFO ../src/env/axi4_scoreboard.sv(219) @ 5395000: uvm_test_top.env.scb [axi4_scoreboard] [REF_MEM_WRITE] Addr=0x937c40e0 Data=0x44
# UVM_INFO ../src/env/axi4_scoreboard.sv(219) @ 5395000: uvm_test_top.env.scb [axi4_scoreboard] [REF_MEM_WRITE] Addr=0x937c40e2 Data=0x3c
# UVM_INFO ../src/env/axi4_scoreboard.sv(219) @ 5395000: uvm_test_top.env.scb [axi4_scoreboard] [REF_MEM_WRITE] Addr=0x937c40e4 Data=0x3e
# UVM_INFO ../src/env/axi4_scoreboard.sv(219) @ 5395000: uvm_test_top.env.scb [axi4_scoreboard] [REF_MEM_WRITE] Addr=0x937c40e6 Data=0x7c
# UVM_INFO ../src/env/axi4_scoreboard.sv(219) @ 5395000: uvm_test_top.env.scb [axi4_scoreboard] [REF_MEM_WRITE] Addr=0x937c40e7 Data=0x3f
# UVM_INFO ../src/env/axi4_scoreboard.sv(219) @ 5395000: uvm_test_top.env.scb [axi4_scoreboard] [REF_MEM_WRITE] Addr=0x937c40e5 Data=0x0b
# UVM_INFO ../src/env/axi4_scoreboard.sv(219) @ 5395000: uvm_test_top.env.scb [axi4_scoreboard] [REF_MEM_WRITE] Addr=0x937c40e6 Data=0x04
# UVM_INFO ../src/env/axi4_scoreboard.sv(219) @ 5395000: uvm_test_top.env.scb [axi4_scoreboard] [REF_MEM_WRITE] Addr=0x937c40e7 Data=0x4a
# UVM_INFO ../src/env/axi4_scoreboard.sv(219) @ 5395000: uvm_test_top.env.scb [axi4_scoreboard] [REF_MEM_WRITE] Addr=0x937c40eb Data=0x66
# UVM_INFO ../src/env/axi4_scoreboard.sv(219) @ 5395000: uvm_test_top.env.scb [axi4_scoreboard] [REF_MEM_WRITE] Addr=0x937c40ea Data=0x4d
# UVM_INFO ../src/env/axi4_scoreboard.sv(219) @ 5395000: uvm_test_top.env.scb [axi4_scoreboard] [REF_MEM_WRITE] Addr=0x937c40ec Data=0x67
# UVM_INFO ../src/env/axi4_scoreboard.sv(219) @ 5395000: uvm_test_top.env.scb [axi4_scoreboard] [REF_MEM_WRITE] Addr=0x937c40ee Data=0xc7
# UVM_INFO ../src/env/axi4_scoreboard.sv(219) @ 5395000: uvm_test_top.env.scb [axi4_scoreboard] [REF_MEM_WRITE] Addr=0x937c40ef Data=0xb9
# UVM_INFO ../src/env/axi4_scoreboard.sv(219) @ 5395000: uvm_test_top.env.scb [axi4_scoreboard] [REF_MEM_WRITE] Addr=0x937c40ed Data=0xd9
# UVM_INFO ../src/env/axi4_scoreboard.sv(219) @ 5395000: uvm_test_top.env.scb [axi4_scoreboard] [REF_MEM_WRITE] Addr=0x937c40ef Data=0xb9
# UVM_INFO ../src/env/axi4_scoreboard.sv(219) @ 5395000: uvm_test_top.env.scb [axi4_scoreboard] [REF_MEM_WRITE] Addr=0x937c40f0 Data=0xef
# UVM_INFO ../src/env/axi4_scoreboard.sv(219) @ 5395000: uvm_test_top.env.scb [axi4_scoreboard] [REF_MEM_WRITE] Addr=0x937c40f2 Data=0x5b
# UVM_INFO ../src/env/axi4_scoreboard.sv(219) @ 5395000: uvm_test_top.env.scb [axi4_scoreboard] [REF_MEM_WRITE] Addr=0x937c40f3 Data=0xcc
# UVM_INFO ../src/env/axi4_scoreboard.sv(219) @ 5395000: uvm_test_top.env.scb [axi4_scoreboard] [REF_MEM_WRITE] Addr=0x937c40f2 Data=0x68
# UVM_INFO ../src/env/axi4_scoreboard.sv(219) @ 5395000: uvm_test_top.env.scb [axi4_scoreboard] [REF_MEM_WRITE] Addr=0x937c40f3 Data=0xbd
# UVM_INFO ../src/env/axi4_scoreboard.sv(219) @ 5395000: uvm_test_top.env.scb [axi4_scoreboard] [REF_MEM_WRITE] Addr=0x937c40f5 Data=0xab
# UVM_INFO ../src/env/axi4_scoreboard.sv(219) @ 5395000: uvm_test_top.env.scb [axi4_scoreboard] [REF_MEM_WRITE] Addr=0x937c40f5 Data=0x02
# UVM_INFO ../src/env/axi4_scoreboard.sv(219) @ 5395000: uvm_test_top.env.scb [axi4_scoreboard] [REF_MEM_WRITE] Addr=0x937c40f6 Data=0xe6
# UVM_INFO ../src/env/axi4_scoreboard.sv(219) @ 5395000: uvm_test_top.env.scb [axi4_scoreboard] [REF_MEM_WRITE] Addr=0x937c40fb Data=0xf9
# UVM_INFO ../src/env/axi4_scoreboard.sv(219) @ 5395000: uvm_test_top.env.scb [axi4_scoreboard] [REF_MEM_WRITE] Addr=0x937c40f8 Data=0x4c
# UVM_INFO ../src/env/axi4_scoreboard.sv(219) @ 5395000: uvm_test_top.env.scb [axi4_scoreboard] [REF_MEM_WRITE] Addr=0x937c40fc Data=0xcf
# UVM_INFO ../src/env/axi4_scoreboard.sv(219) @ 5395000: uvm_test_top.env.scb [axi4_scoreboard] [REF_MEM_WRITE] Addr=0x937c40fd Data=0x8c
# UVM_INFO ../src/env/axi4_scoreboard.sv(219) @ 5395000: uvm_test_top.env.scb [axi4_scoreboard] [REF_MEM_WRITE] Addr=0x937c40fd Data=0x5b
# UVM_INFO ../src/env/axi4_scoreboard.sv(219) @ 5395000: uvm_test_top.env.scb [axi4_scoreboard] [REF_MEM_WRITE] Addr=0x937c4100 Data=0x96
# UVM_INFO ../src/env/axi4_scoreboard.sv(219) @ 5395000: uvm_test_top.env.scb [axi4_scoreboard] [REF_MEM_WRITE] Addr=0x937c4102 Data=0x71
# UVM_INFO ../src/env/axi4_scoreboard.sv(219) @ 5395000: uvm_test_top.env.scb [axi4_scoreboard] [REF_MEM_WRITE] Addr=0x937c4103 Data=0x8d
# UVM_INFO ../src/env/axi4_scoreboard.sv(219) @ 5395000: uvm_test_top.env.scb [axi4_scoreboard] [REF_MEM_WRITE] Addr=0x937c4100 Data=0x7a
# UVM_INFO ../src/env/axi4_scoreboard.sv(219) @ 5395000: uvm_test_top.env.scb [axi4_scoreboard] [REF_MEM_WRITE] Addr=0x937c4103 Data=0x1e
# UVM_INFO ../src/env/axi4_scoreboard.sv(219) @ 5395000: uvm_test_top.env.scb [axi4_scoreboard] [REF_MEM_WRITE] Addr=0x937c4104 Data=0x08
# UVM_INFO ../src/env/axi4_scoreboard.sv(219) @ 5395000: uvm_test_top.env.scb [axi4_scoreboard] [REF_MEM_WRITE] Addr=0x937c4105 Data=0x26
# UVM_INFO ../src/env/axi4_scoreboard.sv(219) @ 5395000: uvm_test_top.env.scb [axi4_scoreboard] [REF_MEM_WRITE] Addr=0x937c4106 Data=0x26
# UVM_INFO ../src/env/axi4_scoreboard.sv(219) @ 5395000: uvm_test_top.env.scb [axi4_scoreboard] [REF_MEM_WRITE] Addr=0x937c4107 Data=0x0d
# UVM_INFO ../src/env/axi4_scoreboard.sv(219) @ 5395000: uvm_test_top.env.scb [axi4_scoreboard] [REF_MEM_WRITE] Addr=0x937c4104 Data=0xd1
# UVM_INFO ../src/env/axi4_scoreboard.sv(219) @ 5395000: uvm_test_top.env.scb [axi4_scoreboard] [REF_MEM_WRITE] Addr=0x937c4107 Data=0xd7
# UVM_INFO ../src/env/axi4_scoreboard.sv(219) @ 5395000: uvm_test_top.env.scb [axi4_scoreboard] [REF_MEM_WRITE] Addr=0x937c4109 Data=0xe4
# UVM_INFO ../src/env/axi4_scoreboard.sv(219) @ 5395000: uvm_test_top.env.scb [axi4_scoreboard] [REF_MEM_WRITE] Addr=0x937c4108 Data=0x60
# UVM_INFO ../src/env/axi4_scoreboard.sv(219) @ 5395000: uvm_test_top.env.scb [axi4_scoreboard] [REF_MEM_WRITE] Addr=0x937c410a Data=0xce
# UVM_INFO ../src/env/axi4_scoreboard.sv(219) @ 5395000: uvm_test_top.env.scb [axi4_scoreboard] [REF_MEM_WRITE] Addr=0x937c410c Data=0x5e
# UVM_INFO ../src/env/axi4_scoreboard.sv(219) @ 5395000: uvm_test_top.env.scb [axi4_scoreboard] [REF_MEM_WRITE] Addr=0x937c410c Data=0x85
# UVM_INFO ../src/env/axi4_scoreboard.sv(219) @ 5395000: uvm_test_top.env.scb [axi4_scoreboard] [REF_MEM_WRITE] Addr=0x937c410d Data=0x54
# UVM_INFO ../src/env/axi4_scoreboard.sv(219) @ 5395000: uvm_test_top.env.scb [axi4_scoreboard] [REF_MEM_WRITE] Addr=0x937c410f Data=0x16
# UVM_INFO ../src/env/axi4_scoreboard.sv(219) @ 5395000: uvm_test_top.env.scb [axi4_scoreboard] [REF_MEM_WRITE] Addr=0x937c4113 Data=0x8f
# UVM_INFO ../src/env/axi4_scoreboard.sv(219) @ 5395000: uvm_test_top.env.scb [axi4_scoreboard] [REF_MEM_WRITE] Addr=0x937c4116 Data=0x04
# UVM_INFO ../src/env/axi4_scoreboard.sv(219) @ 5395000: uvm_test_top.env.scb [axi4_scoreboard] [REF_MEM_WRITE] Addr=0x937c4117 Data=0xde
# UVM_INFO ../src/env/axi4_scoreboard.sv(219) @ 5395000: uvm_test_top.env.scb [axi4_scoreboard] [REF_MEM_WRITE] Addr=0x937c4114 Data=0xb3
# UVM_INFO ../src/env/axi4_scoreboard.sv(219) @ 5395000: uvm_test_top.env.scb [axi4_scoreboard] [REF_MEM_WRITE] Addr=0x937c4116 Data=0x78
# UVM_INFO ../src/env/axi4_scoreboard.sv(219) @ 5395000: uvm_test_top.env.scb [axi4_scoreboard] [REF_MEM_WRITE] Addr=0x937c4119 Data=0xe1
# UVM_INFO ../src/env/axi4_scoreboard.sv(219) @ 5395000: uvm_test_top.env.scb [axi4_scoreboard] [REF_MEM_WRITE] Addr=0x937c411a Data=0xcc
# UVM_INFO ../src/env/axi4_scoreboard.sv(219) @ 5395000: uvm_test_top.env.scb [axi4_scoreboard] [REF_MEM_WRITE] Addr=0x937c411b Data=0xe3
# UVM_INFO ../src/env/axi4_scoreboard.sv(219) @ 5395000: uvm_test_top.env.scb [axi4_scoreboard] [REF_MEM_WRITE] Addr=0x937c4118 Data=0x12
# UVM_INFO ../src/env/axi4_scoreboard.sv(219) @ 5395000: uvm_test_top.env.scb [axi4_scoreboard] [REF_MEM_WRITE] Addr=0x937c4119 Data=0x87
# UVM_INFO ../src/env/axi4_scoreboard.sv(219) @ 5395000: uvm_test_top.env.scb [axi4_scoreboard] [REF_MEM_WRITE] Addr=0x937c411a Data=0x54
# UVM_INFO ../src/env/axi4_scoreboard.sv(219) @ 5395000: uvm_test_top.env.scb [axi4_scoreboard] [REF_MEM_WRITE] Addr=0x937c411b Data=0x03
# UVM_INFO ../src/env/axi4_scoreboard.sv(219) @ 5395000: uvm_test_top.env.scb [axi4_scoreboard] [REF_MEM_WRITE] Addr=0x937c411c Data=0x0a
# UVM_INFO ../src/env/axi4_scoreboard.sv(219) @ 5395000: uvm_test_top.env.scb [axi4_scoreboard] [REF_MEM_WRITE] Addr=0x937c411d Data=0x07
# UVM_INFO ../src/env/axi4_scoreboard.sv(219) @ 5395000: uvm_test_top.env.scb [axi4_scoreboard] [REF_MEM_WRITE] Addr=0x937c411e Data=0x63
# UVM_INFO ../src/env/axi4_scoreboard.sv(219) @ 5395000: uvm_test_top.env.scb [axi4_scoreboard] [REF_MEM_WRITE] Addr=0x937c411f Data=0xf9
# UVM_INFO ../src/env/axi4_scoreboard.sv(219) @ 5395000: uvm_test_top.env.scb [axi4_scoreboard] [REF_MEM_WRITE] Addr=0x937c4121 Data=0x2b
# UVM_INFO ../src/env/axi4_scoreboard.sv(219) @ 5395000: uvm_test_top.env.scb [axi4_scoreboard] [REF_MEM_WRITE] Addr=0x937c4123 Data=0x39
# UVM_INFO ../src/env/axi4_scoreboard.sv(219) @ 5395000: uvm_test_top.env.scb [axi4_scoreboard] [REF_MEM_WRITE] Addr=0x937c4120 Data=0x2e
# UVM_INFO ../src/env/axi4_scoreboard.sv(219) @ 5395000: uvm_test_top.env.scb [axi4_scoreboard] [REF_MEM_WRITE] Addr=0x937c4121 Data=0x5f
# UVM_INFO ../src/env/axi4_scoreboard.sv(219) @ 5395000: uvm_test_top.env.scb [axi4_scoreboard] [REF_MEM_WRITE] Addr=0x937c4122 Data=0xf1
# UVM_INFO ../src/env/axi4_scoreboard.sv(219) @ 5395000: uvm_test_top.env.scb [axi4_scoreboard] [REF_MEM_WRITE] Addr=0x937c4124 Data=0x51
# UVM_INFO ../src/env/axi4_scoreboard.sv(219) @ 5395000: uvm_test_top.env.scb [axi4_scoreboard] [REF_MEM_WRITE] Addr=0x937c4125 Data=0xd9
# UVM_INFO ../src/env/axi4_scoreboard.sv(219) @ 5395000: uvm_test_top.env.scb [axi4_scoreboard] [REF_MEM_WRITE] Addr=0x937c4126 Data=0x1a
# UVM_INFO ../src/env/axi4_scoreboard.sv(219) @ 5395000: uvm_test_top.env.scb [axi4_scoreboard] [REF_MEM_WRITE] Addr=0x937c4126 Data=0x9e
# UVM_INFO ../src/env/axi4_scoreboard.sv(219) @ 5395000: uvm_test_top.env.scb [axi4_scoreboard] [REF_MEM_WRITE] Addr=0x937c4127 Data=0x40
# UVM_INFO ../src/env/axi4_scoreboard.sv(219) @ 5395000: uvm_test_top.env.scb [axi4_scoreboard] [REF_MEM_WRITE] Addr=0x937c4128 Data=0x26
# UVM_INFO ../src/env/axi4_scoreboard.sv(219) @ 5395000: uvm_test_top.env.scb [axi4_scoreboard] [REF_MEM_WRITE] Addr=0x937c4129 Data=0xf9
# UVM_INFO ../src/env/axi4_scoreboard.sv(219) @ 5395000: uvm_test_top.env.scb [axi4_scoreboard] [REF_MEM_WRITE] Addr=0x937c412b Data=0x48
# UVM_INFO ../src/env/axi4_scoreboard.sv(219) @ 5395000: uvm_test_top.env.scb [axi4_scoreboard] [REF_MEM_WRITE] Addr=0x937c4128 Data=0xb4
# UVM_INFO ../src/env/axi4_scoreboard.sv(219) @ 5395000: uvm_test_top.env.scb [axi4_scoreboard] [REF_MEM_WRITE] Addr=0x937c412b Data=0x8e
# UVM_INFO ../src/env/axi4_scoreboard.sv(219) @ 5395000: uvm_test_top.env.scb [axi4_scoreboard] [REF_MEM_WRITE] Addr=0x937c412c Data=0xe3
# UVM_INFO ../src/env/axi4_scoreboard.sv(219) @ 5395000: uvm_test_top.env.scb [axi4_scoreboard] [REF_MEM_WRITE] Addr=0x937c412c Data=0xd8
# UVM_INFO ../src/env/axi4_scoreboard.sv(219) @ 5395000: uvm_test_top.env.scb [axi4_scoreboard] [REF_MEM_WRITE] Addr=0x937c412d Data=0xc6
# UVM_INFO ../src/env/axi4_scoreboard.sv(219) @ 5395000: uvm_test_top.env.scb [axi4_scoreboard] [REF_MEM_WRITE] Addr=0x937c412f Data=0x69
# UVM_INFO ../src/env/axi4_scoreboard.sv(219) @ 5395000: uvm_test_top.env.scb [axi4_scoreboard] [REF_MEM_WRITE] Addr=0x937c4131 Data=0xc6
# UVM_INFO ../src/env/axi4_scoreboard.sv(219) @ 5395000: uvm_test_top.env.scb [axi4_scoreboard] [REF_MEM_WRITE] Addr=0x937c4133 Data=0xfd
# UVM_INFO ../src/env/axi4_scoreboard.sv(219) @ 5395000: uvm_test_top.env.scb [axi4_scoreboard] [REF_MEM_WRITE] Addr=0x937c4132 Data=0x40
# UVM_INFO ../src/env/axi4_scoreboard.sv(219) @ 5395000: uvm_test_top.env.scb [axi4_scoreboard] [REF_MEM_WRITE] Addr=0x937c4133 Data=0x46
# UVM_INFO ../src/env/axi4_scoreboard.sv(219) @ 5395000: uvm_test_top.env.scb [axi4_scoreboard] [REF_MEM_WRITE] Addr=0x937c4136 Data=0xea
# UVM_INFO ../src/env/axi4_scoreboard.sv(219) @ 5395000: uvm_test_top.env.scb [axi4_scoreboard] [REF_MEM_WRITE] Addr=0x937c4136 Data=0xbc
# UVM_INFO ../src/env/axi4_scoreboard.sv(219) @ 5395000: uvm_test_top.env.scb [axi4_scoreboard] [REF_MEM_WRITE] Addr=0x937c4137 Data=0xfb
# UVM_INFO ../src/env/axi4_scoreboard.sv(219) @ 5395000: uvm_test_top.env.scb [axi4_scoreboard] [REF_MEM_WRITE] Addr=0x937c4139 Data=0xbe
# UVM_INFO ../src/env/axi4_scoreboard.sv(219) @ 5395000: uvm_test_top.env.scb [axi4_scoreboard] [REF_MEM_WRITE] Addr=0x937c413b Data=0xcc
# UVM_INFO ../src/env/axi4_scoreboard.sv(219) @ 5395000: uvm_test_top.env.scb [axi4_scoreboard] [REF_MEM_WRITE] Addr=0x937c4139 Data=0x60
# UVM_INFO ../src/env/axi4_scoreboard.sv(219) @ 5395000: uvm_test_top.env.scb [axi4_scoreboard] [REF_MEM_WRITE] Addr=0x937c413a Data=0x4d
# UVM_INFO ../src/env/axi4_scoreboard.sv(219) @ 5395000: uvm_test_top.env.scb [axi4_scoreboard] [REF_MEM_WRITE] Addr=0x937c413c Data=0x92
# UVM_INFO ../src/env/axi4_scoreboard.sv(219) @ 5395000: uvm_test_top.env.scb [axi4_scoreboard] [REF_MEM_WRITE] Addr=0x937c413c Data=0x46
# UVM_INFO ../src/env/axi4_scoreboard.sv(219) @ 5395000: uvm_test_top.env.scb [axi4_scoreboard] [REF_MEM_WRITE] Addr=0x937c413d Data=0xed
# UVM_INFO ../src/env/axi4_scoreboard.sv(219) @ 5395000: uvm_test_top.env.scb [axi4_scoreboard] [REF_MEM_WRITE] Addr=0x937c413e Data=0x3f
# UVM_INFO ../src/env/axi4_scoreboard.sv(219) @ 5395000: uvm_test_top.env.scb [axi4_scoreboard] [REF_MEM_WRITE] Addr=0x937c413f Data=0xfc
# UVM_INFO ../src/env/axi4_scoreboard.sv(219) @ 5395000: uvm_test_top.env.scb [axi4_scoreboard] [REF_MEM_WRITE] Addr=0x937c4140 Data=0x8d
# UVM_INFO ../src/env/axi4_scoreboard.sv(219) @ 5395000: uvm_test_top.env.scb [axi4_scoreboard] [REF_MEM_WRITE] Addr=0x937c4141 Data=0x5c
# UVM_INFO ../src/env/axi4_scoreboard.sv(219) @ 5395000: uvm_test_top.env.scb [axi4_scoreboard] [REF_MEM_WRITE] Addr=0x937c4142 Data=0x5b
# UVM_INFO ../src/env/axi4_scoreboard.sv(219) @ 5395000: uvm_test_top.env.scb [axi4_scoreboard] [REF_MEM_WRITE] Addr=0x937c4143 Data=0xf7
# UVM_INFO ../src/env/axi4_scoreboard.sv(219) @ 5395000: uvm_test_top.env.scb [axi4_scoreboard] [REF_MEM_WRITE] Addr=0x937c4144 Data=0x3c
# UVM_INFO ../src/env/axi4_scoreboard.sv(219) @ 5395000: uvm_test_top.env.scb [axi4_scoreboard] [REF_MEM_WRITE] Addr=0x937c4145 Data=0x08
# UVM_INFO ../src/env/axi4_scoreboard.sv(219) @ 5395000: uvm_test_top.env.scb [axi4_scoreboard] [REF_MEM_WRITE] Addr=0x937c4146 Data=0x2a
# UVM_INFO ../src/env/axi4_scoreboard.sv(219) @ 5395000: uvm_test_top.env.scb [axi4_scoreboard] [REF_MEM_WRITE] Addr=0x937c4144 Data=0x02
# UVM_INFO ../src/env/axi4_scoreboard.sv(219) @ 5395000: uvm_test_top.env.scb [axi4_scoreboard] [REF_MEM_WRITE] Addr=0x937c4146 Data=0xfb
# UVM_INFO ../src/env/axi4_scoreboard.sv(219) @ 5395000: uvm_test_top.env.scb [axi4_scoreboard] [REF_MEM_WRITE] Addr=0x937c4148 Data=0x45
# UVM_INFO ../src/env/axi4_scoreboard.sv(219) @ 5395000: uvm_test_top.env.scb [axi4_scoreboard] [REF_MEM_WRITE] Addr=0x937c414a Data=0xa2
# UVM_INFO ../src/env/axi4_scoreboard.sv(219) @ 5395000: uvm_test_top.env.scb [axi4_scoreboard] [REF_MEM_WRITE] Addr=0x937c414b Data=0xe2
# UVM_INFO ../src/env/axi4_scoreboard.sv(219) @ 5395000: uvm_test_top.env.scb [axi4_scoreboard] [REF_MEM_WRITE] Addr=0x937c414d Data=0xc6
# UVM_INFO ../src/env/axi4_scoreboard.sv(219) @ 5395000: uvm_test_top.env.scb [axi4_scoreboard] [REF_MEM_WRITE] Addr=0x937c414f Data=0xd2
# UVM_INFO ../src/env/axi4_scoreboard.sv(219) @ 5395000: uvm_test_top.env.scb [axi4_scoreboard] [REF_MEM_WRITE] Addr=0x937c414c Data=0xd7
# UVM_INFO ../src/env/axi4_scoreboard.sv(219) @ 5395000: uvm_test_top.env.scb [axi4_scoreboard] [REF_MEM_WRITE] Addr=0x937c414e Data=0x9f
# UVM_INFO ../src/env/axi4_scoreboard.sv(219) @ 5395000: uvm_test_top.env.scb [axi4_scoreboard] [REF_MEM_WRITE] Addr=0x937c414f Data=0x2a
# UVM_INFO ../src/env/axi4_scoreboard.sv(219) @ 5395000: uvm_test_top.env.scb [axi4_scoreboard] [REF_MEM_WRITE] Addr=0x937c4152 Data=0xe0
# UVM_INFO ../src/env/axi4_scoreboard.sv(219) @ 5395000: uvm_test_top.env.scb [axi4_scoreboard] [REF_MEM_WRITE] Addr=0x937c4150 Data=0x1b
# UVM_INFO ../src/env/axi4_scoreboard.sv(219) @ 5395000: uvm_test_top.env.scb [axi4_scoreboard] [REF_MEM_WRITE] Addr=0x937c4151 Data=0xd7
# UVM_INFO ../src/env/axi4_scoreboard.sv(219) @ 5395000: uvm_test_top.env.scb [axi4_scoreboard] [REF_MEM_WRITE] Addr=0x937c4154 Data=0x5a
# UVM_INFO ../src/env/axi4_scoreboard.sv(219) @ 5395000: uvm_test_top.env.scb [axi4_scoreboard] [REF_MEM_WRITE] Addr=0x937c4155 Data=0x1f
# UVM_INFO ../src/env/axi4_scoreboard.sv(219) @ 5395000: uvm_test_top.env.scb [axi4_scoreboard] [REF_MEM_WRITE] Addr=0x937c4154 Data=0x21
# UVM_INFO ../src/env/axi4_scoreboard.sv(219) @ 5395000: uvm_test_top.env.scb [axi4_scoreboard] [REF_MEM_WRITE] Addr=0x937c4156 Data=0x75
# UVM_INFO ../src/env/axi4_scoreboard.sv(219) @ 5395000: uvm_test_top.env.scb [axi4_scoreboard] [REF_MEM_WRITE] Addr=0x937c4157 Data=0x91
# UVM_INFO ../src/env/axi4_scoreboard.sv(219) @ 5395000: uvm_test_top.env.scb [axi4_scoreboard] [REF_MEM_WRITE] Addr=0x937c4159 Data=0xfb
# UVM_INFO ../src/env/axi4_scoreboard.sv(219) @ 5395000: uvm_test_top.env.scb [axi4_scoreboard] [REF_MEM_WRITE] Addr=0x937c415a Data=0x44
# UVM_INFO ../src/env/axi4_scoreboard.sv(219) @ 5395000: uvm_test_top.env.scb [axi4_scoreboard] [REF_MEM_WRITE] Addr=0x937c415b Data=0x38
# UVM_INFO ../src/env/axi4_scoreboard.sv(219) @ 5395000: uvm_test_top.env.scb [axi4_scoreboard] [REF_MEM_WRITE] Addr=0x937c4158 Data=0x9e
# UVM_INFO ../src/env/axi4_scoreboard.sv(219) @ 5395000: uvm_test_top.env.scb [axi4_scoreboard] [REF_MEM_WRITE] Addr=0x937c415a Data=0xcd
# UVM_INFO ../src/env/axi4_scoreboard.sv(219) @ 5395000: uvm_test_top.env.scb [axi4_scoreboard] [REF_MEM_WRITE] Addr=0x937c415d Data=0x78
# UVM_INFO ../src/env/axi4_scoreboard.sv(219) @ 5395000: uvm_test_top.env.scb [axi4_scoreboard] [REF_MEM_WRITE] Addr=0x937c415f Data=0x82
# UVM_INFO ../src/env/axi4_scoreboard.sv(219) @ 5395000: uvm_test_top.env.scb [axi4_scoreboard] [REF_MEM_WRITE] Addr=0x937c415c Data=0x0e
# UVM_INFO ../src/env/axi4_scoreboard.sv(219) @ 5395000: uvm_test_top.env.scb [axi4_scoreboard] [REF_MEM_WRITE] Addr=0x937c415d Data=0xb6
# UVM_INFO ../src/env/axi4_scoreboard.sv(219) @ 5395000: uvm_test_top.env.scb [axi4_scoreboard] [REF_MEM_WRITE] Addr=0x937c4161 Data=0xb4
# UVM_INFO ../src/env/axi4_scoreboard.sv(219) @ 5395000: uvm_test_top.env.scb [axi4_scoreboard] [REF_MEM_WRITE] Addr=0x937c4162 Data=0x99
# UVM_INFO ../src/env/axi4_scoreboard.sv(219) @ 5395000: uvm_test_top.env.scb [axi4_scoreboard] [REF_MEM_WRITE] Addr=0x937c4163 Data=0x24
# UVM_INFO ../src/env/axi4_scoreboard.sv(219) @ 5395000: uvm_test_top.env.scb [axi4_scoreboard] [REF_MEM_WRITE] Addr=0x937c4162 Data=0x86
# UVM_INFO ../src/env/axi4_scoreboard.sv(219) @ 5395000: uvm_test_top.env.scb [axi4_scoreboard] [REF_MEM_WRITE] Addr=0x937c4163 Data=0x46
# UVM_INFO ../src/env/axi4_scoreboard.sv(219) @ 5395000: uvm_test_top.env.scb [axi4_scoreboard] [REF_MEM_WRITE] Addr=0x937c4164 Data=0x62
# UVM_INFO ../src/env/axi4_scoreboard.sv(219) @ 5395000: uvm_test_top.env.scb [axi4_scoreboard] [REF_MEM_WRITE] Addr=0x937c4166 Data=0x40
# UVM_INFO ../src/env/axi4_scoreboard.sv(219) @ 5395000: uvm_test_top.env.scb [axi4_scoreboard] [REF_MEM_WRITE] Addr=0x937c4167 Data=0x80
# UVM_INFO ../src/env/axi4_scoreboard.sv(219) @ 5395000: uvm_test_top.env.scb [axi4_scoreboard] [REF_MEM_WRITE] Addr=0x937c4169 Data=0x53
# UVM_INFO ../src/env/axi4_scoreboard.sv(219) @ 5395000: uvm_test_top.env.scb [axi4_scoreboard] [REF_MEM_WRITE] Addr=0x937c4169 Data=0x80
# UVM_INFO ../src/env/axi4_scoreboard.sv(219) @ 5395000: uvm_test_top.env.scb [axi4_scoreboard] [REF_MEM_WRITE] Addr=0x937c416c Data=0xcf
# UVM_INFO ../src/env/axi4_scoreboard.sv(219) @ 5395000: uvm_test_top.env.scb [axi4_scoreboard] [REF_MEM_WRITE] Addr=0x937c416d Data=0x33
# UVM_INFO ../src/env/axi4_scoreboard.sv(219) @ 5395000: uvm_test_top.env.scb [axi4_scoreboard] [REF_MEM_WRITE] Addr=0x937c416e Data=0x0d
# UVM_INFO ../src/env/axi4_scoreboard.sv(219) @ 5395000: uvm_test_top.env.scb [axi4_scoreboard] [REF_MEM_WRITE] Addr=0x937c4171 Data=0x49
# UVM_INFO ../src/env/axi4_scoreboard.sv(219) @ 5395000: uvm_test_top.env.scb [axi4_scoreboard] [REF_MEM_WRITE] Addr=0x937c4173 Data=0x8c
# UVM_INFO ../src/env/axi4_scoreboard.sv(219) @ 5395000: uvm_test_top.env.scb [axi4_scoreboard] [REF_MEM_WRITE] Addr=0x937c4170 Data=0x2a
# UVM_INFO ../src/env/axi4_scoreboard.sv(219) @ 5395000: uvm_test_top.env.scb [axi4_scoreboard] [REF_MEM_WRITE] Addr=0x937c4171 Data=0x4b
# UVM_INFO ../src/env/axi4_scoreboard.sv(219) @ 5395000: uvm_test_top.env.scb [axi4_scoreboard] [REF_MEM_WRITE] Addr=0x937c4172 Data=0x6a
# UVM_INFO ../src/env/axi4_scoreboard.sv(219) @ 5395000: uvm_test_top.env.scb [axi4_scoreboard] [REF_MEM_WRITE] Addr=0x937c4174 Data=0x45
# UVM_INFO ../src/env/axi4_scoreboard.sv(219) @ 5395000: uvm_test_top.env.scb [axi4_scoreboard] [REF_MEM_WRITE] Addr=0x937c4176 Data=0x02
# UVM_INFO ../src/env/axi4_scoreboard.sv(219) @ 5395000: uvm_test_top.env.scb [axi4_scoreboard] [REF_MEM_WRITE] Addr=0x937c4178 Data=0x8f
# UVM_INFO ../src/env/axi4_scoreboard.sv(219) @ 5395000: uvm_test_top.env.scb [axi4_scoreboard] [REF_MEM_WRITE] Addr=0x937c417a Data=0xfa
# UVM_INFO ../src/env/axi4_scoreboard.sv(219) @ 5395000: uvm_test_top.env.scb [axi4_scoreboard] [REF_MEM_WRITE] Addr=0x937c417a Data=0xd0
# UVM_INFO ../src/env/axi4_scoreboard.sv(219) @ 5395000: uvm_test_top.env.scb [axi4_scoreboard] [REF_MEM_WRITE] Addr=0x937c417c Data=0x77
# UVM_INFO ../src/env/axi4_scoreboard.sv(219) @ 5395000: uvm_test_top.env.scb [axi4_scoreboard] [REF_MEM_WRITE] Addr=0x937c417d Data=0x26
# UVM_INFO ../src/env/axi4_scoreboard.sv(219) @ 5395000: uvm_test_top.env.scb [axi4_scoreboard] [REF_MEM_WRITE] Addr=0x937c417f Data=0x50
# UVM_INFO ../src/env/axi4_scoreboard.sv(219) @ 5395000: uvm_test_top.env.scb [axi4_scoreboard] [REF_MEM_WRITE] Addr=0x937c4181 Data=0xe3
# UVM_INFO ../src/env/axi4_scoreboard.sv(219) @ 5395000: uvm_test_top.env.scb [axi4_scoreboard] [REF_MEM_WRITE] Addr=0x937c4182 Data=0xd4
# UVM_INFO ../src/env/axi4_scoreboard.sv(219) @ 5395000: uvm_test_top.env.scb [axi4_scoreboard] [REF_MEM_WRITE] Addr=0x937c4184 Data=0x34
# UVM_INFO ../src/env/axi4_scoreboard.sv(219) @ 5395000: uvm_test_top.env.scb [axi4_scoreboard] [REF_MEM_WRITE] Addr=0x937c4187 Data=0x0a
# UVM_INFO ../src/env/axi4_scoreboard.sv(219) @ 5395000: uvm_test_top.env.scb [axi4_scoreboard] [REF_MEM_WRITE] Addr=0x937c4189 Data=0x5b
# UVM_INFO ../src/env/axi4_scoreboard.sv(219) @ 5395000: uvm_test_top.env.scb [axi4_scoreboard] [REF_MEM_WRITE] Addr=0x937c418d Data=0x00
# UVM_INFO ../src/env/axi4_scoreboard.sv(219) @ 5395000: uvm_test_top.env.scb [axi4_scoreboard] [REF_MEM_WRITE] Addr=0x937c418e Data=0xe7
# UVM_INFO ../src/env/axi4_scoreboard.sv(219) @ 5395000: uvm_test_top.env.scb [axi4_scoreboard] [REF_MEM_WRITE] Addr=0x937c4190 Data=0x4e
# UVM_INFO ../src/env/axi4_scoreboard.sv(219) @ 5395000: uvm_test_top.env.scb [axi4_scoreboard] [REF_MEM_WRITE] Addr=0x937c4191 Data=0x67
# UVM_INFO ../src/env/axi4_scoreboard.sv(219) @ 5395000: uvm_test_top.env.scb [axi4_scoreboard] [REF_MEM_WRITE] Addr=0x937c4193 Data=0x7c
# UVM_INFO ../src/env/axi4_scoreboard.sv(219) @ 5395000: uvm_test_top.env.scb [axi4_scoreboard] [REF_MEM_WRITE] Addr=0x937c4192 Data=0x95
# UVM_INFO ../src/env/axi4_scoreboard.sv(219) @ 5395000: uvm_test_top.env.scb [axi4_scoreboard] [REF_MEM_WRITE] Addr=0x937c4197 Data=0x87
# UVM_INFO ../src/env/axi4_scoreboard.sv(219) @ 5395000: uvm_test_top.env.scb [axi4_scoreboard] [REF_MEM_WRITE] Addr=0x937c4195 Data=0xbe
# UVM_INFO ../src/env/axi4_scoreboard.sv(219) @ 5395000: uvm_test_top.env.scb [axi4_scoreboard] [REF_MEM_WRITE] Addr=0x937c4196 Data=0x4e
# UVM_INFO ../src/env/axi4_scoreboard.sv(219) @ 5395000: uvm_test_top.env.scb [axi4_scoreboard] [REF_MEM_WRITE] Addr=0x937c4197 Data=0x39
# UVM_INFO ../src/env/axi4_scoreboard.sv(219) @ 5395000: uvm_test_top.env.scb [axi4_scoreboard] [REF_MEM_WRITE] Addr=0x937c4198 Data=0x2f
# UVM_INFO ../src/env/axi4_scoreboard.sv(219) @ 5395000: uvm_test_top.env.scb [axi4_scoreboard] [REF_MEM_WRITE] Addr=0x937c419a Data=0x77
# UVM_INFO ../src/env/axi4_scoreboard.sv(219) @ 5395000: uvm_test_top.env.scb [axi4_scoreboard] [REF_MEM_WRITE] Addr=0x937c419b Data=0x86
# UVM_INFO ../src/env/axi4_scoreboard.sv(219) @ 5395000: uvm_test_top.env.scb [axi4_scoreboard] [REF_MEM_WRITE] Addr=0x937c4199 Data=0xfa
# UVM_INFO ../src/env/axi4_scoreboard.sv(219) @ 5395000: uvm_test_top.env.scb [axi4_scoreboard] [REF_MEM_WRITE] Addr=0x937c419b Data=0xc3
# UVM_INFO ../src/env/axi4_scoreboard.sv(219) @ 5395000: uvm_test_top.env.scb [axi4_scoreboard] [REF_MEM_WRITE] Addr=0x937c419c Data=0x02
# UVM_INFO ../src/env/axi4_scoreboard.sv(219) @ 5395000: uvm_test_top.env.scb [axi4_scoreboard] [REF_MEM_WRITE] Addr=0x937c419d Data=0xe6
# UVM_INFO ../src/env/axi4_scoreboard.sv(219) @ 5395000: uvm_test_top.env.scb [axi4_scoreboard] [REF_MEM_WRITE] Addr=0x937c419e Data=0xf3
# UVM_INFO ../src/env/axi4_scoreboard.sv(219) @ 5395000: uvm_test_top.env.scb [axi4_scoreboard] [REF_MEM_WRITE] Addr=0x937c419e Data=0x21
# UVM_INFO ../src/env/axi4_scoreboard.sv(219) @ 5395000: uvm_test_top.env.scb [axi4_scoreboard] [REF_MEM_WRITE] Addr=0x937c41a2 Data=0xcb
# UVM_INFO ../src/env/axi4_scoreboard.sv(219) @ 5395000: uvm_test_top.env.scb [axi4_scoreboard] [REF_MEM_WRITE] Addr=0x937c41a1 Data=0x66
# UVM_INFO ../src/env/axi4_scoreboard.sv(219) @ 5395000: uvm_test_top.env.scb [axi4_scoreboard] [REF_MEM_WRITE] Addr=0x937c41a3 Data=0x16
# UVM_INFO ../src/env/axi4_scoreboard.sv(219) @ 5395000: uvm_test_top.env.scb [axi4_scoreboard] [REF_MEM_WRITE] Addr=0x937c41a4 Data=0x71
# UVM_INFO ../src/env/axi4_scoreboard.sv(219) @ 5395000: uvm_test_top.env.scb [axi4_scoreboard] [REF_MEM_WRITE] Addr=0x937c41a5 Data=0x27
# UVM_INFO ../src/env/axi4_scoreboard.sv(219) @ 5395000: uvm_test_top.env.scb [axi4_scoreboard] [REF_MEM_WRITE] Addr=0x937c41a6 Data=0x07
# UVM_INFO ../src/env/axi4_scoreboard.sv(219) @ 5395000: uvm_test_top.env.scb [axi4_scoreboard] [REF_MEM_WRITE] Addr=0x937c41a5 Data=0x9d
# UVM_INFO ../src/env/axi4_scoreboard.sv(219) @ 5395000: uvm_test_top.env.scb [axi4_scoreboard] [REF_MEM_WRITE] Addr=0x937c41a7 Data=0xff
# UVM_INFO ../src/env/axi4_scoreboard.sv(219) @ 5395000: uvm_test_top.env.scb [axi4_scoreboard] [REF_MEM_WRITE] Addr=0x937c41a9 Data=0x42
# UVM_INFO ../src/env/axi4_scoreboard.sv(219) @ 5395000: uvm_test_top.env.scb [axi4_scoreboard] [REF_MEM_WRITE] Addr=0x937c41aa Data=0xbc
# UVM_INFO ../src/env/axi4_scoreboard.sv(219) @ 5395000: uvm_test_top.env.scb [axi4_scoreboard] [REF_MEM_WRITE] Addr=0x937c41ab Data=0x9c
# UVM_INFO ../src/env/axi4_scoreboard.sv(219) @ 5395000: uvm_test_top.env.scb [axi4_scoreboard] [REF_MEM_WRITE] Addr=0x937c41a8 Data=0x15
# UVM_INFO ../src/env/axi4_scoreboard.sv(219) @ 5395000: uvm_test_top.env.scb [axi4_scoreboard] [REF_MEM_WRITE] Addr=0x937c41aa Data=0x50
# UVM_INFO ../src/env/axi4_scoreboard.sv(219) @ 5395000: uvm_test_top.env.scb [axi4_scoreboard] [REF_MEM_WRITE] Addr=0x937c41ad Data=0x25
# UVM_INFO ../src/env/axi4_scoreboard.sv(219) @ 5395000: uvm_test_top.env.scb [axi4_scoreboard] [REF_MEM_WRITE] Addr=0x937c41ae Data=0xdb
# UVM_INFO ../src/env/axi4_scoreboard.sv(219) @ 5395000: uvm_test_top.env.scb [axi4_scoreboard] [REF_MEM_WRITE] Addr=0x937c41b0 Data=0xef
# UVM_INFO ../src/env/axi4_scoreboard.sv(219) @ 5395000: uvm_test_top.env.scb [axi4_scoreboard] [REF_MEM_WRITE] Addr=0x937c41b2 Data=0xb0
# UVM_INFO ../src/env/axi4_scoreboard.sv(219) @ 5395000: uvm_test_top.env.scb [axi4_scoreboard] [REF_MEM_WRITE] Addr=0x937c41b4 Data=0xc5
# UVM_INFO ../src/env/axi4_scoreboard.sv(219) @ 5395000: uvm_test_top.env.scb [axi4_scoreboard] [REF_MEM_WRITE] Addr=0x937c41b5 Data=0x93
# UVM_INFO ../src/env/axi4_scoreboard.sv(219) @ 5395000: uvm_test_top.env.scb [axi4_scoreboard] [REF_MEM_WRITE] Addr=0x937c41b6 Data=0xde
# UVM_INFO ../src/env/axi4_scoreboard.sv(219) @ 5395000: uvm_test_top.env.scb [axi4_scoreboard] [REF_MEM_WRITE] Addr=0x937c41b7 Data=0xd4
# UVM_INFO ../src/env/axi4_scoreboard.sv(219) @ 5395000: uvm_test_top.env.scb [axi4_scoreboard] [REF_MEM_WRITE] Addr=0x937c41ba Data=0xcc
# UVM_INFO ../src/env/axi4_scoreboard.sv(219) @ 5395000: uvm_test_top.env.scb [axi4_scoreboard] [REF_MEM_WRITE] Addr=0x937c41bb Data=0x1a
# UVM_INFO ../src/env/axi4_scoreboard.sv(219) @ 5395000: uvm_test_top.env.scb [axi4_scoreboard] [REF_MEM_WRITE] Addr=0x937c41b9 Data=0xef
# UVM_INFO ../src/env/axi4_scoreboard.sv(219) @ 5395000: uvm_test_top.env.scb [axi4_scoreboard] [REF_MEM_WRITE] Addr=0x937c41bd Data=0x2b
# UVM_INFO ../src/env/axi4_scoreboard.sv(219) @ 5395000: uvm_test_top.env.scb [axi4_scoreboard] [REF_MEM_WRITE] Addr=0x937c41bc Data=0x5b
# UVM_INFO ../src/env/axi4_scoreboard.sv(219) @ 5395000: uvm_test_top.env.scb [axi4_scoreboard] [REF_MEM_WRITE] Addr=0x937c41bd Data=0xff
# UVM_INFO ../src/env/axi4_scoreboard.sv(219) @ 5395000: uvm_test_top.env.scb [axi4_scoreboard] [REF_MEM_WRITE] Addr=0x937c41bf Data=0x28
# UVM_INFO ../src/env/axi4_scoreboard.sv(219) @ 5395000: uvm_test_top.env.scb [axi4_scoreboard] [REF_MEM_WRITE] Addr=0x937c41c0 Data=0xe1
# UVM_INFO ../src/env/axi4_scoreboard.sv(219) @ 5395000: uvm_test_top.env.scb [axi4_scoreboard] [REF_MEM_WRITE] Addr=0x937c41c0 Data=0x99
# UVM_INFO ../src/env/axi4_scoreboard.sv(219) @ 5395000: uvm_test_top.env.scb [axi4_scoreboard] [REF_MEM_WRITE] Addr=0x937c41c1 Data=0x89
# UVM_INFO ../src/env/axi4_scoreboard.sv(219) @ 5395000: uvm_test_top.env.scb [axi4_scoreboard] [REF_MEM_WRITE] Addr=0x937c41c2 Data=0xb5
# UVM_INFO ../src/env/axi4_scoreboard.sv(219) @ 5395000: uvm_test_top.env.scb [axi4_scoreboard] [REF_MEM_WRITE] Addr=0x937c41c3 Data=0x64
# UVM_INFO ../src/env/axi4_scoreboard.sv(219) @ 5395000: uvm_test_top.env.scb [axi4_scoreboard] [REF_MEM_WRITE] Addr=0x937c41c6 Data=0x18
# UVM_INFO ../src/env/axi4_scoreboard.sv(219) @ 5395000: uvm_test_top.env.scb [axi4_scoreboard] [REF_MEM_WRITE] Addr=0x937c41c7 Data=0xb9
# UVM_INFO ../src/env/axi4_scoreboard.sv(219) @ 5395000: uvm_test_top.env.scb [axi4_scoreboard] [REF_MEM_WRITE] Addr=0x937c41c4 Data=0x77
# UVM_INFO ../src/env/axi4_scoreboard.sv(219) @ 5395000: uvm_test_top.env.scb [axi4_scoreboard] [REF_MEM_WRITE] Addr=0x937c41c7 Data=0xd7
# UVM_INFO ../src/env/axi4_scoreboard.sv(219) @ 5395000: uvm_test_top.env.scb [axi4_scoreboard] [REF_MEM_WRITE] Addr=0x937c41c8 Data=0xea
# UVM_INFO ../src/env/axi4_scoreboard.sv(219) @ 5395000: uvm_test_top.env.scb [axi4_scoreboard] [REF_MEM_WRITE] Addr=0x937c41c9 Data=0xef
# UVM_INFO ../src/env/axi4_scoreboard.sv(219) @ 5395000: uvm_test_top.env.scb [axi4_scoreboard] [REF_MEM_WRITE] Addr=0x937c41cb Data=0xaa
# UVM_INFO ../src/env/axi4_scoreboard.sv(219) @ 5395000: uvm_test_top.env.scb [axi4_scoreboard] [REF_MEM_WRITE] Addr=0x937c41c8 Data=0x45
# UVM_INFO ../src/env/axi4_scoreboard.sv(219) @ 5395000: uvm_test_top.env.scb [axi4_scoreboard] [REF_MEM_WRITE] Addr=0x937c41cb Data=0x3d
# UVM_INFO ../src/env/axi4_scoreboard.sv(219) @ 5395000: uvm_test_top.env.scb [axi4_scoreboard] [REF_MEM_WRITE] Addr=0x937c41d0 Data=0xcb
# UVM_INFO ../src/env/axi4_scoreboard.sv(219) @ 5395000: uvm_test_top.env.scb [axi4_scoreboard] [REF_MEM_WRITE] Addr=0x937c41d1 Data=0x4c
# UVM_INFO ../src/env/axi4_scoreboard.sv(219) @ 5395000: uvm_test_top.env.scb [axi4_scoreboard] [REF_MEM_WRITE] Addr=0x937c41d2 Data=0x5e
# UVM_INFO ../src/env/axi4_scoreboard.sv(219) @ 5395000: uvm_test_top.env.scb [axi4_scoreboard] [REF_MEM_WRITE] Addr=0x937c41d3 Data=0x21
# UVM_INFO ../src/env/axi4_scoreboard.sv(219) @ 5395000: uvm_test_top.env.scb [axi4_scoreboard] [REF_MEM_WRITE] Addr=0x937c41d1 Data=0x3b
# UVM_INFO ../src/env/axi4_scoreboard.sv(219) @ 5395000: uvm_test_top.env.scb [axi4_scoreboard] [REF_MEM_WRITE] Addr=0x937c41d3 Data=0x2b
# UVM_INFO ../src/env/axi4_scoreboard.sv(219) @ 5395000: uvm_test_top.env.scb [axi4_scoreboard] [REF_MEM_WRITE] Addr=0x937c41d5 Data=0xb8
# UVM_INFO ../src/env/axi4_scoreboard.sv(219) @ 5395000: uvm_test_top.env.scb [axi4_scoreboard] [REF_MEM_WRITE] Addr=0x937c41d8 Data=0xe5
# UVM_INFO ../src/env/axi4_scoreboard.sv(219) @ 5395000: uvm_test_top.env.scb [axi4_scoreboard] [REF_MEM_WRITE] Addr=0x937c41d9 Data=0x9e
# UVM_INFO ../src/env/axi4_scoreboard.sv(219) @ 5395000: uvm_test_top.env.scb [axi4_scoreboard] [REF_MEM_WRITE] Addr=0x937c41d8 Data=0xe9
# UVM_INFO ../src/env/axi4_scoreboard.sv(219) @ 5395000: uvm_test_top.env.scb [axi4_scoreboard] [REF_MEM_WRITE] Addr=0x937c41d9 Data=0x2a
