# vsim -c -coverage -sv_seed 56401786 "+UVM_TESTNAME=axi4_outstanding_test" "+UVM_VERBOSITY=UVM_HIGH" "+DUMP_VCD" -l ./report/logs/axi4_outstanding_test_run_5_seed_56401786.log -do "coverage save -onexit ./report/coverage/axi4_outstanding_test_run_5_seed_56401786.ucdb; run -all; quit -f" opt_tb_top 
# Start time: 14:03:47 on Jun 11,2026
# //  Questa Sim-64
# //  Version 10.6b linux_x86_64 May 25 2017
# //
# //  Copyright 1991-2017 Mentor Graphics Corporation
# //  All Rights Reserved.
# //
# //  QuestaSim and its associated documentation contain trade
# //  secrets and commercial or financial information that are the property of
# //  Mentor Graphics Corporation and are privileged, confidential,
# //  and exempt from disclosure under the Freedom of Information Act,
# //  5 U.S.C. Section 552. Furthermore, this information
# //  is prohibited from disclosure under the Trade Secrets Act,
# //  18 U.S.C. Section 1905.
# //
# Loading sv_std.std
# Loading work.axi4_if(fast)
# Loading mtiUvm.uvm_pkg
# Loading work.axi4_pkg(fast)
# Loading work.axi4_test_pkg(fast)
# Loading work.tb_top(fast)
# Loading work.axi4_if(fast)
# Loading work.axi4_sva(fast)
# Loading mtiUvm.questa_uvm_pkg(fast)
# Loading /cadtools/mentor/Questa_10.6b/questasim/uvm-1.1d/linux_x86_64/uvm_dpi.so
# coverage save -onexit ./report/coverage/axi4_outstanding_test_run_5_seed_56401786.ucdb
#  run -all
# ----------------------------------------------------------------
# UVM-1.1d
# (C) 2007-2013 Mentor Graphics Corporation
# (C) 2007-2013 Cadence Design Systems, Inc.
# (C) 2006-2013 Synopsys, Inc.
# (C) 2011-2013 Cypress Semiconductor Corp.
# ----------------------------------------------------------------
# 
#   ***********       IMPORTANT RELEASE NOTES         ************
# 
#   You are using a version of the UVM library that has been compiled
#   with `UVM_NO_DEPRECATED undefined.
#   See http://www.eda.org/svdb/view.php?id=3313 for more details.
# 
#   You are using a version of the UVM library that has been compiled
#   with `UVM_OBJECT_MUST_HAVE_CONSTRUCTOR undefined.
#   See http://www.eda.org/svdb/view.php?id=3770 for more details.
# 
#       (Specify +UVM_NO_RELNOTES to turn off this notice)
# 
# UVM_INFO verilog_src/questa_uvm_pkg-1.2/src/questa_uvm_pkg.sv(215) @ 0: reporter [Questa UVM] QUESTA_UVM-1.2.3
# UVM_INFO verilog_src/questa_uvm_pkg-1.2/src/questa_uvm_pkg.sv(217) @ 0: reporter [Questa UVM]  questa_uvm::init(+struct)
# UVM_INFO ../src/tb_top.sv(128) @ 0: reporter [TB_TOP] Virtual interface set in config_db
# UVM_INFO @ 0: reporter [RNTST] Running test axi4_outstanding_test...
# UVM_INFO ../src/tb_top.sv(142) @ 0: reporter [TB_TOP] Waveform VCD dumping enabled (axi4_vip.vcd)
# UVM_INFO ../src/env/axi4_vip_env.sv(83) @ 0: uvm_test_top.env [axi4_vip_env] slave_vif not set - reusing master_vif (passthrough mode)
# UVM_INFO ../src/env/axi4_vip_env.sv(93) @ 0: uvm_test_top.env [axi4_vip_env] Scoreboard created
# UVM_INFO ../src/env/axi4_vip_env.sv(100) @ 0: uvm_test_top.env [axi4_vip_env] Coverage collectors created
# UVM_INFO ../src/mst/axi4_master_agent.sv(69) @ 0: uvm_test_top.env.master_agent [axi4_master_agent] ACTIVE mode - driver + sequencer created
# UVM_INFO ../src/slv/axi4_slave_agent.sv(82) @ 0: uvm_test_top.env.slave_agent [axi4_slave_agent] ACTIVE mode — ready_delay=[0:0] resp_delay=[0:0]
# UVM_INFO ../src/env/axi4_vip_env.sv(116) @ 0: uvm_test_top.env [axi4_vip_env] Scoreboard connected: master_mon.ap -> scb, slave_mon.ap -> scb
# UVM_INFO ../src/env/axi4_vip_env.sv(124) @ 0: uvm_test_top.env [axi4_vip_env] Coverage connected: master_mon.ap -> master_cov, slave_mon.ap -> slave_cov
# UVM_INFO @ 0: reporter [UVMTOP] UVM testbench topology:
# ---------------------------------------------------------------
# Name                       Type                     Size  Value
# ---------------------------------------------------------------
# uvm_test_top               axi4_outstanding_test    -     @473 
#   env                      axi4_vip_env             -     @496 
#     master_agent           axi4_master_agent        -     @511 
#       drv                  axi4_master_driver       -     @575 
#         rsp_port           uvm_analysis_port        -     @590 
#         seq_item_port      uvm_seq_item_pull_port   -     @582 
#       mon                  axi4_master_monitor      -     @567 
#         ap                 uvm_analysis_port        -     @708 
#       sqr                  axi4_master_sequencer    -     @598 
#         rsp_export         uvm_analysis_export      -     @605 
#         seq_item_export    uvm_seq_item_pull_imp    -     @699 
#         arbitration_queue  array                    0     -    
#         lock_queue         array                    0     -    
#         num_last_reqs      integral                 32    'd1  
#         num_last_rsps      integral                 32    'd1  
#     master_cov             axi4_coverage            -     @532 
#       analysis_imp         uvm_analysis_imp         -     @539 
#     scb                    axi4_scoreboard          -     @525 
#       master_export        uvm_analysis_imp_master  -     @722 
#       slave_export         uvm_analysis_imp_slave   -     @730 
#     slave_agent            axi4_slave_agent         -     @518 
#       drv                  axi4_slave_driver        -     @760 
#         rsp_port           uvm_analysis_port        -     @775 
#         seq_item_port      uvm_seq_item_pull_port   -     @767 
#       mon                  axi4_slave_monitor       -     @743 
#         ap                 uvm_analysis_port        -     @899 
#       sqr                  axi4_slave_sequencer     -     @783 
#         rsp_export         uvm_analysis_export      -     @790 
#         seq_item_export    uvm_seq_item_pull_imp    -     @884 
#         arbitration_queue  array                    0     -    
#         lock_queue         array                    0     -    
#         num_last_reqs      integral                 32    'd1  
#         num_last_rsps      integral                 32    'd1  
#     slave_cov              axi4_coverage            -     @547 
#       analysis_imp         uvm_analysis_imp         -     @554 
# ---------------------------------------------------------------
# 
# UVM_INFO verilog_src/questa_uvm_pkg-1.2/src/questa_uvm_pkg.sv(277) @ 0: reporter [Questa UVM] End Of Elaboration
# UVM_INFO ../src/test/axi4_outstanding_test.sv(69) @ 0: uvm_test_top [axi4_outstanding_test] Starting outstanding test with 15 writes, 15 reads, depth=4, r_reorder=1
# UVM_INFO ../src/seq/axi4_outstanding_seq.sv(52) @ 0: uvm_test_top.env.master_agent.sqr@@outstanding_seq [axi4_outstanding_seq] Starting outstanding sequence: writes=15, reads=15, depth=4
# UVM_INFO ../src/tb_top.sv(49) @ 95000: reporter [TOP_TB] Reset de-asserted
# UVM_INFO ../src/slv/axi4_slave_driver.sv(122) @ 95000: uvm_test_top.env.slave_agent.drv [axi4_slave_driver] Reset deasserted - slave driver active
# UVM_INFO ../src/mst/axi4_master_driver.sv(64) @ 95000: uvm_test_top.env.master_agent.drv [axi4_master_driver] Reset deasserted - master driver active
# UVM_INFO ../src/mst/axi4_master_monitor.sv(77) @ 95000: uvm_test_top.env.master_agent.mon [axi4_master_monitor] Reset deasserted - monitor active
# UVM_INFO ../src/slv/axi4_slave_monitor.sv(71) @ 95000: uvm_test_top.env.slave_agent.mon [axi4_slave_monitor] Reset deasserted - monitor active
# UVM_INFO ../src/seq/axi4_outstanding_seq.sv(77) @ 95000: uvm_test_top.env.master_agent.sqr@@outstanding_seq [axi4_outstanding_seq] Outstanding Write [#3] started: ID=0x7 ADDR=0x3627ed51 LEN=121
# UVM_INFO ../src/mst/axi4_master_driver.sv(73) @ 95000: uvm_test_top.env.master_agent.drv [axi4_master_driver] Driving AXI4_WRITE  ID=0x7  ADDR=0x3627ed51  LEN=121
# UVM_INFO ../src/seq/axi4_outstanding_seq.sv(77) @ 95000: uvm_test_top.env.master_agent.sqr@@outstanding_seq [axi4_outstanding_seq] Outstanding Write [#2] started: ID=0xc ADDR=0xa4529f13 LEN=32
# UVM_INFO ../src/mst/axi4_master_driver.sv(73) @ 95000: uvm_test_top.env.master_agent.drv [axi4_master_driver] Driving AXI4_WRITE  ID=0xc  ADDR=0xa4529f13  LEN=32
# UVM_INFO ../src/seq/axi4_outstanding_seq.sv(77) @ 95000: uvm_test_top.env.master_agent.sqr@@outstanding_seq [axi4_outstanding_seq] Outstanding Write [#1] started: ID=0xb ADDR=0xe620c0b5 LEN=154
# UVM_INFO ../src/mst/axi4_master_driver.sv(73) @ 95000: uvm_test_top.env.master_agent.drv [axi4_master_driver] Driving AXI4_WRITE  ID=0xb  ADDR=0xe620c0b5  LEN=154
# UVM_INFO ../src/seq/axi4_outstanding_seq.sv(77) @ 95000: uvm_test_top.env.master_agent.sqr@@outstanding_seq [axi4_outstanding_seq] Outstanding Write [#0] started: ID=0x2 ADDR=0x4be181e4 LEN=221
# UVM_INFO ../src/mst/axi4_master_driver.sv(73) @ 95000: uvm_test_top.env.master_agent.drv [axi4_master_driver] Driving AXI4_WRITE  ID=0x2  ADDR=0x4be181e4  LEN=221
# UVM_INFO ../src/seq/axi4_outstanding_seq.sv(116) @ 95000: uvm_test_top.env.master_agent.sqr@@outstanding_seq [axi4_outstanding_seq] Outstanding Read [#3] started: ID=0x6 ADDR=0x85a04a9f LEN=104
# UVM_INFO ../src/mst/axi4_master_driver.sv(73) @ 95000: uvm_test_top.env.master_agent.drv [axi4_master_driver] Driving AXI4_READ  ID=0x6  ADDR=0x85a04a9f  LEN=104
# UVM_INFO ../src/seq/axi4_outstanding_seq.sv(116) @ 95000: uvm_test_top.env.master_agent.sqr@@outstanding_seq [axi4_outstanding_seq] Outstanding Read [#2] started: ID=0xa ADDR=0x2e92aa6a LEN=159
# UVM_INFO ../src/mst/axi4_master_driver.sv(73) @ 95000: uvm_test_top.env.master_agent.drv [axi4_master_driver] Driving AXI4_READ  ID=0xa  ADDR=0x2e92aa6a  LEN=159
# UVM_INFO ../src/seq/axi4_outstanding_seq.sv(116) @ 95000: uvm_test_top.env.master_agent.sqr@@outstanding_seq [axi4_outstanding_seq] Outstanding Read [#1] started: ID=0x7 ADDR=0xece0a10a LEN=239
# UVM_INFO ../src/mst/axi4_master_driver.sv(73) @ 95000: uvm_test_top.env.master_agent.drv [axi4_master_driver] Driving AXI4_READ  ID=0x7  ADDR=0xece0a10a  LEN=239
# UVM_INFO ../src/seq/axi4_outstanding_seq.sv(116) @ 95000: uvm_test_top.env.master_agent.sqr@@outstanding_seq [axi4_outstanding_seq] Outstanding Read [#0] started: ID=0x2 ADDR=0xa71c38ef LEN=169
# UVM_INFO ../src/mst/axi4_master_driver.sv(73) @ 95000: uvm_test_top.env.master_agent.drv [axi4_master_driver] Driving AXI4_READ  ID=0x2  ADDR=0xa71c38ef  LEN=169
# UVM_INFO ../src/slv/axi4_slave_driver.sv(358) @ 115000: uvm_test_top.env.slave_agent.drv [axi4_slave_driver] AR received: ID=0x6 ADDR=0x85a04a9f LEN=104 LOCK=AXI4_LOCK_EXCLUSIVE
# UVM_INFO ../src/slv/axi4_slave_driver.sv(212) @ 115000: uvm_test_top.env.slave_agent.drv [axi4_slave_driver] AW received: ID=0x7 ADDR=0x3627ed51 LEN=121 LOCK=AXI4_LOCK_NORMAL
# UVM_INFO ../src/slv/axi4_slave_monitor.sv(224) @ 115000: uvm_test_top.env.slave_agent.mon [axi4_slave_monitor] AR received: ID=0x6 ADDR=0x85a04a9f LEN=104
# UVM_INFO ../src/slv/axi4_slave_monitor.sv(116) @ 115000: uvm_test_top.env.slave_agent.mon [axi4_slave_monitor] AW received: ID=0x7 ADDR=0x3627ed51 LEN=121
# UVM_INFO ../src/mst/axi4_master_monitor.sv(246) @ 115000: uvm_test_top.env.master_agent.mon [axi4_master_monitor] AR observed: ID=0x6 ADDR=0x85a04a9f LEN=104
# UVM_INFO ../src/mst/axi4_master_monitor.sv(124) @ 115000: uvm_test_top.env.master_agent.mon [axi4_master_monitor] AW observed: ID=0x7 ADDR=0x3627ed51 LEN=121
# UVM_INFO ../src/slv/axi4_slave_driver.sv(212) @ 145000: uvm_test_top.env.slave_agent.drv [axi4_slave_driver] AW received: ID=0xc ADDR=0xa4529f13 LEN=32 LOCK=AXI4_LOCK_EXCLUSIVE
# UVM_INFO ../src/slv/axi4_slave_driver.sv(358) @ 145000: uvm_test_top.env.slave_agent.drv [axi4_slave_driver] AR received: ID=0xa ADDR=0x2e92aa6a LEN=159 LOCK=AXI4_LOCK_NORMAL
# UVM_INFO ../src/mst/axi4_master_monitor.sv(124) @ 145000: uvm_test_top.env.master_agent.mon [axi4_master_monitor] AW observed: ID=0xc ADDR=0xa4529f13 LEN=32
# UVM_INFO ../src/mst/axi4_master_monitor.sv(246) @ 145000: uvm_test_top.env.master_agent.mon [axi4_master_monitor] AR observed: ID=0xa ADDR=0x2e92aa6a LEN=159
# UVM_INFO ../src/slv/axi4_slave_monitor.sv(116) @ 145000: uvm_test_top.env.slave_agent.mon [axi4_slave_monitor] AW received: ID=0xc ADDR=0xa4529f13 LEN=32
# UVM_INFO ../src/slv/axi4_slave_monitor.sv(224) @ 145000: uvm_test_top.env.slave_agent.mon [axi4_slave_monitor] AR received: ID=0xa ADDR=0x2e92aa6a LEN=159
# UVM_INFO ../src/slv/axi4_slave_driver.sv(358) @ 175000: uvm_test_top.env.slave_agent.drv [axi4_slave_driver] AR received: ID=0x7 ADDR=0xece0a10a LEN=239 LOCK=AXI4_LOCK_EXCLUSIVE
# UVM_INFO ../src/slv/axi4_slave_monitor.sv(224) @ 175000: uvm_test_top.env.slave_agent.mon [axi4_slave_monitor] AR received: ID=0x7 ADDR=0xece0a10a LEN=239
# UVM_INFO ../src/mst/axi4_master_monitor.sv(246) @ 175000: uvm_test_top.env.master_agent.mon [axi4_master_monitor] AR observed: ID=0x7 ADDR=0xece0a10a LEN=239
# UVM_INFO ../src/slv/axi4_slave_driver.sv(358) @ 205000: uvm_test_top.env.slave_agent.drv [axi4_slave_driver] AR received: ID=0x2 ADDR=0xa71c38ef LEN=169 LOCK=AXI4_LOCK_NORMAL
# UVM_INFO ../src/mst/axi4_master_monitor.sv(246) @ 205000: uvm_test_top.env.master_agent.mon [axi4_master_monitor] AR observed: ID=0x2 ADDR=0xa71c38ef LEN=169
# UVM_INFO ../src/slv/axi4_slave_monitor.sv(224) @ 205000: uvm_test_top.env.slave_agent.mon [axi4_slave_monitor] AR received: ID=0x2 ADDR=0xa71c38ef LEN=169
# UVM_INFO ../src/mst/axi4_master_driver.sv(348) @ 2215000: uvm_test_top.env.master_agent.drv [axi4_master_driver] Master driver received all R beats for ID=0x6
# UVM_INFO ../src/slv/axi4_slave_driver.sv(464) @ 2215000: uvm_test_top.env.slave_agent.drv [axi4_slave_driver] Read complete: ID=0x6 ADDR=0x85a04a9f RESP=AXI4_RESP_EXOKAY  105 beats sent
# UVM_INFO ../src/slv/axi4_slave_monitor.sv(287) @ 2215000: uvm_test_top.env.slave_agent.mon [axi4_slave_monitor] Read data sent: ID=0x6 ADDR=0x85a04a9f 105 beats
# UVM_INFO ../src/env/axi4_scoreboard.sv(108) @ 2215000: uvm_test_top.env.scb [axi4_scoreboard] Slave AXI4_READ received: ID=0x6 ADDR=0x85a04a9f LEN=104
# UVM_INFO ../src/mst/axi4_master_monitor.sv(314) @ 2215000: uvm_test_top.env.master_agent.mon [axi4_master_monitor] Read complete: ID=0x6 ADDR=0x85a04a9f 105 beats
# UVM_INFO ../src/env/axi4_scoreboard.sv(87) @ 2215000: uvm_test_top.env.scb [axi4_scoreboard] Master AXI4_READ received: ID=0x6 ADDR=0x85a04a9f LEN=104
# UVM_INFO ../src/env/axi4_scoreboard.sv(291) @ 2215000: uvm_test_top.env.scb [axi4_scoreboard] [READ] MATCH #1: ID=0x6 ADDR=0x85a04a9f LEN=104
# UVM_INFO ../src/seq/axi4_outstanding_seq.sv(126) @ 2215000: uvm_test_top.env.master_agent.sqr@@outstanding_seq [axi4_outstanding_seq] Outstanding Read [#3] complete: ID=0x6
# UVM_INFO ../src/seq/axi4_outstanding_seq.sv(116) @ 2215000: uvm_test_top.env.master_agent.sqr@@outstanding_seq [axi4_outstanding_seq] Outstanding Read [#4] started: ID=0x8 ADDR=0x334e978e LEN=210
# UVM_INFO ../src/mst/axi4_master_driver.sv(73) @ 2215000: uvm_test_top.env.master_agent.drv [axi4_master_driver] Driving AXI4_READ  ID=0x8  ADDR=0x334e978e  LEN=210
# UVM_INFO ../src/slv/axi4_slave_driver.sv(358) @ 2245000: uvm_test_top.env.slave_agent.drv [axi4_slave_driver] AR received: ID=0x8 ADDR=0x334e978e LEN=210 LOCK=AXI4_LOCK_NORMAL
# UVM_INFO ../src/mst/axi4_master_monitor.sv(246) @ 2245000: uvm_test_top.env.master_agent.mon [axi4_master_monitor] AR observed: ID=0x8 ADDR=0x334e978e LEN=210
# UVM_INFO ../src/slv/axi4_slave_monitor.sv(224) @ 2245000: uvm_test_top.env.slave_agent.mon [axi4_slave_monitor] AR received: ID=0x8 ADDR=0x334e978e LEN=210
# UVM_INFO ../src/slv/axi4_slave_monitor.sv(167) @ 2555000: uvm_test_top.env.slave_agent.mon [axi4_slave_monitor] W data assembled: ID=0x7 ADDR=0x3627ed51 122 beats
# UVM_INFO ../src/mst/axi4_master_monitor.sv(184) @ 2555000: uvm_test_top.env.master_agent.mon [axi4_master_monitor] W data assembled: ID=0x7 ADDR=0x3627ed51 122 beats
# UVM_INFO ../src/mst/axi4_master_driver.sv(289) @ 2585000: uvm_test_top.env.master_agent.drv [axi4_master_driver] Master driver received B response: ID=0x7 RESP=AXI4_RESP_OKAY
# UVM_INFO ../src/slv/axi4_slave_driver.sv(320) @ 2585000: uvm_test_top.env.slave_agent.drv [axi4_slave_driver] Write complete: ID=0x7 RESP=AXI4_RESP_OKAY
# UVM_INFO ../src/mst/axi4_master_monitor.sv(210) @ 2585000: uvm_test_top.env.master_agent.mon [axi4_master_monitor] Write complete: ID=0x7 ADDR=0x3627ed51 RESP=AXI4_RESP_OKAY
# UVM_INFO ../src/env/axi4_scoreboard.sv(87) @ 2585000: uvm_test_top.env.scb [axi4_scoreboard] Master AXI4_WRITE received: ID=0x7 ADDR=0x3627ed51 LEN=121
# UVM_INFO ../src/slv/axi4_slave_monitor.sv(189) @ 2585000: uvm_test_top.env.slave_agent.mon [axi4_slave_monitor] Write response sent: ID=0x7 ADDR=0x3627ed51 RESP=AXI4_RESP_OKAY
# UVM_INFO ../src/env/axi4_scoreboard.sv(108) @ 2585000: uvm_test_top.env.scb [axi4_scoreboard] Slave AXI4_WRITE received: ID=0x7 ADDR=0x3627ed51 LEN=121
# UVM_INFO ../src/env/axi4_scoreboard.sv(291) @ 2585000: uvm_test_top.env.scb [axi4_scoreboard] [WRITE] MATCH #2: ID=0x7 ADDR=0x3627ed51 LEN=121
# UVM_INFO ../src/env/axi4_scoreboard.sv(219) @ 2585000: uvm_test_top.env.scb [axi4_scoreboard] [REF_MEM_WRITE] Addr=0x3627ed51 Data=0x8d
# UVM_INFO ../src/env/axi4_scoreboard.sv(219) @ 2585000: uvm_test_top.env.scb [axi4_scoreboard] [REF_MEM_WRITE] Addr=0x3627ed53 Data=0x15
# UVM_INFO ../src/env/axi4_scoreboard.sv(219) @ 2585000: uvm_test_top.env.scb [axi4_scoreboard] [REF_MEM_WRITE] Addr=0x3627ed50 Data=0x40
# UVM_INFO ../src/env/axi4_scoreboard.sv(219) @ 2585000: uvm_test_top.env.scb [axi4_scoreboard] [REF_MEM_WRITE] Addr=0x3627ed54 Data=0xf3
# UVM_INFO ../src/env/axi4_scoreboard.sv(219) @ 2585000: uvm_test_top.env.scb [axi4_scoreboard] [REF_MEM_WRITE] Addr=0x3627ed56 Data=0xcd
# UVM_INFO ../src/env/axi4_scoreboard.sv(219) @ 2585000: uvm_test_top.env.scb [axi4_scoreboard] [REF_MEM_WRITE] Addr=0x3627ed57 Data=0x82
# UVM_INFO ../src/env/axi4_scoreboard.sv(219) @ 2585000: uvm_test_top.env.scb [axi4_scoreboard] [REF_MEM_WRITE] Addr=0x3627ed58 Data=0xc1
# UVM_INFO ../src/env/axi4_scoreboard.sv(219) @ 2585000: uvm_test_top.env.scb [axi4_scoreboard] [REF_MEM_WRITE] Addr=0x3627ed5b Data=0x04
# UVM_INFO ../src/env/axi4_scoreboard.sv(219) @ 2585000: uvm_test_top.env.scb [axi4_scoreboard] [REF_MEM_WRITE] Addr=0x3627ed58 Data=0xc2
# UVM_INFO ../src/env/axi4_scoreboard.sv(219) @ 2585000: uvm_test_top.env.scb [axi4_scoreboard] [REF_MEM_WRITE] Addr=0x3627ed59 Data=0x12
# UVM_INFO ../src/env/axi4_scoreboard.sv(219) @ 2585000: uvm_test_top.env.scb [axi4_scoreboard] [REF_MEM_WRITE] Addr=0x3627ed5b Data=0xb8
# UVM_INFO ../src/env/axi4_scoreboard.sv(219) @ 2585000: uvm_test_top.env.scb [axi4_scoreboard] [REF_MEM_WRITE] Addr=0x3627ed5c Data=0xe4
# UVM_INFO ../src/env/axi4_scoreboard.sv(219) @ 2585000: uvm_test_top.env.scb [axi4_scoreboard] [REF_MEM_WRITE] Addr=0x3627ed5e Data=0x9f
# UVM_INFO ../src/env/axi4_scoreboard.sv(219) @ 2585000: uvm_test_top.env.scb [axi4_scoreboard] [REF_MEM_WRITE] Addr=0x3627ed5f Data=0xc3
# UVM_INFO ../src/env/axi4_scoreboard.sv(219) @ 2585000: uvm_test_top.env.scb [axi4_scoreboard] [REF_MEM_WRITE] Addr=0x3627ed5f Data=0xf7
# UVM_INFO ../src/env/axi4_scoreboard.sv(219) @ 2585000: uvm_test_top.env.scb [axi4_scoreboard] [REF_MEM_WRITE] Addr=0x3627ed60 Data=0x49
# UVM_INFO ../src/env/axi4_scoreboard.sv(219) @ 2585000: uvm_test_top.env.scb [axi4_scoreboard] [REF_MEM_WRITE] Addr=0x3627ed60 Data=0x83
# UVM_INFO ../src/env/axi4_scoreboard.sv(219) @ 2585000: uvm_test_top.env.scb [axi4_scoreboard] [REF_MEM_WRITE] Addr=0x3627ed62 Data=0x10
# UVM_INFO ../src/env/axi4_scoreboard.sv(219) @ 2585000: uvm_test_top.env.scb [axi4_scoreboard] [REF_MEM_WRITE] Addr=0x3627ed65 Data=0x9d
# UVM_INFO ../src/env/axi4_scoreboard.sv(219) @ 2585000: uvm_test_top.env.scb [axi4_scoreboard] [REF_MEM_WRITE] Addr=0x3627ed66 Data=0x14
# UVM_INFO ../src/env/axi4_scoreboard.sv(219) @ 2585000: uvm_test_top.env.scb [axi4_scoreboard] [REF_MEM_WRITE] Addr=0x3627ed64 Data=0xb8
# UVM_INFO ../src/env/axi4_scoreboard.sv(219) @ 2585000: uvm_test_top.env.scb [axi4_scoreboard] [REF_MEM_WRITE] Addr=0x3627ed66 Data=0x2e
# UVM_INFO ../src/env/axi4_scoreboard.sv(219) @ 2585000: uvm_test_top.env.scb [axi4_scoreboard] [REF_MEM_WRITE] Addr=0x3627ed67 Data=0xbe
# UVM_INFO ../src/env/axi4_scoreboard.sv(219) @ 2585000: uvm_test_top.env.scb [axi4_scoreboard] [REF_MEM_WRITE] Addr=0x3627ed68 Data=0x71
# UVM_INFO ../src/env/axi4_scoreboard.sv(219) @ 2585000: uvm_test_top.env.scb [axi4_scoreboard] [REF_MEM_WRITE] Addr=0x3627ed6a Data=0x21
# UVM_INFO ../src/env/axi4_scoreboard.sv(219) @ 2585000: uvm_test_top.env.scb [axi4_scoreboard] [REF_MEM_WRITE] Addr=0x3627ed6b Data=0x29
# UVM_INFO ../src/env/axi4_scoreboard.sv(219) @ 2585000: uvm_test_top.env.scb [axi4_scoreboard] [REF_MEM_WRITE] Addr=0x3627ed6d Data=0x33
# UVM_INFO ../src/env/axi4_scoreboard.sv(219) @ 2585000: uvm_test_top.env.scb [axi4_scoreboard] [REF_MEM_WRITE] Addr=0x3627ed6e Data=0x60
# UVM_INFO ../src/env/axi4_scoreboard.sv(219) @ 2585000: uvm_test_top.env.scb [axi4_scoreboard] [REF_MEM_WRITE] Addr=0x3627ed6f Data=0x5e
# UVM_INFO ../src/env/axi4_scoreboard.sv(219) @ 2585000: uvm_test_top.env.scb [axi4_scoreboard] [REF_MEM_WRITE] Addr=0x3627ed6c Data=0xfe
# UVM_INFO ../src/env/axi4_scoreboard.sv(219) @ 2585000: uvm_test_top.env.scb [axi4_scoreboard] [REF_MEM_WRITE] Addr=0x3627ed6d Data=0x33
# UVM_INFO ../src/env/axi4_scoreboard.sv(219) @ 2585000: uvm_test_top.env.scb [axi4_scoreboard] [REF_MEM_WRITE] Addr=0x3627ed70 Data=0xea
# UVM_INFO ../src/env/axi4_scoreboard.sv(219) @ 2585000: uvm_test_top.env.scb [axi4_scoreboard] [REF_MEM_WRITE] Addr=0x3627ed71 Data=0xef
# UVM_INFO ../src/env/axi4_scoreboard.sv(219) @ 2585000: uvm_test_top.env.scb [axi4_scoreboard] [REF_MEM_WRITE] Addr=0x3627ed75 Data=0x43
# UVM_INFO ../src/env/axi4_scoreboard.sv(219) @ 2585000: uvm_test_top.env.scb [axi4_scoreboard] [REF_MEM_WRITE] Addr=0x3627ed74 Data=0xfc
# UVM_INFO ../src/env/axi4_scoreboard.sv(219) @ 2585000: uvm_test_top.env.scb [axi4_scoreboard] [REF_MEM_WRITE] Addr=0x3627ed75 Data=0x61
# UVM_INFO ../src/env/axi4_scoreboard.sv(219) @ 2585000: uvm_test_top.env.scb [axi4_scoreboard] [REF_MEM_WRITE] Addr=0x3627ed77 Data=0x9a
# UVM_INFO ../src/env/axi4_scoreboard.sv(219) @ 2585000: uvm_test_top.env.scb [axi4_scoreboard] [REF_MEM_WRITE] Addr=0x3627ed78 Data=0xa6
# UVM_INFO ../src/env/axi4_scoreboard.sv(219) @ 2585000: uvm_test_top.env.scb [axi4_scoreboard] [REF_MEM_WRITE] Addr=0x3627ed7a Data=0xa2
# UVM_INFO ../src/env/axi4_scoreboard.sv(219) @ 2585000: uvm_test_top.env.scb [axi4_scoreboard] [REF_MEM_WRITE] Addr=0x3627ed7b Data=0xbc
# UVM_INFO ../src/env/axi4_scoreboard.sv(219) @ 2585000: uvm_test_top.env.scb [axi4_scoreboard] [REF_MEM_WRITE] Addr=0x3627ed7b Data=0xaf
# UVM_INFO ../src/env/axi4_scoreboard.sv(219) @ 2585000: uvm_test_top.env.scb [axi4_scoreboard] [REF_MEM_WRITE] Addr=0x3627ed7d Data=0x02
# UVM_INFO ../src/env/axi4_scoreboard.sv(219) @ 2585000: uvm_test_top.env.scb [axi4_scoreboard] [REF_MEM_WRITE] Addr=0x3627ed7e Data=0x6d
# UVM_INFO ../src/env/axi4_scoreboard.sv(219) @ 2585000: uvm_test_top.env.scb [axi4_scoreboard] [REF_MEM_WRITE] Addr=0x3627ed7f Data=0x0d
# UVM_INFO ../src/env/axi4_scoreboard.sv(219) @ 2585000: uvm_test_top.env.scb [axi4_scoreboard] [REF_MEM_WRITE] Addr=0x3627ed7f Data=0xc8
# UVM_INFO ../src/env/axi4_scoreboard.sv(219) @ 2585000: uvm_test_top.env.scb [axi4_scoreboard] [REF_MEM_WRITE] Addr=0x3627ed80 Data=0x03
# UVM_INFO ../src/env/axi4_scoreboard.sv(219) @ 2585000: uvm_test_top.env.scb [axi4_scoreboard] [REF_MEM_WRITE] Addr=0x3627ed81 Data=0xd9
# UVM_INFO ../src/env/axi4_scoreboard.sv(219) @ 2585000: uvm_test_top.env.scb [axi4_scoreboard] [REF_MEM_WRITE] Addr=0x3627ed82 Data=0x77
# UVM_INFO ../src/env/axi4_scoreboard.sv(219) @ 2585000: uvm_test_top.env.scb [axi4_scoreboard] [REF_MEM_WRITE] Addr=0x3627ed83 Data=0x61
# UVM_INFO ../src/env/axi4_scoreboard.sv(219) @ 2585000: uvm_test_top.env.scb [axi4_scoreboard] [REF_MEM_WRITE] Addr=0x3627ed84 Data=0x2a
# UVM_INFO ../src/env/axi4_scoreboard.sv(219) @ 2585000: uvm_test_top.env.scb [axi4_scoreboard] [REF_MEM_WRITE] Addr=0x3627ed86 Data=0x83
# UVM_INFO ../src/env/axi4_scoreboard.sv(219) @ 2585000: uvm_test_top.env.scb [axi4_scoreboard] [REF_MEM_WRITE] Addr=0x3627ed84 Data=0x23
# UVM_INFO ../src/env/axi4_scoreboard.sv(219) @ 2585000: uvm_test_top.env.scb [axi4_scoreboard] [REF_MEM_WRITE] Addr=0x3627ed85 Data=0x48
# UVM_INFO ../src/env/axi4_scoreboard.sv(219) @ 2585000: uvm_test_top.env.scb [axi4_scoreboard] [REF_MEM_WRITE] Addr=0x3627ed8b Data=0x3d
# UVM_INFO ../src/env/axi4_scoreboard.sv(219) @ 2585000: uvm_test_top.env.scb [axi4_scoreboard] [REF_MEM_WRITE] Addr=0x3627ed89 Data=0x19
# UVM_INFO ../src/env/axi4_scoreboard.sv(219) @ 2585000: uvm_test_top.env.scb [axi4_scoreboard] [REF_MEM_WRITE] Addr=0x3627ed8b Data=0x58
# UVM_INFO ../src/env/axi4_scoreboard.sv(219) @ 2585000: uvm_test_top.env.scb [axi4_scoreboard] [REF_MEM_WRITE] Addr=0x3627ed8c Data=0xeb
# UVM_INFO ../src/env/axi4_scoreboard.sv(219) @ 2585000: uvm_test_top.env.scb [axi4_scoreboard] [REF_MEM_WRITE] Addr=0x3627ed8d Data=0x0c
# UVM_INFO ../src/env/axi4_scoreboard.sv(219) @ 2585000: uvm_test_top.env.scb [axi4_scoreboard] [REF_MEM_WRITE] Addr=0x3627ed8e Data=0x24
# UVM_INFO ../src/env/axi4_scoreboard.sv(219) @ 2585000: uvm_test_top.env.scb [axi4_scoreboard] [REF_MEM_WRITE] Addr=0x3627ed8f Data=0x92
# UVM_INFO ../src/env/axi4_scoreboard.sv(219) @ 2585000: uvm_test_top.env.scb [axi4_scoreboard] [REF_MEM_WRITE] Addr=0x3627ed90 Data=0x01
# UVM_INFO ../src/env/axi4_scoreboard.sv(219) @ 2585000: uvm_test_top.env.scb [axi4_scoreboard] [REF_MEM_WRITE] Addr=0x3627ed91 Data=0xa3
# UVM_INFO ../src/env/axi4_scoreboard.sv(219) @ 2585000: uvm_test_top.env.scb [axi4_scoreboard] [REF_MEM_WRITE] Addr=0x3627ed92 Data=0x93
# UVM_INFO ../src/env/axi4_scoreboard.sv(219) @ 2585000: uvm_test_top.env.scb [axi4_scoreboard] [REF_MEM_WRITE] Addr=0x3627ed93 Data=0x55
# UVM_INFO ../src/env/axi4_scoreboard.sv(219) @ 2585000: uvm_test_top.env.scb [axi4_scoreboard] [REF_MEM_WRITE] Addr=0x3627ed90 Data=0x8a
# UVM_INFO ../src/env/axi4_scoreboard.sv(219) @ 2585000: uvm_test_top.env.scb [axi4_scoreboard] [REF_MEM_WRITE] Addr=0x3627ed92 Data=0x0d
# UVM_INFO ../src/env/axi4_scoreboard.sv(219) @ 2585000: uvm_test_top.env.scb [axi4_scoreboard] [REF_MEM_WRITE] Addr=0x3627ed93 Data=0xab
# UVM_INFO ../src/env/axi4_scoreboard.sv(219) @ 2585000: uvm_test_top.env.scb [axi4_scoreboard] [REF_MEM_WRITE] Addr=0x3627ed96 Data=0xc9
# UVM_INFO ../src/env/axi4_scoreboard.sv(219) @ 2585000: uvm_test_top.env.scb [axi4_scoreboard] [REF_MEM_WRITE] Addr=0x3627ed97 Data=0xf8
# UVM_INFO ../src/env/axi4_scoreboard.sv(219) @ 2585000: uvm_test_top.env.scb [axi4_scoreboard] [REF_MEM_WRITE] Addr=0x3627ed94 Data=0xa9
# UVM_INFO ../src/env/axi4_scoreboard.sv(219) @ 2585000: uvm_test_top.env.scb [axi4_scoreboard] [REF_MEM_WRITE] Addr=0x3627ed96 Data=0x9e
# UVM_INFO ../src/env/axi4_scoreboard.sv(219) @ 2585000: uvm_test_top.env.scb [axi4_scoreboard] [REF_MEM_WRITE] Addr=0x3627ed98 Data=0x58
# UVM_INFO ../src/env/axi4_scoreboard.sv(219) @ 2585000: uvm_test_top.env.scb [axi4_scoreboard] [REF_MEM_WRITE] Addr=0x3627ed99 Data=0x9a
# UVM_INFO ../src/env/axi4_scoreboard.sv(219) @ 2585000: uvm_test_top.env.scb [axi4_scoreboard] [REF_MEM_WRITE] Addr=0x3627ed98 Data=0xdb
# UVM_INFO ../src/env/axi4_scoreboard.sv(219) @ 2585000: uvm_test_top.env.scb [axi4_scoreboard] [REF_MEM_WRITE] Addr=0x3627ed9a Data=0x0f
# UVM_INFO ../src/env/axi4_scoreboard.sv(219) @ 2585000: uvm_test_top.env.scb [axi4_scoreboard] [REF_MEM_WRITE] Addr=0x3627ed9b Data=0x7f
# UVM_INFO ../src/env/axi4_scoreboard.sv(219) @ 2585000: uvm_test_top.env.scb [axi4_scoreboard] [REF_MEM_WRITE] Addr=0x3627ed9d Data=0x7a
# UVM_INFO ../src/env/axi4_scoreboard.sv(219) @ 2585000: uvm_test_top.env.scb [axi4_scoreboard] [REF_MEM_WRITE] Addr=0x3627ed9e Data=0xcd
# UVM_INFO ../src/env/axi4_scoreboard.sv(219) @ 2585000: uvm_test_top.env.scb [axi4_scoreboard] [REF_MEM_WRITE] Addr=0x3627ed9c Data=0xc1
# UVM_INFO ../src/env/axi4_scoreboard.sv(219) @ 2585000: uvm_test_top.env.scb [axi4_scoreboard] [REF_MEM_WRITE] Addr=0x3627eda0 Data=0x38
# UVM_INFO ../src/env/axi4_scoreboard.sv(219) @ 2585000: uvm_test_top.env.scb [axi4_scoreboard] [REF_MEM_WRITE] Addr=0x3627eda1 Data=0x04
# UVM_INFO ../src/env/axi4_scoreboard.sv(219) @ 2585000: uvm_test_top.env.scb [axi4_scoreboard] [REF_MEM_WRITE] Addr=0x3627eda3 Data=0x57
# UVM_INFO ../src/env/axi4_scoreboard.sv(219) @ 2585000: uvm_test_top.env.scb [axi4_scoreboard] [REF_MEM_WRITE] Addr=0x3627eda2 Data=0x77
# UVM_INFO ../src/env/axi4_scoreboard.sv(219) @ 2585000: uvm_test_top.env.scb [axi4_scoreboard] [REF_MEM_WRITE] Addr=0x3627eda3 Data=0xf3
# UVM_INFO ../src/env/axi4_scoreboard.sv(219) @ 2585000: uvm_test_top.env.scb [axi4_scoreboard] [REF_MEM_WRITE] Addr=0x3627eda6 Data=0x0c
# UVM_INFO ../src/env/axi4_scoreboard.sv(219) @ 2585000: uvm_test_top.env.scb [axi4_scoreboard] [REF_MEM_WRITE] Addr=0x3627eda7 Data=0x03
# UVM_INFO ../src/env/axi4_scoreboard.sv(219) @ 2585000: uvm_test_top.env.scb [axi4_scoreboard] [REF_MEM_WRITE] Addr=0x3627eda7 Data=0xad
# UVM_INFO ../src/env/axi4_scoreboard.sv(219) @ 2585000: uvm_test_top.env.scb [axi4_scoreboard] [REF_MEM_WRITE] Addr=0x3627edaa Data=0xdb
# UVM_INFO ../src/env/axi4_scoreboard.sv(219) @ 2585000: uvm_test_top.env.scb [axi4_scoreboard] [REF_MEM_WRITE] Addr=0x3627edaf Data=0xe9
# UVM_INFO ../src/env/axi4_scoreboard.sv(219) @ 2585000: uvm_test_top.env.scb [axi4_scoreboard] [REF_MEM_WRITE] Addr=0x3627edae Data=0xd3
# UVM_INFO ../src/env/axi4_scoreboard.sv(219) @ 2585000: uvm_test_top.env.scb [axi4_scoreboard] [REF_MEM_WRITE] Addr=0x3627edaf Data=0xb6
# UVM_INFO ../src/env/axi4_scoreboard.sv(219) @ 2585000: uvm_test_top.env.scb [axi4_scoreboard] [REF_MEM_WRITE] Addr=0x3627edb1 Data=0x71
# UVM_INFO ../src/env/axi4_scoreboard.sv(219) @ 2585000: uvm_test_top.env.scb [axi4_scoreboard] [REF_MEM_WRITE] Addr=0x3627edb0 Data=0x73
# UVM_INFO ../src/env/axi4_scoreboard.sv(219) @ 2585000: uvm_test_top.env.scb [axi4_scoreboard] [REF_MEM_WRITE] Addr=0x3627edb2 Data=0x46
# UVM_INFO ../src/env/axi4_scoreboard.sv(219) @ 2585000: uvm_test_top.env.scb [axi4_scoreboard] [REF_MEM_WRITE] Addr=0x3627edb3 Data=0x81
# UVM_INFO ../src/env/axi4_scoreboard.sv(219) @ 2585000: uvm_test_top.env.scb [axi4_scoreboard] [REF_MEM_WRITE] Addr=0x3627edb4 Data=0x3e
# UVM_INFO ../src/env/axi4_scoreboard.sv(219) @ 2585000: uvm_test_top.env.scb [axi4_scoreboard] [REF_MEM_WRITE] Addr=0x3627edb5 Data=0xfb
# UVM_INFO ../src/env/axi4_scoreboard.sv(219) @ 2585000: uvm_test_top.env.scb [axi4_scoreboard] [REF_MEM_WRITE] Addr=0x3627edb6 Data=0xb1
# UVM_INFO ../src/env/axi4_scoreboard.sv(219) @ 2585000: uvm_test_top.env.scb [axi4_scoreboard] [REF_MEM_WRITE] Addr=0x3627edb7 Data=0xbf
# UVM_INFO ../src/env/axi4_scoreboard.sv(219) @ 2585000: uvm_test_top.env.scb [axi4_scoreboard] [REF_MEM_WRITE] Addr=0x3627edb4 Data=0x2c
# UVM_INFO ../src/env/axi4_scoreboard.sv(219) @ 2585000: uvm_test_top.env.scb [axi4_scoreboard] [REF_MEM_WRITE] Addr=0x3627edb5 Data=0x7a
# UVM_INFO ../src/env/axi4_scoreboard.sv(219) @ 2585000: uvm_test_top.env.scb [axi4_scoreboard] [REF_MEM_WRITE] Addr=0x3627edb8 Data=0xee
# UVM_INFO ../src/env/axi4_scoreboard.sv(219) @ 2585000: uvm_test_top.env.scb [axi4_scoreboard] [REF_MEM_WRITE] Addr=0x3627edbb Data=0x34
# UVM_INFO ../src/env/axi4_scoreboard.sv(219) @ 2585000: uvm_test_top.env.scb [axi4_scoreboard] [REF_MEM_WRITE] Addr=0x3627edb8 Data=0xc3
# UVM_INFO ../src/env/axi4_scoreboard.sv(219) @ 2585000: uvm_test_top.env.scb [axi4_scoreboard] [REF_MEM_WRITE] Addr=0x3627edb9 Data=0x70
# UVM_INFO ../src/env/axi4_scoreboard.sv(219) @ 2585000: uvm_test_top.env.scb [axi4_scoreboard] [REF_MEM_WRITE] Addr=0x3627edba Data=0x55
# UVM_INFO ../src/env/axi4_scoreboard.sv(219) @ 2585000: uvm_test_top.env.scb [axi4_scoreboard] [REF_MEM_WRITE] Addr=0x3627edbb Data=0x40
# UVM_INFO ../src/env/axi4_scoreboard.sv(219) @ 2585000: uvm_test_top.env.scb [axi4_scoreboard] [REF_MEM_WRITE] Addr=0x3627edbd Data=0x64
# UVM_INFO ../src/env/axi4_scoreboard.sv(219) @ 2585000: uvm_test_top.env.scb [axi4_scoreboard] [REF_MEM_WRITE] Addr=0x3627edbe Data=0xaf
# UVM_INFO ../src/env/axi4_scoreboard.sv(219) @ 2585000: uvm_test_top.env.scb [axi4_scoreboard] [REF_MEM_WRITE] Addr=0x3627edbc Data=0x64
# UVM_INFO ../src/env/axi4_scoreboard.sv(219) @ 2585000: uvm_test_top.env.scb [axi4_scoreboard] [REF_MEM_WRITE] Addr=0x3627edbe Data=0xcd
# UVM_INFO ../src/env/axi4_scoreboard.sv(219) @ 2585000: uvm_test_top.env.scb [axi4_scoreboard] [REF_MEM_WRITE] Addr=0x3627edc3 Data=0x95
# UVM_INFO ../src/env/axi4_scoreboard.sv(219) @ 2585000: uvm_test_top.env.scb [axi4_scoreboard] [REF_MEM_WRITE] Addr=0x3627edc1 Data=0x3a
# UVM_INFO ../src/env/axi4_scoreboard.sv(219) @ 2585000: uvm_test_top.env.scb [axi4_scoreboard] [REF_MEM_WRITE] Addr=0x3627edc2 Data=0xe3
# UVM_INFO ../src/env/axi4_scoreboard.sv(219) @ 2585000: uvm_test_top.env.scb [axi4_scoreboard] [REF_MEM_WRITE] Addr=0x3627edc5 Data=0x38
# UVM_INFO ../src/env/axi4_scoreboard.sv(219) @ 2585000: uvm_test_top.env.scb [axi4_scoreboard] [REF_MEM_WRITE] Addr=0x3627edc4 Data=0xd1
# UVM_INFO ../src/env/axi4_scoreboard.sv(219) @ 2585000: uvm_test_top.env.scb [axi4_scoreboard] [REF_MEM_WRITE] Addr=0x3627edc5 Data=0xbc
# UVM_INFO ../src/env/axi4_scoreboard.sv(219) @ 2585000: uvm_test_top.env.scb [axi4_scoreboard] [REF_MEM_WRITE] Addr=0x3627edc9 Data=0x92
# UVM_INFO ../src/env/axi4_scoreboard.sv(219) @ 2585000: uvm_test_top.env.scb [axi4_scoreboard] [REF_MEM_WRITE] Addr=0x3627edc8 Data=0xfd
# UVM_INFO ../src/env/axi4_scoreboard.sv(219) @ 2585000: uvm_test_top.env.scb [axi4_scoreboard] [REF_MEM_WRITE] Addr=0x3627edc9 Data=0xa5
# UVM_INFO ../src/env/axi4_scoreboard.sv(219) @ 2585000: uvm_test_top.env.scb [axi4_scoreboard] [REF_MEM_WRITE] Addr=0x3627edcb Data=0x48
# UVM_INFO ../src/env/axi4_scoreboard.sv(219) @ 2585000: uvm_test_top.env.scb [axi4_scoreboard] [REF_MEM_WRITE] Addr=0x3627edcd Data=0x13
# UVM_INFO ../src/env/axi4_scoreboard.sv(219) @ 2585000: uvm_test_top.env.scb [axi4_scoreboard] [REF_MEM_WRITE] Addr=0x3627edcd Data=0xc7
# UVM_INFO ../src/env/axi4_scoreboard.sv(219) @ 2585000: uvm_test_top.env.scb [axi4_scoreboard] [REF_MEM_WRITE] Addr=0x3627edcf Data=0xc2
# UVM_INFO ../src/env/axi4_scoreboard.sv(219) @ 2585000: uvm_test_top.env.scb [axi4_scoreboard] [REF_MEM_WRITE] Addr=0x3627edd0 Data=0xca
# UVM_INFO ../src/env/axi4_scoreboard.sv(219) @ 2585000: uvm_test_top.env.scb [axi4_scoreboard] [REF_MEM_WRITE] Addr=0x3627edd1 Data=0x6c
# UVM_INFO ../src/env/axi4_scoreboard.sv(219) @ 2585000: uvm_test_top.env.scb [axi4_scoreboard] [REF_MEM_WRITE] Addr=0x3627edd3 Data=0xe7
# UVM_INFO ../src/env/axi4_scoreboard.sv(219) @ 2585000: uvm_test_top.env.scb [axi4_scoreboard] [REF_MEM_WRITE] Addr=0x3627edd1 Data=0xaa
# UVM_INFO ../src/env/axi4_scoreboard.sv(219) @ 2585000: uvm_test_top.env.scb [axi4_scoreboard] [REF_MEM_WRITE] Addr=0x3627edd4 Data=0x31
# UVM_INFO ../src/env/axi4_scoreboard.sv(219) @ 2585000: uvm_test_top.env.scb [axi4_scoreboard] [REF_MEM_WRITE] Addr=0x3627edd5 Data=0x78
# UVM_INFO ../src/env/axi4_scoreboard.sv(219) @ 2585000: uvm_test_top.env.scb [axi4_scoreboard] [REF_MEM_WRITE] Addr=0x3627edd7 Data=0xea
# UVM_INFO ../src/env/axi4_scoreboard.sv(219) @ 2585000: uvm_test_top.env.scb [axi4_scoreboard] [REF_MEM_WRITE] Addr=0x3627edd4 Data=0x18
# UVM_INFO ../src/env/axi4_scoreboard.sv(219) @ 2585000: uvm_test_top.env.scb [axi4_scoreboard] [REF_MEM_WRITE] Addr=0x3627edd6 Data=0x70
# UVM_INFO ../src/env/axi4_scoreboard.sv(219) @ 2585000: uvm_test_top.env.scb [axi4_scoreboard] [REF_MEM_WRITE] Addr=0x3627edd8 Data=0x43
# UVM_INFO ../src/env/axi4_scoreboard.sv(219) @ 2585000: uvm_test_top.env.scb [axi4_scoreboard] [REF_MEM_WRITE] Addr=0x3627edd9 Data=0x02
# UVM_INFO ../src/env/axi4_scoreboard.sv(219) @ 2585000: uvm_test_top.env.scb [axi4_scoreboard] [REF_MEM_WRITE] Addr=0x3627eddb Data=0x67
# UVM_INFO ../src/env/axi4_scoreboard.sv(219) @ 2585000: uvm_test_top.env.scb [axi4_scoreboard] [REF_MEM_WRITE] Addr=0x3627eddc Data=0xd7
# UVM_INFO ../src/env/axi4_scoreboard.sv(219) @ 2585000: uvm_test_top.env.scb [axi4_scoreboard] [REF_MEM_WRITE] Addr=0x3627eddd Data=0xd3
# UVM_INFO ../src/env/axi4_scoreboard.sv(219) @ 2585000: uvm_test_top.env.scb [axi4_scoreboard] [REF_MEM_WRITE] Addr=0x3627edde Data=0x31
# UVM_INFO ../src/env/axi4_scoreboard.sv(219) @ 2585000: uvm_test_top.env.scb [axi4_scoreboard] [REF_MEM_WRITE] Addr=0x3627eddc Data=0x93
# UVM_INFO ../src/env/axi4_scoreboard.sv(219) @ 2585000: uvm_test_top.env.scb [axi4_scoreboard] [REF_MEM_WRITE] Addr=0x3627edde Data=0x99
# UVM_INFO ../src/env/axi4_scoreboard.sv(219) @ 2585000: uvm_test_top.env.scb [axi4_scoreboard] [REF_MEM_WRITE] Addr=0x3627ede1 Data=0x21
# UVM_INFO ../src/env/axi4_scoreboard.sv(219) @ 2585000: uvm_test_top.env.scb [axi4_scoreboard] [REF_MEM_WRITE] Addr=0x3627ede2 Data=0x8c
# UVM_INFO ../src/env/axi4_scoreboard.sv(219) @ 2585000: uvm_test_top.env.scb [axi4_scoreboard] [REF_MEM_WRITE] Addr=0x3627ede3 Data=0x5b
# UVM_INFO ../src/env/axi4_scoreboard.sv(219) @ 2585000: uvm_test_top.env.scb [axi4_scoreboard] [REF_MEM_WRITE] Addr=0x3627ede5 Data=0x58
# UVM_INFO ../src/env/axi4_scoreboard.sv(219) @ 2585000: uvm_test_top.env.scb [axi4_scoreboard] [REF_MEM_WRITE] Addr=0x3627ede6 Data=0xab
# UVM_INFO ../src/env/axi4_scoreboard.sv(219) @ 2585000: uvm_test_top.env.scb [axi4_scoreboard] [REF_MEM_WRITE] Addr=0x3627ede7 Data=0xfc
# UVM_INFO ../src/env/axi4_scoreboard.sv(219) @ 2585000: uvm_test_top.env.scb [axi4_scoreboard] [REF_MEM_WRITE] Addr=0x3627ede4 Data=0xf4
# UVM_INFO ../src/env/axi4_scoreboard.sv(219) @ 2585000: uvm_test_top.env.scb [axi4_scoreboard] [REF_MEM_WRITE] Addr=0x3627ede7 Data=0xcf
# UVM_INFO ../src/env/axi4_scoreboard.sv(219) @ 2585000: uvm_test_top.env.scb [axi4_scoreboard] [REF_MEM_WRITE] Addr=0x3627ede8 Data=0xc1
# UVM_INFO ../src/env/axi4_scoreboard.sv(219) @ 2585000: uvm_test_top.env.scb [axi4_scoreboard] [REF_MEM_WRITE] Addr=0x3627edea Data=0xf2
# UVM_INFO ../src/env/axi4_scoreboard.sv(219) @ 2585000: uvm_test_top.env.scb [axi4_scoreboard] [REF_MEM_WRITE] Addr=0x3627edeb Data=0xd0
# UVM_INFO ../src/env/axi4_scoreboard.sv(219) @ 2585000: uvm_test_top.env.scb [axi4_scoreboard] [REF_MEM_WRITE] Addr=0x3627ede8 Data=0x51
# UVM_INFO ../src/env/axi4_scoreboard.sv(219) @ 2585000: uvm_test_top.env.scb [axi4_scoreboard] [REF_MEM_WRITE] Addr=0x3627ede9 Data=0x44
# UVM_INFO ../src/env/axi4_scoreboard.sv(219) @ 2585000: uvm_test_top.env.scb [axi4_scoreboard] [REF_MEM_WRITE] Addr=0x3627edeb Data=0xc3
# UVM_INFO ../src/env/axi4_scoreboard.sv(219) @ 2585000: uvm_test_top.env.scb [axi4_scoreboard] [REF_MEM_WRITE] Addr=0x3627edec Data=0x7a
# UVM_INFO ../src/env/axi4_scoreboard.sv(219) @ 2585000: uvm_test_top.env.scb [axi4_scoreboard] [REF_MEM_WRITE] Addr=0x3627eded Data=0x96
# UVM_INFO ../src/env/axi4_scoreboard.sv(219) @ 2585000: uvm_test_top.env.scb [axi4_scoreboard] [REF_MEM_WRITE] Addr=0x3627eded Data=0x37
# UVM_INFO ../src/env/axi4_scoreboard.sv(219) @ 2585000: uvm_test_top.env.scb [axi4_scoreboard] [REF_MEM_WRITE] Addr=0x3627edef Data=0x1d
# UVM_INFO ../src/env/axi4_scoreboard.sv(219) @ 2585000: uvm_test_top.env.scb [axi4_scoreboard] [REF_MEM_WRITE] Addr=0x3627edf1 Data=0x60
# UVM_INFO ../src/env/axi4_scoreboard.sv(219) @ 2585000: uvm_test_top.env.scb [axi4_scoreboard] [REF_MEM_WRITE] Addr=0x3627edf2 Data=0xfe
# UVM_INFO ../src/env/axi4_scoreboard.sv(219) @ 2585000: uvm_test_top.env.scb [axi4_scoreboard] [REF_MEM_WRITE] Addr=0x3627edf0 Data=0xf5
# UVM_INFO ../src/env/axi4_scoreboard.sv(219) @ 2585000: uvm_test_top.env.scb [axi4_scoreboard] [REF_MEM_WRITE] Addr=0x3627edf5 Data=0x6c
# UVM_INFO ../src/env/axi4_scoreboard.sv(219) @ 2585000: uvm_test_top.env.scb [axi4_scoreboard] [REF_MEM_WRITE] Addr=0x3627edf4 Data=0x8a
# UVM_INFO ../src/env/axi4_scoreboard.sv(219) @ 2585000: uvm_test_top.env.scb [axi4_scoreboard] [REF_MEM_WRITE] Addr=0x3627edf8 Data=0x32
# UVM_INFO ../src/env/axi4_scoreboard.sv(219) @ 2585000: uvm_test_top.env.scb [axi4_scoreboard] [REF_MEM_WRITE] Addr=0x3627edfb Data=0xc8
# UVM_INFO ../src/env/axi4_scoreboard.sv(219) @ 2585000: uvm_test_top.env.scb [axi4_scoreboard] [REF_MEM_WRITE] Addr=0x3627edfa Data=0xc0
# UVM_INFO ../src/env/axi4_scoreboard.sv(219) @ 2585000: uvm_test_top.env.scb [axi4_scoreboard] [REF_MEM_WRITE] Addr=0x3627edfb Data=0x63
# UVM_INFO ../src/env/axi4_scoreboard.sv(219) @ 2585000: uvm_test_top.env.scb [axi4_scoreboard] [REF_MEM_WRITE] Addr=0x3627edfc Data=0x6f
# UVM_INFO ../src/env/axi4_scoreboard.sv(219) @ 2585000: uvm_test_top.env.scb [axi4_scoreboard] [REF_MEM_WRITE] Addr=0x3627edfe Data=0x55
# UVM_INFO ../src/env/axi4_scoreboard.sv(219) @ 2585000: uvm_test_top.env.scb [axi4_scoreboard] [REF_MEM_WRITE] Addr=0x3627edff Data=0x73
# UVM_INFO ../src/env/axi4_scoreboard.sv(219) @ 2585000: uvm_test_top.env.scb [axi4_scoreboard] [REF_MEM_WRITE] Addr=0x3627ee01 Data=0x19
# UVM_INFO ../src/env/axi4_scoreboard.sv(219) @ 2585000: uvm_test_top.env.scb [axi4_scoreboard] [REF_MEM_WRITE] Addr=0x3627ee00 Data=0xac
# UVM_INFO ../src/env/axi4_scoreboard.sv(219) @ 2585000: uvm_test_top.env.scb [axi4_scoreboard] [REF_MEM_WRITE] Addr=0x3627ee04 Data=0x89
# UVM_INFO ../src/env/axi4_scoreboard.sv(219) @ 2585000: uvm_test_top.env.scb [axi4_scoreboard] [REF_MEM_WRITE] Addr=0x3627ee06 Data=0xa4
# UVM_INFO ../src/env/axi4_scoreboard.sv(219) @ 2585000: uvm_test_top.env.scb [axi4_scoreboard] [REF_MEM_WRITE] Addr=0x3627ee07 Data=0x39
# UVM_INFO ../src/env/axi4_scoreboard.sv(219) @ 2585000: uvm_test_top.env.scb [axi4_scoreboard] [REF_MEM_WRITE] Addr=0x3627ee06 Data=0x1e
# UVM_INFO ../src/env/axi4_scoreboard.sv(219) @ 2585000: uvm_test_top.env.scb [axi4_scoreboard] [REF_MEM_WRITE] Addr=0x3627ee07 Data=0x33
# UVM_INFO ../src/env/axi4_scoreboard.sv(219) @ 2585000: uvm_test_top.env.scb [axi4_scoreboard] [REF_MEM_WRITE] Addr=0x3627ee08 Data=0xa1
# UVM_INFO ../src/env/axi4_scoreboard.sv(219) @ 2585000: uvm_test_top.env.scb [axi4_scoreboard] [REF_MEM_WRITE] Addr=0x3627ee0b Data=0x92
# UVM_INFO ../src/env/axi4_scoreboard.sv(219) @ 2585000: uvm_test_top.env.scb [axi4_scoreboard] [REF_MEM_WRITE] Addr=0x3627ee08 Data=0x22
# UVM_INFO ../src/env/axi4_scoreboard.sv(219) @ 2585000: uvm_test_top.env.scb [axi4_scoreboard] [REF_MEM_WRITE] Addr=0x3627ee09 Data=0x3a
# UVM_INFO ../src/env/axi4_scoreboard.sv(219) @ 2585000: uvm_test_top.env.scb [axi4_scoreboard] [REF_MEM_WRITE] Addr=0x3627ee0d Data=0xf5
# UVM_INFO ../src/env/axi4_scoreboard.sv(219) @ 2585000: uvm_test_top.env.scb [axi4_scoreboard] [REF_MEM_WRITE] Addr=0x3627ee0c Data=0x25
# UVM_INFO ../src/env/axi4_scoreboard.sv(219) @ 2585000: uvm_test_top.env.scb [axi4_scoreboard] [REF_MEM_WRITE] Addr=0x3627ee0e Data=0x33
# UVM_INFO ../src/env/axi4_scoreboard.sv(219) @ 2585000: uvm_test_top.env.scb [axi4_scoreboard] [REF_MEM_WRITE] Addr=0x3627ee11 Data=0x96
# UVM_INFO ../src/env/axi4_scoreboard.sv(219) @ 2585000: uvm_test_top.env.scb [axi4_scoreboard] [REF_MEM_WRITE] Addr=0x3627ee12 Data=0xd0
# UVM_INFO ../src/env/axi4_scoreboard.sv(219) @ 2585000: uvm_test_top.env.scb [axi4_scoreboard] [REF_MEM_WRITE] Addr=0x3627ee10 Data=0x85
# UVM_INFO ../src/env/axi4_scoreboard.sv(219) @ 2585000: uvm_test_top.env.scb [axi4_scoreboard] [REF_MEM_WRITE] Addr=0x3627ee12 Data=0xe9
# UVM_INFO ../src/env/axi4_scoreboard.sv(219) @ 2585000: uvm_test_top.env.scb [axi4_scoreboard] [REF_MEM_WRITE] Addr=0x3627ee14 Data=0x87
# UVM_INFO ../src/env/axi4_scoreboard.sv(219) @ 2585000: uvm_test_top.env.scb [axi4_scoreboard] [REF_MEM_WRITE] Addr=0x3627ee15 Data=0x46
# UVM_INFO ../src/env/axi4_scoreboard.sv(219) @ 2585000: uvm_test_top.env.scb [axi4_scoreboard] [REF_MEM_WRITE] Addr=0x3627ee16 Data=0xfc
# UVM_INFO ../src/env/axi4_scoreboard.sv(219) @ 2585000: uvm_test_top.env.scb [axi4_scoreboard] [REF_MEM_WRITE] Addr=0x3627ee17 Data=0x0e
# UVM_INFO ../src/env/axi4_scoreboard.sv(219) @ 2585000: uvm_test_top.env.scb [axi4_scoreboard] [REF_MEM_WRITE] Addr=0x3627ee14 Data=0x1e
# UVM_INFO ../src/env/axi4_scoreboard.sv(219) @ 2585000: uvm_test_top.env.scb [axi4_scoreboard] [REF_MEM_WRITE] Addr=0x3627ee15 Data=0xba
# UVM_INFO ../src/env/axi4_scoreboard.sv(219) @ 2585000: uvm_test_top.env.scb [axi4_scoreboard] [REF_MEM_WRITE] Addr=0x3627ee1a Data=0x77
# UVM_INFO ../src/env/axi4_scoreboard.sv(219) @ 2585000: uvm_test_top.env.scb [axi4_scoreboard] [REF_MEM_WRITE] Addr=0x3627ee1c Data=0x83
# UVM_INFO ../src/env/axi4_scoreboard.sv(219) @ 2585000: uvm_test_top.env.scb [axi4_scoreboard] [REF_MEM_WRITE] Addr=0x3627ee1e Data=0xb0
# UVM_INFO ../src/env/axi4_scoreboard.sv(219) @ 2585000: uvm_test_top.env.scb [axi4_scoreboard] [REF_MEM_WRITE] Addr=0x3627ee20 Data=0x1a
# UVM_INFO ../src/env/axi4_scoreboard.sv(219) @ 2585000: uvm_test_top.env.scb [axi4_scoreboard] [REF_MEM_WRITE] Addr=0x3627ee21 Data=0x8d
# UVM_INFO ../src/env/axi4_scoreboard.sv(219) @ 2585000: uvm_test_top.env.scb [axi4_scoreboard] [REF_MEM_WRITE] Addr=0x3627ee20 Data=0xe3
# UVM_INFO ../src/env/axi4_scoreboard.sv(219) @ 2585000: uvm_test_top.env.scb [axi4_scoreboard] [REF_MEM_WRITE] Addr=0x3627ee21 Data=0x69
# UVM_INFO ../src/env/axi4_scoreboard.sv(219) @ 2585000: uvm_test_top.env.scb [axi4_scoreboard] [REF_MEM_WRITE] Addr=0x3627ee24 Data=0x41
# UVM_INFO ../src/env/axi4_scoreboard.sv(219) @ 2585000: uvm_test_top.env.scb [axi4_scoreboard] [REF_MEM_WRITE] Addr=0x3627ee27 Data=0x26
# UVM_INFO ../src/env/axi4_scoreboard.sv(219) @ 2585000: uvm_test_top.env.scb [axi4_scoreboard] [REF_MEM_WRITE] Addr=0x3627ee24 Data=0xd4
# UVM_INFO ../src/env/axi4_scoreboard.sv(219) @ 2585000: uvm_test_top.env.scb [axi4_scoreboard] [REF_MEM_WRITE] Addr=0x3627ee26 Data=0xa9
# UVM_INFO ../src/env/axi4_scoreboard.sv(219) @ 2585000: uvm_test_top.env.scb [axi4_scoreboard] [REF_MEM_WRITE] Addr=0x3627ee29 Data=0x49
# UVM_INFO ../src/env/axi4_scoreboard.sv(219) @ 2585000: uvm_test_top.env.scb [axi4_scoreboard] [REF_MEM_WRITE] Addr=0x3627ee2b Data=0x3d
# UVM_INFO ../src/env/axi4_scoreboard.sv(219) @ 2585000: uvm_test_top.env.scb [axi4_scoreboard] [REF_MEM_WRITE] Addr=0x3627ee28 Data=0xbe
# UVM_INFO ../src/env/axi4_scoreboard.sv(219) @ 2585000: uvm_test_top.env.scb [axi4_scoreboard] [REF_MEM_WRITE] Addr=0x3627ee29 Data=0xad
# UVM_INFO ../src/env/axi4_scoreboard.sv(219) @ 2585000: uvm_test_top.env.scb [axi4_scoreboard] [REF_MEM_WRITE] Addr=0x3627ee2a Data=0xea
# UVM_INFO ../src/env/axi4_scoreboard.sv(219) @ 2585000: uvm_test_top.env.scb [axi4_scoreboard] [REF_MEM_WRITE] Addr=0x3627ee2d Data=0xca
# UVM_INFO ../src/env/axi4_scoreboard.sv(219) @ 2585000: uvm_test_top.env.scb [axi4_scoreboard] [REF_MEM_WRITE] Addr=0x3627ee2d Data=0x19
# UVM_INFO ../src/env/axi4_scoreboard.sv(219) @ 2585000: uvm_test_top.env.scb [axi4_scoreboard] [REF_MEM_WRITE] Addr=0x3627ee2e Data=0xe5
# UVM_INFO ../src/env/axi4_scoreboard.sv(219) @ 2585000: uvm_test_top.env.scb [axi4_scoreboard] [REF_MEM_WRITE] Addr=0x3627ee31 Data=0xd7
# UVM_INFO ../src/env/axi4_scoreboard.sv(219) @ 2585000: uvm_test_top.env.scb [axi4_scoreboard] [REF_MEM_WRITE] Addr=0x3627ee32 Data=0x1c
# UVM_INFO ../src/env/axi4_scoreboard.sv(219) @ 2585000: uvm_test_top.env.scb [axi4_scoreboard] [REF_MEM_WRITE] Addr=0x3627ee31 Data=0x0b
# UVM_INFO ../src/env/axi4_scoreboard.sv(219) @ 2585000: uvm_test_top.env.scb [axi4_scoreboard] [REF_MEM_WRITE] Addr=0x3627ee32 Data=0x83
# UVM_INFO ../src/env/axi4_scoreboard.sv(219) @ 2585000: uvm_test_top.env.scb [axi4_scoreboard] [REF_MEM_WRITE] Addr=0x3627ee33 Data=0x8b
# UVM_INFO ../src/env/axi4_scoreboard.sv(219) @ 2585000: uvm_test_top.env.scb [axi4_scoreboard] [REF_MEM_WRITE] Addr=0x3627ee34 Data=0x3a
# UVM_INFO ../src/env/axi4_scoreboard.sv(219) @ 2585000: uvm_test_top.env.scb [axi4_scoreboard] [REF_MEM_WRITE] Addr=0x3627ee36 Data=0xba
# UVM_INFO ../src/env/axi4_scoreboard.sv(219) @ 2585000: uvm_test_top.env.scb [axi4_scoreboard] [REF_MEM_WRITE] Addr=0x3627ee35 Data=0x8a
# UVM_INFO ../src/env/axi4_scoreboard.sv(219) @ 2585000: uvm_test_top.env.scb [axi4_scoreboard] [REF_MEM_WRITE] Addr=0x3627ee36 Data=0xf1
# UVM_INFO ../src/env/axi4_scoreboard.sv(219) @ 2585000: uvm_test_top.env.scb [axi4_scoreboard] [REF_MEM_WRITE] Addr=0x3627ee38 Data=0x0a
# UVM_INFO ../src/env/axi4_scoreboard.sv(219) @ 2585000: uvm_test_top.env.scb [axi4_scoreboard] [REF_MEM_WRITE] Addr=0x3627ee39 Data=0xb7
# UVM_INFO ../src/env/axi4_scoreboard.sv(219) @ 2585000: uvm_test_top.env.scb [axi4_scoreboard] [REF_MEM_WRITE] Addr=0x3627ee3a Data=0x50
# UVM_INFO ../src/env/axi4_scoreboard.sv(219) @ 2585000: uvm_test_top.env.scb [axi4_scoreboard] [REF_MEM_WRITE] Addr=0x3627ee3b Data=0x50
# UVM_INFO ../src/env/axi4_scoreboard.sv(219) @ 2585000: uvm_test_top.env.scb [axi4_scoreboard] [REF_MEM_WRITE] Addr=0x3627ee38 Data=0xe6
# UVM_INFO ../src/env/axi4_scoreboard.sv(219) @ 2585000: uvm_test_top.env.scb [axi4_scoreboard] [REF_MEM_WRITE] Addr=0x3627ee39 Data=0x91
# UVM_INFO ../src/env/axi4_scoreboard.sv(219) @ 2585000: uvm_test_top.env.scb [axi4_scoreboard] [REF_MEM_WRITE] Addr=0x3627ee3a Data=0x2a
# UVM_INFO ../src/env/axi4_scoreboard.sv(219) @ 2585000: uvm_test_top.env.scb [axi4_scoreboard] [REF_MEM_WRITE] Addr=0x3627ee3c Data=0x35
# UVM_INFO ../src/env/axi4_scoreboard.sv(219) @ 2585000: uvm_test_top.env.scb [axi4_scoreboard] [REF_MEM_WRITE] Addr=0x3627ee3e Data=0x06
# UVM_INFO ../src/env/axi4_scoreboard.sv(219) @ 2585000: uvm_test_top.env.scb [axi4_scoreboard] [REF_MEM_WRITE] Addr=0x3627ee3c Data=0x9c
# UVM_INFO ../src/env/axi4_scoreboard.sv(219) @ 2585000: uvm_test_top.env.scb [axi4_scoreboard] [REF_MEM_WRITE] Addr=0x3627ee3e Data=0xc6
# UVM_INFO ../src/env/axi4_scoreboard.sv(219) @ 2585000: uvm_test_top.env.scb [axi4_scoreboard] [REF_MEM_WRITE] Addr=0x3627ee3f Data=0xee
# UVM_INFO ../src/env/axi4_scoreboard.sv(219) @ 2585000: uvm_test_top.env.scb [axi4_scoreboard] [REF_MEM_WRITE] Addr=0x3627ee42 Data=0xd2
# UVM_INFO ../src/env/axi4_scoreboard.sv(219) @ 2585000: uvm_test_top.env.scb [axi4_scoreboard] [REF_MEM_WRITE] Addr=0x3627ee40 Data=0xe7
# UVM_INFO ../src/env/axi4_scoreboard.sv(219) @ 2585000: uvm_test_top.env.scb [axi4_scoreboard] [REF_MEM_WRITE] Addr=0x3627ee41 Data=0x9c
# UVM_INFO ../src/env/axi4_scoreboard.sv(219) @ 2585000: uvm_test_top.env.scb [axi4_scoreboard] [REF_MEM_WRITE] Addr=0x3627ee42 Data=0x58
# UVM_INFO ../src/seq/axi4_outstanding_seq.sv(87) @ 2585000: uvm_test_top.env.master_agent.sqr@@outstanding_seq [axi4_outstanding_seq] Outstanding Write [#3] complete: ID=0x7
# UVM_INFO ../src/seq/axi4_outstanding_seq.sv(77) @ 2585000: uvm_test_top.env.master_agent.sqr@@outstanding_seq [axi4_outstanding_seq] Outstanding Write [#4] started: ID=0x1 ADDR=0x9b84c92b LEN=57
# UVM_INFO ../src/mst/axi4_master_driver.sv(73) @ 2585000: uvm_test_top.env.master_agent.drv [axi4_master_driver] Driving AXI4_WRITE  ID=0x1  ADDR=0x9b84c92b  LEN=57
# UVM_INFO ../src/slv/axi4_slave_monitor.sv(167) @ 3215000: uvm_test_top.env.slave_agent.mon [axi4_slave_monitor] W data assembled: ID=0xc ADDR=0xa4529f13 33 beats
# UVM_INFO ../src/mst/axi4_master_monitor.sv(184) @ 3215000: uvm_test_top.env.master_agent.mon [axi4_master_monitor] W data assembled: ID=0xc ADDR=0xa4529f13 33 beats
# UVM_INFO ../src/mst/axi4_master_driver.sv(289) @ 3245000: uvm_test_top.env.master_agent.drv [axi4_master_driver] Master driver received B response: ID=0xc RESP=AXI4_RESP_OKAY
# UVM_INFO ../src/slv/axi4_slave_driver.sv(320) @ 3245000: uvm_test_top.env.slave_agent.drv [axi4_slave_driver] Write complete: ID=0xc RESP=AXI4_RESP_OKAY
# UVM_INFO ../src/mst/axi4_master_monitor.sv(210) @ 3245000: uvm_test_top.env.master_agent.mon [axi4_master_monitor] Write complete: ID=0xc ADDR=0xa4529f13 RESP=AXI4_RESP_OKAY
# UVM_INFO ../src/env/axi4_scoreboard.sv(87) @ 3245000: uvm_test_top.env.scb [axi4_scoreboard] Master AXI4_WRITE received: ID=0xc ADDR=0xa4529f13 LEN=32
# UVM_INFO ../src/slv/axi4_slave_monitor.sv(189) @ 3245000: uvm_test_top.env.slave_agent.mon [axi4_slave_monitor] Write response sent: ID=0xc ADDR=0xa4529f13 RESP=AXI4_RESP_OKAY
# UVM_INFO ../src/env/axi4_scoreboard.sv(108) @ 3245000: uvm_test_top.env.scb [axi4_scoreboard] Slave AXI4_WRITE received: ID=0xc ADDR=0xa4529f13 LEN=32
# UVM_INFO ../src/env/axi4_scoreboard.sv(291) @ 3245000: uvm_test_top.env.scb [axi4_scoreboard] [WRITE] MATCH #3: ID=0xc ADDR=0xa4529f13 LEN=32
# UVM_INFO ../src/env/axi4_scoreboard.sv(226) @ 3245000: uvm_test_top.env.scb [axi4_scoreboard] [REF_MEM_WRITE_IGNORED] Write ignored for ADDR=0xa4529f13 LOCK=AXI4_LOCK_EXCLUSIVE RESP=AXI4_RESP_OKAY
# UVM_INFO ../src/seq/axi4_outstanding_seq.sv(87) @ 3245000: uvm_test_top.env.master_agent.sqr@@outstanding_seq [axi4_outstanding_seq] Outstanding Write [#2] complete: ID=0xc
# UVM_INFO ../src/seq/axi4_outstanding_seq.sv(77) @ 3245000: uvm_test_top.env.master_agent.sqr@@outstanding_seq [axi4_outstanding_seq] Outstanding Write [#5] started: ID=0x3 ADDR=0x24216aaf LEN=131
# UVM_INFO ../src/mst/axi4_master_driver.sv(73) @ 3245000: uvm_test_top.env.master_agent.drv [axi4_master_driver] Driving AXI4_WRITE  ID=0x3  ADDR=0x24216aaf  LEN=131
# UVM_INFO ../src/slv/axi4_slave_driver.sv(212) @ 3265000: uvm_test_top.env.slave_agent.drv [axi4_slave_driver] AW received: ID=0xb ADDR=0xe620c0b5 LEN=154 LOCK=AXI4_LOCK_EXCLUSIVE
# UVM_INFO ../src/mst/axi4_master_monitor.sv(124) @ 3265000: uvm_test_top.env.master_agent.mon [axi4_master_monitor] AW observed: ID=0xb ADDR=0xe620c0b5 LEN=154
# UVM_INFO ../src/slv/axi4_slave_monitor.sv(116) @ 3265000: uvm_test_top.env.slave_agent.mon [axi4_slave_monitor] AW received: ID=0xb ADDR=0xe620c0b5 LEN=154
# UVM_INFO ../src/slv/axi4_slave_driver.sv(212) @ 3295000: uvm_test_top.env.slave_agent.drv [axi4_slave_driver] AW received: ID=0x2 ADDR=0x4be181e4 LEN=221 LOCK=AXI4_LOCK_NORMAL
# UVM_INFO ../src/slv/axi4_slave_monitor.sv(116) @ 3295000: uvm_test_top.env.slave_agent.mon [axi4_slave_monitor] AW received: ID=0x2 ADDR=0x4be181e4 LEN=221
# UVM_INFO ../src/mst/axi4_master_monitor.sv(124) @ 3295000: uvm_test_top.env.master_agent.mon [axi4_master_monitor] AW observed: ID=0x2 ADDR=0x4be181e4 LEN=221
# UVM_INFO ../src/slv/axi4_slave_driver.sv(212) @ 3325000: uvm_test_top.env.slave_agent.drv [axi4_slave_driver] AW received: ID=0x1 ADDR=0x9b84c92b LEN=57 LOCK=AXI4_LOCK_EXCLUSIVE
# UVM_INFO ../src/mst/axi4_master_monitor.sv(124) @ 3325000: uvm_test_top.env.master_agent.mon [axi4_master_monitor] AW observed: ID=0x1 ADDR=0x9b84c92b LEN=57
# UVM_INFO ../src/slv/axi4_slave_monitor.sv(116) @ 3325000: uvm_test_top.env.slave_agent.mon [axi4_slave_monitor] AW received: ID=0x1 ADDR=0x9b84c92b LEN=57
# UVM_INFO ../src/slv/axi4_slave_driver.sv(212) @ 3355000: uvm_test_top.env.slave_agent.drv [axi4_slave_driver] AW received: ID=0x3 ADDR=0x24216aaf LEN=131 LOCK=AXI4_LOCK_NORMAL
# UVM_INFO ../src/slv/axi4_slave_monitor.sv(116) @ 3355000: uvm_test_top.env.slave_agent.mon [axi4_slave_monitor] AW received: ID=0x3 ADDR=0x24216aaf LEN=131
# UVM_INFO ../src/mst/axi4_master_monitor.sv(124) @ 3355000: uvm_test_top.env.master_agent.mon [axi4_master_monitor] AW observed: ID=0x3 ADDR=0x24216aaf LEN=131
# UVM_INFO ../src/slv/axi4_slave_monitor.sv(167) @ 6315000: uvm_test_top.env.slave_agent.mon [axi4_slave_monitor] W data assembled: ID=0xb ADDR=0xe620c0b5 155 beats
# UVM_INFO ../src/mst/axi4_master_monitor.sv(184) @ 6315000: uvm_test_top.env.master_agent.mon [axi4_master_monitor] W data assembled: ID=0xb ADDR=0xe620c0b5 155 beats
# UVM_INFO ../src/mst/axi4_master_driver.sv(289) @ 6345000: uvm_test_top.env.master_agent.drv [axi4_master_driver] Master driver received B response: ID=0xb RESP=AXI4_RESP_SLVERR
# UVM_INFO ../src/slv/axi4_slave_driver.sv(320) @ 6345000: uvm_test_top.env.slave_agent.drv [axi4_slave_driver] Write complete: ID=0xb RESP=AXI4_RESP_SLVERR
# UVM_INFO ../src/mst/axi4_master_monitor.sv(210) @ 6345000: uvm_test_top.env.master_agent.mon [axi4_master_monitor] Write complete: ID=0xb ADDR=0xe620c0b5 RESP=AXI4_RESP_SLVERR
# UVM_INFO ../src/env/axi4_scoreboard.sv(87) @ 6345000: uvm_test_top.env.scb [axi4_scoreboard] Master AXI4_WRITE received: ID=0xb ADDR=0xe620c0b5 LEN=154
# UVM_INFO ../src/slv/axi4_slave_monitor.sv(189) @ 6345000: uvm_test_top.env.slave_agent.mon [axi4_slave_monitor] Write response sent: ID=0xb ADDR=0xe620c0b5 RESP=AXI4_RESP_SLVERR
# UVM_INFO ../src/env/axi4_scoreboard.sv(108) @ 6345000: uvm_test_top.env.scb [axi4_scoreboard] Slave AXI4_WRITE received: ID=0xb ADDR=0xe620c0b5 LEN=154
# UVM_INFO ../src/env/axi4_scoreboard.sv(291) @ 6345000: uvm_test_top.env.scb [axi4_scoreboard] [WRITE] MATCH #4: ID=0xb ADDR=0xe620c0b5 LEN=154
# UVM_INFO ../src/env/axi4_scoreboard.sv(226) @ 6345000: uvm_test_top.env.scb [axi4_scoreboard] [REF_MEM_WRITE_IGNORED] Write ignored for ADDR=0xe620c0b5 LOCK=AXI4_LOCK_EXCLUSIVE RESP=AXI4_RESP_SLVERR
# UVM_INFO ../src/seq/axi4_outstanding_seq.sv(87) @ 6345000: uvm_test_top.env.master_agent.sqr@@outstanding_seq [axi4_outstanding_seq] Outstanding Write [#1] complete: ID=0xb
# UVM_INFO ../src/seq/axi4_outstanding_seq.sv(77) @ 6345000: uvm_test_top.env.master_agent.sqr@@outstanding_seq [axi4_outstanding_seq] Outstanding Write [#6] started: ID=0x6 ADDR=0x1130169d LEN=50
# UVM_INFO ../src/mst/axi4_master_driver.sv(73) @ 6345000: uvm_test_top.env.master_agent.drv [axi4_master_driver] Driving AXI4_WRITE  ID=0x6  ADDR=0x1130169d  LEN=50
# UVM_INFO ../src/slv/axi4_slave_driver.sv(212) @ 6375000: uvm_test_top.env.slave_agent.drv [axi4_slave_driver] AW received: ID=0x6 ADDR=0x1130169d LEN=50 LOCK=AXI4_LOCK_NORMAL
# UVM_INFO ../src/slv/axi4_slave_monitor.sv(116) @ 6375000: uvm_test_top.env.slave_agent.mon [axi4_slave_monitor] AW received: ID=0x6 ADDR=0x1130169d LEN=50
# UVM_INFO ../src/mst/axi4_master_monitor.sv(124) @ 6375000: uvm_test_top.env.master_agent.mon [axi4_master_monitor] AW observed: ID=0x6 ADDR=0x1130169d LEN=50
# UVM_INFO ../src/mst/axi4_master_driver.sv(348) @ 7015000: uvm_test_top.env.master_agent.drv [axi4_master_driver] Master driver received all R beats for ID=0x7
# UVM_INFO ../src/slv/axi4_slave_driver.sv(464) @ 7015000: uvm_test_top.env.slave_agent.drv [axi4_slave_driver] Read complete: ID=0x7 ADDR=0xece0a10a RESP=AXI4_RESP_SLVERR  240 beats sent
# UVM_INFO ../src/slv/axi4_slave_monitor.sv(287) @ 7015000: uvm_test_top.env.slave_agent.mon [axi4_slave_monitor] Read data sent: ID=0x7 ADDR=0xece0a10a 240 beats
# UVM_INFO ../src/env/axi4_scoreboard.sv(108) @ 7015000: uvm_test_top.env.scb [axi4_scoreboard] Slave AXI4_READ received: ID=0x7 ADDR=0xece0a10a LEN=239
# UVM_INFO ../src/mst/axi4_master_monitor.sv(314) @ 7015000: uvm_test_top.env.master_agent.mon [axi4_master_monitor] Read complete: ID=0x7 ADDR=0xece0a10a 240 beats
# UVM_INFO ../src/env/axi4_scoreboard.sv(87) @ 7015000: uvm_test_top.env.scb [axi4_scoreboard] Master AXI4_READ received: ID=0x7 ADDR=0xece0a10a LEN=239
# UVM_INFO ../src/env/axi4_scoreboard.sv(291) @ 7015000: uvm_test_top.env.scb [axi4_scoreboard] [READ] MATCH #5: ID=0x7 ADDR=0xece0a10a LEN=239
# UVM_INFO ../src/seq/axi4_outstanding_seq.sv(126) @ 7015000: uvm_test_top.env.master_agent.sqr@@outstanding_seq [axi4_outstanding_seq] Outstanding Read [#1] complete: ID=0x7
# UVM_INFO ../src/seq/axi4_outstanding_seq.sv(116) @ 7015000: uvm_test_top.env.master_agent.sqr@@outstanding_seq [axi4_outstanding_seq] Outstanding Read [#5] started: ID=0x6 ADDR=0x42cee94a LEN=99
# UVM_INFO ../src/mst/axi4_master_driver.sv(73) @ 7015000: uvm_test_top.env.master_agent.drv [axi4_master_driver] Driving AXI4_READ  ID=0x6  ADDR=0x42cee94a  LEN=99
# UVM_INFO ../src/slv/axi4_slave_driver.sv(358) @ 7045000: uvm_test_top.env.slave_agent.drv [axi4_slave_driver] AR received: ID=0x6 ADDR=0x42cee94a LEN=99 LOCK=AXI4_LOCK_NORMAL
# UVM_INFO ../src/mst/axi4_master_monitor.sv(246) @ 7045000: uvm_test_top.env.master_agent.mon [axi4_master_monitor] AR observed: ID=0x6 ADDR=0x42cee94a LEN=99
# UVM_INFO ../src/slv/axi4_slave_monitor.sv(224) @ 7045000: uvm_test_top.env.slave_agent.mon [axi4_slave_monitor] AR received: ID=0x6 ADDR=0x42cee94a LEN=99
# UVM_INFO ../src/mst/axi4_master_driver.sv(348) @ 10415000: uvm_test_top.env.master_agent.drv [axi4_master_driver] Master driver received all R beats for ID=0x2
# UVM_INFO ../src/slv/axi4_slave_driver.sv(464) @ 10415000: uvm_test_top.env.slave_agent.drv [axi4_slave_driver] Read complete: ID=0x2 ADDR=0xa71c38ef RESP=AXI4_RESP_OKAY  170 beats sent
# UVM_INFO ../src/slv/axi4_slave_monitor.sv(287) @ 10415000: uvm_test_top.env.slave_agent.mon [axi4_slave_monitor] Read data sent: ID=0x2 ADDR=0xa71c38ef 170 beats
# UVM_INFO ../src/env/axi4_scoreboard.sv(108) @ 10415000: uvm_test_top.env.scb [axi4_scoreboard] Slave AXI4_READ received: ID=0x2 ADDR=0xa71c38ef LEN=169
# UVM_INFO ../src/mst/axi4_master_monitor.sv(314) @ 10415000: uvm_test_top.env.master_agent.mon [axi4_master_monitor] Read complete: ID=0x2 ADDR=0xa71c38ef 170 beats
# UVM_INFO ../src/env/axi4_scoreboard.sv(87) @ 10415000: uvm_test_top.env.scb [axi4_scoreboard] Master AXI4_READ received: ID=0x2 ADDR=0xa71c38ef LEN=169
# UVM_INFO ../src/env/axi4_scoreboard.sv(291) @ 10415000: uvm_test_top.env.scb [axi4_scoreboard] [READ] MATCH #6: ID=0x2 ADDR=0xa71c38ef LEN=169
# UVM_INFO ../src/seq/axi4_outstanding_seq.sv(126) @ 10415000: uvm_test_top.env.master_agent.sqr@@outstanding_seq [axi4_outstanding_seq] Outstanding Read [#0] complete: ID=0x2
# UVM_INFO ../src/seq/axi4_outstanding_seq.sv(116) @ 10415000: uvm_test_top.env.master_agent.sqr@@outstanding_seq [axi4_outstanding_seq] Outstanding Read [#6] started: ID=0x6 ADDR=0x66e7d73f LEN=41
# UVM_INFO ../src/mst/axi4_master_driver.sv(73) @ 10415000: uvm_test_top.env.master_agent.drv [axi4_master_driver] Driving AXI4_READ  ID=0x6  ADDR=0x66e7d73f  LEN=41
# UVM_INFO ../src/slv/axi4_slave_driver.sv(358) @ 10445000: uvm_test_top.env.slave_agent.drv [axi4_slave_driver] AR received: ID=0x6 ADDR=0x66e7d73f LEN=41 LOCK=AXI4_LOCK_EXCLUSIVE
# UVM_INFO ../src/mst/axi4_master_monitor.sv(246) @ 10445000: uvm_test_top.env.master_agent.mon [axi4_master_monitor] AR observed: ID=0x6 ADDR=0x66e7d73f LEN=41
# UVM_INFO ../src/slv/axi4_slave_monitor.sv(224) @ 10445000: uvm_test_top.env.slave_agent.mon [axi4_slave_monitor] AR received: ID=0x6 ADDR=0x66e7d73f LEN=41
# UVM_INFO ../src/slv/axi4_slave_monitor.sv(167) @ 10755000: uvm_test_top.env.slave_agent.mon [axi4_slave_monitor] W data assembled: ID=0x2 ADDR=0x4be181e4 222 beats
# UVM_INFO ../src/mst/axi4_master_monitor.sv(184) @ 10755000: uvm_test_top.env.master_agent.mon [axi4_master_monitor] W data assembled: ID=0x2 ADDR=0x4be181e4 222 beats
# UVM_INFO ../src/mst/axi4_master_driver.sv(289) @ 10785000: uvm_test_top.env.master_agent.drv [axi4_master_driver] Master driver received B response: ID=0x2 RESP=AXI4_RESP_OKAY
# UVM_INFO ../src/slv/axi4_slave_driver.sv(320) @ 10785000: uvm_test_top.env.slave_agent.drv [axi4_slave_driver] Write complete: ID=0x2 RESP=AXI4_RESP_OKAY
# UVM_INFO ../src/mst/axi4_master_monitor.sv(210) @ 10785000: uvm_test_top.env.master_agent.mon [axi4_master_monitor] Write complete: ID=0x2 ADDR=0x4be181e4 RESP=AXI4_RESP_OKAY
# UVM_INFO ../src/env/axi4_scoreboard.sv(87) @ 10785000: uvm_test_top.env.scb [axi4_scoreboard] Master AXI4_WRITE received: ID=0x2 ADDR=0x4be181e4 LEN=221
# UVM_INFO ../src/slv/axi4_slave_monitor.sv(189) @ 10785000: uvm_test_top.env.slave_agent.mon [axi4_slave_monitor] Write response sent: ID=0x2 ADDR=0x4be181e4 RESP=AXI4_RESP_OKAY
# UVM_INFO ../src/env/axi4_scoreboard.sv(108) @ 10785000: uvm_test_top.env.scb [axi4_scoreboard] Slave AXI4_WRITE received: ID=0x2 ADDR=0x4be181e4 LEN=221
# UVM_INFO ../src/env/axi4_scoreboard.sv(291) @ 10785000: uvm_test_top.env.scb [axi4_scoreboard] [WRITE] MATCH #7: ID=0x2 ADDR=0x4be181e4 LEN=221
# UVM_INFO ../src/env/axi4_scoreboard.sv(219) @ 10785000: uvm_test_top.env.scb [axi4_scoreboard] [REF_MEM_WRITE] Addr=0x4be181e5 Data=0xc0
# UVM_INFO ../src/env/axi4_scoreboard.sv(219) @ 10785000: uvm_test_top.env.scb [axi4_scoreboard] [REF_MEM_WRITE] Addr=0x4be181e6 Data=0x00
# UVM_INFO ../src/env/axi4_scoreboard.sv(219) @ 10785000: uvm_test_top.env.scb [axi4_scoreboard] [REF_MEM_WRITE] Addr=0x4be181e8 Data=0xb9
# UVM_INFO ../src/env/axi4_scoreboard.sv(219) @ 10785000: uvm_test_top.env.scb [axi4_scoreboard] [REF_MEM_WRITE] Addr=0x4be181ee Data=0xed
# UVM_INFO ../src/env/axi4_scoreboard.sv(219) @ 10785000: uvm_test_top.env.scb [axi4_scoreboard] [REF_MEM_WRITE] Addr=0x4be181f0 Data=0x64
# UVM_INFO ../src/env/axi4_scoreboard.sv(219) @ 10785000: uvm_test_top.env.scb [axi4_scoreboard] [REF_MEM_WRITE] Addr=0x4be181f2 Data=0xe3
# UVM_INFO ../src/env/axi4_scoreboard.sv(219) @ 10785000: uvm_test_top.env.scb [axi4_scoreboard] [REF_MEM_WRITE] Addr=0x4be181f3 Data=0x83
# UVM_INFO ../src/env/axi4_scoreboard.sv(219) @ 10785000: uvm_test_top.env.scb [axi4_scoreboard] [REF_MEM_WRITE] Addr=0x4be181f7 Data=0x92
# UVM_INFO ../src/env/axi4_scoreboard.sv(219) @ 10785000: uvm_test_top.env.scb [axi4_scoreboard] [REF_MEM_WRITE] Addr=0x4be181fd Data=0x65
# UVM_INFO ../src/env/axi4_scoreboard.sv(219) @ 10785000: uvm_test_top.env.scb [axi4_scoreboard] [REF_MEM_WRITE] Addr=0x4be18201 Data=0x26
# UVM_INFO ../src/env/axi4_scoreboard.sv(219) @ 10785000: uvm_test_top.env.scb [axi4_scoreboard] [REF_MEM_WRITE] Addr=0x4be18203 Data=0xe5
# UVM_INFO ../src/env/axi4_scoreboard.sv(219) @ 10785000: uvm_test_top.env.scb [axi4_scoreboard] [REF_MEM_WRITE] Addr=0x4be18204 Data=0xcc
# UVM_INFO ../src/env/axi4_scoreboard.sv(219) @ 10785000: uvm_test_top.env.scb [axi4_scoreboard] [REF_MEM_WRITE] Addr=0x4be18205 Data=0x42
# UVM_INFO ../src/env/axi4_scoreboard.sv(219) @ 10785000: uvm_test_top.env.scb [axi4_scoreboard] [REF_MEM_WRITE] Addr=0x4be18206 Data=0x73
# UVM_INFO ../src/env/axi4_scoreboard.sv(219) @ 10785000: uvm_test_top.env.scb [axi4_scoreboard] [REF_MEM_WRITE] Addr=0x4be18208 Data=0x96
# UVM_INFO ../src/env/axi4_scoreboard.sv(219) @ 10785000: uvm_test_top.env.scb [axi4_scoreboard] [REF_MEM_WRITE] Addr=0x4be18209 Data=0x85
# UVM_INFO ../src/env/axi4_scoreboard.sv(219) @ 10785000: uvm_test_top.env.scb [axi4_scoreboard] [REF_MEM_WRITE] Addr=0x4be1820a Data=0x6c
# UVM_INFO ../src/env/axi4_scoreboard.sv(219) @ 10785000: uvm_test_top.env.scb [axi4_scoreboard] [REF_MEM_WRITE] Addr=0x4be1820c Data=0xb9
# UVM_INFO ../src/env/axi4_scoreboard.sv(219) @ 10785000: uvm_test_top.env.scb [axi4_scoreboard] [REF_MEM_WRITE] Addr=0x4be1820d Data=0xf6
# UVM_INFO ../src/env/axi4_scoreboard.sv(219) @ 10785000: uvm_test_top.env.scb [axi4_scoreboard] [REF_MEM_WRITE] Addr=0x4be1820e Data=0xc3
# UVM_INFO ../src/env/axi4_scoreboard.sv(219) @ 10785000: uvm_test_top.env.scb [axi4_scoreboard] [REF_MEM_WRITE] Addr=0x4be18212 Data=0x44
# UVM_INFO ../src/env/axi4_scoreboard.sv(219) @ 10785000: uvm_test_top.env.scb [axi4_scoreboard] [REF_MEM_WRITE] Addr=0x4be18213 Data=0x5d
# UVM_INFO ../src/env/axi4_scoreboard.sv(219) @ 10785000: uvm_test_top.env.scb [axi4_scoreboard] [REF_MEM_WRITE] Addr=0x4be18215 Data=0x0e
# UVM_INFO ../src/env/axi4_scoreboard.sv(219) @ 10785000: uvm_test_top.env.scb [axi4_scoreboard] [REF_MEM_WRITE] Addr=0x4be18216 Data=0xe9
# UVM_INFO ../src/env/axi4_scoreboard.sv(219) @ 10785000: uvm_test_top.env.scb [axi4_scoreboard] [REF_MEM_WRITE] Addr=0x4be18218 Data=0xc0
# UVM_INFO ../src/env/axi4_scoreboard.sv(219) @ 10785000: uvm_test_top.env.scb [axi4_scoreboard] [REF_MEM_WRITE] Addr=0x4be1821b Data=0xa9
# UVM_INFO ../src/env/axi4_scoreboard.sv(219) @ 10785000: uvm_test_top.env.scb [axi4_scoreboard] [REF_MEM_WRITE] Addr=0x4be1821c Data=0xa6
# UVM_INFO ../src/env/axi4_scoreboard.sv(219) @ 10785000: uvm_test_top.env.scb [axi4_scoreboard] [REF_MEM_WRITE] Addr=0x4be1821d Data=0x48
# UVM_INFO ../src/env/axi4_scoreboard.sv(219) @ 10785000: uvm_test_top.env.scb [axi4_scoreboard] [REF_MEM_WRITE] Addr=0x4be1821e Data=0xbe
# UVM_INFO ../src/env/axi4_scoreboard.sv(219) @ 10785000: uvm_test_top.env.scb [axi4_scoreboard] [REF_MEM_WRITE] Addr=0x4be1821f Data=0x1e
# UVM_INFO ../src/env/axi4_scoreboard.sv(219) @ 10785000: uvm_test_top.env.scb [axi4_scoreboard] [REF_MEM_WRITE] Addr=0x4be18221 Data=0x35
# UVM_INFO ../src/env/axi4_scoreboard.sv(219) @ 10785000: uvm_test_top.env.scb [axi4_scoreboard] [REF_MEM_WRITE] Addr=0x4be18222 Data=0x81
# UVM_INFO ../src/env/axi4_scoreboard.sv(219) @ 10785000: uvm_test_top.env.scb [axi4_scoreboard] [REF_MEM_WRITE] Addr=0x4be18223 Data=0x1f
# UVM_INFO ../src/env/axi4_scoreboard.sv(219) @ 10785000: uvm_test_top.env.scb [axi4_scoreboard] [REF_MEM_WRITE] Addr=0x4be18227 Data=0xf0
# UVM_INFO ../src/env/axi4_scoreboard.sv(219) @ 10785000: uvm_test_top.env.scb [axi4_scoreboard] [REF_MEM_WRITE] Addr=0x4be18228 Data=0x31
# UVM_INFO ../src/env/axi4_scoreboard.sv(219) @ 10785000: uvm_test_top.env.scb [axi4_scoreboard] [REF_MEM_WRITE] Addr=0x4be1822c Data=0x40
# UVM_INFO ../src/env/axi4_scoreboard.sv(219) @ 10785000: uvm_test_top.env.scb [axi4_scoreboard] [REF_MEM_WRITE] Addr=0x4be1822e Data=0x64
# UVM_INFO ../src/env/axi4_scoreboard.sv(219) @ 10785000: uvm_test_top.env.scb [axi4_scoreboard] [REF_MEM_WRITE] Addr=0x4be1822f Data=0x32
# UVM_INFO ../src/env/axi4_scoreboard.sv(219) @ 10785000: uvm_test_top.env.scb [axi4_scoreboard] [REF_MEM_WRITE] Addr=0x4be18230 Data=0xd4
# UVM_INFO ../src/env/axi4_scoreboard.sv(219) @ 10785000: uvm_test_top.env.scb [axi4_scoreboard] [REF_MEM_WRITE] Addr=0x4be18231 Data=0xd4
# UVM_INFO ../src/env/axi4_scoreboard.sv(219) @ 10785000: uvm_test_top.env.scb [axi4_scoreboard] [REF_MEM_WRITE] Addr=0x4be18232 Data=0x7a
# UVM_INFO ../src/env/axi4_scoreboard.sv(219) @ 10785000: uvm_test_top.env.scb [axi4_scoreboard] [REF_MEM_WRITE] Addr=0x4be18233 Data=0x17
# UVM_INFO ../src/env/axi4_scoreboard.sv(219) @ 10785000: uvm_test_top.env.scb [axi4_scoreboard] [REF_MEM_WRITE] Addr=0x4be18237 Data=0x5e
# UVM_INFO ../src/env/axi4_scoreboard.sv(219) @ 10785000: uvm_test_top.env.scb [axi4_scoreboard] [REF_MEM_WRITE] Addr=0x4be18238 Data=0xa3
# UVM_INFO ../src/env/axi4_scoreboard.sv(219) @ 10785000: uvm_test_top.env.scb [axi4_scoreboard] [REF_MEM_WRITE] Addr=0x4be18239 Data=0xe6
# UVM_INFO ../src/env/axi4_scoreboard.sv(219) @ 10785000: uvm_test_top.env.scb [axi4_scoreboard] [REF_MEM_WRITE] Addr=0x4be1823a Data=0x7f
# UVM_INFO ../src/env/axi4_scoreboard.sv(219) @ 10785000: uvm_test_top.env.scb [axi4_scoreboard] [REF_MEM_WRITE] Addr=0x4be1823c Data=0xc0
# UVM_INFO ../src/env/axi4_scoreboard.sv(219) @ 10785000: uvm_test_top.env.scb [axi4_scoreboard] [REF_MEM_WRITE] Addr=0x4be1823d Data=0x28
# UVM_INFO ../src/env/axi4_scoreboard.sv(219) @ 10785000: uvm_test_top.env.scb [axi4_scoreboard] [REF_MEM_WRITE] Addr=0x4be1823f Data=0xdf
# UVM_INFO ../src/env/axi4_scoreboard.sv(219) @ 10785000: uvm_test_top.env.scb [axi4_scoreboard] [REF_MEM_WRITE] Addr=0x4be18242 Data=0x7c
# UVM_INFO ../src/env/axi4_scoreboard.sv(219) @ 10785000: uvm_test_top.env.scb [axi4_scoreboard] [REF_MEM_WRITE] Addr=0x4be18244 Data=0x5f
# UVM_INFO ../src/env/axi4_scoreboard.sv(219) @ 10785000: uvm_test_top.env.scb [axi4_scoreboard] [REF_MEM_WRITE] Addr=0x4be18245 Data=0xe7
# UVM_INFO ../src/env/axi4_scoreboard.sv(219) @ 10785000: uvm_test_top.env.scb [axi4_scoreboard] [REF_MEM_WRITE] Addr=0x4be18247 Data=0x12
# UVM_INFO ../src/env/axi4_scoreboard.sv(219) @ 10785000: uvm_test_top.env.scb [axi4_scoreboard] [REF_MEM_WRITE] Addr=0x4be18248 Data=0x5a
# UVM_INFO ../src/env/axi4_scoreboard.sv(219) @ 10785000: uvm_test_top.env.scb [axi4_scoreboard] [REF_MEM_WRITE] Addr=0x4be1824a Data=0xf4
# UVM_INFO ../src/env/axi4_scoreboard.sv(219) @ 10785000: uvm_test_top.env.scb [axi4_scoreboard] [REF_MEM_WRITE] Addr=0x4be1824c Data=0xef
# UVM_INFO ../src/env/axi4_scoreboard.sv(219) @ 10785000: uvm_test_top.env.scb [axi4_scoreboard] [REF_MEM_WRITE] Addr=0x4be1824e Data=0xbf
# UVM_INFO ../src/env/axi4_scoreboard.sv(219) @ 10785000: uvm_test_top.env.scb [axi4_scoreboard] [REF_MEM_WRITE] Addr=0x4be18253 Data=0x98
# UVM_INFO ../src/env/axi4_scoreboard.sv(219) @ 10785000: uvm_test_top.env.scb [axi4_scoreboard] [REF_MEM_WRITE] Addr=0x4be18254 Data=0x3c
# UVM_INFO ../src/env/axi4_scoreboard.sv(219) @ 10785000: uvm_test_top.env.scb [axi4_scoreboard] [REF_MEM_WRITE] Addr=0x4be18256 Data=0x70
# UVM_INFO ../src/env/axi4_scoreboard.sv(219) @ 10785000: uvm_test_top.env.scb [axi4_scoreboard] [REF_MEM_WRITE] Addr=0x4be1825d Data=0xf3
# UVM_INFO ../src/env/axi4_scoreboard.sv(219) @ 10785000: uvm_test_top.env.scb [axi4_scoreboard] [REF_MEM_WRITE] Addr=0x4be1825f Data=0xbb
# UVM_INFO ../src/env/axi4_scoreboard.sv(219) @ 10785000: uvm_test_top.env.scb [axi4_scoreboard] [REF_MEM_WRITE] Addr=0x4be18260 Data=0x2e
# UVM_INFO ../src/env/axi4_scoreboard.sv(219) @ 10785000: uvm_test_top.env.scb [axi4_scoreboard] [REF_MEM_WRITE] Addr=0x4be18261 Data=0x30
# UVM_INFO ../src/env/axi4_scoreboard.sv(219) @ 10785000: uvm_test_top.env.scb [axi4_scoreboard] [REF_MEM_WRITE] Addr=0x4be18262 Data=0xf2
# UVM_INFO ../src/env/axi4_scoreboard.sv(219) @ 10785000: uvm_test_top.env.scb [axi4_scoreboard] [REF_MEM_WRITE] Addr=0x4be18264 Data=0xb8
# UVM_INFO ../src/env/axi4_scoreboard.sv(219) @ 10785000: uvm_test_top.env.scb [axi4_scoreboard] [REF_MEM_WRITE] Addr=0x4be18267 Data=0x26
# UVM_INFO ../src/env/axi4_scoreboard.sv(219) @ 10785000: uvm_test_top.env.scb [axi4_scoreboard] [REF_MEM_WRITE] Addr=0x4be18268 Data=0x19
# UVM_INFO ../src/env/axi4_scoreboard.sv(219) @ 10785000: uvm_test_top.env.scb [axi4_scoreboard] [REF_MEM_WRITE] Addr=0x4be18269 Data=0xeb
# UVM_INFO ../src/env/axi4_scoreboard.sv(219) @ 10785000: uvm_test_top.env.scb [axi4_scoreboard] [REF_MEM_WRITE] Addr=0x4be1826e Data=0xc3
# UVM_INFO ../src/env/axi4_scoreboard.sv(219) @ 10785000: uvm_test_top.env.scb [axi4_scoreboard] [REF_MEM_WRITE] Addr=0x4be1826f Data=0xb7
# UVM_INFO ../src/env/axi4_scoreboard.sv(219) @ 10785000: uvm_test_top.env.scb [axi4_scoreboard] [REF_MEM_WRITE] Addr=0x4be18271 Data=0x35
# UVM_INFO ../src/env/axi4_scoreboard.sv(219) @ 10785000: uvm_test_top.env.scb [axi4_scoreboard] [REF_MEM_WRITE] Addr=0x4be18273 Data=0x9c
# UVM_INFO ../src/env/axi4_scoreboard.sv(219) @ 10785000: uvm_test_top.env.scb [axi4_scoreboard] [REF_MEM_WRITE] Addr=0x4be18279 Data=0x34
# UVM_INFO ../src/env/axi4_scoreboard.sv(219) @ 10785000: uvm_test_top.env.scb [axi4_scoreboard] [REF_MEM_WRITE] Addr=0x4be1827a Data=0x1f
# UVM_INFO ../src/env/axi4_scoreboard.sv(219) @ 10785000: uvm_test_top.env.scb [axi4_scoreboard] [REF_MEM_WRITE] Addr=0x4be1827e Data=0x27
# UVM_INFO ../src/env/axi4_scoreboard.sv(219) @ 10785000: uvm_test_top.env.scb [axi4_scoreboard] [REF_MEM_WRITE] Addr=0x4be18280 Data=0xbe
# UVM_INFO ../src/env/axi4_scoreboard.sv(219) @ 10785000: uvm_test_top.env.scb [axi4_scoreboard] [REF_MEM_WRITE] Addr=0x4be18281 Data=0x81
# UVM_INFO ../src/env/axi4_scoreboard.sv(219) @ 10785000: uvm_test_top.env.scb [axi4_scoreboard] [REF_MEM_WRITE] Addr=0x4be18283 Data=0x32
# UVM_INFO ../src/env/axi4_scoreboard.sv(219) @ 10785000: uvm_test_top.env.scb [axi4_scoreboard] [REF_MEM_WRITE] Addr=0x4be18284 Data=0x0c
# UVM_INFO ../src/env/axi4_scoreboard.sv(219) @ 10785000: uvm_test_top.env.scb [axi4_scoreboard] [REF_MEM_WRITE] Addr=0x4be18286 Data=0x04
# UVM_INFO ../src/env/axi4_scoreboard.sv(219) @ 10785000: uvm_test_top.env.scb [axi4_scoreboard] [REF_MEM_WRITE] Addr=0x4be18288 Data=0xb7
# UVM_INFO ../src/env/axi4_scoreboard.sv(219) @ 10785000: uvm_test_top.env.scb [axi4_scoreboard] [REF_MEM_WRITE] Addr=0x4be1828a Data=0xe1
# UVM_INFO ../src/env/axi4_scoreboard.sv(219) @ 10785000: uvm_test_top.env.scb [axi4_scoreboard] [REF_MEM_WRITE] Addr=0x4be1828d Data=0xdb
# UVM_INFO ../src/env/axi4_scoreboard.sv(219) @ 10785000: uvm_test_top.env.scb [axi4_scoreboard] [REF_MEM_WRITE] Addr=0x4be18290 Data=0xd4
# UVM_INFO ../src/env/axi4_scoreboard.sv(219) @ 10785000: uvm_test_top.env.scb [axi4_scoreboard] [REF_MEM_WRITE] Addr=0x4be18291 Data=0x37
# UVM_INFO ../src/env/axi4_scoreboard.sv(219) @ 10785000: uvm_test_top.env.scb [axi4_scoreboard] [REF_MEM_WRITE] Addr=0x4be18294 Data=0xd0
# UVM_INFO ../src/env/axi4_scoreboard.sv(219) @ 10785000: uvm_test_top.env.scb [axi4_scoreboard] [REF_MEM_WRITE] Addr=0x4be1829a Data=0x1e
# UVM_INFO ../src/env/axi4_scoreboard.sv(219) @ 10785000: uvm_test_top.env.scb [axi4_scoreboard] [REF_MEM_WRITE] Addr=0x4be1829c Data=0x3e
# UVM_INFO ../src/env/axi4_scoreboard.sv(219) @ 10785000: uvm_test_top.env.scb [axi4_scoreboard] [REF_MEM_WRITE] Addr=0x4be1829d Data=0x36
# UVM_INFO ../src/env/axi4_scoreboard.sv(219) @ 10785000: uvm_test_top.env.scb [axi4_scoreboard] [REF_MEM_WRITE] Addr=0x4be1829e Data=0xce
# UVM_INFO ../src/env/axi4_scoreboard.sv(219) @ 10785000: uvm_test_top.env.scb [axi4_scoreboard] [REF_MEM_WRITE] Addr=0x4be1829f Data=0xf8
# UVM_INFO ../src/env/axi4_scoreboard.sv(219) @ 10785000: uvm_test_top.env.scb [axi4_scoreboard] [REF_MEM_WRITE] Addr=0x4be182a3 Data=0x30
# UVM_INFO ../src/env/axi4_scoreboard.sv(219) @ 10785000: uvm_test_top.env.scb [axi4_scoreboard] [REF_MEM_WRITE] Addr=0x4be182a5 Data=0x0a
# UVM_INFO ../src/env/axi4_scoreboard.sv(219) @ 10785000: uvm_test_top.env.scb [axi4_scoreboard] [REF_MEM_WRITE] Addr=0x4be182aa Data=0x9f
# UVM_INFO ../src/env/axi4_scoreboard.sv(219) @ 10785000: uvm_test_top.env.scb [axi4_scoreboard] [REF_MEM_WRITE] Addr=0x4be182ab Data=0x0b
# UVM_INFO ../src/env/axi4_scoreboard.sv(219) @ 10785000: uvm_test_top.env.scb [axi4_scoreboard] [REF_MEM_WRITE] Addr=0x4be182ac Data=0x24
# UVM_INFO ../src/env/axi4_scoreboard.sv(219) @ 10785000: uvm_test_top.env.scb [axi4_scoreboard] [REF_MEM_WRITE] Addr=0x4be182ad Data=0xfc
# UVM_INFO ../src/env/axi4_scoreboard.sv(219) @ 10785000: uvm_test_top.env.scb [axi4_scoreboard] [REF_MEM_WRITE] Addr=0x4be182af Data=0x68
# UVM_INFO ../src/env/axi4_scoreboard.sv(219) @ 10785000: uvm_test_top.env.scb [axi4_scoreboard] [REF_MEM_WRITE] Addr=0x4be182b0 Data=0x90
# UVM_INFO ../src/env/axi4_scoreboard.sv(219) @ 10785000: uvm_test_top.env.scb [axi4_scoreboard] [REF_MEM_WRITE] Addr=0x4be182b1 Data=0xd1
# UVM_INFO ../src/env/axi4_scoreboard.sv(219) @ 10785000: uvm_test_top.env.scb [axi4_scoreboard] [REF_MEM_WRITE] Addr=0x4be182b2 Data=0x82
# UVM_INFO ../src/env/axi4_scoreboard.sv(219) @ 10785000: uvm_test_top.env.scb [axi4_scoreboard] [REF_MEM_WRITE] Addr=0x4be182b3 Data=0x9c
# UVM_INFO ../src/env/axi4_scoreboard.sv(219) @ 10785000: uvm_test_top.env.scb [axi4_scoreboard] [REF_MEM_WRITE] Addr=0x4be182b9 Data=0x72
# UVM_INFO ../src/env/axi4_scoreboard.sv(219) @ 10785000: uvm_test_top.env.scb [axi4_scoreboard] [REF_MEM_WRITE] Addr=0x4be182ba Data=0xe7
# UVM_INFO ../src/env/axi4_scoreboard.sv(219) @ 10785000: uvm_test_top.env.scb [axi4_scoreboard] [REF_MEM_WRITE] Addr=0x4be182bc Data=0xc5
# UVM_INFO ../src/env/axi4_scoreboard.sv(219) @ 10785000: uvm_test_top.env.scb [axi4_scoreboard] [REF_MEM_WRITE] Addr=0x4be182bf Data=0x19
# UVM_INFO ../src/env/axi4_scoreboard.sv(219) @ 10785000: uvm_test_top.env.scb [axi4_scoreboard] [REF_MEM_WRITE] Addr=0x4be182c3 Data=0x25
# UVM_INFO ../src/env/axi4_scoreboard.sv(219) @ 10785000: uvm_test_top.env.scb [axi4_scoreboard] [REF_MEM_WRITE] Addr=0x4be182c4 Data=0xce
# UVM_INFO ../src/env/axi4_scoreboard.sv(219) @ 10785000: uvm_test_top.env.scb [axi4_scoreboard] [REF_MEM_WRITE] Addr=0x4be182c7 Data=0xa2
# UVM_INFO ../src/env/axi4_scoreboard.sv(219) @ 10785000: uvm_test_top.env.scb [axi4_scoreboard] [REF_MEM_WRITE] Addr=0x4be182ca Data=0x05
# UVM_INFO ../src/env/axi4_scoreboard.sv(219) @ 10785000: uvm_test_top.env.scb [axi4_scoreboard] [REF_MEM_WRITE] Addr=0x4be182cf Data=0x25
# UVM_INFO ../src/env/axi4_scoreboard.sv(219) @ 10785000: uvm_test_top.env.scb [axi4_scoreboard] [REF_MEM_WRITE] Addr=0x4be182d1 Data=0x08
# UVM_INFO ../src/env/axi4_scoreboard.sv(219) @ 10785000: uvm_test_top.env.scb [axi4_scoreboard] [REF_MEM_WRITE] Addr=0x4be182d6 Data=0x48
# UVM_INFO ../src/env/axi4_scoreboard.sv(219) @ 10785000: uvm_test_top.env.scb [axi4_scoreboard] [REF_MEM_WRITE] Addr=0x4be182db Data=0xd3
# UVM_INFO ../src/env/axi4_scoreboard.sv(219) @ 10785000: uvm_test_top.env.scb [axi4_scoreboard] [REF_MEM_WRITE] Addr=0x4be182dc Data=0x0f
# UVM_INFO ../src/env/axi4_scoreboard.sv(219) @ 10785000: uvm_test_top.env.scb [axi4_scoreboard] [REF_MEM_WRITE] Addr=0x4be182dd Data=0x6e
# UVM_INFO ../src/env/axi4_scoreboard.sv(219) @ 10785000: uvm_test_top.env.scb [axi4_scoreboard] [REF_MEM_WRITE] Addr=0x4be182de Data=0xb8
# UVM_INFO ../src/env/axi4_scoreboard.sv(219) @ 10785000: uvm_test_top.env.scb [axi4_scoreboard] [REF_MEM_WRITE] Addr=0x4be182df Data=0x2c
# UVM_INFO ../src/env/axi4_scoreboard.sv(219) @ 10785000: uvm_test_top.env.scb [axi4_scoreboard] [REF_MEM_WRITE] Addr=0x4be182e5 Data=0xfd
# UVM_INFO ../src/env/axi4_scoreboard.sv(219) @ 10785000: uvm_test_top.env.scb [axi4_scoreboard] [REF_MEM_WRITE] Addr=0x4be182e6 Data=0x22
# UVM_INFO ../src/env/axi4_scoreboard.sv(219) @ 10785000: uvm_test_top.env.scb [axi4_scoreboard] [REF_MEM_WRITE] Addr=0x4be182e7 Data=0x4e
# UVM_INFO ../src/env/axi4_scoreboard.sv(219) @ 10785000: uvm_test_top.env.scb [axi4_scoreboard] [REF_MEM_WRITE] Addr=0x4be182e8 Data=0x57
# UVM_INFO ../src/env/axi4_scoreboard.sv(219) @ 10785000: uvm_test_top.env.scb [axi4_scoreboard] [REF_MEM_WRITE] Addr=0x4be182e9 Data=0x06
# UVM_INFO ../src/env/axi4_scoreboard.sv(219) @ 10785000: uvm_test_top.env.scb [axi4_scoreboard] [REF_MEM_WRITE] Addr=0x4be182f3 Data=0xf7
# UVM_INFO ../src/env/axi4_scoreboard.sv(219) @ 10785000: uvm_test_top.env.scb [axi4_scoreboard] [REF_MEM_WRITE] Addr=0x4be182f5 Data=0x1b
# UVM_INFO ../src/env/axi4_scoreboard.sv(219) @ 10785000: uvm_test_top.env.scb [axi4_scoreboard] [REF_MEM_WRITE] Addr=0x4be182f6 Data=0x3b
# UVM_INFO ../src/env/axi4_scoreboard.sv(219) @ 10785000: uvm_test_top.env.scb [axi4_scoreboard] [REF_MEM_WRITE] Addr=0x4be182fa Data=0x50
# UVM_INFO ../src/env/axi4_scoreboard.sv(219) @ 10785000: uvm_test_top.env.scb [axi4_scoreboard] [REF_MEM_WRITE] Addr=0x4be182fb Data=0x9a
# UVM_INFO ../src/env/axi4_scoreboard.sv(219) @ 10785000: uvm_test_top.env.scb [axi4_scoreboard] [REF_MEM_WRITE] Addr=0x4be182fe Data=0xfa
# UVM_INFO ../src/env/axi4_scoreboard.sv(219) @ 10785000: uvm_test_top.env.scb [axi4_scoreboard] [REF_MEM_WRITE] Addr=0x4be18300 Data=0x09
# UVM_INFO ../src/env/axi4_scoreboard.sv(219) @ 10785000: uvm_test_top.env.scb [axi4_scoreboard] [REF_MEM_WRITE] Addr=0x4be18303 Data=0x3d
# UVM_INFO ../src/env/axi4_scoreboard.sv(219) @ 10785000: uvm_test_top.env.scb [axi4_scoreboard] [REF_MEM_WRITE] Addr=0x4be18304 Data=0x8d
# UVM_INFO ../src/env/axi4_scoreboard.sv(219) @ 10785000: uvm_test_top.env.scb [axi4_scoreboard] [REF_MEM_WRITE] Addr=0x4be18305 Data=0xa8
# UVM_INFO ../src/env/axi4_scoreboard.sv(219) @ 10785000: uvm_test_top.env.scb [axi4_scoreboard] [REF_MEM_WRITE] Addr=0x4be18307 Data=0x0c
# UVM_INFO ../src/env/axi4_scoreboard.sv(219) @ 10785000: uvm_test_top.env.scb [axi4_scoreboard] [REF_MEM_WRITE] Addr=0x4be18308 Data=0x99
# UVM_INFO ../src/env/axi4_scoreboard.sv(219) @ 10785000: uvm_test_top.env.scb [axi4_scoreboard] [REF_MEM_WRITE] Addr=0x4be18309 Data=0x02
# UVM_INFO ../src/env/axi4_scoreboard.sv(219) @ 10785000: uvm_test_top.env.scb [axi4_scoreboard] [REF_MEM_WRITE] Addr=0x4be1830a Data=0x15
# UVM_INFO ../src/env/axi4_scoreboard.sv(219) @ 10785000: uvm_test_top.env.scb [axi4_scoreboard] [REF_MEM_WRITE] Addr=0x4be1830b Data=0x71
# UVM_INFO ../src/env/axi4_scoreboard.sv(219) @ 10785000: uvm_test_top.env.scb [axi4_scoreboard] [REF_MEM_WRITE] Addr=0x4be1830c Data=0x61
# UVM_INFO ../src/env/axi4_scoreboard.sv(219) @ 10785000: uvm_test_top.env.scb [axi4_scoreboard] [REF_MEM_WRITE] Addr=0x4be1830d Data=0x8b
# UVM_INFO ../src/env/axi4_scoreboard.sv(219) @ 10785000: uvm_test_top.env.scb [axi4_scoreboard] [REF_MEM_WRITE] Addr=0x4be18310 Data=0x31
# UVM_INFO ../src/env/axi4_scoreboard.sv(219) @ 10785000: uvm_test_top.env.scb [axi4_scoreboard] [REF_MEM_WRITE] Addr=0x4be18314 Data=0xbe
# UVM_INFO ../src/env/axi4_scoreboard.sv(219) @ 10785000: uvm_test_top.env.scb [axi4_scoreboard] [REF_MEM_WRITE] Addr=0x4be18315 Data=0x40
# UVM_INFO ../src/env/axi4_scoreboard.sv(219) @ 10785000: uvm_test_top.env.scb [axi4_scoreboard] [REF_MEM_WRITE] Addr=0x4be18316 Data=0x21
# UVM_INFO ../src/env/axi4_scoreboard.sv(219) @ 10785000: uvm_test_top.env.scb [axi4_scoreboard] [REF_MEM_WRITE] Addr=0x4be18318 Data=0x10
# UVM_INFO ../src/env/axi4_scoreboard.sv(219) @ 10785000: uvm_test_top.env.scb [axi4_scoreboard] [REF_MEM_WRITE] Addr=0x4be1831d Data=0x80
# UVM_INFO ../src/env/axi4_scoreboard.sv(219) @ 10785000: uvm_test_top.env.scb [axi4_scoreboard] [REF_MEM_WRITE] Addr=0x4be1831e Data=0x9d
# UVM_INFO ../src/env/axi4_scoreboard.sv(219) @ 10785000: uvm_test_top.env.scb [axi4_scoreboard] [REF_MEM_WRITE] Addr=0x4be18320 Data=0xfd
# UVM_INFO ../src/env/axi4_scoreboard.sv(219) @ 10785000: uvm_test_top.env.scb [axi4_scoreboard] [REF_MEM_WRITE] Addr=0x4be18323 Data=0xd6
# UVM_INFO ../src/env/axi4_scoreboard.sv(219) @ 10785000: uvm_test_top.env.scb [axi4_scoreboard] [REF_MEM_WRITE] Addr=0x4be18325 Data=0xcb
# UVM_INFO ../src/env/axi4_scoreboard.sv(219) @ 10785000: uvm_test_top.env.scb [axi4_scoreboard] [REF_MEM_WRITE] Addr=0x4be1832b Data=0x5a
# UVM_INFO ../src/env/axi4_scoreboard.sv(219) @ 10785000: uvm_test_top.env.scb [axi4_scoreboard] [REF_MEM_WRITE] Addr=0x4be1832c Data=0x69
# UVM_INFO ../src/env/axi4_scoreboard.sv(219) @ 10785000: uvm_test_top.env.scb [axi4_scoreboard] [REF_MEM_WRITE] Addr=0x4be1832f Data=0x8c
# UVM_INFO ../src/env/axi4_scoreboard.sv(219) @ 10785000: uvm_test_top.env.scb [axi4_scoreboard] [REF_MEM_WRITE] Addr=0x4be18330 Data=0x35
# UVM_INFO ../src/env/axi4_scoreboard.sv(219) @ 10785000: uvm_test_top.env.scb [axi4_scoreboard] [REF_MEM_WRITE] Addr=0x4be18331 Data=0x03
# UVM_INFO ../src/env/axi4_scoreboard.sv(219) @ 10785000: uvm_test_top.env.scb [axi4_scoreboard] [REF_MEM_WRITE] Addr=0x4be18332 Data=0xdb
# UVM_INFO ../src/env/axi4_scoreboard.sv(219) @ 10785000: uvm_test_top.env.scb [axi4_scoreboard] [REF_MEM_WRITE] Addr=0x4be18333 Data=0xd1
# UVM_INFO ../src/env/axi4_scoreboard.sv(219) @ 10785000: uvm_test_top.env.scb [axi4_scoreboard] [REF_MEM_WRITE] Addr=0x4be18334 Data=0xef
# UVM_INFO ../src/env/axi4_scoreboard.sv(219) @ 10785000: uvm_test_top.env.scb [axi4_scoreboard] [REF_MEM_WRITE] Addr=0x4be18335 Data=0xd9
# UVM_INFO ../src/env/axi4_scoreboard.sv(219) @ 10785000: uvm_test_top.env.scb [axi4_scoreboard] [REF_MEM_WRITE] Addr=0x4be18336 Data=0xa7
# UVM_INFO ../src/env/axi4_scoreboard.sv(219) @ 10785000: uvm_test_top.env.scb [axi4_scoreboard] [REF_MEM_WRITE] Addr=0x4be18339 Data=0xd2
# UVM_INFO ../src/env/axi4_scoreboard.sv(219) @ 10785000: uvm_test_top.env.scb [axi4_scoreboard] [REF_MEM_WRITE] Addr=0x4be1833b Data=0x6c
# UVM_INFO ../src/env/axi4_scoreboard.sv(219) @ 10785000: uvm_test_top.env.scb [axi4_scoreboard] [REF_MEM_WRITE] Addr=0x4be1833c Data=0x55
# UVM_INFO ../src/env/axi4_scoreboard.sv(219) @ 10785000: uvm_test_top.env.scb [axi4_scoreboard] [REF_MEM_WRITE] Addr=0x4be1833d Data=0xa0
# UVM_INFO ../src/env/axi4_scoreboard.sv(219) @ 10785000: uvm_test_top.env.scb [axi4_scoreboard] [REF_MEM_WRITE] Addr=0x4be1833e Data=0x5e
# UVM_INFO ../src/env/axi4_scoreboard.sv(219) @ 10785000: uvm_test_top.env.scb [axi4_scoreboard] [REF_MEM_WRITE] Addr=0x4be1833f Data=0xe8
# UVM_INFO ../src/env/axi4_scoreboard.sv(219) @ 10785000: uvm_test_top.env.scb [axi4_scoreboard] [REF_MEM_WRITE] Addr=0x4be18340 Data=0xae
# UVM_INFO ../src/env/axi4_scoreboard.sv(219) @ 10785000: uvm_test_top.env.scb [axi4_scoreboard] [REF_MEM_WRITE] Addr=0x4be18341 Data=0x84
# UVM_INFO ../src/env/axi4_scoreboard.sv(219) @ 10785000: uvm_test_top.env.scb [axi4_scoreboard] [REF_MEM_WRITE] Addr=0x4be18343 Data=0xae
# UVM_INFO ../src/env/axi4_scoreboard.sv(219) @ 10785000: uvm_test_top.env.scb [axi4_scoreboard] [REF_MEM_WRITE] Addr=0x4be18344 Data=0x24
# UVM_INFO ../src/env/axi4_scoreboard.sv(219) @ 10785000: uvm_test_top.env.scb [axi4_scoreboard] [REF_MEM_WRITE] Addr=0x4be18345 Data=0x6b
# UVM_INFO ../src/env/axi4_scoreboard.sv(219) @ 10785000: uvm_test_top.env.scb [axi4_scoreboard] [REF_MEM_WRITE] Addr=0x4be18346 Data=0x2a
# UVM_INFO ../src/env/axi4_scoreboard.sv(219) @ 10785000: uvm_test_top.env.scb [axi4_scoreboard] [REF_MEM_WRITE] Addr=0x4be18347 Data=0xdb
# UVM_INFO ../src/env/axi4_scoreboard.sv(219) @ 10785000: uvm_test_top.env.scb [axi4_scoreboard] [REF_MEM_WRITE] Addr=0x4be18349 Data=0x98
# UVM_INFO ../src/env/axi4_scoreboard.sv(219) @ 10785000: uvm_test_top.env.scb [axi4_scoreboard] [REF_MEM_WRITE] Addr=0x4be1834b Data=0xc4
# UVM_INFO ../src/env/axi4_scoreboard.sv(219) @ 10785000: uvm_test_top.env.scb [axi4_scoreboard] [REF_MEM_WRITE] Addr=0x4be1834d Data=0xe5
# UVM_INFO ../src/env/axi4_scoreboard.sv(219) @ 10785000: uvm_test_top.env.scb [axi4_scoreboard] [REF_MEM_WRITE] Addr=0x4be1834f Data=0x0c
# UVM_INFO ../src/env/axi4_scoreboard.sv(219) @ 10785000: uvm_test_top.env.scb [axi4_scoreboard] [REF_MEM_WRITE] Addr=0x4be18352 Data=0x22
# UVM_INFO ../src/env/axi4_scoreboard.sv(219) @ 10785000: uvm_test_top.env.scb [axi4_scoreboard] [REF_MEM_WRITE] Addr=0x4be18354 Data=0x0c
# UVM_INFO ../src/env/axi4_scoreboard.sv(219) @ 10785000: uvm_test_top.env.scb [axi4_scoreboard] [REF_MEM_WRITE] Addr=0x4be18359 Data=0x98
# UVM_INFO ../src/env/axi4_scoreboard.sv(219) @ 10785000: uvm_test_top.env.scb [axi4_scoreboard] [REF_MEM_WRITE] Addr=0x4be1835c Data=0xb7
# UVM_INFO ../src/env/axi4_scoreboard.sv(219) @ 10785000: uvm_test_top.env.scb [axi4_scoreboard] [REF_MEM_WRITE] Addr=0x4be1835d Data=0x9f
# UVM_INFO ../src/env/axi4_scoreboard.sv(219) @ 10785000: uvm_test_top.env.scb [axi4_scoreboard] [REF_MEM_WRITE] Addr=0x4be1835e Data=0xd6
# UVM_INFO ../src/env/axi4_scoreboard.sv(219) @ 10785000: uvm_test_top.env.scb [axi4_scoreboard] [REF_MEM_WRITE] Addr=0x4be18361 Data=0x48
# UVM_INFO ../src/env/axi4_scoreboard.sv(219) @ 10785000: uvm_test_top.env.scb [axi4_scoreboard] [REF_MEM_WRITE] Addr=0x4be18362 Data=0x7c
# UVM_INFO ../src/env/axi4_scoreboard.sv(219) @ 10785000: uvm_test_top.env.scb [axi4_scoreboard] [REF_MEM_WRITE] Addr=0x4be18363 Data=0x85
# UVM_INFO ../src/env/axi4_scoreboard.sv(219) @ 10785000: uvm_test_top.env.scb [axi4_scoreboard] [REF_MEM_WRITE] Addr=0x4be18364 Data=0x47
# UVM_INFO ../src/env/axi4_scoreboard.sv(219) @ 10785000: uvm_test_top.env.scb [axi4_scoreboard] [REF_MEM_WRITE] Addr=0x4be18367 Data=0x7d
# UVM_INFO ../src/env/axi4_scoreboard.sv(219) @ 10785000: uvm_test_top.env.scb [axi4_scoreboard] [REF_MEM_WRITE] Addr=0x4be18368 Data=0x03
# UVM_INFO ../src/env/axi4_scoreboard.sv(219) @ 10785000: uvm_test_top.env.scb [axi4_scoreboard] [REF_MEM_WRITE] Addr=0x4be18369 Data=0x5d
# UVM_INFO ../src/env/axi4_scoreboard.sv(219) @ 10785000: uvm_test_top.env.scb [axi4_scoreboard] [REF_MEM_WRITE] Addr=0x4be1836a Data=0xde
# UVM_INFO ../src/env/axi4_scoreboard.sv(219) @ 10785000: uvm_test_top.env.scb [axi4_scoreboard] [REF_MEM_WRITE] Addr=0x4be1836b Data=0x0d
# UVM_INFO ../src/env/axi4_scoreboard.sv(219) @ 10785000: uvm_test_top.env.scb [axi4_scoreboard] [REF_MEM_WRITE] Addr=0x4be18371 Data=0xc1
# UVM_INFO ../src/env/axi4_scoreboard.sv(219) @ 10785000: uvm_test_top.env.scb [axi4_scoreboard] [REF_MEM_WRITE] Addr=0x4be18373 Data=0x51
# UVM_INFO ../src/env/axi4_scoreboard.sv(219) @ 10785000: uvm_test_top.env.scb [axi4_scoreboard] [REF_MEM_WRITE] Addr=0x4be18376 Data=0xe1
# UVM_INFO ../src/env/axi4_scoreboard.sv(219) @ 10785000: uvm_test_top.env.scb [axi4_scoreboard] [REF_MEM_WRITE] Addr=0x4be18378 Data=0x2a
# UVM_INFO ../src/env/axi4_scoreboard.sv(219) @ 10785000: uvm_test_top.env.scb [axi4_scoreboard] [REF_MEM_WRITE] Addr=0x4be1837c Data=0x18
# UVM_INFO ../src/env/axi4_scoreboard.sv(219) @ 10785000: uvm_test_top.env.scb [axi4_scoreboard] [REF_MEM_WRITE] Addr=0x4be1837e Data=0x70
# UVM_INFO ../src/env/axi4_scoreboard.sv(219) @ 10785000: uvm_test_top.env.scb [axi4_scoreboard] [REF_MEM_WRITE] Addr=0x4be1837f Data=0x32
# UVM_INFO ../src/env/axi4_scoreboard.sv(219) @ 10785000: uvm_test_top.env.scb [axi4_scoreboard] [REF_MEM_WRITE] Addr=0x4be18380 Data=0x7f
# UVM_INFO ../src/env/axi4_scoreboard.sv(219) @ 10785000: uvm_test_top.env.scb [axi4_scoreboard] [REF_MEM_WRITE] Addr=0x4be18385 Data=0x8f
# UVM_INFO ../src/env/axi4_scoreboard.sv(219) @ 10785000: uvm_test_top.env.scb [axi4_scoreboard] [REF_MEM_WRITE] Addr=0x4be18388 Data=0x09
# UVM_INFO ../src/env/axi4_scoreboard.sv(219) @ 10785000: uvm_test_top.env.scb [axi4_scoreboard] [REF_MEM_WRITE] Addr=0x4be1838b Data=0x05
# UVM_INFO ../src/env/axi4_scoreboard.sv(219) @ 10785000: uvm_test_top.env.scb [axi4_scoreboard] [REF_MEM_WRITE] Addr=0x4be1838f Data=0xd7
# UVM_INFO ../src/env/axi4_scoreboard.sv(219) @ 10785000: uvm_test_top.env.scb [axi4_scoreboard] [REF_MEM_WRITE] Addr=0x4be18391 Data=0xf6
# UVM_INFO ../src/env/axi4_scoreboard.sv(219) @ 10785000: uvm_test_top.env.scb [axi4_scoreboard] [REF_MEM_WRITE] Addr=0x4be18392 Data=0xbf
# UVM_INFO ../src/env/axi4_scoreboard.sv(219) @ 10785000: uvm_test_top.env.scb [axi4_scoreboard] [REF_MEM_WRITE] Addr=0x4be18393 Data=0x61
# UVM_INFO ../src/env/axi4_scoreboard.sv(219) @ 10785000: uvm_test_top.env.scb [axi4_scoreboard] [REF_MEM_WRITE] Addr=0x4be18394 Data=0x99
# UVM_INFO ../src/env/axi4_scoreboard.sv(219) @ 10785000: uvm_test_top.env.scb [axi4_scoreboard] [REF_MEM_WRITE] Addr=0x4be1839b Data=0x81
# UVM_INFO ../src/env/axi4_scoreboard.sv(219) @ 10785000: uvm_test_top.env.scb [axi4_scoreboard] [REF_MEM_WRITE] Addr=0x4be1839d Data=0xfc
# UVM_INFO ../src/env/axi4_scoreboard.sv(219) @ 10785000: uvm_test_top.env.scb [axi4_scoreboard] [REF_MEM_WRITE] Addr=0x4be1839e Data=0x4b
# UVM_INFO ../src/env/axi4_scoreboard.sv(219) @ 10785000: uvm_test_top.env.scb [axi4_scoreboard] [REF_MEM_WRITE] Addr=0x4be183a0 Data=0xa4
# UVM_INFO ../src/env/axi4_scoreboard.sv(219) @ 10785000: uvm_test_top.env.scb [axi4_scoreboard] [REF_MEM_WRITE] Addr=0x4be183a1 Data=0xc8
# UVM_INFO ../src/env/axi4_scoreboard.sv(219) @ 10785000: uvm_test_top.env.scb [axi4_scoreboard] [REF_MEM_WRITE] Addr=0x4be183a2 Data=0x50
# UVM_INFO ../src/env/axi4_scoreboard.sv(219) @ 10785000: uvm_test_top.env.scb [axi4_scoreboard] [REF_MEM_WRITE] Addr=0x4be183a6 Data=0xad
# UVM_INFO ../src/env/axi4_scoreboard.sv(219) @ 10785000: uvm_test_top.env.scb [axi4_scoreboard] [REF_MEM_WRITE] Addr=0x4be183a7 Data=0x9a
# UVM_INFO ../src/env/axi4_scoreboard.sv(219) @ 10785000: uvm_test_top.env.scb [axi4_scoreboard] [REF_MEM_WRITE] Addr=0x4be183aa Data=0x96
# UVM_INFO ../src/env/axi4_scoreboard.sv(219) @ 10785000: uvm_test_top.env.scb [axi4_scoreboard] [REF_MEM_WRITE] Addr=0x4be183ab Data=0x3d
# UVM_INFO ../src/env/axi4_scoreboard.sv(219) @ 10785000: uvm_test_top.env.scb [axi4_scoreboard] [REF_MEM_WRITE] Addr=0x4be183ad Data=0x02
# UVM_INFO ../src/env/axi4_scoreboard.sv(219) @ 10785000: uvm_test_top.env.scb [axi4_scoreboard] [REF_MEM_WRITE] Addr=0x4be183af Data=0x11
# UVM_INFO ../src/env/axi4_scoreboard.sv(219) @ 10785000: uvm_test_top.env.scb [axi4_scoreboard] [REF_MEM_WRITE] Addr=0x4be183b0 Data=0x39
# UVM_INFO ../src/env/axi4_scoreboard.sv(219) @ 10785000: uvm_test_top.env.scb [axi4_scoreboard] [REF_MEM_WRITE] Addr=0x4be183b1 Data=0xd4
# UVM_INFO ../src/env/axi4_scoreboard.sv(219) @ 10785000: uvm_test_top.env.scb [axi4_scoreboard] [REF_MEM_WRITE] Addr=0x4be183b2 Data=0xf9
# UVM_INFO ../src/env/axi4_scoreboard.sv(219) @ 10785000: uvm_test_top.env.scb [axi4_scoreboard] [REF_MEM_WRITE] Addr=0x4be183b3 Data=0xd5
# UVM_INFO ../src/env/axi4_scoreboard.sv(219) @ 10785000: uvm_test_top.env.scb [axi4_scoreboard] [REF_MEM_WRITE] Addr=0x4be183b8 Data=0xc2
# UVM_INFO ../src/env/axi4_scoreboard.sv(219) @ 10785000: uvm_test_top.env.scb [axi4_scoreboard] [REF_MEM_WRITE] Addr=0x4be183ba Data=0xe9
# UVM_INFO ../src/env/axi4_scoreboard.sv(219) @ 10785000: uvm_test_top.env.scb [axi4_scoreboard] [REF_MEM_WRITE] Addr=0x4be183bb Data=0xf1
# UVM_INFO ../src/env/axi4_scoreboard.sv(219) @ 10785000: uvm_test_top.env.scb [axi4_scoreboard] [REF_MEM_WRITE] Addr=0x4be183bc Data=0x3f
# UVM_INFO ../src/env/axi4_scoreboard.sv(219) @ 10785000: uvm_test_top.env.scb [axi4_scoreboard] [REF_MEM_WRITE] Addr=0x4be183bd Data=0xaa
# UVM_INFO ../src/env/axi4_scoreboard.sv(219) @ 10785000: uvm_test_top.env.scb [axi4_scoreboard] [REF_MEM_WRITE] Addr=0x4be183c0 Data=0xb2
# UVM_INFO ../src/env/axi4_scoreboard.sv(219) @ 10785000: uvm_test_top.env.scb [axi4_scoreboard] [REF_MEM_WRITE] Addr=0x4be183c1 Data=0xa9
# UVM_INFO ../src/env/axi4_scoreboard.sv(219) @ 10785000: uvm_test_top.env.scb [axi4_scoreboard] [REF_MEM_WRITE] Addr=0x4be183c7 Data=0xec
# UVM_INFO ../src/env/axi4_scoreboard.sv(219) @ 10785000: uvm_test_top.env.scb [axi4_scoreboard] [REF_MEM_WRITE] Addr=0x4be183c8 Data=0xd5
# UVM_INFO ../src/env/axi4_scoreboard.sv(219) @ 10785000: uvm_test_top.env.scb [axi4_scoreboard] [REF_MEM_WRITE] Addr=0x4be183ca Data=0xe7
# UVM_INFO ../src/env/axi4_scoreboard.sv(219) @ 10785000: uvm_test_top.env.scb [axi4_scoreboard] [REF_MEM_WRITE] Addr=0x4be183cd Data=0x36
# UVM_INFO ../src/env/axi4_scoreboard.sv(219) @ 10785000: uvm_test_top.env.scb [axi4_scoreboard] [REF_MEM_WRITE] Addr=0x4be183cf Data=0x96
# UVM_INFO ../src/env/axi4_scoreboard.sv(219) @ 10785000: uvm_test_top.env.scb [axi4_scoreboard] [REF_MEM_WRITE] Addr=0x4be183d5 Data=0x50
# UVM_INFO ../src/env/axi4_scoreboard.sv(219) @ 10785000: uvm_test_top.env.scb [axi4_scoreboard] [REF_MEM_WRITE] Addr=0x4be183d6 Data=0x4d
# UVM_INFO ../src/env/axi4_scoreboard.sv(219) @ 10785000: uvm_test_top.env.scb [axi4_scoreboard] [REF_MEM_WRITE] Addr=0x4be183d7 Data=0x66
# UVM_INFO ../src/env/axi4_scoreboard.sv(219) @ 10785000: uvm_test_top.env.scb [axi4_scoreboard] [REF_MEM_WRITE] Addr=0x4be183d8 Data=0x71
# UVM_INFO ../src/env/axi4_scoreboard.sv(219) @ 10785000: uvm_test_top.env.scb [axi4_scoreboard] [REF_MEM_WRITE] Addr=0x4be183d9 Data=0x39
# UVM_INFO ../src/env/axi4_scoreboard.sv(219) @ 10785000: uvm_test_top.env.scb [axi4_scoreboard] [REF_MEM_WRITE] Addr=0x4be183dd Data=0xec
# UVM_INFO ../src/env/axi4_scoreboard.sv(219) @ 10785000: uvm_test_top.env.scb [axi4_scoreboard] [REF_MEM_WRITE] Addr=0x4be183de Data=0xbf
# UVM_INFO ../src/env/axi4_scoreboard.sv(219) @ 10785000: uvm_test_top.env.scb [axi4_scoreboard] [REF_MEM_WRITE] Addr=0x4be183df Data=0xb6
# UVM_INFO ../src/env/axi4_scoreboard.sv(219) @ 10785000: uvm_test_top.env.scb [axi4_scoreboard] [REF_MEM_WRITE] Addr=0x4be183e0 Data=0x8b
# UVM_INFO ../src/env/axi4_scoreboard.sv(219) @ 10785000: uvm_test_top.env.scb [axi4_scoreboard] [REF_MEM_WRITE] Addr=0x4be183e1 Data=0x30
# UVM_INFO ../src/env/axi4_scoreboard.sv(219) @ 10785000: uvm_test_top.env.scb [axi4_scoreboard] [REF_MEM_WRITE] Addr=0x4be183e2 Data=0x8e
# UVM_INFO ../src/env/axi4_scoreboard.sv(219) @ 10785000: uvm_test_top.env.scb [axi4_scoreboard] [REF_MEM_WRITE] Addr=0x4be183e4 Data=0x60
# UVM_INFO ../src/env/axi4_scoreboard.sv(219) @ 10785000: uvm_test_top.env.scb [axi4_scoreboard] [REF_MEM_WRITE] Addr=0x4be183e7 Data=0x24
# UVM_INFO ../src/env/axi4_scoreboard.sv(219) @ 10785000: uvm_test_top.env.scb [axi4_scoreboard] [REF_MEM_WRITE] Addr=0x4be183e8 Data=0x2a
# UVM_INFO ../src/env/axi4_scoreboard.sv(219) @ 10785000: uvm_test_top.env.scb [axi4_scoreboard] [REF_MEM_WRITE] Addr=0x4be183ea Data=0xf3
# UVM_INFO ../src/env/axi4_scoreboard.sv(219) @ 10785000: uvm_test_top.env.scb [axi4_scoreboard] [REF_MEM_WRITE] Addr=0x4be183eb Data=0x51
# UVM_INFO ../src/env/axi4_scoreboard.sv(219) @ 10785000: uvm_test_top.env.scb [axi4_scoreboard] [REF_MEM_WRITE] Addr=0x4be183ec Data=0x9f
# UVM_INFO ../src/env/axi4_scoreboard.sv(219) @ 10785000: uvm_test_top.env.scb [axi4_scoreboard] [REF_MEM_WRITE] Addr=0x4be183ee Data=0xbc
# UVM_INFO ../src/env/axi4_scoreboard.sv(219) @ 10785000: uvm_test_top.env.scb [axi4_scoreboard] [REF_MEM_WRITE] Addr=0x4be183f0 Data=0x4a
# UVM_INFO ../src/env/axi4_scoreboard.sv(219) @ 10785000: uvm_test_top.env.scb [axi4_scoreboard] [REF_MEM_WRITE] Addr=0x4be183f1 Data=0x07
# UVM_INFO ../src/env/axi4_scoreboard.sv(219) @ 10785000: uvm_test_top.env.scb [axi4_scoreboard] [REF_MEM_WRITE] Addr=0x4be183f4 Data=0x09
# UVM_INFO ../src/env/axi4_scoreboard.sv(219) @ 10785000: uvm_test_top.env.scb [axi4_scoreboard] [REF_MEM_WRITE] Addr=0x4be183f6 Data=0x33
# UVM_INFO ../src/env/axi4_scoreboard.sv(219) @ 10785000: uvm_test_top.env.scb [axi4_scoreboard] [REF_MEM_WRITE] Addr=0x4be183f7 Data=0xcc
# UVM_INFO ../src/env/axi4_scoreboard.sv(219) @ 10785000: uvm_test_top.env.scb [axi4_scoreboard] [REF_MEM_WRITE] Addr=0x4be183f8 Data=0xb2
# UVM_INFO ../src/env/axi4_scoreboard.sv(219) @ 10785000: uvm_test_top.env.scb [axi4_scoreboard] [REF_MEM_WRITE] Addr=0x4be183fc Data=0x19
# UVM_INFO ../src/env/axi4_scoreboard.sv(219) @ 10785000: uvm_test_top.env.scb [axi4_scoreboard] [REF_MEM_WRITE] Addr=0x4be18400 Data=0x1c
# UVM_INFO ../src/env/axi4_scoreboard.sv(219) @ 10785000: uvm_test_top.env.scb [axi4_scoreboard] [REF_MEM_WRITE] Addr=0x4be18402 Data=0xe1
# UVM_INFO ../src/env/axi4_scoreboard.sv(219) @ 10785000: uvm_test_top.env.scb [axi4_scoreboard] [REF_MEM_WRITE] Addr=0x4be18406 Data=0x74
