# vsim -c -coverage -sv_seed 10836295 "+UVM_TESTNAME=axi4_out_of_order_test" "+UVM_VERBOSITY=UVM_HIGH" "+DUMP_VCD" -l ./report/logs/axi4_out_of_order_test_run_1_seed_10836295.log -do "coverage save -onexit ./report/coverage/axi4_out_of_order_test_run_1_seed_10836295.ucdb; run -all; quit -f" opt_tb_top 
# Start time: 14:03:47 on Jun 11,2026
# //  Questa Sim-64
# //  Version 10.6b linux_x86_64 May 25 2017
# //
# //  Copyright 1991-2017 Mentor Graphics Corporation
# //  All Rights Reserved.
# //
# //  QuestaSim and its associated documentation contain trade
# //  secrets and commercial or financial information that are the property of
# //  Mentor Graphics Corporation and are privileged, confidential,
# //  and exempt from disclosure under the Freedom of Information Act,
# //  5 U.S.C. Section 552. Furthermore, this information
# //  is prohibited from disclosure under the Trade Secrets Act,
# //  18 U.S.C. Section 1905.
# //
# Loading sv_std.std
# Loading work.axi4_if(fast)
# Loading mtiUvm.uvm_pkg
# Loading work.axi4_pkg(fast)
# Loading work.axi4_test_pkg(fast)
# Loading work.tb_top(fast)
# Loading work.axi4_if(fast)
# Loading work.axi4_sva(fast)
# Loading mtiUvm.questa_uvm_pkg(fast)
# Loading /cadtools/mentor/Questa_10.6b/questasim/uvm-1.1d/linux_x86_64/uvm_dpi.so
# coverage save -onexit ./report/coverage/axi4_out_of_order_test_run_1_seed_10836295.ucdb
#  run -all
# ----------------------------------------------------------------
# UVM-1.1d
# (C) 2007-2013 Mentor Graphics Corporation
# (C) 2007-2013 Cadence Design Systems, Inc.
# (C) 2006-2013 Synopsys, Inc.
# (C) 2011-2013 Cypress Semiconductor Corp.
# ----------------------------------------------------------------
# 
#   ***********       IMPORTANT RELEASE NOTES         ************
# 
#   You are using a version of the UVM library that has been compiled
#   with `UVM_NO_DEPRECATED undefined.
#   See http://www.eda.org/svdb/view.php?id=3313 for more details.
# 
#   You are using a version of the UVM library that has been compiled
#   with `UVM_OBJECT_MUST_HAVE_CONSTRUCTOR undefined.
#   See http://www.eda.org/svdb/view.php?id=3770 for more details.
# 
#       (Specify +UVM_NO_RELNOTES to turn off this notice)
# 
# UVM_INFO verilog_src/questa_uvm_pkg-1.2/src/questa_uvm_pkg.sv(215) @ 0: reporter [Questa UVM] QUESTA_UVM-1.2.3
# UVM_INFO verilog_src/questa_uvm_pkg-1.2/src/questa_uvm_pkg.sv(217) @ 0: reporter [Questa UVM]  questa_uvm::init(+struct)
# UVM_INFO ../src/tb_top.sv(128) @ 0: reporter [TB_TOP] Virtual interface set in config_db
# UVM_INFO @ 0: reporter [RNTST] Running test axi4_out_of_order_test...
# UVM_INFO ../src/tb_top.sv(142) @ 0: reporter [TB_TOP] Waveform VCD dumping enabled (axi4_vip.vcd)
# UVM_INFO ../src/env/axi4_vip_env.sv(83) @ 0: uvm_test_top.env [axi4_vip_env] slave_vif not set - reusing master_vif (passthrough mode)
# UVM_INFO ../src/env/axi4_vip_env.sv(93) @ 0: uvm_test_top.env [axi4_vip_env] Scoreboard created
# UVM_INFO ../src/env/axi4_vip_env.sv(100) @ 0: uvm_test_top.env [axi4_vip_env] Coverage collectors created
# UVM_INFO ../src/mst/axi4_master_agent.sv(69) @ 0: uvm_test_top.env.master_agent [axi4_master_agent] ACTIVE mode - driver + sequencer created
# UVM_INFO ../src/slv/axi4_slave_agent.sv(82) @ 0: uvm_test_top.env.slave_agent [axi4_slave_agent] ACTIVE mode — ready_delay=[0:0] resp_delay=[0:0]
# UVM_INFO ../src/env/axi4_vip_env.sv(116) @ 0: uvm_test_top.env [axi4_vip_env] Scoreboard connected: master_mon.ap -> scb, slave_mon.ap -> scb
# UVM_INFO ../src/env/axi4_vip_env.sv(124) @ 0: uvm_test_top.env [axi4_vip_env] Coverage connected: master_mon.ap -> master_cov, slave_mon.ap -> slave_cov
# UVM_INFO @ 0: reporter [UVMTOP] UVM testbench topology:
# ---------------------------------------------------------------
# Name                       Type                     Size  Value
# ---------------------------------------------------------------
# uvm_test_top               axi4_out_of_order_test   -     @473 
#   env                      axi4_vip_env             -     @496 
#     master_agent           axi4_master_agent        -     @511 
#       drv                  axi4_master_driver       -     @575 
#         rsp_port           uvm_analysis_port        -     @590 
#         seq_item_port      uvm_seq_item_pull_port   -     @582 
#       mon                  axi4_master_monitor      -     @567 
#         ap                 uvm_analysis_port        -     @708 
#       sqr                  axi4_master_sequencer    -     @598 
#         rsp_export         uvm_analysis_export      -     @605 
#         seq_item_export    uvm_seq_item_pull_imp    -     @699 
#         arbitration_queue  array                    0     -    
#         lock_queue         array                    0     -    
#         num_last_reqs      integral                 32    'd1  
#         num_last_rsps      integral                 32    'd1  
#     master_cov             axi4_coverage            -     @532 
#       analysis_imp         uvm_analysis_imp         -     @539 
#     scb                    axi4_scoreboard          -     @525 
#       master_export        uvm_analysis_imp_master  -     @722 
#       slave_export         uvm_analysis_imp_slave   -     @730 
#     slave_agent            axi4_slave_agent         -     @518 
#       drv                  axi4_slave_driver        -     @760 
#         rsp_port           uvm_analysis_port        -     @775 
#         seq_item_port      uvm_seq_item_pull_port   -     @767 
#       mon                  axi4_slave_monitor       -     @743 
#         ap                 uvm_analysis_port        -     @899 
#       sqr                  axi4_slave_sequencer     -     @783 
#         rsp_export         uvm_analysis_export      -     @790 
#         seq_item_export    uvm_seq_item_pull_imp    -     @884 
#         arbitration_queue  array                    0     -    
#         lock_queue         array                    0     -    
#         num_last_reqs      integral                 32    'd1  
#         num_last_rsps      integral                 32    'd1  
#     slave_cov              axi4_coverage            -     @547 
#       analysis_imp         uvm_analysis_imp         -     @554 
# ---------------------------------------------------------------
# 
# UVM_INFO verilog_src/questa_uvm_pkg-1.2/src/questa_uvm_pkg.sv(277) @ 0: reporter [Questa UVM] End Of Elaboration
# UVM_INFO ../src/test/axi4_out_of_order_test.sv(66) @ 0: uvm_test_top [axi4_out_of_order_test] Starting Out-of-Order test with 15 writes, 15 reads, depth=4, r_reorder=1 (no-interleaving)
# UVM_INFO ../src/seq/axi4_out_of_order_seq.sv(45) @ 0: uvm_test_top.env.master_agent.sqr@@ooo_seq [axi4_out_of_order_seq] Starting Out-of-Order sequence (no-interleaving): writes=15, reads=15, depth=4
# UVM_INFO ../src/tb_top.sv(49) @ 95000: reporter [TOP_TB] Reset de-asserted
# UVM_INFO ../src/slv/axi4_slave_driver.sv(122) @ 95000: uvm_test_top.env.slave_agent.drv [axi4_slave_driver] Reset deasserted - slave driver active
# UVM_INFO ../src/mst/axi4_master_driver.sv(64) @ 95000: uvm_test_top.env.master_agent.drv [axi4_master_driver] Reset deasserted - master driver active
# UVM_INFO ../src/mst/axi4_master_monitor.sv(77) @ 95000: uvm_test_top.env.master_agent.mon [axi4_master_monitor] Reset deasserted - monitor active
# UVM_INFO ../src/slv/axi4_slave_monitor.sv(71) @ 95000: uvm_test_top.env.slave_agent.mon [axi4_slave_monitor] Reset deasserted - monitor active
# UVM_INFO ../src/seq/axi4_out_of_order_seq.sv(72) @ 95000: uvm_test_top.env.master_agent.sqr@@ooo_seq [axi4_out_of_order_seq] OOO Write [#3] started: ID=0x3 ADDR=0x32eb420d LEN=7
# UVM_INFO ../src/mst/axi4_master_driver.sv(73) @ 95000: uvm_test_top.env.master_agent.drv [axi4_master_driver] Driving AXI4_WRITE  ID=0x3  ADDR=0x32eb420d  LEN=7
# UVM_INFO ../src/seq/axi4_out_of_order_seq.sv(72) @ 95000: uvm_test_top.env.master_agent.sqr@@ooo_seq [axi4_out_of_order_seq] OOO Write [#2] started: ID=0x2 ADDR=0x23036104 LEN=223
# UVM_INFO ../src/mst/axi4_master_driver.sv(73) @ 95000: uvm_test_top.env.master_agent.drv [axi4_master_driver] Driving AXI4_WRITE  ID=0x2  ADDR=0x23036104  LEN=223
# UVM_INFO ../src/seq/axi4_out_of_order_seq.sv(72) @ 95000: uvm_test_top.env.master_agent.sqr@@ooo_seq [axi4_out_of_order_seq] OOO Write [#1] started: ID=0x1 ADDR=0x0effb52a LEN=3
# UVM_INFO ../src/mst/axi4_master_driver.sv(73) @ 95000: uvm_test_top.env.master_agent.drv [axi4_master_driver] Driving AXI4_WRITE  ID=0x1  ADDR=0x0effb52a  LEN=3
# UVM_INFO ../src/seq/axi4_out_of_order_seq.sv(72) @ 95000: uvm_test_top.env.master_agent.sqr@@ooo_seq [axi4_out_of_order_seq] OOO Write [#0] started: ID=0x0 ADDR=0x65921688 LEN=2
# UVM_INFO ../src/mst/axi4_master_driver.sv(73) @ 95000: uvm_test_top.env.master_agent.drv [axi4_master_driver] Driving AXI4_WRITE  ID=0x0  ADDR=0x65921688  LEN=2
# UVM_INFO ../src/seq/axi4_out_of_order_seq.sv(111) @ 95000: uvm_test_top.env.master_agent.sqr@@ooo_seq [axi4_out_of_order_seq] OOO Read [#3] started: ID=0x3 ADDR=0x185edbfe LEN=140
# UVM_INFO ../src/mst/axi4_master_driver.sv(73) @ 95000: uvm_test_top.env.master_agent.drv [axi4_master_driver] Driving AXI4_READ  ID=0x3  ADDR=0x185edbfe  LEN=140
# UVM_INFO ../src/seq/axi4_out_of_order_seq.sv(111) @ 95000: uvm_test_top.env.master_agent.sqr@@ooo_seq [axi4_out_of_order_seq] OOO Read [#2] started: ID=0x2 ADDR=0x87884a7f LEN=15
# UVM_INFO ../src/mst/axi4_master_driver.sv(73) @ 95000: uvm_test_top.env.master_agent.drv [axi4_master_driver] Driving AXI4_READ  ID=0x2  ADDR=0x87884a7f  LEN=15
# UVM_INFO ../src/seq/axi4_out_of_order_seq.sv(111) @ 95000: uvm_test_top.env.master_agent.sqr@@ooo_seq [axi4_out_of_order_seq] OOO Read [#1] started: ID=0x1 ADDR=0x606e4ec9 LEN=2
# UVM_INFO ../src/mst/axi4_master_driver.sv(73) @ 95000: uvm_test_top.env.master_agent.drv [axi4_master_driver] Driving AXI4_READ  ID=0x1  ADDR=0x606e4ec9  LEN=2
# UVM_INFO ../src/seq/axi4_out_of_order_seq.sv(111) @ 95000: uvm_test_top.env.master_agent.sqr@@ooo_seq [axi4_out_of_order_seq] OOO Read [#0] started: ID=0x0 ADDR=0x2a25cc79 LEN=139
# UVM_INFO ../src/mst/axi4_master_driver.sv(73) @ 95000: uvm_test_top.env.master_agent.drv [axi4_master_driver] Driving AXI4_READ  ID=0x0  ADDR=0x2a25cc79  LEN=139
# UVM_INFO ../src/slv/axi4_slave_driver.sv(358) @ 115000: uvm_test_top.env.slave_agent.drv [axi4_slave_driver] AR received: ID=0x3 ADDR=0x185edbfe LEN=140 LOCK=AXI4_LOCK_EXCLUSIVE
# UVM_INFO ../src/slv/axi4_slave_driver.sv(212) @ 115000: uvm_test_top.env.slave_agent.drv [axi4_slave_driver] AW received: ID=0x3 ADDR=0x32eb420d LEN=7 LOCK=AXI4_LOCK_NORMAL
# UVM_INFO ../src/slv/axi4_slave_monitor.sv(224) @ 115000: uvm_test_top.env.slave_agent.mon [axi4_slave_monitor] AR received: ID=0x3 ADDR=0x185edbfe LEN=140
# UVM_INFO ../src/slv/axi4_slave_monitor.sv(116) @ 115000: uvm_test_top.env.slave_agent.mon [axi4_slave_monitor] AW received: ID=0x3 ADDR=0x32eb420d LEN=7
# UVM_INFO ../src/mst/axi4_master_monitor.sv(246) @ 115000: uvm_test_top.env.master_agent.mon [axi4_master_monitor] AR observed: ID=0x3 ADDR=0x185edbfe LEN=140
# UVM_INFO ../src/mst/axi4_master_monitor.sv(124) @ 115000: uvm_test_top.env.master_agent.mon [axi4_master_monitor] AW observed: ID=0x3 ADDR=0x32eb420d LEN=7
# UVM_INFO ../src/slv/axi4_slave_driver.sv(358) @ 145000: uvm_test_top.env.slave_agent.drv [axi4_slave_driver] AR received: ID=0x2 ADDR=0x87884a7f LEN=15 LOCK=AXI4_LOCK_NORMAL
# UVM_INFO ../src/mst/axi4_master_monitor.sv(246) @ 145000: uvm_test_top.env.master_agent.mon [axi4_master_monitor] AR observed: ID=0x2 ADDR=0x87884a7f LEN=15
# UVM_INFO ../src/slv/axi4_slave_monitor.sv(224) @ 145000: uvm_test_top.env.slave_agent.mon [axi4_slave_monitor] AR received: ID=0x2 ADDR=0x87884a7f LEN=15
# UVM_INFO ../src/slv/axi4_slave_driver.sv(358) @ 175000: uvm_test_top.env.slave_agent.drv [axi4_slave_driver] AR received: ID=0x1 ADDR=0x606e4ec9 LEN=2 LOCK=AXI4_LOCK_NORMAL
# UVM_INFO ../src/slv/axi4_slave_monitor.sv(224) @ 175000: uvm_test_top.env.slave_agent.mon [axi4_slave_monitor] AR received: ID=0x1 ADDR=0x606e4ec9 LEN=2
# UVM_INFO ../src/mst/axi4_master_monitor.sv(246) @ 175000: uvm_test_top.env.master_agent.mon [axi4_master_monitor] AR observed: ID=0x1 ADDR=0x606e4ec9 LEN=2
# UVM_INFO ../src/slv/axi4_slave_driver.sv(358) @ 205000: uvm_test_top.env.slave_agent.drv [axi4_slave_driver] AR received: ID=0x0 ADDR=0x2a25cc79 LEN=139 LOCK=AXI4_LOCK_EXCLUSIVE
# UVM_INFO ../src/mst/axi4_master_monitor.sv(246) @ 205000: uvm_test_top.env.master_agent.mon [axi4_master_monitor] AR observed: ID=0x0 ADDR=0x2a25cc79 LEN=139
# UVM_INFO ../src/slv/axi4_slave_monitor.sv(224) @ 205000: uvm_test_top.env.slave_agent.mon [axi4_slave_monitor] AR received: ID=0x0 ADDR=0x2a25cc79 LEN=139
# UVM_INFO ../src/slv/axi4_slave_monitor.sv(167) @ 275000: uvm_test_top.env.slave_agent.mon [axi4_slave_monitor] W data assembled: ID=0x3 ADDR=0x32eb420d 8 beats
# UVM_INFO ../src/mst/axi4_master_monitor.sv(184) @ 275000: uvm_test_top.env.master_agent.mon [axi4_master_monitor] W data assembled: ID=0x3 ADDR=0x32eb420d 8 beats
# UVM_INFO ../src/mst/axi4_master_driver.sv(289) @ 305000: uvm_test_top.env.master_agent.drv [axi4_master_driver] Master driver received B response: ID=0x3 RESP=AXI4_RESP_OKAY
# UVM_INFO ../src/slv/axi4_slave_driver.sv(320) @ 305000: uvm_test_top.env.slave_agent.drv [axi4_slave_driver] Write complete: ID=0x3 RESP=AXI4_RESP_OKAY
# UVM_INFO ../src/mst/axi4_master_monitor.sv(210) @ 305000: uvm_test_top.env.master_agent.mon [axi4_master_monitor] Write complete: ID=0x3 ADDR=0x32eb420d RESP=AXI4_RESP_OKAY
# UVM_INFO ../src/env/axi4_scoreboard.sv(87) @ 305000: uvm_test_top.env.scb [axi4_scoreboard] Master AXI4_WRITE received: ID=0x3 ADDR=0x32eb420d LEN=7
# UVM_INFO ../src/slv/axi4_slave_monitor.sv(189) @ 305000: uvm_test_top.env.slave_agent.mon [axi4_slave_monitor] Write response sent: ID=0x3 ADDR=0x32eb420d RESP=AXI4_RESP_OKAY
# UVM_INFO ../src/env/axi4_scoreboard.sv(108) @ 305000: uvm_test_top.env.scb [axi4_scoreboard] Slave AXI4_WRITE received: ID=0x3 ADDR=0x32eb420d LEN=7
# UVM_INFO ../src/env/axi4_scoreboard.sv(291) @ 305000: uvm_test_top.env.scb [axi4_scoreboard] [WRITE] MATCH #1: ID=0x3 ADDR=0x32eb420d LEN=7
# UVM_INFO ../src/env/axi4_scoreboard.sv(219) @ 305000: uvm_test_top.env.scb [axi4_scoreboard] [REF_MEM_WRITE] Addr=0x32eb420c Data=0xd6
# UVM_INFO ../src/env/axi4_scoreboard.sv(219) @ 305000: uvm_test_top.env.scb [axi4_scoreboard] [REF_MEM_WRITE] Addr=0x32eb420d Data=0x78
# UVM_INFO ../src/env/axi4_scoreboard.sv(219) @ 305000: uvm_test_top.env.scb [axi4_scoreboard] [REF_MEM_WRITE] Addr=0x32eb420a Data=0xff
# UVM_INFO ../src/env/axi4_scoreboard.sv(219) @ 305000: uvm_test_top.env.scb [axi4_scoreboard] [REF_MEM_WRITE] Addr=0x32eb4208 Data=0x05
# UVM_INFO ../src/env/axi4_scoreboard.sv(219) @ 305000: uvm_test_top.env.scb [axi4_scoreboard] [REF_MEM_WRITE] Addr=0x32eb420a Data=0x2a
# UVM_INFO ../src/env/axi4_scoreboard.sv(219) @ 305000: uvm_test_top.env.scb [axi4_scoreboard] [REF_MEM_WRITE] Addr=0x32eb420b Data=0x65
# UVM_INFO ../src/env/axi4_scoreboard.sv(219) @ 305000: uvm_test_top.env.scb [axi4_scoreboard] [REF_MEM_WRITE] Addr=0x32eb4208 Data=0xd0
# UVM_INFO ../src/env/axi4_scoreboard.sv(219) @ 305000: uvm_test_top.env.scb [axi4_scoreboard] [REF_MEM_WRITE] Addr=0x32eb420b Data=0x67
# UVM_INFO ../src/env/axi4_scoreboard.sv(219) @ 305000: uvm_test_top.env.scb [axi4_scoreboard] [REF_MEM_WRITE] Addr=0x32eb420c Data=0x5d
# UVM_INFO ../src/env/axi4_scoreboard.sv(219) @ 305000: uvm_test_top.env.scb [axi4_scoreboard] [REF_MEM_WRITE] Addr=0x32eb420e Data=0x50
# UVM_INFO ../src/seq/axi4_out_of_order_seq.sv(82) @ 305000: uvm_test_top.env.master_agent.sqr@@ooo_seq [axi4_out_of_order_seq] OOO Write [#3] complete: ID=0x3 RESP=AXI4_RESP_OKAY
# UVM_INFO ../src/seq/axi4_out_of_order_seq.sv(72) @ 305000: uvm_test_top.env.master_agent.sqr@@ooo_seq [axi4_out_of_order_seq] OOO Write [#4] started: ID=0x4 ADDR=0x6f3c9c2d LEN=43
# UVM_INFO ../src/mst/axi4_master_driver.sv(73) @ 305000: uvm_test_top.env.master_agent.drv [axi4_master_driver] Driving AXI4_WRITE  ID=0x4  ADDR=0x6f3c9c2d  LEN=43
# UVM_INFO ../src/slv/axi4_slave_driver.sv(212) @ 345000: uvm_test_top.env.slave_agent.drv [axi4_slave_driver] AW received: ID=0x2 ADDR=0x23036104 LEN=223 LOCK=AXI4_LOCK_EXCLUSIVE
# UVM_INFO ../src/mst/axi4_master_monitor.sv(124) @ 345000: uvm_test_top.env.master_agent.mon [axi4_master_monitor] AW observed: ID=0x2 ADDR=0x23036104 LEN=223
# UVM_INFO ../src/slv/axi4_slave_monitor.sv(116) @ 345000: uvm_test_top.env.slave_agent.mon [axi4_slave_monitor] AW received: ID=0x2 ADDR=0x23036104 LEN=223
# UVM_INFO ../src/mst/axi4_master_driver.sv(348) @ 465000: uvm_test_top.env.master_agent.drv [axi4_master_driver] Master driver received all R beats for ID=0x2
# UVM_INFO ../src/slv/axi4_slave_driver.sv(464) @ 465000: uvm_test_top.env.slave_agent.drv [axi4_slave_driver] Read complete: ID=0x2 ADDR=0x87884a7f RESP=AXI4_RESP_OKAY  16 beats sent
# UVM_INFO ../src/mst/axi4_master_monitor.sv(314) @ 465000: uvm_test_top.env.master_agent.mon [axi4_master_monitor] Read complete: ID=0x2 ADDR=0x87884a7f 16 beats
# UVM_INFO ../src/env/axi4_scoreboard.sv(87) @ 465000: uvm_test_top.env.scb [axi4_scoreboard] Master AXI4_READ received: ID=0x2 ADDR=0x87884a7f LEN=15
# UVM_INFO ../src/slv/axi4_slave_monitor.sv(287) @ 465000: uvm_test_top.env.slave_agent.mon [axi4_slave_monitor] Read data sent: ID=0x2 ADDR=0x87884a7f 16 beats
# UVM_INFO ../src/env/axi4_scoreboard.sv(108) @ 465000: uvm_test_top.env.scb [axi4_scoreboard] Slave AXI4_READ received: ID=0x2 ADDR=0x87884a7f LEN=15
# UVM_INFO ../src/env/axi4_scoreboard.sv(291) @ 465000: uvm_test_top.env.scb [axi4_scoreboard] [READ] MATCH #2: ID=0x2 ADDR=0x87884a7f LEN=15
# UVM_INFO ../src/seq/axi4_out_of_order_seq.sv(120) @ 465000: uvm_test_top.env.master_agent.sqr@@ooo_seq [axi4_out_of_order_seq] OOO Read [#2] complete: ID=0x2
# UVM_INFO ../src/seq/axi4_out_of_order_seq.sv(111) @ 465000: uvm_test_top.env.master_agent.sqr@@ooo_seq [axi4_out_of_order_seq] OOO Read [#4] started: ID=0x4 ADDR=0x34a39dce LEN=183
# UVM_INFO ../src/mst/axi4_master_driver.sv(73) @ 465000: uvm_test_top.env.master_agent.drv [axi4_master_driver] Driving AXI4_READ  ID=0x4  ADDR=0x34a39dce  LEN=183
# UVM_INFO ../src/slv/axi4_slave_driver.sv(358) @ 495000: uvm_test_top.env.slave_agent.drv [axi4_slave_driver] AR received: ID=0x4 ADDR=0x34a39dce LEN=183 LOCK=AXI4_LOCK_NORMAL
# UVM_INFO ../src/slv/axi4_slave_monitor.sv(224) @ 495000: uvm_test_top.env.slave_agent.mon [axi4_slave_monitor] AR received: ID=0x4 ADDR=0x34a39dce LEN=183
# UVM_INFO ../src/mst/axi4_master_monitor.sv(246) @ 495000: uvm_test_top.env.master_agent.mon [axi4_master_monitor] AR observed: ID=0x4 ADDR=0x34a39dce LEN=183
# UVM_INFO ../src/mst/axi4_master_driver.sv(348) @ 3285000: uvm_test_top.env.master_agent.drv [axi4_master_driver] Master driver received all R beats for ID=0x3
# UVM_INFO ../src/slv/axi4_slave_driver.sv(464) @ 3285000: uvm_test_top.env.slave_agent.drv [axi4_slave_driver] Read complete: ID=0x3 ADDR=0x185edbfe RESP=AXI4_RESP_EXOKAY  141 beats sent
# UVM_INFO ../src/mst/axi4_master_monitor.sv(314) @ 3285000: uvm_test_top.env.master_agent.mon [axi4_master_monitor] Read complete: ID=0x3 ADDR=0x185edbfe 141 beats
# UVM_INFO ../src/env/axi4_scoreboard.sv(87) @ 3285000: uvm_test_top.env.scb [axi4_scoreboard] Master AXI4_READ received: ID=0x3 ADDR=0x185edbfe LEN=140
# UVM_INFO ../src/slv/axi4_slave_monitor.sv(287) @ 3285000: uvm_test_top.env.slave_agent.mon [axi4_slave_monitor] Read data sent: ID=0x3 ADDR=0x185edbfe 141 beats
# UVM_INFO ../src/env/axi4_scoreboard.sv(108) @ 3285000: uvm_test_top.env.scb [axi4_scoreboard] Slave AXI4_READ received: ID=0x3 ADDR=0x185edbfe LEN=140
# UVM_INFO ../src/env/axi4_scoreboard.sv(291) @ 3285000: uvm_test_top.env.scb [axi4_scoreboard] [READ] MATCH #3: ID=0x3 ADDR=0x185edbfe LEN=140
# UVM_INFO ../src/seq/axi4_out_of_order_seq.sv(120) @ 3285000: uvm_test_top.env.master_agent.sqr@@ooo_seq [axi4_out_of_order_seq] OOO Read [#3] complete: ID=0x3
# UVM_INFO ../src/seq/axi4_out_of_order_seq.sv(111) @ 3285000: uvm_test_top.env.master_agent.sqr@@ooo_seq [axi4_out_of_order_seq] OOO Read [#5] started: ID=0x5 ADDR=0x72a4d18f LEN=242
# UVM_INFO ../src/mst/axi4_master_driver.sv(73) @ 3285000: uvm_test_top.env.master_agent.drv [axi4_master_driver] Driving AXI4_READ  ID=0x5  ADDR=0x72a4d18f  LEN=242
# UVM_INFO ../src/slv/axi4_slave_driver.sv(358) @ 3315000: uvm_test_top.env.slave_agent.drv [axi4_slave_driver] AR received: ID=0x5 ADDR=0x72a4d18f LEN=242 LOCK=AXI4_LOCK_NORMAL
# UVM_INFO ../src/slv/axi4_slave_monitor.sv(224) @ 3315000: uvm_test_top.env.slave_agent.mon [axi4_slave_monitor] AR received: ID=0x5 ADDR=0x72a4d18f LEN=242
# UVM_INFO ../src/mst/axi4_master_monitor.sv(246) @ 3315000: uvm_test_top.env.master_agent.mon [axi4_master_monitor] AR observed: ID=0x5 ADDR=0x72a4d18f LEN=242
# UVM_INFO ../src/mst/axi4_master_driver.sv(348) @ 3345000: uvm_test_top.env.master_agent.drv [axi4_master_driver] Master driver received all R beats for ID=0x1
# UVM_INFO ../src/slv/axi4_slave_driver.sv(464) @ 3345000: uvm_test_top.env.slave_agent.drv [axi4_slave_driver] Read complete: ID=0x1 ADDR=0x606e4ec9 RESP=AXI4_RESP_OKAY  3 beats sent
# UVM_INFO ../src/mst/axi4_master_monitor.sv(314) @ 3345000: uvm_test_top.env.master_agent.mon [axi4_master_monitor] Read complete: ID=0x1 ADDR=0x606e4ec9 3 beats
# UVM_INFO ../src/env/axi4_scoreboard.sv(87) @ 3345000: uvm_test_top.env.scb [axi4_scoreboard] Master AXI4_READ received: ID=0x1 ADDR=0x606e4ec9 LEN=2
# UVM_INFO ../src/slv/axi4_slave_monitor.sv(287) @ 3345000: uvm_test_top.env.slave_agent.mon [axi4_slave_monitor] Read data sent: ID=0x1 ADDR=0x606e4ec9 3 beats
# UVM_INFO ../src/env/axi4_scoreboard.sv(108) @ 3345000: uvm_test_top.env.scb [axi4_scoreboard] Slave AXI4_READ received: ID=0x1 ADDR=0x606e4ec9 LEN=2
# UVM_INFO ../src/env/axi4_scoreboard.sv(291) @ 3345000: uvm_test_top.env.scb [axi4_scoreboard] [READ] MATCH #4: ID=0x1 ADDR=0x606e4ec9 LEN=2
# UVM_INFO ../src/seq/axi4_out_of_order_seq.sv(120) @ 3345000: uvm_test_top.env.master_agent.sqr@@ooo_seq [axi4_out_of_order_seq] OOO Read [#1] complete: ID=0x1
# UVM_INFO ../src/seq/axi4_out_of_order_seq.sv(111) @ 3345000: uvm_test_top.env.master_agent.sqr@@ooo_seq [axi4_out_of_order_seq] OOO Read [#6] started: ID=0x6 ADDR=0xb054b541 LEN=7
# UVM_INFO ../src/mst/axi4_master_driver.sv(73) @ 3345000: uvm_test_top.env.master_agent.drv [axi4_master_driver] Driving AXI4_READ  ID=0x6  ADDR=0xb054b541  LEN=7
# UVM_INFO ../src/slv/axi4_slave_driver.sv(358) @ 3375000: uvm_test_top.env.slave_agent.drv [axi4_slave_driver] AR received: ID=0x6 ADDR=0xb054b541 LEN=7 LOCK=AXI4_LOCK_NORMAL
# UVM_INFO ../src/slv/axi4_slave_monitor.sv(224) @ 3375000: uvm_test_top.env.slave_agent.mon [axi4_slave_monitor] AR received: ID=0x6 ADDR=0xb054b541 LEN=7
# UVM_INFO ../src/mst/axi4_master_monitor.sv(246) @ 3375000: uvm_test_top.env.master_agent.mon [axi4_master_monitor] AR observed: ID=0x6 ADDR=0xb054b541 LEN=7
# UVM_INFO ../src/slv/axi4_slave_monitor.sv(167) @ 4755000: uvm_test_top.env.slave_agent.mon [axi4_slave_monitor] W data assembled: ID=0x2 ADDR=0x23036104 224 beats
# UVM_INFO ../src/mst/axi4_master_monitor.sv(184) @ 4755000: uvm_test_top.env.master_agent.mon [axi4_master_monitor] W data assembled: ID=0x2 ADDR=0x23036104 224 beats
# UVM_INFO ../src/mst/axi4_master_driver.sv(289) @ 4785000: uvm_test_top.env.master_agent.drv [axi4_master_driver] Master driver received B response: ID=0x2 RESP=AXI4_RESP_OKAY
# UVM_INFO ../src/slv/axi4_slave_driver.sv(320) @ 4785000: uvm_test_top.env.slave_agent.drv [axi4_slave_driver] Write complete: ID=0x2 RESP=AXI4_RESP_OKAY
# UVM_INFO ../src/mst/axi4_master_monitor.sv(210) @ 4785000: uvm_test_top.env.master_agent.mon [axi4_master_monitor] Write complete: ID=0x2 ADDR=0x23036104 RESP=AXI4_RESP_OKAY
# UVM_INFO ../src/env/axi4_scoreboard.sv(87) @ 4785000: uvm_test_top.env.scb [axi4_scoreboard] Master AXI4_WRITE received: ID=0x2 ADDR=0x23036104 LEN=223
# UVM_INFO ../src/slv/axi4_slave_monitor.sv(189) @ 4785000: uvm_test_top.env.slave_agent.mon [axi4_slave_monitor] Write response sent: ID=0x2 ADDR=0x23036104 RESP=AXI4_RESP_OKAY
# UVM_INFO ../src/env/axi4_scoreboard.sv(108) @ 4785000: uvm_test_top.env.scb [axi4_scoreboard] Slave AXI4_WRITE received: ID=0x2 ADDR=0x23036104 LEN=223
# UVM_INFO ../src/env/axi4_scoreboard.sv(291) @ 4785000: uvm_test_top.env.scb [axi4_scoreboard] [WRITE] MATCH #5: ID=0x2 ADDR=0x23036104 LEN=223
# UVM_INFO ../src/env/axi4_scoreboard.sv(226) @ 4785000: uvm_test_top.env.scb [axi4_scoreboard] [REF_MEM_WRITE_IGNORED] Write ignored for ADDR=0x23036104 LOCK=AXI4_LOCK_EXCLUSIVE RESP=AXI4_RESP_OKAY
# UVM_INFO ../src/seq/axi4_out_of_order_seq.sv(82) @ 4785000: uvm_test_top.env.master_agent.sqr@@ooo_seq [axi4_out_of_order_seq] OOO Write [#2] complete: ID=0x2 RESP=AXI4_RESP_OKAY
# UVM_INFO ../src/seq/axi4_out_of_order_seq.sv(72) @ 4785000: uvm_test_top.env.master_agent.sqr@@ooo_seq [axi4_out_of_order_seq] OOO Write [#5] started: ID=0x5 ADDR=0x2349e746 LEN=109
# UVM_INFO ../src/mst/axi4_master_driver.sv(73) @ 4785000: uvm_test_top.env.master_agent.drv [axi4_master_driver] Driving AXI4_WRITE  ID=0x5  ADDR=0x2349e746  LEN=109
# UVM_INFO ../src/slv/axi4_slave_driver.sv(212) @ 4825000: uvm_test_top.env.slave_agent.drv [axi4_slave_driver] AW received: ID=0x1 ADDR=0x0effb52a LEN=3 LOCK=AXI4_LOCK_NORMAL
# UVM_INFO ../src/mst/axi4_master_monitor.sv(124) @ 4825000: uvm_test_top.env.master_agent.mon [axi4_master_monitor] AW observed: ID=0x1 ADDR=0x0effb52a LEN=3
# UVM_INFO ../src/slv/axi4_slave_monitor.sv(116) @ 4825000: uvm_test_top.env.slave_agent.mon [axi4_slave_monitor] AW received: ID=0x1 ADDR=0x0effb52a LEN=3
# UVM_INFO ../src/slv/axi4_slave_monitor.sv(167) @ 4835000: uvm_test_top.env.slave_agent.mon [axi4_slave_monitor] W data assembled: ID=0x1 ADDR=0x0effb52a 4 beats
# UVM_INFO ../src/mst/axi4_master_monitor.sv(184) @ 4835000: uvm_test_top.env.master_agent.mon [axi4_master_monitor] W data assembled: ID=0x1 ADDR=0x0effb52a 4 beats
# UVM_INFO ../src/slv/axi4_slave_driver.sv(212) @ 4855000: uvm_test_top.env.slave_agent.drv [axi4_slave_driver] AW received: ID=0x0 ADDR=0x65921688 LEN=2 LOCK=AXI4_LOCK_NORMAL
# UVM_INFO ../src/slv/axi4_slave_monitor.sv(116) @ 4855000: uvm_test_top.env.slave_agent.mon [axi4_slave_monitor] AW received: ID=0x0 ADDR=0x65921688 LEN=2
# UVM_INFO ../src/mst/axi4_master_monitor.sv(124) @ 4855000: uvm_test_top.env.master_agent.mon [axi4_master_monitor] AW observed: ID=0x0 ADDR=0x65921688 LEN=2
# UVM_INFO ../src/mst/axi4_master_driver.sv(289) @ 4865000: uvm_test_top.env.master_agent.drv [axi4_master_driver] Master driver received B response: ID=0x1 RESP=AXI4_RESP_OKAY
# UVM_INFO ../src/slv/axi4_slave_driver.sv(320) @ 4865000: uvm_test_top.env.slave_agent.drv [axi4_slave_driver] Write complete: ID=0x1 RESP=AXI4_RESP_OKAY
# UVM_INFO ../src/mst/axi4_master_monitor.sv(210) @ 4865000: uvm_test_top.env.master_agent.mon [axi4_master_monitor] Write complete: ID=0x1 ADDR=0x0effb52a RESP=AXI4_RESP_OKAY
# UVM_INFO ../src/env/axi4_scoreboard.sv(87) @ 4865000: uvm_test_top.env.scb [axi4_scoreboard] Master AXI4_WRITE received: ID=0x1 ADDR=0x0effb52a LEN=3
# UVM_INFO ../src/slv/axi4_slave_monitor.sv(189) @ 4865000: uvm_test_top.env.slave_agent.mon [axi4_slave_monitor] Write response sent: ID=0x1 ADDR=0x0effb52a RESP=AXI4_RESP_OKAY
# UVM_INFO ../src/env/axi4_scoreboard.sv(108) @ 4865000: uvm_test_top.env.scb [axi4_scoreboard] Slave AXI4_WRITE received: ID=0x1 ADDR=0x0effb52a LEN=3
# UVM_INFO ../src/env/axi4_scoreboard.sv(291) @ 4865000: uvm_test_top.env.scb [axi4_scoreboard] [WRITE] MATCH #6: ID=0x1 ADDR=0x0effb52a LEN=3
# UVM_INFO ../src/env/axi4_scoreboard.sv(219) @ 4865000: uvm_test_top.env.scb [axi4_scoreboard] [REF_MEM_WRITE] Addr=0x0effb528 Data=0xef
# UVM_INFO ../src/env/axi4_scoreboard.sv(219) @ 4865000: uvm_test_top.env.scb [axi4_scoreboard] [REF_MEM_WRITE] Addr=0x0effb529 Data=0xce
# UVM_INFO ../src/env/axi4_scoreboard.sv(219) @ 4865000: uvm_test_top.env.scb [axi4_scoreboard] [REF_MEM_WRITE] Addr=0x0effb52b Data=0x6d
# UVM_INFO ../src/env/axi4_scoreboard.sv(219) @ 4865000: uvm_test_top.env.scb [axi4_scoreboard] [REF_MEM_WRITE] Addr=0x0effb52c Data=0x63
# UVM_INFO ../src/env/axi4_scoreboard.sv(219) @ 4865000: uvm_test_top.env.scb [axi4_scoreboard] [REF_MEM_WRITE] Addr=0x0effb52d Data=0x09
# UVM_INFO ../src/env/axi4_scoreboard.sv(219) @ 4865000: uvm_test_top.env.scb [axi4_scoreboard] [REF_MEM_WRITE] Addr=0x0effb52c Data=0x3d
# UVM_INFO ../src/env/axi4_scoreboard.sv(219) @ 4865000: uvm_test_top.env.scb [axi4_scoreboard] [REF_MEM_WRITE] Addr=0x0effb52d Data=0xec
# UVM_INFO ../src/env/axi4_scoreboard.sv(219) @ 4865000: uvm_test_top.env.scb [axi4_scoreboard] [REF_MEM_WRITE] Addr=0x0effb52e Data=0x51
# UVM_INFO ../src/env/axi4_scoreboard.sv(219) @ 4865000: uvm_test_top.env.scb [axi4_scoreboard] [REF_MEM_WRITE] Addr=0x0effb52f Data=0xeb
# UVM_INFO ../src/env/axi4_scoreboard.sv(219) @ 4865000: uvm_test_top.env.scb [axi4_scoreboard] [REF_MEM_WRITE] Addr=0x0effb532 Data=0x84
# UVM_INFO ../src/seq/axi4_out_of_order_seq.sv(82) @ 4865000: uvm_test_top.env.master_agent.sqr@@ooo_seq [axi4_out_of_order_seq] OOO Write [#1] complete: ID=0x1 RESP=AXI4_RESP_OKAY
# UVM_INFO ../src/seq/axi4_out_of_order_seq.sv(72) @ 4865000: uvm_test_top.env.master_agent.sqr@@ooo_seq [axi4_out_of_order_seq] OOO Write [#6] started: ID=0x6 ADDR=0x63e02254 LEN=207
# UVM_INFO ../src/mst/axi4_master_driver.sv(73) @ 4865000: uvm_test_top.env.master_agent.drv [axi4_master_driver] Driving AXI4_WRITE  ID=0x6  ADDR=0x63e02254  LEN=207
# UVM_INFO ../src/slv/axi4_slave_driver.sv(212) @ 4885000: uvm_test_top.env.slave_agent.drv [axi4_slave_driver] AW received: ID=0x4 ADDR=0x6f3c9c2d LEN=43 LOCK=AXI4_LOCK_NORMAL
# UVM_INFO ../src/mst/axi4_master_monitor.sv(124) @ 4885000: uvm_test_top.env.master_agent.mon [axi4_master_monitor] AW observed: ID=0x4 ADDR=0x6f3c9c2d LEN=43
# UVM_INFO ../src/slv/axi4_slave_monitor.sv(116) @ 4885000: uvm_test_top.env.slave_agent.mon [axi4_slave_monitor] AW received: ID=0x4 ADDR=0x6f3c9c2d LEN=43
# UVM_INFO ../src/slv/axi4_slave_monitor.sv(167) @ 4915000: uvm_test_top.env.slave_agent.mon [axi4_slave_monitor] W data assembled: ID=0x0 ADDR=0x65921688 3 beats
# UVM_INFO ../src/mst/axi4_master_monitor.sv(184) @ 4915000: uvm_test_top.env.master_agent.mon [axi4_master_monitor] W data assembled: ID=0x0 ADDR=0x65921688 3 beats
# UVM_INFO ../src/mst/axi4_master_driver.sv(289) @ 4945000: uvm_test_top.env.master_agent.drv [axi4_master_driver] Master driver received B response: ID=0x0 RESP=AXI4_RESP_OKAY
# UVM_INFO ../src/slv/axi4_slave_driver.sv(320) @ 4945000: uvm_test_top.env.slave_agent.drv [axi4_slave_driver] Write complete: ID=0x0 RESP=AXI4_RESP_OKAY
# UVM_INFO ../src/mst/axi4_master_monitor.sv(210) @ 4945000: uvm_test_top.env.master_agent.mon [axi4_master_monitor] Write complete: ID=0x0 ADDR=0x65921688 RESP=AXI4_RESP_OKAY
# UVM_INFO ../src/env/axi4_scoreboard.sv(87) @ 4945000: uvm_test_top.env.scb [axi4_scoreboard] Master AXI4_WRITE received: ID=0x0 ADDR=0x65921688 LEN=2
# UVM_INFO ../src/slv/axi4_slave_monitor.sv(189) @ 4945000: uvm_test_top.env.slave_agent.mon [axi4_slave_monitor] Write response sent: ID=0x0 ADDR=0x65921688 RESP=AXI4_RESP_OKAY
# UVM_INFO ../src/env/axi4_scoreboard.sv(108) @ 4945000: uvm_test_top.env.scb [axi4_scoreboard] Slave AXI4_WRITE received: ID=0x0 ADDR=0x65921688 LEN=2
# UVM_INFO ../src/env/axi4_scoreboard.sv(291) @ 4945000: uvm_test_top.env.scb [axi4_scoreboard] [WRITE] MATCH #7: ID=0x0 ADDR=0x65921688 LEN=2
# UVM_INFO ../src/env/axi4_scoreboard.sv(219) @ 4945000: uvm_test_top.env.scb [axi4_scoreboard] [REF_MEM_WRITE] Addr=0x65921688 Data=0x8a
# UVM_INFO ../src/env/axi4_scoreboard.sv(219) @ 4945000: uvm_test_top.env.scb [axi4_scoreboard] [REF_MEM_WRITE] Addr=0x6592168a Data=0x47
# UVM_INFO ../src/env/axi4_scoreboard.sv(219) @ 4945000: uvm_test_top.env.scb [axi4_scoreboard] [REF_MEM_WRITE] Addr=0x65921688 Data=0x40
# UVM_INFO ../src/env/axi4_scoreboard.sv(219) @ 4945000: uvm_test_top.env.scb [axi4_scoreboard] [REF_MEM_WRITE] Addr=0x65921689 Data=0x2d
# UVM_INFO ../src/env/axi4_scoreboard.sv(219) @ 4945000: uvm_test_top.env.scb [axi4_scoreboard] [REF_MEM_WRITE] Addr=0x6592168a Data=0x31
# UVM_INFO ../src/env/axi4_scoreboard.sv(219) @ 4945000: uvm_test_top.env.scb [axi4_scoreboard] [REF_MEM_WRITE] Addr=0x6592168b Data=0x44
# UVM_INFO ../src/env/axi4_scoreboard.sv(219) @ 4945000: uvm_test_top.env.scb [axi4_scoreboard] [REF_MEM_WRITE] Addr=0x65921688 Data=0xac
# UVM_INFO ../src/env/axi4_scoreboard.sv(219) @ 4945000: uvm_test_top.env.scb [axi4_scoreboard] [REF_MEM_WRITE] Addr=0x6592168a Data=0x49
# UVM_INFO ../src/seq/axi4_out_of_order_seq.sv(82) @ 4945000: uvm_test_top.env.master_agent.sqr@@ooo_seq [axi4_out_of_order_seq] OOO Write [#0] complete: ID=0x0 RESP=AXI4_RESP_OKAY
# UVM_INFO ../src/seq/axi4_out_of_order_seq.sv(72) @ 4945000: uvm_test_top.env.master_agent.sqr@@ooo_seq [axi4_out_of_order_seq] OOO Write [#7] started: ID=0x7 ADDR=0x83d6e035 LEN=20
# UVM_INFO ../src/mst/axi4_master_driver.sv(73) @ 4945000: uvm_test_top.env.master_agent.drv [axi4_master_driver] Driving AXI4_WRITE  ID=0x7  ADDR=0x83d6e035  LEN=20
# UVM_INFO ../src/slv/axi4_slave_monitor.sv(167) @ 5795000: uvm_test_top.env.slave_agent.mon [axi4_slave_monitor] W data assembled: ID=0x4 ADDR=0x6f3c9c2d 44 beats
# UVM_INFO ../src/mst/axi4_master_monitor.sv(184) @ 5795000: uvm_test_top.env.master_agent.mon [axi4_master_monitor] W data assembled: ID=0x4 ADDR=0x6f3c9c2d 44 beats
# UVM_INFO ../src/mst/axi4_master_driver.sv(289) @ 5825000: uvm_test_top.env.master_agent.drv [axi4_master_driver] Master driver received B response: ID=0x4 RESP=AXI4_RESP_OKAY
# UVM_INFO ../src/slv/axi4_slave_driver.sv(320) @ 5825000: uvm_test_top.env.slave_agent.drv [axi4_slave_driver] Write complete: ID=0x4 RESP=AXI4_RESP_OKAY
# UVM_INFO ../src/mst/axi4_master_monitor.sv(210) @ 5825000: uvm_test_top.env.master_agent.mon [axi4_master_monitor] Write complete: ID=0x4 ADDR=0x6f3c9c2d RESP=AXI4_RESP_OKAY
# UVM_INFO ../src/env/axi4_scoreboard.sv(87) @ 5825000: uvm_test_top.env.scb [axi4_scoreboard] Master AXI4_WRITE received: ID=0x4 ADDR=0x6f3c9c2d LEN=43
# UVM_INFO ../src/slv/axi4_slave_monitor.sv(189) @ 5825000: uvm_test_top.env.slave_agent.mon [axi4_slave_monitor] Write response sent: ID=0x4 ADDR=0x6f3c9c2d RESP=AXI4_RESP_OKAY
# UVM_INFO ../src/env/axi4_scoreboard.sv(108) @ 5825000: uvm_test_top.env.scb [axi4_scoreboard] Slave AXI4_WRITE received: ID=0x4 ADDR=0x6f3c9c2d LEN=43
# UVM_INFO ../src/env/axi4_scoreboard.sv(291) @ 5825000: uvm_test_top.env.scb [axi4_scoreboard] [WRITE] MATCH #8: ID=0x4 ADDR=0x6f3c9c2d LEN=43
# UVM_INFO ../src/env/axi4_scoreboard.sv(219) @ 5825000: uvm_test_top.env.scb [axi4_scoreboard] [REF_MEM_WRITE] Addr=0x6f3c9c2c Data=0xef
# UVM_INFO ../src/env/axi4_scoreboard.sv(219) @ 5825000: uvm_test_top.env.scb [axi4_scoreboard] [REF_MEM_WRITE] Addr=0x6f3c9c2d Data=0xe2
# UVM_INFO ../src/env/axi4_scoreboard.sv(219) @ 5825000: uvm_test_top.env.scb [axi4_scoreboard] [REF_MEM_WRITE] Addr=0x6f3c9c2e Data=0xb1
# UVM_INFO ../src/env/axi4_scoreboard.sv(219) @ 5825000: uvm_test_top.env.scb [axi4_scoreboard] [REF_MEM_WRITE] Addr=0x6f3c9c2f Data=0xa3
# UVM_INFO ../src/env/axi4_scoreboard.sv(219) @ 5825000: uvm_test_top.env.scb [axi4_scoreboard] [REF_MEM_WRITE] Addr=0x6f3c9c2c Data=0x34
# UVM_INFO ../src/env/axi4_scoreboard.sv(219) @ 5825000: uvm_test_top.env.scb [axi4_scoreboard] [REF_MEM_WRITE] Addr=0x6f3c9c2f Data=0xec
# UVM_INFO ../src/env/axi4_scoreboard.sv(219) @ 5825000: uvm_test_top.env.scb [axi4_scoreboard] [REF_MEM_WRITE] Addr=0x6f3c9c31 Data=0x45
# UVM_INFO ../src/env/axi4_scoreboard.sv(219) @ 5825000: uvm_test_top.env.scb [axi4_scoreboard] [REF_MEM_WRITE] Addr=0x6f3c9c31 Data=0x45
# UVM_INFO ../src/env/axi4_scoreboard.sv(219) @ 5825000: uvm_test_top.env.scb [axi4_scoreboard] [REF_MEM_WRITE] Addr=0x6f3c9c37 Data=0x8f
# UVM_INFO ../src/env/axi4_scoreboard.sv(219) @ 5825000: uvm_test_top.env.scb [axi4_scoreboard] [REF_MEM_WRITE] Addr=0x6f3c9c34 Data=0x9f
# UVM_INFO ../src/env/axi4_scoreboard.sv(219) @ 5825000: uvm_test_top.env.scb [axi4_scoreboard] [REF_MEM_WRITE] Addr=0x6f3c9c38 Data=0xb8
# UVM_INFO ../src/env/axi4_scoreboard.sv(219) @ 5825000: uvm_test_top.env.scb [axi4_scoreboard] [REF_MEM_WRITE] Addr=0x6f3c9c3a Data=0x8a
# UVM_INFO ../src/env/axi4_scoreboard.sv(219) @ 5825000: uvm_test_top.env.scb [axi4_scoreboard] [REF_MEM_WRITE] Addr=0x6f3c9c39 Data=0xa7
# UVM_INFO ../src/env/axi4_scoreboard.sv(219) @ 5825000: uvm_test_top.env.scb [axi4_scoreboard] [REF_MEM_WRITE] Addr=0x6f3c9c3c Data=0x9e
# UVM_INFO ../src/env/axi4_scoreboard.sv(219) @ 5825000: uvm_test_top.env.scb [axi4_scoreboard] [REF_MEM_WRITE] Addr=0x6f3c9c3d Data=0xdc
# UVM_INFO ../src/env/axi4_scoreboard.sv(219) @ 5825000: uvm_test_top.env.scb [axi4_scoreboard] [REF_MEM_WRITE] Addr=0x6f3c9c3e Data=0xb2
# UVM_INFO ../src/env/axi4_scoreboard.sv(219) @ 5825000: uvm_test_top.env.scb [axi4_scoreboard] [REF_MEM_WRITE] Addr=0x6f3c9c3f Data=0xea
# UVM_INFO ../src/env/axi4_scoreboard.sv(219) @ 5825000: uvm_test_top.env.scb [axi4_scoreboard] [REF_MEM_WRITE] Addr=0x6f3c9c41 Data=0x32
# UVM_INFO ../src/env/axi4_scoreboard.sv(219) @ 5825000: uvm_test_top.env.scb [axi4_scoreboard] [REF_MEM_WRITE] Addr=0x6f3c9c42 Data=0x2b
# UVM_INFO ../src/env/axi4_scoreboard.sv(219) @ 5825000: uvm_test_top.env.scb [axi4_scoreboard] [REF_MEM_WRITE] Addr=0x6f3c9c41 Data=0xa3
# UVM_INFO ../src/env/axi4_scoreboard.sv(219) @ 5825000: uvm_test_top.env.scb [axi4_scoreboard] [REF_MEM_WRITE] Addr=0x6f3c9c43 Data=0x64
# UVM_INFO ../src/env/axi4_scoreboard.sv(219) @ 5825000: uvm_test_top.env.scb [axi4_scoreboard] [REF_MEM_WRITE] Addr=0x6f3c9c44 Data=0x92
# UVM_INFO ../src/env/axi4_scoreboard.sv(219) @ 5825000: uvm_test_top.env.scb [axi4_scoreboard] [REF_MEM_WRITE] Addr=0x6f3c9c45 Data=0x9c
# UVM_INFO ../src/env/axi4_scoreboard.sv(219) @ 5825000: uvm_test_top.env.scb [axi4_scoreboard] [REF_MEM_WRITE] Addr=0x6f3c9c44 Data=0x12
# UVM_INFO ../src/env/axi4_scoreboard.sv(219) @ 5825000: uvm_test_top.env.scb [axi4_scoreboard] [REF_MEM_WRITE] Addr=0x6f3c9c46 Data=0x63
# UVM_INFO ../src/env/axi4_scoreboard.sv(219) @ 5825000: uvm_test_top.env.scb [axi4_scoreboard] [REF_MEM_WRITE] Addr=0x6f3c9c48 Data=0xb5
# UVM_INFO ../src/env/axi4_scoreboard.sv(219) @ 5825000: uvm_test_top.env.scb [axi4_scoreboard] [REF_MEM_WRITE] Addr=0x6f3c9c4a Data=0xa0
# UVM_INFO ../src/env/axi4_scoreboard.sv(219) @ 5825000: uvm_test_top.env.scb [axi4_scoreboard] [REF_MEM_WRITE] Addr=0x6f3c9c4b Data=0x0c
# UVM_INFO ../src/env/axi4_scoreboard.sv(219) @ 5825000: uvm_test_top.env.scb [axi4_scoreboard] [REF_MEM_WRITE] Addr=0x6f3c9c4a Data=0xf6
# UVM_INFO ../src/env/axi4_scoreboard.sv(219) @ 5825000: uvm_test_top.env.scb [axi4_scoreboard] [REF_MEM_WRITE] Addr=0x6f3c9c4b Data=0x44
# UVM_INFO ../src/env/axi4_scoreboard.sv(219) @ 5825000: uvm_test_top.env.scb [axi4_scoreboard] [REF_MEM_WRITE] Addr=0x6f3c9c4c Data=0xf1
# UVM_INFO ../src/env/axi4_scoreboard.sv(219) @ 5825000: uvm_test_top.env.scb [axi4_scoreboard] [REF_MEM_WRITE] Addr=0x6f3c9c4d Data=0xf2
# UVM_INFO ../src/env/axi4_scoreboard.sv(219) @ 5825000: uvm_test_top.env.scb [axi4_scoreboard] [REF_MEM_WRITE] Addr=0x6f3c9c4f Data=0x0d
# UVM_INFO ../src/env/axi4_scoreboard.sv(219) @ 5825000: uvm_test_top.env.scb [axi4_scoreboard] [REF_MEM_WRITE] Addr=0x6f3c9c4d Data=0xd5
# UVM_INFO ../src/env/axi4_scoreboard.sv(219) @ 5825000: uvm_test_top.env.scb [axi4_scoreboard] [REF_MEM_WRITE] Addr=0x6f3c9c4f Data=0x7b
# UVM_INFO ../src/env/axi4_scoreboard.sv(219) @ 5825000: uvm_test_top.env.scb [axi4_scoreboard] [REF_MEM_WRITE] Addr=0x6f3c9c52 Data=0x51
# UVM_INFO ../src/env/axi4_scoreboard.sv(219) @ 5825000: uvm_test_top.env.scb [axi4_scoreboard] [REF_MEM_WRITE] Addr=0x6f3c9c53 Data=0x44
# UVM_INFO ../src/env/axi4_scoreboard.sv(219) @ 5825000: uvm_test_top.env.scb [axi4_scoreboard] [REF_MEM_WRITE] Addr=0x6f3c9c52 Data=0xf1
# UVM_INFO ../src/env/axi4_scoreboard.sv(219) @ 5825000: uvm_test_top.env.scb [axi4_scoreboard] [REF_MEM_WRITE] Addr=0x6f3c9c53 Data=0x36
# UVM_INFO ../src/env/axi4_scoreboard.sv(219) @ 5825000: uvm_test_top.env.scb [axi4_scoreboard] [REF_MEM_WRITE] Addr=0x6f3c9c56 Data=0x65
# UVM_INFO ../src/env/axi4_scoreboard.sv(219) @ 5825000: uvm_test_top.env.scb [axi4_scoreboard] [REF_MEM_WRITE] Addr=0x6f3c9c57 Data=0xde
# UVM_INFO ../src/env/axi4_scoreboard.sv(219) @ 5825000: uvm_test_top.env.scb [axi4_scoreboard] [REF_MEM_WRITE] Addr=0x6f3c9c54 Data=0x95
# UVM_INFO ../src/env/axi4_scoreboard.sv(219) @ 5825000: uvm_test_top.env.scb [axi4_scoreboard] [REF_MEM_WRITE] Addr=0x6f3c9c55 Data=0xc7
# UVM_INFO ../src/env/axi4_scoreboard.sv(219) @ 5825000: uvm_test_top.env.scb [axi4_scoreboard] [REF_MEM_WRITE] Addr=0x6f3c9c56 Data=0x78
# UVM_INFO ../src/env/axi4_scoreboard.sv(219) @ 5825000: uvm_test_top.env.scb [axi4_scoreboard] [REF_MEM_WRITE] Addr=0x6f3c9c5a Data=0xed
# UVM_INFO ../src/env/axi4_scoreboard.sv(219) @ 5825000: uvm_test_top.env.scb [axi4_scoreboard] [REF_MEM_WRITE] Addr=0x6f3c9c5b Data=0xf9
# UVM_INFO ../src/env/axi4_scoreboard.sv(219) @ 5825000: uvm_test_top.env.scb [axi4_scoreboard] [REF_MEM_WRITE] Addr=0x6f3c9c58 Data=0x84
# UVM_INFO ../src/env/axi4_scoreboard.sv(219) @ 5825000: uvm_test_top.env.scb [axi4_scoreboard] [REF_MEM_WRITE] Addr=0x6f3c9c59 Data=0xe4
# UVM_INFO ../src/env/axi4_scoreboard.sv(219) @ 5825000: uvm_test_top.env.scb [axi4_scoreboard] [REF_MEM_WRITE] Addr=0x6f3c9c5a Data=0x15
# UVM_INFO ../src/env/axi4_scoreboard.sv(219) @ 5825000: uvm_test_top.env.scb [axi4_scoreboard] [REF_MEM_WRITE] Addr=0x6f3c9c5b Data=0x4c
# UVM_INFO ../src/env/axi4_scoreboard.sv(219) @ 5825000: uvm_test_top.env.scb [axi4_scoreboard] [REF_MEM_WRITE] Addr=0x6f3c9c5d Data=0xca
# UVM_INFO ../src/env/axi4_scoreboard.sv(219) @ 5825000: uvm_test_top.env.scb [axi4_scoreboard] [REF_MEM_WRITE] Addr=0x6f3c9c61 Data=0xb7
# UVM_INFO ../src/env/axi4_scoreboard.sv(219) @ 5825000: uvm_test_top.env.scb [axi4_scoreboard] [REF_MEM_WRITE] Addr=0x6f3c9c62 Data=0x32
# UVM_INFO ../src/env/axi4_scoreboard.sv(219) @ 5825000: uvm_test_top.env.scb [axi4_scoreboard] [REF_MEM_WRITE] Addr=0x6f3c9c60 Data=0xe7
# UVM_INFO ../src/env/axi4_scoreboard.sv(219) @ 5825000: uvm_test_top.env.scb [axi4_scoreboard] [REF_MEM_WRITE] Addr=0x6f3c9c61 Data=0xc8
# UVM_INFO ../src/env/axi4_scoreboard.sv(219) @ 5825000: uvm_test_top.env.scb [axi4_scoreboard] [REF_MEM_WRITE] Addr=0x6f3c9c63 Data=0x61
# UVM_INFO ../src/env/axi4_scoreboard.sv(219) @ 5825000: uvm_test_top.env.scb [axi4_scoreboard] [REF_MEM_WRITE] Addr=0x6f3c9c64 Data=0x16
# UVM_INFO ../src/env/axi4_scoreboard.sv(219) @ 5825000: uvm_test_top.env.scb [axi4_scoreboard] [REF_MEM_WRITE] Addr=0x6f3c9c66 Data=0x19
# UVM_INFO ../src/env/axi4_scoreboard.sv(219) @ 5825000: uvm_test_top.env.scb [axi4_scoreboard] [REF_MEM_WRITE] Addr=0x6f3c9c67 Data=0xa7
# UVM_INFO ../src/env/axi4_scoreboard.sv(219) @ 5825000: uvm_test_top.env.scb [axi4_scoreboard] [REF_MEM_WRITE] Addr=0x6f3c9c64 Data=0x49
# UVM_INFO ../src/env/axi4_scoreboard.sv(219) @ 5825000: uvm_test_top.env.scb [axi4_scoreboard] [REF_MEM_WRITE] Addr=0x6f3c9c66 Data=0x84
# UVM_INFO ../src/env/axi4_scoreboard.sv(219) @ 5825000: uvm_test_top.env.scb [axi4_scoreboard] [REF_MEM_WRITE] Addr=0x6f3c9c67 Data=0x3c
# UVM_INFO ../src/env/axi4_scoreboard.sv(219) @ 5825000: uvm_test_top.env.scb [axi4_scoreboard] [REF_MEM_WRITE] Addr=0x6f3c9c6a Data=0xc2
# UVM_INFO ../src/env/axi4_scoreboard.sv(219) @ 5825000: uvm_test_top.env.scb [axi4_scoreboard] [REF_MEM_WRITE] Addr=0x6f3c9c6b Data=0xb4
# UVM_INFO ../src/env/axi4_scoreboard.sv(219) @ 5825000: uvm_test_top.env.scb [axi4_scoreboard] [REF_MEM_WRITE] Addr=0x6f3c9c6b Data=0xdd
# UVM_INFO ../src/env/axi4_scoreboard.sv(219) @ 5825000: uvm_test_top.env.scb [axi4_scoreboard] [REF_MEM_WRITE] Addr=0x6f3c9c6d Data=0xa0
# UVM_INFO ../src/env/axi4_scoreboard.sv(219) @ 5825000: uvm_test_top.env.scb [axi4_scoreboard] [REF_MEM_WRITE] Addr=0x6f3c9c6e Data=0x63
# UVM_INFO ../src/env/axi4_scoreboard.sv(219) @ 5825000: uvm_test_top.env.scb [axi4_scoreboard] [REF_MEM_WRITE] Addr=0x6f3c9c6f Data=0xc0
# UVM_INFO ../src/env/axi4_scoreboard.sv(219) @ 5825000: uvm_test_top.env.scb [axi4_scoreboard] [REF_MEM_WRITE] Addr=0x6f3c9c70 Data=0x46
# UVM_INFO ../src/env/axi4_scoreboard.sv(219) @ 5825000: uvm_test_top.env.scb [axi4_scoreboard] [REF_MEM_WRITE] Addr=0x6f3c9c72 Data=0x11
# UVM_INFO ../src/env/axi4_scoreboard.sv(219) @ 5825000: uvm_test_top.env.scb [axi4_scoreboard] [REF_MEM_WRITE] Addr=0x6f3c9c71 Data=0xd0
# UVM_INFO ../src/env/axi4_scoreboard.sv(219) @ 5825000: uvm_test_top.env.scb [axi4_scoreboard] [REF_MEM_WRITE] Addr=0x6f3c9c74 Data=0x09
# UVM_INFO ../src/env/axi4_scoreboard.sv(219) @ 5825000: uvm_test_top.env.scb [axi4_scoreboard] [REF_MEM_WRITE] Addr=0x6f3c9c76 Data=0xbd
# UVM_INFO ../src/env/axi4_scoreboard.sv(219) @ 5825000: uvm_test_top.env.scb [axi4_scoreboard] [REF_MEM_WRITE] Addr=0x6f3c9c77 Data=0x07
# UVM_INFO ../src/env/axi4_scoreboard.sv(219) @ 5825000: uvm_test_top.env.scb [axi4_scoreboard] [REF_MEM_WRITE] Addr=0x6f3c9c74 Data=0x5e
# UVM_INFO ../src/env/axi4_scoreboard.sv(219) @ 5825000: uvm_test_top.env.scb [axi4_scoreboard] [REF_MEM_WRITE] Addr=0x6f3c9c75 Data=0x69
# UVM_INFO ../src/env/axi4_scoreboard.sv(219) @ 5825000: uvm_test_top.env.scb [axi4_scoreboard] [REF_MEM_WRITE] Addr=0x6f3c9c79 Data=0xfd
# UVM_INFO ../src/env/axi4_scoreboard.sv(219) @ 5825000: uvm_test_top.env.scb [axi4_scoreboard] [REF_MEM_WRITE] Addr=0x6f3c9c7a Data=0x19
# UVM_INFO ../src/env/axi4_scoreboard.sv(219) @ 5825000: uvm_test_top.env.scb [axi4_scoreboard] [REF_MEM_WRITE] Addr=0x6f3c9c7a Data=0xb2
# UVM_INFO ../src/env/axi4_scoreboard.sv(219) @ 5825000: uvm_test_top.env.scb [axi4_scoreboard] [REF_MEM_WRITE] Addr=0x6f3c9c7c Data=0x77
# UVM_INFO ../src/env/axi4_scoreboard.sv(219) @ 5825000: uvm_test_top.env.scb [axi4_scoreboard] [REF_MEM_WRITE] Addr=0x6f3c9c7e Data=0xe2
# UVM_INFO ../src/env/axi4_scoreboard.sv(219) @ 5825000: uvm_test_top.env.scb [axi4_scoreboard] [REF_MEM_WRITE] Addr=0x6f3c9c7d Data=0x2a
# UVM_INFO ../src/env/axi4_scoreboard.sv(219) @ 5825000: uvm_test_top.env.scb [axi4_scoreboard] [REF_MEM_WRITE] Addr=0x6f3c9c7f Data=0x17
# UVM_INFO ../src/env/axi4_scoreboard.sv(219) @ 5825000: uvm_test_top.env.scb [axi4_scoreboard] [REF_MEM_WRITE] Addr=0x6f3c9c81 Data=0xaa
# UVM_INFO ../src/env/axi4_scoreboard.sv(219) @ 5825000: uvm_test_top.env.scb [axi4_scoreboard] [REF_MEM_WRITE] Addr=0x6f3c9c80 Data=0xf6
# UVM_INFO ../src/env/axi4_scoreboard.sv(219) @ 5825000: uvm_test_top.env.scb [axi4_scoreboard] [REF_MEM_WRITE] Addr=0x6f3c9c81 Data=0x63
# UVM_INFO ../src/seq/axi4_out_of_order_seq.sv(82) @ 5825000: uvm_test_top.env.master_agent.sqr@@ooo_seq [axi4_out_of_order_seq] OOO Write [#4] complete: ID=0x4 RESP=AXI4_RESP_OKAY
# UVM_INFO ../src/seq/axi4_out_of_order_seq.sv(72) @ 5825000: uvm_test_top.env.master_agent.sqr@@ooo_seq [axi4_out_of_order_seq] OOO Write [#8] started: ID=0x8 ADDR=0x3e0061b9 LEN=207
# UVM_INFO ../src/mst/axi4_master_driver.sv(73) @ 5825000: uvm_test_top.env.master_agent.drv [axi4_master_driver] Driving AXI4_WRITE  ID=0x8  ADDR=0x3e0061b9  LEN=207
# UVM_INFO ../src/slv/axi4_slave_driver.sv(212) @ 5845000: uvm_test_top.env.slave_agent.drv [axi4_slave_driver] AW received: ID=0x5 ADDR=0x2349e746 LEN=109 LOCK=AXI4_LOCK_EXCLUSIVE
# UVM_INFO ../src/mst/axi4_master_monitor.sv(124) @ 5845000: uvm_test_top.env.master_agent.mon [axi4_master_monitor] AW observed: ID=0x5 ADDR=0x2349e746 LEN=109
# UVM_INFO ../src/slv/axi4_slave_monitor.sv(116) @ 5845000: uvm_test_top.env.slave_agent.mon [axi4_slave_monitor] AW received: ID=0x5 ADDR=0x2349e746 LEN=109
# UVM_INFO ../src/slv/axi4_slave_driver.sv(212) @ 5875000: uvm_test_top.env.slave_agent.drv [axi4_slave_driver] AW received: ID=0x6 ADDR=0x63e02254 LEN=207 LOCK=AXI4_LOCK_EXCLUSIVE
# UVM_INFO ../src/slv/axi4_slave_monitor.sv(116) @ 5875000: uvm_test_top.env.slave_agent.mon [axi4_slave_monitor] AW received: ID=0x6 ADDR=0x63e02254 LEN=207
# UVM_INFO ../src/mst/axi4_master_monitor.sv(124) @ 5875000: uvm_test_top.env.master_agent.mon [axi4_master_monitor] AW observed: ID=0x6 ADDR=0x63e02254 LEN=207
# UVM_INFO ../src/slv/axi4_slave_driver.sv(212) @ 5905000: uvm_test_top.env.slave_agent.drv [axi4_slave_driver] AW received: ID=0x7 ADDR=0x83d6e035 LEN=20 LOCK=AXI4_LOCK_EXCLUSIVE
# UVM_INFO ../src/mst/axi4_master_monitor.sv(124) @ 5905000: uvm_test_top.env.master_agent.mon [axi4_master_monitor] AW observed: ID=0x7 ADDR=0x83d6e035 LEN=20
# UVM_INFO ../src/slv/axi4_slave_monitor.sv(116) @ 5905000: uvm_test_top.env.slave_agent.mon [axi4_slave_monitor] AW received: ID=0x7 ADDR=0x83d6e035 LEN=20
# UVM_INFO ../src/slv/axi4_slave_driver.sv(212) @ 5935000: uvm_test_top.env.slave_agent.drv [axi4_slave_driver] AW received: ID=0x8 ADDR=0x3e0061b9 LEN=207 LOCK=AXI4_LOCK_NORMAL
# UVM_INFO ../src/slv/axi4_slave_monitor.sv(116) @ 5935000: uvm_test_top.env.slave_agent.mon [axi4_slave_monitor] AW received: ID=0x8 ADDR=0x3e0061b9 LEN=207
# UVM_INFO ../src/mst/axi4_master_monitor.sv(124) @ 5935000: uvm_test_top.env.master_agent.mon [axi4_master_monitor] AW observed: ID=0x8 ADDR=0x3e0061b9 LEN=207
# UVM_INFO ../src/mst/axi4_master_driver.sv(348) @ 6145000: uvm_test_top.env.master_agent.drv [axi4_master_driver] Master driver received all R beats for ID=0x0
# UVM_INFO ../src/slv/axi4_slave_driver.sv(464) @ 6145000: uvm_test_top.env.slave_agent.drv [axi4_slave_driver] Read complete: ID=0x0 ADDR=0x2a25cc79 RESP=AXI4_RESP_EXOKAY  140 beats sent
# UVM_INFO ../src/mst/axi4_master_monitor.sv(314) @ 6145000: uvm_test_top.env.master_agent.mon [axi4_master_monitor] Read complete: ID=0x0 ADDR=0x2a25cc79 140 beats
# UVM_INFO ../src/env/axi4_scoreboard.sv(87) @ 6145000: uvm_test_top.env.scb [axi4_scoreboard] Master AXI4_READ received: ID=0x0 ADDR=0x2a25cc79 LEN=139
# UVM_INFO ../src/slv/axi4_slave_monitor.sv(287) @ 6145000: uvm_test_top.env.slave_agent.mon [axi4_slave_monitor] Read data sent: ID=0x0 ADDR=0x2a25cc79 140 beats
# UVM_INFO ../src/env/axi4_scoreboard.sv(108) @ 6145000: uvm_test_top.env.scb [axi4_scoreboard] Slave AXI4_READ received: ID=0x0 ADDR=0x2a25cc79 LEN=139
# UVM_INFO ../src/env/axi4_scoreboard.sv(291) @ 6145000: uvm_test_top.env.scb [axi4_scoreboard] [READ] MATCH #9: ID=0x0 ADDR=0x2a25cc79 LEN=139
# UVM_INFO ../src/seq/axi4_out_of_order_seq.sv(120) @ 6145000: uvm_test_top.env.master_agent.sqr@@ooo_seq [axi4_out_of_order_seq] OOO Read [#0] complete: ID=0x0
# UVM_INFO ../src/seq/axi4_out_of_order_seq.sv(111) @ 6145000: uvm_test_top.env.master_agent.sqr@@ooo_seq [axi4_out_of_order_seq] OOO Read [#7] started: ID=0x7 ADDR=0xb7cff0b1 LEN=200
# UVM_INFO ../src/mst/axi4_master_driver.sv(73) @ 6145000: uvm_test_top.env.master_agent.drv [axi4_master_driver] Driving AXI4_READ  ID=0x7  ADDR=0xb7cff0b1  LEN=200
# UVM_INFO ../src/slv/axi4_slave_driver.sv(358) @ 6175000: uvm_test_top.env.slave_agent.drv [axi4_slave_driver] AR received: ID=0x7 ADDR=0xb7cff0b1 LEN=200 LOCK=AXI4_LOCK_EXCLUSIVE
# UVM_INFO ../src/slv/axi4_slave_monitor.sv(224) @ 6175000: uvm_test_top.env.slave_agent.mon [axi4_slave_monitor] AR received: ID=0x7 ADDR=0xb7cff0b1 LEN=200
# UVM_INFO ../src/mst/axi4_master_monitor.sv(246) @ 6175000: uvm_test_top.env.master_agent.mon [axi4_master_monitor] AR observed: ID=0x7 ADDR=0xb7cff0b1 LEN=200
# UVM_INFO ../src/slv/axi4_slave_monitor.sv(167) @ 7995000: uvm_test_top.env.slave_agent.mon [axi4_slave_monitor] W data assembled: ID=0x5 ADDR=0x2349e746 110 beats
# UVM_INFO ../src/mst/axi4_master_monitor.sv(184) @ 7995000: uvm_test_top.env.master_agent.mon [axi4_master_monitor] W data assembled: ID=0x5 ADDR=0x2349e746 110 beats
# UVM_INFO ../src/mst/axi4_master_driver.sv(289) @ 8025000: uvm_test_top.env.master_agent.drv [axi4_master_driver] Master driver received B response: ID=0x5 RESP=AXI4_RESP_OKAY
# UVM_INFO ../src/slv/axi4_slave_driver.sv(320) @ 8025000: uvm_test_top.env.slave_agent.drv [axi4_slave_driver] Write complete: ID=0x5 RESP=AXI4_RESP_OKAY
# UVM_INFO ../src/mst/axi4_master_monitor.sv(210) @ 8025000: uvm_test_top.env.master_agent.mon [axi4_master_monitor] Write complete: ID=0x5 ADDR=0x2349e746 RESP=AXI4_RESP_OKAY
# UVM_INFO ../src/env/axi4_scoreboard.sv(87) @ 8025000: uvm_test_top.env.scb [axi4_scoreboard] Master AXI4_WRITE received: ID=0x5 ADDR=0x2349e746 LEN=109
# UVM_INFO ../src/slv/axi4_slave_monitor.sv(189) @ 8025000: uvm_test_top.env.slave_agent.mon [axi4_slave_monitor] Write response sent: ID=0x5 ADDR=0x2349e746 RESP=AXI4_RESP_OKAY
# UVM_INFO ../src/env/axi4_scoreboard.sv(108) @ 8025000: uvm_test_top.env.scb [axi4_scoreboard] Slave AXI4_WRITE received: ID=0x5 ADDR=0x2349e746 LEN=109
# UVM_INFO ../src/env/axi4_scoreboard.sv(291) @ 8025000: uvm_test_top.env.scb [axi4_scoreboard] [WRITE] MATCH #10: ID=0x5 ADDR=0x2349e746 LEN=109
# UVM_INFO ../src/env/axi4_scoreboard.sv(226) @ 8025000: uvm_test_top.env.scb [axi4_scoreboard] [REF_MEM_WRITE_IGNORED] Write ignored for ADDR=0x2349e746 LOCK=AXI4_LOCK_EXCLUSIVE RESP=AXI4_RESP_OKAY
# UVM_INFO ../src/seq/axi4_out_of_order_seq.sv(82) @ 8025000: uvm_test_top.env.master_agent.sqr@@ooo_seq [axi4_out_of_order_seq] OOO Write [#5] complete: ID=0x5 RESP=AXI4_RESP_OKAY
# UVM_INFO ../src/seq/axi4_out_of_order_seq.sv(72) @ 8025000: uvm_test_top.env.master_agent.sqr@@ooo_seq [axi4_out_of_order_seq] OOO Write [#9] started: ID=0x9 ADDR=0x828801a4 LEN=10
# UVM_INFO ../src/mst/axi4_master_driver.sv(73) @ 8025000: uvm_test_top.env.master_agent.drv [axi4_master_driver] Driving AXI4_WRITE  ID=0x9  ADDR=0x828801a4  LEN=10
# UVM_INFO ../src/slv/axi4_slave_driver.sv(212) @ 8055000: uvm_test_top.env.slave_agent.drv [axi4_slave_driver] AW received: ID=0x9 ADDR=0x828801a4 LEN=10 LOCK=AXI4_LOCK_EXCLUSIVE
# UVM_INFO ../src/slv/axi4_slave_monitor.sv(116) @ 8055000: uvm_test_top.env.slave_agent.mon [axi4_slave_monitor] AW received: ID=0x9 ADDR=0x828801a4 LEN=10
# UVM_INFO ../src/mst/axi4_master_monitor.sv(124) @ 8055000: uvm_test_top.env.master_agent.mon [axi4_master_monitor] AW observed: ID=0x9 ADDR=0x828801a4 LEN=10
# UVM_INFO ../src/mst/axi4_master_driver.sv(348) @ 9825000: uvm_test_top.env.master_agent.drv [axi4_master_driver] Master driver received all R beats for ID=0x4
# UVM_INFO ../src/slv/axi4_slave_driver.sv(464) @ 9825000: uvm_test_top.env.slave_agent.drv [axi4_slave_driver] Read complete: ID=0x4 ADDR=0x34a39dce RESP=AXI4_RESP_OKAY  184 beats sent
# UVM_INFO ../src/mst/axi4_master_monitor.sv(314) @ 9825000: uvm_test_top.env.master_agent.mon [axi4_master_monitor] Read complete: ID=0x4 ADDR=0x34a39dce 184 beats
# UVM_INFO ../src/env/axi4_scoreboard.sv(87) @ 9825000: uvm_test_top.env.scb [axi4_scoreboard] Master AXI4_READ received: ID=0x4 ADDR=0x34a39dce LEN=183
# UVM_INFO ../src/slv/axi4_slave_monitor.sv(287) @ 9825000: uvm_test_top.env.slave_agent.mon [axi4_slave_monitor] Read data sent: ID=0x4 ADDR=0x34a39dce 184 beats
# UVM_INFO ../src/env/axi4_scoreboard.sv(108) @ 9825000: uvm_test_top.env.scb [axi4_scoreboard] Slave AXI4_READ received: ID=0x4 ADDR=0x34a39dce LEN=183
# UVM_INFO ../src/env/axi4_scoreboard.sv(291) @ 9825000: uvm_test_top.env.scb [axi4_scoreboard] [READ] MATCH #11: ID=0x4 ADDR=0x34a39dce LEN=183
# UVM_INFO ../src/seq/axi4_out_of_order_seq.sv(120) @ 9825000: uvm_test_top.env.master_agent.sqr@@ooo_seq [axi4_out_of_order_seq] OOO Read [#4] complete: ID=0x4
# UVM_INFO ../src/seq/axi4_out_of_order_seq.sv(111) @ 9825000: uvm_test_top.env.master_agent.sqr@@ooo_seq [axi4_out_of_order_seq] OOO Read [#8] started: ID=0x8 ADDR=0x28ab8027 LEN=33
# UVM_INFO ../src/mst/axi4_master_driver.sv(73) @ 9825000: uvm_test_top.env.master_agent.drv [axi4_master_driver] Driving AXI4_READ  ID=0x8  ADDR=0x28ab8027  LEN=33
# UVM_INFO ../src/slv/axi4_slave_driver.sv(358) @ 9855000: uvm_test_top.env.slave_agent.drv [axi4_slave_driver] AR received: ID=0x8 ADDR=0x28ab8027 LEN=33 LOCK=AXI4_LOCK_EXCLUSIVE
# UVM_INFO ../src/slv/axi4_slave_monitor.sv(224) @ 9855000: uvm_test_top.env.slave_agent.mon [axi4_slave_monitor] AR received: ID=0x8 ADDR=0x28ab8027 LEN=33
# UVM_INFO ../src/mst/axi4_master_monitor.sv(246) @ 9855000: uvm_test_top.env.master_agent.mon [axi4_master_monitor] AR observed: ID=0x8 ADDR=0x28ab8027 LEN=33
# UVM_INFO ../src/slv/axi4_slave_monitor.sv(167) @ 12155000: uvm_test_top.env.slave_agent.mon [axi4_slave_monitor] W data assembled: ID=0x6 ADDR=0x63e02254 208 beats
# UVM_INFO ../src/mst/axi4_master_monitor.sv(184) @ 12155000: uvm_test_top.env.master_agent.mon [axi4_master_monitor] W data assembled: ID=0x6 ADDR=0x63e02254 208 beats
# UVM_INFO ../src/mst/axi4_master_driver.sv(289) @ 12185000: uvm_test_top.env.master_agent.drv [axi4_master_driver] Master driver received B response: ID=0x6 RESP=AXI4_RESP_OKAY
# UVM_INFO ../src/slv/axi4_slave_driver.sv(320) @ 12185000: uvm_test_top.env.slave_agent.drv [axi4_slave_driver] Write complete: ID=0x6 RESP=AXI4_RESP_OKAY
# UVM_INFO ../src/mst/axi4_master_monitor.sv(210) @ 12185000: uvm_test_top.env.master_agent.mon [axi4_master_monitor] Write complete: ID=0x6 ADDR=0x63e02254 RESP=AXI4_RESP_OKAY
# UVM_INFO ../src/env/axi4_scoreboard.sv(87) @ 12185000: uvm_test_top.env.scb [axi4_scoreboard] Master AXI4_WRITE received: ID=0x6 ADDR=0x63e02254 LEN=207
# UVM_INFO ../src/slv/axi4_slave_monitor.sv(189) @ 12185000: uvm_test_top.env.slave_agent.mon [axi4_slave_monitor] Write response sent: ID=0x6 ADDR=0x63e02254 RESP=AXI4_RESP_OKAY
# UVM_INFO ../src/env/axi4_scoreboard.sv(108) @ 12185000: uvm_test_top.env.scb [axi4_scoreboard] Slave AXI4_WRITE received: ID=0x6 ADDR=0x63e02254 LEN=207
# UVM_INFO ../src/env/axi4_scoreboard.sv(291) @ 12185000: uvm_test_top.env.scb [axi4_scoreboard] [WRITE] MATCH #12: ID=0x6 ADDR=0x63e02254 LEN=207
# UVM_INFO ../src/env/axi4_scoreboard.sv(226) @ 12185000: uvm_test_top.env.scb [axi4_scoreboard] [REF_MEM_WRITE_IGNORED] Write ignored for ADDR=0x63e02254 LOCK=AXI4_LOCK_EXCLUSIVE RESP=AXI4_RESP_OKAY
# UVM_INFO ../src/seq/axi4_out_of_order_seq.sv(82) @ 12185000: uvm_test_top.env.master_agent.sqr@@ooo_seq [axi4_out_of_order_seq] OOO Write [#6] complete: ID=0x6 RESP=AXI4_RESP_OKAY
# UVM_INFO ../src/seq/axi4_out_of_order_seq.sv(72) @ 12185000: uvm_test_top.env.master_agent.sqr@@ooo_seq [axi4_out_of_order_seq] OOO Write [#10] started: ID=0xa ADDR=0xe33a0f24 LEN=146
# UVM_INFO ../src/mst/axi4_master_driver.sv(73) @ 12185000: uvm_test_top.env.master_agent.drv [axi4_master_driver] Driving AXI4_WRITE  ID=0xa  ADDR=0xe33a0f24  LEN=146
# UVM_INFO ../src/slv/axi4_slave_monitor.sv(167) @ 12575000: uvm_test_top.env.slave_agent.mon [axi4_slave_monitor] W data assembled: ID=0x7 ADDR=0x83d6e035 21 beats
# UVM_INFO ../src/mst/axi4_master_monitor.sv(184) @ 12575000: uvm_test_top.env.master_agent.mon [axi4_master_monitor] W data assembled: ID=0x7 ADDR=0x83d6e035 21 beats
# UVM_INFO ../src/mst/axi4_master_driver.sv(289) @ 12605000: uvm_test_top.env.master_agent.drv [axi4_master_driver] Master driver received B response: ID=0x7 RESP=AXI4_RESP_OKAY
# UVM_INFO ../src/slv/axi4_slave_driver.sv(320) @ 12605000: uvm_test_top.env.slave_agent.drv [axi4_slave_driver] Write complete: ID=0x7 RESP=AXI4_RESP_OKAY
# UVM_INFO ../src/mst/axi4_master_monitor.sv(210) @ 12605000: uvm_test_top.env.master_agent.mon [axi4_master_monitor] Write complete: ID=0x7 ADDR=0x83d6e035 RESP=AXI4_RESP_OKAY
# UVM_INFO ../src/env/axi4_scoreboard.sv(87) @ 12605000: uvm_test_top.env.scb [axi4_scoreboard] Master AXI4_WRITE received: ID=0x7 ADDR=0x83d6e035 LEN=20
# UVM_INFO ../src/slv/axi4_slave_monitor.sv(189) @ 12605000: uvm_test_top.env.slave_agent.mon [axi4_slave_monitor] Write response sent: ID=0x7 ADDR=0x83d6e035 RESP=AXI4_RESP_OKAY
# UVM_INFO ../src/env/axi4_scoreboard.sv(108) @ 12605000: uvm_test_top.env.scb [axi4_scoreboard] Slave AXI4_WRITE received: ID=0x7 ADDR=0x83d6e035 LEN=20
# UVM_INFO ../src/env/axi4_scoreboard.sv(291) @ 12605000: uvm_test_top.env.scb [axi4_scoreboard] [WRITE] MATCH #13: ID=0x7 ADDR=0x83d6e035 LEN=20
# UVM_INFO ../src/env/axi4_scoreboard.sv(226) @ 12605000: uvm_test_top.env.scb [axi4_scoreboard] [REF_MEM_WRITE_IGNORED] Write ignored for ADDR=0x83d6e035 LOCK=AXI4_LOCK_EXCLUSIVE RESP=AXI4_RESP_OKAY
# UVM_INFO ../src/seq/axi4_out_of_order_seq.sv(82) @ 12605000: uvm_test_top.env.master_agent.sqr@@ooo_seq [axi4_out_of_order_seq] OOO Write [#7] complete: ID=0x7 RESP=AXI4_RESP_OKAY
# UVM_INFO ../src/seq/axi4_out_of_order_seq.sv(72) @ 12605000: uvm_test_top.env.master_agent.sqr@@ooo_seq [axi4_out_of_order_seq] OOO Write [#11] started: ID=0xb ADDR=0xff6d1d5d LEN=115
# UVM_INFO ../src/mst/axi4_master_driver.sv(73) @ 12605000: uvm_test_top.env.master_agent.drv [axi4_master_driver] Driving AXI4_WRITE  ID=0xb  ADDR=0xff6d1d5d  LEN=115
# UVM_INFO ../src/mst/axi4_master_driver.sv(348) @ 14685000: uvm_test_top.env.master_agent.drv [axi4_master_driver] Master driver received all R beats for ID=0x5
# UVM_INFO ../src/slv/axi4_slave_driver.sv(464) @ 14685000: uvm_test_top.env.slave_agent.drv [axi4_slave_driver] Read complete: ID=0x5 ADDR=0x72a4d18f RESP=AXI4_RESP_OKAY  243 beats sent
# UVM_INFO ../src/mst/axi4_master_monitor.sv(314) @ 14685000: uvm_test_top.env.master_agent.mon [axi4_master_monitor] Read complete: ID=0x5 ADDR=0x72a4d18f 243 beats
# UVM_INFO ../src/env/axi4_scoreboard.sv(87) @ 14685000: uvm_test_top.env.scb [axi4_scoreboard] Master AXI4_READ received: ID=0x5 ADDR=0x72a4d18f LEN=242
# UVM_INFO ../src/slv/axi4_slave_monitor.sv(287) @ 14685000: uvm_test_top.env.slave_agent.mon [axi4_slave_monitor] Read data sent: ID=0x5 ADDR=0x72a4d18f 243 beats
# UVM_INFO ../src/env/axi4_scoreboard.sv(108) @ 14685000: uvm_test_top.env.scb [axi4_scoreboard] Slave AXI4_READ received: ID=0x5 ADDR=0x72a4d18f LEN=242
# UVM_INFO ../src/env/axi4_scoreboard.sv(291) @ 14685000: uvm_test_top.env.scb [axi4_scoreboard] [READ] MATCH #14: ID=0x5 ADDR=0x72a4d18f LEN=242
# UVM_INFO ../src/seq/axi4_out_of_order_seq.sv(120) @ 14685000: uvm_test_top.env.master_agent.sqr@@ooo_seq [axi4_out_of_order_seq] OOO Read [#5] complete: ID=0x5
# UVM_INFO ../src/seq/axi4_out_of_order_seq.sv(111) @ 14685000: uvm_test_top.env.master_agent.sqr@@ooo_seq [axi4_out_of_order_seq] OOO Read [#9] started: ID=0x9 ADDR=0x1d496e2b LEN=209
# UVM_INFO ../src/mst/axi4_master_driver.sv(73) @ 14685000: uvm_test_top.env.master_agent.drv [axi4_master_driver] Driving AXI4_READ  ID=0x9  ADDR=0x1d496e2b  LEN=209
# UVM_INFO ../src/slv/axi4_slave_driver.sv(358) @ 14715000: uvm_test_top.env.slave_agent.drv [axi4_slave_driver] AR received: ID=0x9 ADDR=0x1d496e2b LEN=209 LOCK=AXI4_LOCK_NORMAL
# UVM_INFO ../src/slv/axi4_slave_monitor.sv(224) @ 14715000: uvm_test_top.env.slave_agent.mon [axi4_slave_monitor] AR received: ID=0x9 ADDR=0x1d496e2b LEN=209
# UVM_INFO ../src/mst/axi4_master_monitor.sv(246) @ 14715000: uvm_test_top.env.master_agent.mon [axi4_master_monitor] AR observed: ID=0x9 ADDR=0x1d496e2b LEN=209
# UVM_INFO ../src/mst/axi4_master_driver.sv(348) @ 14845000: uvm_test_top.env.master_agent.drv [axi4_master_driver] Master driver received all R beats for ID=0x6
# UVM_INFO ../src/slv/axi4_slave_driver.sv(464) @ 14845000: uvm_test_top.env.slave_agent.drv [axi4_slave_driver] Read complete: ID=0x6 ADDR=0xb054b541 RESP=AXI4_RESP_OKAY  8 beats sent
# UVM_INFO ../src/mst/axi4_master_monitor.sv(314) @ 14845000: uvm_test_top.env.master_agent.mon [axi4_master_monitor] Read complete: ID=0x6 ADDR=0xb054b541 8 beats
# UVM_INFO ../src/env/axi4_scoreboard.sv(87) @ 14845000: uvm_test_top.env.scb [axi4_scoreboard] Master AXI4_READ received: ID=0x6 ADDR=0xb054b541 LEN=7
# UVM_INFO ../src/slv/axi4_slave_monitor.sv(287) @ 14845000: uvm_test_top.env.slave_agent.mon [axi4_slave_monitor] Read data sent: ID=0x6 ADDR=0xb054b541 8 beats
# UVM_INFO ../src/env/axi4_scoreboard.sv(108) @ 14845000: uvm_test_top.env.scb [axi4_scoreboard] Slave AXI4_READ received: ID=0x6 ADDR=0xb054b541 LEN=7
# UVM_INFO ../src/env/axi4_scoreboard.sv(291) @ 14845000: uvm_test_top.env.scb [axi4_scoreboard] [READ] MATCH #15: ID=0x6 ADDR=0xb054b541 LEN=7
# UVM_INFO ../src/seq/axi4_out_of_order_seq.sv(120) @ 14845000: uvm_test_top.env.master_agent.sqr@@ooo_seq [axi4_out_of_order_seq] OOO Read [#6] complete: ID=0x6
# UVM_INFO ../src/seq/axi4_out_of_order_seq.sv(111) @ 14845000: uvm_test_top.env.master_agent.sqr@@ooo_seq [axi4_out_of_order_seq] OOO Read [#10] started: ID=0xa ADDR=0x9775ffb3 LEN=15
# UVM_INFO ../src/mst/axi4_master_driver.sv(73) @ 14845000: uvm_test_top.env.master_agent.drv [axi4_master_driver] Driving AXI4_READ  ID=0xa  ADDR=0x9775ffb3  LEN=15
# UVM_INFO ../src/slv/axi4_slave_driver.sv(358) @ 14875000: uvm_test_top.env.slave_agent.drv [axi4_slave_driver] AR received: ID=0xa ADDR=0x9775ffb3 LEN=15 LOCK=AXI4_LOCK_EXCLUSIVE
# UVM_INFO ../src/slv/axi4_slave_monitor.sv(224) @ 14875000: uvm_test_top.env.slave_agent.mon [axi4_slave_monitor] AR received: ID=0xa ADDR=0x9775ffb3 LEN=15
# UVM_INFO ../src/mst/axi4_master_monitor.sv(246) @ 14875000: uvm_test_top.env.master_agent.mon [axi4_master_monitor] AR observed: ID=0xa ADDR=0x9775ffb3 LEN=15
# UVM_INFO ../src/slv/axi4_slave_monitor.sv(167) @ 16735000: uvm_test_top.env.slave_agent.mon [axi4_slave_monitor] W data assembled: ID=0x8 ADDR=0x3e0061b9 208 beats
# UVM_INFO ../src/mst/axi4_master_monitor.sv(184) @ 16735000: uvm_test_top.env.master_agent.mon [axi4_master_monitor] W data assembled: ID=0x8 ADDR=0x3e0061b9 208 beats
# UVM_INFO ../src/mst/axi4_master_driver.sv(289) @ 16765000: uvm_test_top.env.master_agent.drv [axi4_master_driver] Master driver received B response: ID=0x8 RESP=AXI4_RESP_OKAY
# UVM_INFO ../src/slv/axi4_slave_driver.sv(320) @ 16765000: uvm_test_top.env.slave_agent.drv [axi4_slave_driver] Write complete: ID=0x8 RESP=AXI4_RESP_OKAY
# UVM_INFO ../src/mst/axi4_master_monitor.sv(210) @ 16765000: uvm_test_top.env.master_agent.mon [axi4_master_monitor] Write complete: ID=0x8 ADDR=0x3e0061b9 RESP=AXI4_RESP_OKAY
# UVM_INFO ../src/env/axi4_scoreboard.sv(87) @ 16765000: uvm_test_top.env.scb [axi4_scoreboard] Master AXI4_WRITE received: ID=0x8 ADDR=0x3e0061b9 LEN=207
# UVM_INFO ../src/slv/axi4_slave_monitor.sv(189) @ 16765000: uvm_test_top.env.slave_agent.mon [axi4_slave_monitor] Write response sent: ID=0x8 ADDR=0x3e0061b9 RESP=AXI4_RESP_OKAY
# UVM_INFO ../src/env/axi4_scoreboard.sv(108) @ 16765000: uvm_test_top.env.scb [axi4_scoreboard] Slave AXI4_WRITE received: ID=0x8 ADDR=0x3e0061b9 LEN=207
# UVM_INFO ../src/env/axi4_scoreboard.sv(291) @ 16765000: uvm_test_top.env.scb [axi4_scoreboard] [WRITE] MATCH #16: ID=0x8 ADDR=0x3e0061b9 LEN=207
# UVM_INFO ../src/env/axi4_scoreboard.sv(219) @ 16765000: uvm_test_top.env.scb [axi4_scoreboard] [REF_MEM_WRITE] Addr=0x3e0061b9 Data=0x60
# UVM_INFO ../src/env/axi4_scoreboard.sv(219) @ 16765000: uvm_test_top.env.scb [axi4_scoreboard] [REF_MEM_WRITE] Addr=0x3e0061ba Data=0x8f
# UVM_INFO ../src/env/axi4_scoreboard.sv(219) @ 16765000: uvm_test_top.env.scb [axi4_scoreboard] [REF_MEM_WRITE] Addr=0x3e0061bf Data=0xd0
# UVM_INFO ../src/env/axi4_scoreboard.sv(219) @ 16765000: uvm_test_top.env.scb [axi4_scoreboard] [REF_MEM_WRITE] Addr=0x3e0061c0 Data=0x8b
# UVM_INFO ../src/env/axi4_scoreboard.sv(219) @ 16765000: uvm_test_top.env.scb [axi4_scoreboard] [REF_MEM_WRITE] Addr=0x3e0061c1 Data=0x8a
# UVM_INFO ../src/env/axi4_scoreboard.sv(219) @ 16765000: uvm_test_top.env.scb [axi4_scoreboard] [REF_MEM_WRITE] Addr=0x3e0061c2 Data=0xb8
# UVM_INFO ../src/env/axi4_scoreboard.sv(219) @ 16765000: uvm_test_top.env.scb [axi4_scoreboard] [REF_MEM_WRITE] Addr=0x3e0061c3 Data=0x80
# UVM_INFO ../src/env/axi4_scoreboard.sv(219) @ 16765000: uvm_test_top.env.scb [axi4_scoreboard] [REF_MEM_WRITE] Addr=0x3e0061c4 Data=0xa0
# UVM_INFO ../src/env/axi4_scoreboard.sv(219) @ 16765000: uvm_test_top.env.scb [axi4_scoreboard] [REF_MEM_WRITE] Addr=0x3e0061c6 Data=0x01
# UVM_INFO ../src/env/axi4_scoreboard.sv(219) @ 16765000: uvm_test_top.env.scb [axi4_scoreboard] [REF_MEM_WRITE] Addr=0x3e0061c8 Data=0x23
# UVM_INFO ../src/env/axi4_scoreboard.sv(219) @ 16765000: uvm_test_top.env.scb [axi4_scoreboard] [REF_MEM_WRITE] Addr=0x3e0061c9 Data=0xb2
# UVM_INFO ../src/env/axi4_scoreboard.sv(219) @ 16765000: uvm_test_top.env.scb [axi4_scoreboard] [REF_MEM_WRITE] Addr=0x3e0061ca Data=0x6f
# UVM_INFO ../src/env/axi4_scoreboard.sv(219) @ 16765000: uvm_test_top.env.scb [axi4_scoreboard] [REF_MEM_WRITE] Addr=0x3e0061cc Data=0x56
# UVM_INFO ../src/env/axi4_scoreboard.sv(219) @ 16765000: uvm_test_top.env.scb [axi4_scoreboard] [REF_MEM_WRITE] Addr=0x3e0061cf Data=0x38
# UVM_INFO ../src/env/axi4_scoreboard.sv(219) @ 16765000: uvm_test_top.env.scb [axi4_scoreboard] [REF_MEM_WRITE] Addr=0x3e0061d0 Data=0x03
# UVM_INFO ../src/env/axi4_scoreboard.sv(219) @ 16765000: uvm_test_top.env.scb [axi4_scoreboard] [REF_MEM_WRITE] Addr=0x3e0061d7 Data=0x75
# UVM_INFO ../src/env/axi4_scoreboard.sv(219) @ 16765000: uvm_test_top.env.scb [axi4_scoreboard] [REF_MEM_WRITE] Addr=0x3e0061d8 Data=0x63
# UVM_INFO ../src/env/axi4_scoreboard.sv(219) @ 16765000: uvm_test_top.env.scb [axi4_scoreboard] [REF_MEM_WRITE] Addr=0x3e0061db Data=0xaa
# UVM_INFO ../src/env/axi4_scoreboard.sv(219) @ 16765000: uvm_test_top.env.scb [axi4_scoreboard] [REF_MEM_WRITE] Addr=0x3e0061dc Data=0x00
# UVM_INFO ../src/env/axi4_scoreboard.sv(219) @ 16765000: uvm_test_top.env.scb [axi4_scoreboard] [REF_MEM_WRITE] Addr=0x3e0061e0 Data=0x9f
# UVM_INFO ../src/env/axi4_scoreboard.sv(219) @ 16765000: uvm_test_top.env.scb [axi4_scoreboard] [REF_MEM_WRITE] Addr=0x3e0061e1 Data=0x3e
# UVM_INFO ../src/env/axi4_scoreboard.sv(219) @ 16765000: uvm_test_top.env.scb [axi4_scoreboard] [REF_MEM_WRITE] Addr=0x3e0061e2 Data=0xb9
# UVM_INFO ../src/env/axi4_scoreboard.sv(219) @ 16765000: uvm_test_top.env.scb [axi4_scoreboard] [REF_MEM_WRITE] Addr=0x3e0061e5 Data=0x7b
# UVM_INFO ../src/env/axi4_scoreboard.sv(219) @ 16765000: uvm_test_top.env.scb [axi4_scoreboard] [REF_MEM_WRITE] Addr=0x3e0061e6 Data=0xb4
# UVM_INFO ../src/env/axi4_scoreboard.sv(219) @ 16765000: uvm_test_top.env.scb [axi4_scoreboard] [REF_MEM_WRITE] Addr=0x3e0061e9 Data=0xba
# UVM_INFO ../src/env/axi4_scoreboard.sv(219) @ 16765000: uvm_test_top.env.scb [axi4_scoreboard] [REF_MEM_WRITE] Addr=0x3e0061ea Data=0xb4
# UVM_INFO ../src/env/axi4_scoreboard.sv(219) @ 16765000: uvm_test_top.env.scb [axi4_scoreboard] [REF_MEM_WRITE] Addr=0x3e0061eb Data=0xf9
# UVM_INFO ../src/env/axi4_scoreboard.sv(219) @ 16765000: uvm_test_top.env.scb [axi4_scoreboard] [REF_MEM_WRITE] Addr=0x3e0061ec Data=0x22
# UVM_INFO ../src/env/axi4_scoreboard.sv(219) @ 16765000: uvm_test_top.env.scb [axi4_scoreboard] [REF_MEM_WRITE] Addr=0x3e0061ee Data=0xe4
# UVM_INFO ../src/env/axi4_scoreboard.sv(219) @ 16765000: uvm_test_top.env.scb [axi4_scoreboard] [REF_MEM_WRITE] Addr=0x3e0061f0 Data=0x36
# UVM_INFO ../src/env/axi4_scoreboard.sv(219) @ 16765000: uvm_test_top.env.scb [axi4_scoreboard] [REF_MEM_WRITE] Addr=0x3e0061f1 Data=0xf8
# UVM_INFO ../src/env/axi4_scoreboard.sv(219) @ 16765000: uvm_test_top.env.scb [axi4_scoreboard] [REF_MEM_WRITE] Addr=0x3e0061f4 Data=0x8b
# UVM_INFO ../src/env/axi4_scoreboard.sv(219) @ 16765000: uvm_test_top.env.scb [axi4_scoreboard] [REF_MEM_WRITE] Addr=0x3e0061f5 Data=0x72
# UVM_INFO ../src/env/axi4_scoreboard.sv(219) @ 16765000: uvm_test_top.env.scb [axi4_scoreboard] [REF_MEM_WRITE] Addr=0x3e0061f7 Data=0x8b
# UVM_INFO ../src/env/axi4_scoreboard.sv(219) @ 16765000: uvm_test_top.env.scb [axi4_scoreboard] [REF_MEM_WRITE] Addr=0x3e0061fb Data=0x26
# UVM_INFO ../src/env/axi4_scoreboard.sv(219) @ 16765000: uvm_test_top.env.scb [axi4_scoreboard] [REF_MEM_WRITE] Addr=0x3e0061ff Data=0x33
# UVM_INFO ../src/env/axi4_scoreboard.sv(219) @ 16765000: uvm_test_top.env.scb [axi4_scoreboard] [REF_MEM_WRITE] Addr=0x3e006200 Data=0xae
# UVM_INFO ../src/env/axi4_scoreboard.sv(219) @ 16765000: uvm_test_top.env.scb [axi4_scoreboard] [REF_MEM_WRITE] Addr=0x3e006201 Data=0x52
# UVM_INFO ../src/env/axi4_scoreboard.sv(219) @ 16765000: uvm_test_top.env.scb [axi4_scoreboard] [REF_MEM_WRITE] Addr=0x3e006202 Data=0x20
# UVM_INFO ../src/env/axi4_scoreboard.sv(219) @ 16765000: uvm_test_top.env.scb [axi4_scoreboard] [REF_MEM_WRITE] Addr=0x3e006203 Data=0x67
# UVM_INFO ../src/env/axi4_scoreboard.sv(219) @ 16765000: uvm_test_top.env.scb [axi4_scoreboard] [REF_MEM_WRITE] Addr=0x3e006204 Data=0x26
# UVM_INFO ../src/env/axi4_scoreboard.sv(219) @ 16765000: uvm_test_top.env.scb [axi4_scoreboard] [REF_MEM_WRITE] Addr=0x3e006206 Data=0x76
# UVM_INFO ../src/env/axi4_scoreboard.sv(219) @ 16765000: uvm_test_top.env.scb [axi4_scoreboard] [REF_MEM_WRITE] Addr=0x3e006207 Data=0xe9
# UVM_INFO ../src/env/axi4_scoreboard.sv(219) @ 16765000: uvm_test_top.env.scb [axi4_scoreboard] [REF_MEM_WRITE] Addr=0x3e006208 Data=0x29
# UVM_INFO ../src/env/axi4_scoreboard.sv(219) @ 16765000: uvm_test_top.env.scb [axi4_scoreboard] [REF_MEM_WRITE] Addr=0x3e006209 Data=0xa6
# UVM_INFO ../src/env/axi4_scoreboard.sv(219) @ 16765000: uvm_test_top.env.scb [axi4_scoreboard] [REF_MEM_WRITE] Addr=0x3e00620d Data=0x5b
# UVM_INFO ../src/env/axi4_scoreboard.sv(219) @ 16765000: uvm_test_top.env.scb [axi4_scoreboard] [REF_MEM_WRITE] Addr=0x3e00620e Data=0x72
# UVM_INFO ../src/env/axi4_scoreboard.sv(219) @ 16765000: uvm_test_top.env.scb [axi4_scoreboard] [REF_MEM_WRITE] Addr=0x3e006210 Data=0x24
# UVM_INFO ../src/env/axi4_scoreboard.sv(219) @ 16765000: uvm_test_top.env.scb [axi4_scoreboard] [REF_MEM_WRITE] Addr=0x3e006212 Data=0x4b
# UVM_INFO ../src/env/axi4_scoreboard.sv(219) @ 16765000: uvm_test_top.env.scb [axi4_scoreboard] [REF_MEM_WRITE] Addr=0x3e006213 Data=0xc8
# UVM_INFO ../src/env/axi4_scoreboard.sv(219) @ 16765000: uvm_test_top.env.scb [axi4_scoreboard] [REF_MEM_WRITE] Addr=0x3e006215 Data=0x58
# UVM_INFO ../src/env/axi4_scoreboard.sv(219) @ 16765000: uvm_test_top.env.scb [axi4_scoreboard] [REF_MEM_WRITE] Addr=0x3e006218 Data=0x89
# UVM_INFO ../src/env/axi4_scoreboard.sv(219) @ 16765000: uvm_test_top.env.scb [axi4_scoreboard] [REF_MEM_WRITE] Addr=0x3e00621b Data=0xb0
# UVM_INFO ../src/env/axi4_scoreboard.sv(219) @ 16765000: uvm_test_top.env.scb [axi4_scoreboard] [REF_MEM_WRITE] Addr=0x3e00621c Data=0x40
# UVM_INFO ../src/env/axi4_scoreboard.sv(219) @ 16765000: uvm_test_top.env.scb [axi4_scoreboard] [REF_MEM_WRITE] Addr=0x3e00621d Data=0xa6
# UVM_INFO ../src/env/axi4_scoreboard.sv(219) @ 16765000: uvm_test_top.env.scb [axi4_scoreboard] [REF_MEM_WRITE] Addr=0x3e00621f Data=0x0d
# UVM_INFO ../src/env/axi4_scoreboard.sv(219) @ 16765000: uvm_test_top.env.scb [axi4_scoreboard] [REF_MEM_WRITE] Addr=0x3e006220 Data=0xf3
# UVM_INFO ../src/env/axi4_scoreboard.sv(219) @ 16765000: uvm_test_top.env.scb [axi4_scoreboard] [REF_MEM_WRITE] Addr=0x3e006221 Data=0x59
# UVM_INFO ../src/env/axi4_scoreboard.sv(219) @ 16765000: uvm_test_top.env.scb [axi4_scoreboard] [REF_MEM_WRITE] Addr=0x3e006223 Data=0x1f
# UVM_INFO ../src/env/axi4_scoreboard.sv(219) @ 16765000: uvm_test_top.env.scb [axi4_scoreboard] [REF_MEM_WRITE] Addr=0x3e006225 Data=0x0e
# UVM_INFO ../src/env/axi4_scoreboard.sv(219) @ 16765000: uvm_test_top.env.scb [axi4_scoreboard] [REF_MEM_WRITE] Addr=0x3e00622a Data=0x7b
# UVM_INFO ../src/env/axi4_scoreboard.sv(219) @ 16765000: uvm_test_top.env.scb [axi4_scoreboard] [REF_MEM_WRITE] Addr=0x3e00622c Data=0x53
# UVM_INFO ../src/env/axi4_scoreboard.sv(219) @ 16765000: uvm_test_top.env.scb [axi4_scoreboard] [REF_MEM_WRITE] Addr=0x3e00622d Data=0x2c
# UVM_INFO ../src/env/axi4_scoreboard.sv(219) @ 16765000: uvm_test_top.env.scb [axi4_scoreboard] [REF_MEM_WRITE] Addr=0x3e00622e Data=0x07
# UVM_INFO ../src/env/axi4_scoreboard.sv(219) @ 16765000: uvm_test_top.env.scb [axi4_scoreboard] [REF_MEM_WRITE] Addr=0x3e00622f Data=0x18
# UVM_INFO ../src/env/axi4_scoreboard.sv(219) @ 16765000: uvm_test_top.env.scb [axi4_scoreboard] [REF_MEM_WRITE] Addr=0x3e006232 Data=0xff
# UVM_INFO ../src/env/axi4_scoreboard.sv(219) @ 16765000: uvm_test_top.env.scb [axi4_scoreboard] [REF_MEM_WRITE] Addr=0x3e006233 Data=0x63
# UVM_INFO ../src/env/axi4_scoreboard.sv(219) @ 16765000: uvm_test_top.env.scb [axi4_scoreboard] [REF_MEM_WRITE] Addr=0x3e006237 Data=0xb0
# UVM_INFO ../src/env/axi4_scoreboard.sv(219) @ 16765000: uvm_test_top.env.scb [axi4_scoreboard] [REF_MEM_WRITE] Addr=0x3e00623e Data=0x0e
# UVM_INFO ../src/env/axi4_scoreboard.sv(219) @ 16765000: uvm_test_top.env.scb [axi4_scoreboard] [REF_MEM_WRITE] Addr=0x3e006240 Data=0x6d
# UVM_INFO ../src/env/axi4_scoreboard.sv(219) @ 16765000: uvm_test_top.env.scb [axi4_scoreboard] [REF_MEM_WRITE] Addr=0x3e006241 Data=0x51
# UVM_INFO ../src/env/axi4_scoreboard.sv(219) @ 16765000: uvm_test_top.env.scb [axi4_scoreboard] [REF_MEM_WRITE] Addr=0x3e006243 Data=0x8b
# UVM_INFO ../src/env/axi4_scoreboard.sv(219) @ 16765000: uvm_test_top.env.scb [axi4_scoreboard] [REF_MEM_WRITE] Addr=0x3e006244 Data=0x51
# UVM_INFO ../src/env/axi4_scoreboard.sv(219) @ 16765000: uvm_test_top.env.scb [axi4_scoreboard] [REF_MEM_WRITE] Addr=0x3e006247 Data=0x97
# UVM_INFO ../src/env/axi4_scoreboard.sv(219) @ 16765000: uvm_test_top.env.scb [axi4_scoreboard] [REF_MEM_WRITE] Addr=0x3e006248 Data=0x20
# UVM_INFO ../src/env/axi4_scoreboard.sv(219) @ 16765000: uvm_test_top.env.scb [axi4_scoreboard] [REF_MEM_WRITE] Addr=0x3e00624a Data=0xb6
# UVM_INFO ../src/env/axi4_scoreboard.sv(219) @ 16765000: uvm_test_top.env.scb [axi4_scoreboard] [REF_MEM_WRITE] Addr=0x3e00624b Data=0x27
# UVM_INFO ../src/env/axi4_scoreboard.sv(219) @ 16765000: uvm_test_top.env.scb [axi4_scoreboard] [REF_MEM_WRITE] Addr=0x3e00624d Data=0xdf
# UVM_INFO ../src/env/axi4_scoreboard.sv(219) @ 16765000: uvm_test_top.env.scb [axi4_scoreboard] [REF_MEM_WRITE] Addr=0x3e00624e Data=0x3d
# UVM_INFO ../src/env/axi4_scoreboard.sv(219) @ 16765000: uvm_test_top.env.scb [axi4_scoreboard] [REF_MEM_WRITE] Addr=0x3e006251 Data=0x2f
# UVM_INFO ../src/env/axi4_scoreboard.sv(219) @ 16765000: uvm_test_top.env.scb [axi4_scoreboard] [REF_MEM_WRITE] Addr=0x3e006252 Data=0x4d
# UVM_INFO ../src/env/axi4_scoreboard.sv(219) @ 16765000: uvm_test_top.env.scb [axi4_scoreboard] [REF_MEM_WRITE] Addr=0x3e006254 Data=0x2c
# UVM_INFO ../src/env/axi4_scoreboard.sv(219) @ 16765000: uvm_test_top.env.scb [axi4_scoreboard] [REF_MEM_WRITE] Addr=0x3e006255 Data=0x63
# UVM_INFO ../src/env/axi4_scoreboard.sv(219) @ 16765000: uvm_test_top.env.scb [axi4_scoreboard] [REF_MEM_WRITE] Addr=0x3e006258 Data=0x39
# UVM_INFO ../src/env/axi4_scoreboard.sv(219) @ 16765000: uvm_test_top.env.scb [axi4_scoreboard] [REF_MEM_WRITE] Addr=0x3e00625a Data=0xbc
# UVM_INFO ../src/env/axi4_scoreboard.sv(219) @ 16765000: uvm_test_top.env.scb [axi4_scoreboard] [REF_MEM_WRITE] Addr=0x3e00625e Data=0x3e
# UVM_INFO ../src/env/axi4_scoreboard.sv(219) @ 16765000: uvm_test_top.env.scb [axi4_scoreboard] [REF_MEM_WRITE] Addr=0x3e006260 Data=0xc4
# UVM_INFO ../src/env/axi4_scoreboard.sv(219) @ 16765000: uvm_test_top.env.scb [axi4_scoreboard] [REF_MEM_WRITE] Addr=0x3e006261 Data=0x7e
# UVM_INFO ../src/env/axi4_scoreboard.sv(219) @ 16765000: uvm_test_top.env.scb [axi4_scoreboard] [REF_MEM_WRITE] Addr=0x3e006265 Data=0x6c
# UVM_INFO ../src/env/axi4_scoreboard.sv(219) @ 16765000: uvm_test_top.env.scb [axi4_scoreboard] [REF_MEM_WRITE] Addr=0x3e006267 Data=0x14
# UVM_INFO ../src/env/axi4_scoreboard.sv(219) @ 16765000: uvm_test_top.env.scb [axi4_scoreboard] [REF_MEM_WRITE] Addr=0x3e006268 Data=0x4e
# UVM_INFO ../src/env/axi4_scoreboard.sv(219) @ 16765000: uvm_test_top.env.scb [axi4_scoreboard] [REF_MEM_WRITE] Addr=0x3e006269 Data=0xa4
# UVM_INFO ../src/env/axi4_scoreboard.sv(219) @ 16765000: uvm_test_top.env.scb [axi4_scoreboard] [REF_MEM_WRITE] Addr=0x3e00626a Data=0x5a
# UVM_INFO ../src/env/axi4_scoreboard.sv(219) @ 16765000: uvm_test_top.env.scb [axi4_scoreboard] [REF_MEM_WRITE] Addr=0x3e00626c Data=0x32
# UVM_INFO ../src/env/axi4_scoreboard.sv(219) @ 16765000: uvm_test_top.env.scb [axi4_scoreboard] [REF_MEM_WRITE] Addr=0x3e00626d Data=0x95
# UVM_INFO ../src/env/axi4_scoreboard.sv(219) @ 16765000: uvm_test_top.env.scb [axi4_scoreboard] [REF_MEM_WRITE] Addr=0x3e00626f Data=0x71
# UVM_INFO ../src/env/axi4_scoreboard.sv(219) @ 16765000: uvm_test_top.env.scb [axi4_scoreboard] [REF_MEM_WRITE] Addr=0x3e006270 Data=0x37
# UVM_INFO ../src/env/axi4_scoreboard.sv(219) @ 16765000: uvm_test_top.env.scb [axi4_scoreboard] [REF_MEM_WRITE] Addr=0x3e006271 Data=0xa4
# UVM_INFO ../src/env/axi4_scoreboard.sv(219) @ 16765000: uvm_test_top.env.scb [axi4_scoreboard] [REF_MEM_WRITE] Addr=0x3e006273 Data=0x24
# UVM_INFO ../src/env/axi4_scoreboard.sv(219) @ 16765000: uvm_test_top.env.scb [axi4_scoreboard] [REF_MEM_WRITE] Addr=0x3e006275 Data=0x86
# UVM_INFO ../src/env/axi4_scoreboard.sv(219) @ 16765000: uvm_test_top.env.scb [axi4_scoreboard] [REF_MEM_WRITE] Addr=0x3e006276 Data=0xfe
# UVM_INFO ../src/env/axi4_scoreboard.sv(219) @ 16765000: uvm_test_top.env.scb [axi4_scoreboard] [REF_MEM_WRITE] Addr=0x3e00627a Data=0xfe
# UVM_INFO ../src/env/axi4_scoreboard.sv(219) @ 16765000: uvm_test_top.env.scb [axi4_scoreboard] [REF_MEM_WRITE] Addr=0x3e00627e Data=0x59
# UVM_INFO ../src/env/axi4_scoreboard.sv(219) @ 16765000: uvm_test_top.env.scb [axi4_scoreboard] [REF_MEM_WRITE] Addr=0x3e006280 Data=0x9f
# UVM_INFO ../src/env/axi4_scoreboard.sv(219) @ 16765000: uvm_test_top.env.scb [axi4_scoreboard] [REF_MEM_WRITE] Addr=0x3e006281 Data=0x4e
# UVM_INFO ../src/env/axi4_scoreboard.sv(219) @ 16765000: uvm_test_top.env.scb [axi4_scoreboard] [REF_MEM_WRITE] Addr=0x3e006282 Data=0xf8
# UVM_INFO ../src/env/axi4_scoreboard.sv(219) @ 16765000: uvm_test_top.env.scb [axi4_scoreboard] [REF_MEM_WRITE] Addr=0x3e006286 Data=0xd3
# UVM_INFO ../src/env/axi4_scoreboard.sv(219) @ 16765000: uvm_test_top.env.scb [axi4_scoreboard] [REF_MEM_WRITE] Addr=0x3e006287 Data=0xaa
# UVM_INFO ../src/env/axi4_scoreboard.sv(219) @ 16765000: uvm_test_top.env.scb [axi4_scoreboard] [REF_MEM_WRITE] Addr=0x3e006288 Data=0xe6
# UVM_INFO ../src/env/axi4_scoreboard.sv(219) @ 16765000: uvm_test_top.env.scb [axi4_scoreboard] [REF_MEM_WRITE] Addr=0x3e006292 Data=0xa8
# UVM_INFO ../src/env/axi4_scoreboard.sv(219) @ 16765000: uvm_test_top.env.scb [axi4_scoreboard] [REF_MEM_WRITE] Addr=0x3e006296 Data=0xbf
# UVM_INFO ../src/env/axi4_scoreboard.sv(219) @ 16765000: uvm_test_top.env.scb [axi4_scoreboard] [REF_MEM_WRITE] Addr=0x3e006298 Data=0x55
# UVM_INFO ../src/env/axi4_scoreboard.sv(219) @ 16765000: uvm_test_top.env.scb [axi4_scoreboard] [REF_MEM_WRITE] Addr=0x3e00629a Data=0x34
# UVM_INFO ../src/env/axi4_scoreboard.sv(219) @ 16765000: uvm_test_top.env.scb [axi4_scoreboard] [REF_MEM_WRITE] Addr=0x3e00629d Data=0x02
# UVM_INFO ../src/env/axi4_scoreboard.sv(219) @ 16765000: uvm_test_top.env.scb [axi4_scoreboard] [REF_MEM_WRITE] Addr=0x3e00629e Data=0xc0
# UVM_INFO ../src/env/axi4_scoreboard.sv(219) @ 16765000: uvm_test_top.env.scb [axi4_scoreboard] [REF_MEM_WRITE] Addr=0x3e0062a1 Data=0xa8
# UVM_INFO ../src/env/axi4_scoreboard.sv(219) @ 16765000: uvm_test_top.env.scb [axi4_scoreboard] [REF_MEM_WRITE] Addr=0x3e0062a2 Data=0xd5
# UVM_INFO ../src/env/axi4_scoreboard.sv(219) @ 16765000: uvm_test_top.env.scb [axi4_scoreboard] [REF_MEM_WRITE] Addr=0x3e0062a3 Data=0xe3
# UVM_INFO ../src/env/axi4_scoreboard.sv(219) @ 16765000: uvm_test_top.env.scb [axi4_scoreboard] [REF_MEM_WRITE] Addr=0x3e0062a7 Data=0x3e
# UVM_INFO ../src/env/axi4_scoreboard.sv(219) @ 16765000: uvm_test_top.env.scb [axi4_scoreboard] [REF_MEM_WRITE] Addr=0x3e0062aa Data=0x5c
# UVM_INFO ../src/env/axi4_scoreboard.sv(219) @ 16765000: uvm_test_top.env.scb [axi4_scoreboard] [REF_MEM_WRITE] Addr=0x3e0062ae Data=0x11
# UVM_INFO ../src/env/axi4_scoreboard.sv(219) @ 16765000: uvm_test_top.env.scb [axi4_scoreboard] [REF_MEM_WRITE] Addr=0x3e0062b3 Data=0xd7
# UVM_INFO ../src/env/axi4_scoreboard.sv(219) @ 16765000: uvm_test_top.env.scb [axi4_scoreboard] [REF_MEM_WRITE] Addr=0x3e0062b4 Data=0x19
# UVM_INFO ../src/env/axi4_scoreboard.sv(219) @ 16765000: uvm_test_top.env.scb [axi4_scoreboard] [REF_MEM_WRITE] Addr=0x3e0062b8 Data=0xfc
# UVM_INFO ../src/env/axi4_scoreboard.sv(219) @ 16765000: uvm_test_top.env.scb [axi4_scoreboard] [REF_MEM_WRITE] Addr=0x3e0062bb Data=0x87
# UVM_INFO ../src/env/axi4_scoreboard.sv(219) @ 16765000: uvm_test_top.env.scb [axi4_scoreboard] [REF_MEM_WRITE] Addr=0x3e0062bc Data=0x80
# UVM_INFO ../src/env/axi4_scoreboard.sv(219) @ 16765000: uvm_test_top.env.scb [axi4_scoreboard] [REF_MEM_WRITE] Addr=0x3e0062be Data=0x97
# UVM_INFO ../src/env/axi4_scoreboard.sv(219) @ 16765000: uvm_test_top.env.scb [axi4_scoreboard] [REF_MEM_WRITE] Addr=0x3e0062c7 Data=0xec
# UVM_INFO ../src/env/axi4_scoreboard.sv(219) @ 16765000: uvm_test_top.env.scb [axi4_scoreboard] [REF_MEM_WRITE] Addr=0x3e0062cb Data=0xfe
# UVM_INFO ../src/env/axi4_scoreboard.sv(219) @ 16765000: uvm_test_top.env.scb [axi4_scoreboard] [REF_MEM_WRITE] Addr=0x3e0062ce Data=0xde
# UVM_INFO ../src/env/axi4_scoreboard.sv(219) @ 16765000: uvm_test_top.env.scb [axi4_scoreboard] [REF_MEM_WRITE] Addr=0x3e0062cf Data=0x55
# UVM_INFO ../src/env/axi4_scoreboard.sv(219) @ 16765000: uvm_test_top.env.scb [axi4_scoreboard] [REF_MEM_WRITE] Addr=0x3e0062d0 Data=0xf6
# UVM_INFO ../src/env/axi4_scoreboard.sv(219) @ 16765000: uvm_test_top.env.scb [axi4_scoreboard] [REF_MEM_WRITE] Addr=0x3e0062d2 Data=0xad
# UVM_INFO ../src/env/axi4_scoreboard.sv(219) @ 16765000: uvm_test_top.env.scb [axi4_scoreboard] [REF_MEM_WRITE] Addr=0x3e0062d3 Data=0xde
# UVM_INFO ../src/env/axi4_scoreboard.sv(219) @ 16765000: uvm_test_top.env.scb [axi4_scoreboard] [REF_MEM_WRITE] Addr=0x3e0062d5 Data=0xd8
# UVM_INFO ../src/env/axi4_scoreboard.sv(219) @ 16765000: uvm_test_top.env.scb [axi4_scoreboard] [REF_MEM_WRITE] Addr=0x3e0062d6 Data=0x2f
# UVM_INFO ../src/env/axi4_scoreboard.sv(219) @ 16765000: uvm_test_top.env.scb [axi4_scoreboard] [REF_MEM_WRITE] Addr=0x3e0062d9 Data=0x1b
# UVM_INFO ../src/env/axi4_scoreboard.sv(219) @ 16765000: uvm_test_top.env.scb [axi4_scoreboard] [REF_MEM_WRITE] Addr=0x3e0062db Data=0xed
# UVM_INFO ../src/env/axi4_scoreboard.sv(219) @ 16765000: uvm_test_top.env.scb [axi4_scoreboard] [REF_MEM_WRITE] Addr=0x3e0062dd Data=0xff
# UVM_INFO ../src/env/axi4_scoreboard.sv(219) @ 16765000: uvm_test_top.env.scb [axi4_scoreboard] [REF_MEM_WRITE] Addr=0x3e0062df Data=0x11
# UVM_INFO ../src/env/axi4_scoreboard.sv(219) @ 16765000: uvm_test_top.env.scb [axi4_scoreboard] [REF_MEM_WRITE] Addr=0x3e0062e0 Data=0xbe
# UVM_INFO ../src/env/axi4_scoreboard.sv(219) @ 16765000: uvm_test_top.env.scb [axi4_scoreboard] [REF_MEM_WRITE] Addr=0x3e0062e2 Data=0x6c
# UVM_INFO ../src/env/axi4_scoreboard.sv(219) @ 16765000: uvm_test_top.env.scb [axi4_scoreboard] [REF_MEM_WRITE] Addr=0x3e0062e4 Data=0xbe
# UVM_INFO ../src/env/axi4_scoreboard.sv(219) @ 16765000: uvm_test_top.env.scb [axi4_scoreboard] [REF_MEM_WRITE] Addr=0x3e0062e6 Data=0x19
# UVM_INFO ../src/env/axi4_scoreboard.sv(219) @ 16765000: uvm_test_top.env.scb [axi4_scoreboard] [REF_MEM_WRITE] Addr=0x3e0062e7 Data=0x5b
# UVM_INFO ../src/env/axi4_scoreboard.sv(219) @ 16765000: uvm_test_top.env.scb [axi4_scoreboard] [REF_MEM_WRITE] Addr=0x3e0062e9 Data=0xf5
# UVM_INFO ../src/env/axi4_scoreboard.sv(219) @ 16765000: uvm_test_top.env.scb [axi4_scoreboard] [REF_MEM_WRITE] Addr=0x3e0062ea Data=0xef
# UVM_INFO ../src/env/axi4_scoreboard.sv(219) @ 16765000: uvm_test_top.env.scb [axi4_scoreboard] [REF_MEM_WRITE] Addr=0x3e0062ec Data=0xaa
# UVM_INFO ../src/env/axi4_scoreboard.sv(219) @ 16765000: uvm_test_top.env.scb [axi4_scoreboard] [REF_MEM_WRITE] Addr=0x3e0062ee Data=0xd6
# UVM_INFO ../src/env/axi4_scoreboard.sv(219) @ 16765000: uvm_test_top.env.scb [axi4_scoreboard] [REF_MEM_WRITE] Addr=0x3e0062ef Data=0xc0
# UVM_INFO ../src/env/axi4_scoreboard.sv(219) @ 16765000: uvm_test_top.env.scb [axi4_scoreboard] [REF_MEM_WRITE] Addr=0x3e0062f0 Data=0x51
# UVM_INFO ../src/env/axi4_scoreboard.sv(219) @ 16765000: uvm_test_top.env.scb [axi4_scoreboard] [REF_MEM_WRITE] Addr=0x3e0062f1 Data=0x37
# UVM_INFO ../src/env/axi4_scoreboard.sv(219) @ 16765000: uvm_test_top.env.scb [axi4_scoreboard] [REF_MEM_WRITE] Addr=0x3e0062f3 Data=0xe0
# UVM_INFO ../src/env/axi4_scoreboard.sv(219) @ 16765000: uvm_test_top.env.scb [axi4_scoreboard] [REF_MEM_WRITE] Addr=0x3e0062f5 Data=0x22
# UVM_INFO ../src/env/axi4_scoreboard.sv(219) @ 16765000: uvm_test_top.env.scb [axi4_scoreboard] [REF_MEM_WRITE] Addr=0x3e0062f6 Data=0xc4
# UVM_INFO ../src/env/axi4_scoreboard.sv(219) @ 16765000: uvm_test_top.env.scb [axi4_scoreboard] [REF_MEM_WRITE] Addr=0x3e0062f7 Data=0xec
# UVM_INFO ../src/env/axi4_scoreboard.sv(219) @ 16765000: uvm_test_top.env.scb [axi4_scoreboard] [REF_MEM_WRITE] Addr=0x3e0062f8 Data=0x61
# UVM_INFO ../src/env/axi4_scoreboard.sv(219) @ 16765000: uvm_test_top.env.scb [axi4_scoreboard] [REF_MEM_WRITE] Addr=0x3e0062f9 Data=0x46
# UVM_INFO ../src/env/axi4_scoreboard.sv(219) @ 16765000: uvm_test_top.env.scb [axi4_scoreboard] [REF_MEM_WRITE] Addr=0x3e0062fa Data=0x1b
# UVM_INFO ../src/env/axi4_scoreboard.sv(219) @ 16765000: uvm_test_top.env.scb [axi4_scoreboard] [REF_MEM_WRITE] Addr=0x3e0062fb Data=0xf2
# UVM_INFO ../src/env/axi4_scoreboard.sv(219) @ 16765000: uvm_test_top.env.scb [axi4_scoreboard] [REF_MEM_WRITE] Addr=0x3e0062fc Data=0xeb
# UVM_INFO ../src/env/axi4_scoreboard.sv(219) @ 16765000: uvm_test_top.env.scb [axi4_scoreboard] [REF_MEM_WRITE] Addr=0x3e0062fe Data=0xcc
# UVM_INFO ../src/env/axi4_scoreboard.sv(219) @ 16765000: uvm_test_top.env.scb [axi4_scoreboard] [REF_MEM_WRITE] Addr=0x3e006304 Data=0x9e
# UVM_INFO ../src/env/axi4_scoreboard.sv(219) @ 16765000: uvm_test_top.env.scb [axi4_scoreboard] [REF_MEM_WRITE] Addr=0x3e006305 Data=0xb0
# UVM_INFO ../src/env/axi4_scoreboard.sv(219) @ 16765000: uvm_test_top.env.scb [axi4_scoreboard] [REF_MEM_WRITE] Addr=0x3e006306 Data=0xa2
# UVM_INFO ../src/env/axi4_scoreboard.sv(219) @ 16765000: uvm_test_top.env.scb [axi4_scoreboard] [REF_MEM_WRITE] Addr=0x3e006308 Data=0x35
# UVM_INFO ../src/env/axi4_scoreboard.sv(219) @ 16765000: uvm_test_top.env.scb [axi4_scoreboard] [REF_MEM_WRITE] Addr=0x3e00630d Data=0xc6
# UVM_INFO ../src/env/axi4_scoreboard.sv(219) @ 16765000: uvm_test_top.env.scb [axi4_scoreboard] [REF_MEM_WRITE] Addr=0x3e00630e Data=0xee
# UVM_INFO ../src/env/axi4_scoreboard.sv(219) @ 16765000: uvm_test_top.env.scb [axi4_scoreboard] [REF_MEM_WRITE] Addr=0x3e006310 Data=0xbf
# UVM_INFO ../src/env/axi4_scoreboard.sv(219) @ 16765000: uvm_test_top.env.scb [axi4_scoreboard] [REF_MEM_WRITE] Addr=0x3e006315 Data=0x1f
# UVM_INFO ../src/env/axi4_scoreboard.sv(219) @ 16765000: uvm_test_top.env.scb [axi4_scoreboard] [REF_MEM_WRITE] Addr=0x3e006317 Data=0x7c
# UVM_INFO ../src/env/axi4_scoreboard.sv(219) @ 16765000: uvm_test_top.env.scb [axi4_scoreboard] [REF_MEM_WRITE] Addr=0x3e006318 Data=0xf4
# UVM_INFO ../src/env/axi4_scoreboard.sv(219) @ 16765000: uvm_test_top.env.scb [axi4_scoreboard] [REF_MEM_WRITE] Addr=0x3e006319 Data=0xa1
# UVM_INFO ../src/env/axi4_scoreboard.sv(219) @ 16765000: uvm_test_top.env.scb [axi4_scoreboard] [REF_MEM_WRITE] Addr=0x3e00631d Data=0x6e
# UVM_INFO ../src/env/axi4_scoreboard.sv(219) @ 16765000: uvm_test_top.env.scb [axi4_scoreboard] [REF_MEM_WRITE] Addr=0x3e006321 Data=0xaa
# UVM_INFO ../src/env/axi4_scoreboard.sv(219) @ 16765000: uvm_test_top.env.scb [axi4_scoreboard] [REF_MEM_WRITE] Addr=0x3e006322 Data=0xac
# UVM_INFO ../src/env/axi4_scoreboard.sv(219) @ 16765000: uvm_test_top.env.scb [axi4_scoreboard] [REF_MEM_WRITE] Addr=0x3e006323 Data=0x1a
# UVM_INFO ../src/env/axi4_scoreboard.sv(219) @ 16765000: uvm_test_top.env.scb [axi4_scoreboard] [REF_MEM_WRITE] Addr=0x3e006326 Data=0x78
# UVM_INFO ../src/env/axi4_scoreboard.sv(219) @ 16765000: uvm_test_top.env.scb [axi4_scoreboard] [REF_MEM_WRITE] Addr=0x3e006327 Data=0x8e
# UVM_INFO ../src/env/axi4_scoreboard.sv(219) @ 16765000: uvm_test_top.env.scb [axi4_scoreboard] [REF_MEM_WRITE] Addr=0x3e00632a Data=0x04
# UVM_INFO ../src/env/axi4_scoreboard.sv(219) @ 16765000: uvm_test_top.env.scb [axi4_scoreboard] [REF_MEM_WRITE] Addr=0x3e00632b Data=0xc3
# UVM_INFO ../src/env/axi4_scoreboard.sv(219) @ 16765000: uvm_test_top.env.scb [axi4_scoreboard] [REF_MEM_WRITE] Addr=0x3e00632e Data=0x29
# UVM_INFO ../src/env/axi4_scoreboard.sv(219) @ 16765000: uvm_test_top.env.scb [axi4_scoreboard] [REF_MEM_WRITE] Addr=0x3e00632f Data=0xaf
# UVM_INFO ../src/env/axi4_scoreboard.sv(219) @ 16765000: uvm_test_top.env.scb [axi4_scoreboard] [REF_MEM_WRITE] Addr=0x3e006331 Data=0xb3
# UVM_INFO ../src/env/axi4_scoreboard.sv(219) @ 16765000: uvm_test_top.env.scb [axi4_scoreboard] [REF_MEM_WRITE] Addr=0x3e006333 Data=0xa6
# UVM_INFO ../src/env/axi4_scoreboard.sv(219) @ 16765000: uvm_test_top.env.scb [axi4_scoreboard] [REF_MEM_WRITE] Addr=0x3e006336 Data=0x8a
# UVM_INFO ../src/env/axi4_scoreboard.sv(219) @ 16765000: uvm_test_top.env.scb [axi4_scoreboard] [REF_MEM_WRITE] Addr=0x3e00633b Data=0xad
# UVM_INFO ../src/env/axi4_scoreboard.sv(219) @ 16765000: uvm_test_top.env.scb [axi4_scoreboard] [REF_MEM_WRITE] Addr=0x3e00633c Data=0x2e
# UVM_INFO ../src/env/axi4_scoreboard.sv(219) @ 16765000: uvm_test_top.env.scb [axi4_scoreboard] [REF_MEM_WRITE] Addr=0x3e00633d Data=0x39
# UVM_INFO ../src/env/axi4_scoreboard.sv(219) @ 16765000: uvm_test_top.env.scb [axi4_scoreboard] [REF_MEM_WRITE] Addr=0x3e006344 Data=0xee
# UVM_INFO ../src/env/axi4_scoreboard.sv(219) @ 16765000: uvm_test_top.env.scb [axi4_scoreboard] [REF_MEM_WRITE] Addr=0x3e006345 Data=0x3b
# UVM_INFO ../src/env/axi4_scoreboard.sv(219) @ 16765000: uvm_test_top.env.scb [axi4_scoreboard] [REF_MEM_WRITE] Addr=0x3e00634a Data=0x81
# UVM_INFO ../src/env/axi4_scoreboard.sv(219) @ 16765000: uvm_test_top.env.scb [axi4_scoreboard] [REF_MEM_WRITE] Addr=0x3e00634b Data=0x67
# UVM_INFO ../src/env/axi4_scoreboard.sv(219) @ 16765000: uvm_test_top.env.scb [axi4_scoreboard] [REF_MEM_WRITE] Addr=0x3e00634c Data=0x59
# UVM_INFO ../src/env/axi4_scoreboard.sv(219) @ 16765000: uvm_test_top.env.scb [axi4_scoreboard] [REF_MEM_WRITE] Addr=0x3e00634f Data=0x32
# UVM_INFO ../src/env/axi4_scoreboard.sv(219) @ 16765000: uvm_test_top.env.scb [axi4_scoreboard] [REF_MEM_WRITE] Addr=0x3e006350 Data=0x69
# UVM_INFO ../src/env/axi4_scoreboard.sv(219) @ 16765000: uvm_test_top.env.scb [axi4_scoreboard] [REF_MEM_WRITE] Addr=0x3e006352 Data=0x20
# UVM_INFO ../src/env/axi4_scoreboard.sv(219) @ 16765000: uvm_test_top.env.scb [axi4_scoreboard] [REF_MEM_WRITE] Addr=0x3e006354 Data=0x26
# UVM_INFO ../src/env/axi4_scoreboard.sv(219) @ 16765000: uvm_test_top.env.scb [axi4_scoreboard] [REF_MEM_WRITE] Addr=0x3e006355 Data=0x97
# UVM_INFO ../src/env/axi4_scoreboard.sv(219) @ 16765000: uvm_test_top.env.scb [axi4_scoreboard] [REF_MEM_WRITE] Addr=0x3e006356 Data=0x6c
# UVM_INFO ../src/env/axi4_scoreboard.sv(219) @ 16765000: uvm_test_top.env.scb [axi4_scoreboard] [REF_MEM_WRITE] Addr=0x3e006357 Data=0x3b
# UVM_INFO ../src/env/axi4_scoreboard.sv(219) @ 16765000: uvm_test_top.env.scb [axi4_scoreboard] [REF_MEM_WRITE] Addr=0x3e006358 Data=0xf2
# UVM_INFO ../src/env/axi4_scoreboard.sv(219) @ 16765000: uvm_test_top.env.scb [axi4_scoreboard] [REF_MEM_WRITE] Addr=0x3e006359 Data=0x7e
# UVM_INFO ../src/env/axi4_scoreboard.sv(219) @ 16765000: uvm_test_top.env.scb [axi4_scoreboard] [REF_MEM_WRITE] Addr=0x3e00635a Data=0x90
# UVM_INFO ../src/env/axi4_scoreboard.sv(219) @ 16765000: uvm_test_top.env.scb [axi4_scoreboard] [REF_MEM_WRITE] Addr=0x3e00635d Data=0xd3
# UVM_INFO ../src/env/axi4_scoreboard.sv(219) @ 16765000: uvm_test_top.env.scb [axi4_scoreboard] [REF_MEM_WRITE] Addr=0x3e00635f Data=0x7c
# UVM_INFO ../src/env/axi4_scoreboard.sv(219) @ 16765000: uvm_test_top.env.scb [axi4_scoreboard] [REF_MEM_WRITE] Addr=0x3e006363 Data=0x50
# UVM_INFO ../src/env/axi4_scoreboard.sv(219) @ 16765000: uvm_test_top.env.scb [axi4_scoreboard] [REF_MEM_WRITE] Addr=0x3e006367 Data=0x3e
# UVM_INFO ../src/env/axi4_scoreboard.sv(219) @ 16765000: uvm_test_top.env.scb [axi4_scoreboard] [REF_MEM_WRITE] Addr=0x3e00636a Data=0x36
# UVM_INFO ../src/env/axi4_scoreboard.sv(219) @ 16765000: uvm_test_top.env.scb [axi4_scoreboard] [REF_MEM_WRITE] Addr=0x3e00636b Data=0xc7
# UVM_INFO ../src/env/axi4_scoreboard.sv(219) @ 16765000: uvm_test_top.env.scb [axi4_scoreboard] [REF_MEM_WRITE] Addr=0x3e00636d Data=0x1f
# UVM_INFO ../src/env/axi4_scoreboard.sv(219) @ 16765000: uvm_test_top.env.scb [axi4_scoreboard] [REF_MEM_WRITE] Addr=0x3e00636f Data=0x23
# UVM_INFO ../src/env/axi4_scoreboard.sv(219) @ 16765000: uvm_test_top.env.scb [axi4_scoreboard] [REF_MEM_WRITE] Addr=0x3e006371 Data=0x56
# UVM_INFO ../src/env/axi4_scoreboard.sv(219) @ 16765000: uvm_test_top.env.scb [axi4_scoreboard] [REF_MEM_WRITE] Addr=0x3e006372 Data=0x82
# UVM_INFO ../src/env/axi4_scoreboard.sv(219) @ 16765000: uvm_test_top.env.scb [axi4_scoreboard] [REF_MEM_WRITE] Addr=0x3e006374 Data=0x8a
# UVM_INFO ../src/env/axi4_scoreboard.sv(219) @ 16765000: uvm_test_top.env.scb [axi4_scoreboard] [REF_MEM_WRITE] Addr=0x3e006375 Data=0xb2
# UVM_INFO ../src/env/axi4_scoreboard.sv(219) @ 16765000: uvm_test_top.env.scb [axi4_scoreboard] [REF_MEM_WRITE] Addr=0x3e006376 Data=0x31
# UVM_INFO ../src/env/axi4_scoreboard.sv(219) @ 16765000: uvm_test_top.env.scb [axi4_scoreboard] [REF_MEM_WRITE] Addr=0x3e006377 Data=0x1f
# UVM_INFO ../src/env/axi4_scoreboard.sv(219) @ 16765000: uvm_test_top.env.scb [axi4_scoreboard] [REF_MEM_WRITE] Addr=0x3e00637a Data=0x54
# UVM_INFO ../src/env/axi4_scoreboard.sv(219) @ 16765000: uvm_test_top.env.scb [axi4_scoreboard] [REF_MEM_WRITE] Addr=0x3e00637b Data=0x8d
# UVM_INFO ../src/env/axi4_scoreboard.sv(219) @ 16765000: uvm_test_top.env.scb [axi4_scoreboard] [REF_MEM_WRITE] Addr=0x3e00637c Data=0x42
# UVM_INFO ../src/env/axi4_scoreboard.sv(219) @ 16765000: uvm_test_top.env.scb [axi4_scoreboard] [REF_MEM_WRITE] Addr=0x3e006381 Data=0x92
# UVM_INFO ../src/env/axi4_scoreboard.sv(219) @ 16765000: uvm_test_top.env.scb [axi4_scoreboard] [REF_MEM_WRITE] Addr=0x3e006383 Data=0xd6
# UVM_INFO ../src/env/axi4_scoreboard.sv(219) @ 16765000: uvm_test_top.env.scb [axi4_scoreboard] [REF_MEM_WRITE] Addr=0x3e006384 Data=0x5c
# UVM_INFO ../src/env/axi4_scoreboard.sv(219) @ 16765000: uvm_test_top.env.scb [axi4_scoreboard] [REF_MEM_WRITE] Addr=0x3e006388 Data=0x1a
# UVM_INFO ../src/env/axi4_scoreboard.sv(219) @ 16765000: uvm_test_top.env.scb [axi4_scoreboard] [REF_MEM_WRITE] Addr=0x3e00638a Data=0xfe
# UVM_INFO ../src/env/axi4_scoreboard.sv(219) @ 16765000: uvm_test_top.env.scb [axi4_scoreboard] [REF_MEM_WRITE] Addr=0x3e00638b Data=0x8c
# UVM_INFO ../src/env/axi4_scoreboard.sv(219) @ 16765000: uvm_test_top.env.scb [axi4_scoreboard] [REF_MEM_WRITE] Addr=0x3e00638c Data=0x16
# UVM_INFO ../src/env/axi4_scoreboard.sv(219) @ 16765000: uvm_test_top.env.scb [axi4_scoreboard] [REF_MEM_WRITE] Addr=0x3e00638d Data=0x63
# UVM_INFO ../src/env/axi4_scoreboard.sv(219) @ 16765000: uvm_test_top.env.scb [axi4_scoreboard] [REF_MEM_WRITE] Addr=0x3e00638f Data=0x05
# UVM_INFO ../src/env/axi4_scoreboard.sv(219) @ 16765000: uvm_test_top.env.scb [axi4_scoreboard] [REF_MEM_WRITE] Addr=0x3e006390 Data=0xb5
# UVM_INFO ../src/env/axi4_scoreboard.sv(219) @ 16765000: uvm_test_top.env.scb [axi4_scoreboard] [REF_MEM_WRITE] Addr=0x3e006391 Data=0x60
# UVM_INFO ../src/env/axi4_scoreboard.sv(219) @ 16765000: uvm_test_top.env.scb [axi4_scoreboard] [REF_MEM_WRITE] Addr=0x3e006393 Data=0x02
# UVM_INFO ../src/env/axi4_scoreboard.sv(219) @ 16765000: uvm_test_top.env.scb [axi4_scoreboard] [REF_MEM_WRITE] Addr=0x3e006395 Data=0x4c
# UVM_INFO ../src/env/axi4_scoreboard.sv(219) @ 16765000: uvm_test_top.env.scb [axi4_scoreboard] [REF_MEM_WRITE] Addr=0x3e006396 Data=0x71
# UVM_INFO ../src/env/axi4_scoreboard.sv(219) @ 16765000: uvm_test_top.env.scb [axi4_scoreboard] [REF_MEM_WRITE] Addr=0x3e006398 Data=0xc7
# UVM_INFO ../src/env/axi4_scoreboard.sv(219) @ 16765000: uvm_test_top.env.scb [axi4_scoreboard] [REF_MEM_WRITE] Addr=0x3e00639b Data=0x45
# UVM_INFO ../src/env/axi4_scoreboard.sv(219) @ 16765000: uvm_test_top.env.scb [axi4_scoreboard] [REF_MEM_WRITE] Addr=0x3e00639d Data=0xf4
# UVM_INFO ../src/env/axi4_scoreboard.sv(219) @ 16765000: uvm_test_top.env.scb [axi4_scoreboard] [REF_MEM_WRITE] Addr=0x3e00639e Data=0xa2
# UVM_INFO ../src/env/axi4_scoreboard.sv(219) @ 16765000: uvm_test_top.env.scb [axi4_scoreboard] [REF_MEM_WRITE] Addr=0x3e0063a0 Data=0xa1
# UVM_INFO ../src/env/axi4_scoreboard.sv(219) @ 16765000: uvm_test_top.env.scb [axi4_scoreboard] [REF_MEM_WRITE] Addr=0x3e0063a1 Data=0x87
# UVM_INFO ../src/env/axi4_scoreboard.sv(219) @ 16765000: uvm_test_top.env.scb [axi4_scoreboard] [REF_MEM_WRITE] Addr=0x3e0063a2 Data=0x2f
# UVM_INFO ../src/env/axi4_scoreboard.sv(219) @ 16765000: uvm_test_top.env.scb [axi4_scoreboard] [REF_MEM_WRITE] Addr=0x3e0063a3 Data=0xf2
# UVM_INFO ../src/env/axi4_scoreboard.sv(219) @ 16765000: uvm_test_top.env.scb [axi4_scoreboard] [REF_MEM_WRITE] Addr=0x3e0063a5 Data=0x7b
