# vsim -c -coverage -sv_seed 29139812 "+UVM_TESTNAME=axi4_random_test" "+UVM_VERBOSITY=UVM_HIGH" "+DUMP_VCD" -l ./report/logs/axi4_random_test_run_5_seed_29139812.log -do "coverage save -onexit ./report/coverage/axi4_random_test_run_5_seed_29139812.ucdb; run -all; quit -f" opt_tb_top 
# Start time: 11:22:50 on Jun 05,2026
# //  Questa Sim-64
# //  Version 10.6b linux_x86_64 May 25 2017
# //
# //  Copyright 1991-2017 Mentor Graphics Corporation
# //  All Rights Reserved.
# //
# //  QuestaSim and its associated documentation contain trade
# //  secrets and commercial or financial information that are the property of
# //  Mentor Graphics Corporation and are privileged, confidential,
# //  and exempt from disclosure under the Freedom of Information Act,
# //  5 U.S.C. Section 552. Furthermore, this information
# //  is prohibited from disclosure under the Trade Secrets Act,
# //  18 U.S.C. Section 1905.
# //
# Loading sv_std.std
# Loading work.axi4_if(fast)
# Loading mtiUvm.uvm_pkg
# Loading work.axi4_pkg(fast)
# Loading work.axi4_test_pkg(fast)
# Loading work.tb_top(fast)
# Loading work.axi4_if(fast)
# Loading work.axi4_sva(fast)
# Loading mtiUvm.questa_uvm_pkg(fast)
# Loading /cadtools/mentor/Questa_10.6b/questasim/uvm-1.1d/linux_x86_64/uvm_dpi.so
# coverage save -onexit ./report/coverage/axi4_random_test_run_5_seed_29139812.ucdb
#  run -all
# ----------------------------------------------------------------
# UVM-1.1d
# (C) 2007-2013 Mentor Graphics Corporation
# (C) 2007-2013 Cadence Design Systems, Inc.
# (C) 2006-2013 Synopsys, Inc.
# (C) 2011-2013 Cypress Semiconductor Corp.
# ----------------------------------------------------------------
# 
#   ***********       IMPORTANT RELEASE NOTES         ************
# 
#   You are using a version of the UVM library that has been compiled
#   with `UVM_NO_DEPRECATED undefined.
#   See http://www.eda.org/svdb/view.php?id=3313 for more details.
# 
#   You are using a version of the UVM library that has been compiled
#   with `UVM_OBJECT_MUST_HAVE_CONSTRUCTOR undefined.
#   See http://www.eda.org/svdb/view.php?id=3770 for more details.
# 
#       (Specify +UVM_NO_RELNOTES to turn off this notice)
# 
# UVM_INFO verilog_src/questa_uvm_pkg-1.2/src/questa_uvm_pkg.sv(215) @ 0: reporter [Questa UVM] QUESTA_UVM-1.2.3
# UVM_INFO verilog_src/questa_uvm_pkg-1.2/src/questa_uvm_pkg.sv(217) @ 0: reporter [Questa UVM]  questa_uvm::init(+struct)
# UVM_INFO ../src/tb_top.sv(128) @ 0: reporter [TB_TOP] Virtual interface set in config_db
# UVM_INFO @ 0: reporter [RNTST] Running test axi4_random_test...
# UVM_INFO ../src/tb_top.sv(142) @ 0: reporter [TB_TOP] Waveform VCD dumping enabled (axi4_vip.vcd)
# UVM_INFO ../src/env/axi4_vip_env.sv(83) @ 0: uvm_test_top.env [axi4_vip_env] slave_vif not set - reusing master_vif (passthrough mode)
# UVM_INFO ../src/env/axi4_vip_env.sv(93) @ 0: uvm_test_top.env [axi4_vip_env] Scoreboard created
# UVM_INFO ../src/env/axi4_vip_env.sv(100) @ 0: uvm_test_top.env [axi4_vip_env] Coverage collectors created
# UVM_INFO ../src/mst/axi4_master_agent.sv(69) @ 0: uvm_test_top.env.master_agent [axi4_master_agent] ACTIVE mode - driver + sequencer created
# UVM_INFO ../src/slv/axi4_slave_agent.sv(82) @ 0: uvm_test_top.env.slave_agent [axi4_slave_agent] ACTIVE mode — ready_delay=[0:0] resp_delay=[0:0]
# UVM_INFO ../src/env/axi4_vip_env.sv(116) @ 0: uvm_test_top.env [axi4_vip_env] Scoreboard connected: master_mon.ap -> scb, slave_mon.ap -> scb
# UVM_INFO ../src/env/axi4_vip_env.sv(124) @ 0: uvm_test_top.env [axi4_vip_env] Coverage connected: master_mon.ap -> master_cov, slave_mon.ap -> slave_cov
# UVM_INFO @ 0: reporter [UVMTOP] UVM testbench topology:
# ---------------------------------------------------------------
# Name                       Type                     Size  Value
# ---------------------------------------------------------------
# uvm_test_top               axi4_random_test         -     @473 
#   env                      axi4_vip_env             -     @488 
#     master_agent           axi4_master_agent        -     @503 
#       drv                  axi4_master_driver       -     @567 
#         rsp_port           uvm_analysis_port        -     @582 
#         seq_item_port      uvm_seq_item_pull_port   -     @574 
#       mon                  axi4_master_monitor      -     @559 
#         ap                 uvm_analysis_port        -     @700 
#       sqr                  axi4_master_sequencer    -     @590 
#         rsp_export         uvm_analysis_export      -     @597 
#         seq_item_export    uvm_seq_item_pull_imp    -     @691 
#         arbitration_queue  array                    0     -    
#         lock_queue         array                    0     -    
#         num_last_reqs      integral                 32    'd1  
#         num_last_rsps      integral                 32    'd1  
#     master_cov             axi4_coverage            -     @524 
#       analysis_imp         uvm_analysis_imp         -     @531 
#     scb                    axi4_scoreboard          -     @517 
#       master_export        uvm_analysis_imp_master  -     @714 
#       slave_export         uvm_analysis_imp_slave   -     @722 
#     slave_agent            axi4_slave_agent         -     @510 
#       drv                  axi4_slave_driver        -     @753 
#         rsp_port           uvm_analysis_port        -     @768 
#         seq_item_port      uvm_seq_item_pull_port   -     @760 
#       mon                  axi4_slave_monitor       -     @735 
#         ap                 uvm_analysis_port        -     @890 
#       sqr                  axi4_slave_sequencer     -     @776 
#         rsp_export         uvm_analysis_export      -     @783 
#         seq_item_export    uvm_seq_item_pull_imp    -     @877 
#         arbitration_queue  array                    0     -    
#         lock_queue         array                    0     -    
#         num_last_reqs      integral                 32    'd1  
#         num_last_rsps      integral                 32    'd1  
#     slave_cov              axi4_coverage            -     @539 
#       analysis_imp         uvm_analysis_imp         -     @546 
# ---------------------------------------------------------------
# 
# UVM_INFO verilog_src/questa_uvm_pkg-1.2/src/questa_uvm_pkg.sv(277) @ 0: reporter [Questa UVM] End Of Elaboration
# UVM_INFO ../src/test/axi4_random_test.sv(43) @ 0: uvm_test_top [axi4_random_test] Starting random test with 50 transactions
# UVM_INFO ../src/seq/axi4_random_seq.sv(34) @ 0: uvm_test_top.env.master_agent.sqr@@rand_seq [axi4_random_seq] Starting random sequence: 50 transactions
# UVM_INFO ../src/tb_top.sv(49) @ 95000: reporter [TOP_TB] Reset de-asserted
# UVM_INFO ../src/slv/axi4_slave_driver.sv(70) @ 95000: uvm_test_top.env.slave_agent.drv [axi4_slave_driver] Reset deasserted - slave driver active
# UVM_INFO ../src/mst/axi4_master_driver.sv(46) @ 95000: uvm_test_top.env.master_agent.drv [axi4_master_driver] Reset deasserted - master driver active
# UVM_INFO ../src/mst/axi4_master_monitor.sv(77) @ 95000: uvm_test_top.env.master_agent.mon [axi4_master_monitor] Reset deasserted — monitor active
# UVM_INFO ../src/slv/axi4_slave_monitor.sv(71) @ 95000: uvm_test_top.env.slave_agent.mon [axi4_slave_monitor] Reset deasserted — monitor active
# UVM_INFO ../src/mst/axi4_master_driver.sv(55) @ 95000: uvm_test_top.env.master_agent.drv [axi4_master_driver] Driving AXI4_WRITE  ID=0x3  ADDR=0xc07ed1ac  LEN=142
# UVM_INFO ../src/mst/axi4_master_driver.sv(94) @ 95000: uvm_test_top.env.master_agent.drv [axi4_master_driver] Write order: AW || W (parallel)
# UVM_INFO ../src/slv/axi4_slave_driver.sv(165) @ 115000: uvm_test_top.env.slave_agent.drv [axi4_slave_driver] AW received: ID=0x3 ADDR=0xc07ed1ac LEN=142 LOCK=AXI4_LOCK_EXCLUSIVE
# UVM_INFO ../src/slv/axi4_slave_monitor.sv(116) @ 115000: uvm_test_top.env.slave_agent.mon [axi4_slave_monitor] AW received: ID=0x3 ADDR=0xc07ed1ac LEN=142
# UVM_INFO ../src/mst/axi4_master_monitor.sv(124) @ 115000: uvm_test_top.env.master_agent.mon [axi4_master_monitor] AW observed: ID=0x3 ADDR=0xc07ed1ac LEN=142
# UVM_INFO ../src/mst/axi4_master_monitor.sv(184) @ 2945000: uvm_test_top.env.master_agent.mon [axi4_master_monitor] W data assembled: ID=0x3 ADDR=0xc07ed1ac 143 beats
# UVM_INFO ../src/slv/axi4_slave_monitor.sv(167) @ 2945000: uvm_test_top.env.slave_agent.mon [axi4_slave_monitor] W data assembled: ID=0x3 ADDR=0xc07ed1ac 143 beats
# UVM_INFO ../src/mst/axi4_master_driver.sv(197) @ 2975000: uvm_test_top.env.master_agent.drv [axi4_master_driver] Write response: AXI4_RESP_OKAY
# UVM_INFO ../src/slv/axi4_slave_driver.sv(261) @ 2975000: uvm_test_top.env.slave_agent.drv [axi4_slave_driver] Write complete: ID=0x3 ADDR=0xc07ed1ac RESP=AXI4_RESP_OKAY  143 beats processed
# UVM_INFO ../src/slv/axi4_slave_monitor.sv(189) @ 2975000: uvm_test_top.env.slave_agent.mon [axi4_slave_monitor] Write response sent: ID=0x3 ADDR=0xc07ed1ac RESP=AXI4_RESP_OKAY
# UVM_INFO ../src/env/axi4_scoreboard.sv(103) @ 2975000: uvm_test_top.env.scb [axi4_scoreboard] Slave AXI4_WRITE received: ID=0x3 ADDR=0xc07ed1ac LEN=142
# UVM_INFO ../src/mst/axi4_master_monitor.sv(210) @ 2975000: uvm_test_top.env.master_agent.mon [axi4_master_monitor] Write complete: ID=0x3 ADDR=0xc07ed1ac RESP=AXI4_RESP_OKAY
# UVM_INFO ../src/env/axi4_scoreboard.sv(82) @ 2975000: uvm_test_top.env.scb [axi4_scoreboard] Master AXI4_WRITE received: ID=0x3 ADDR=0xc07ed1ac LEN=142
# UVM_INFO ../src/env/axi4_scoreboard.sv(154) @ 2975000: uvm_test_top.env.scb [axi4_scoreboard] [WRITE] MATCH #1: ID=0x3 ADDR=0xc07ed1ac LEN=142
# UVM_INFO ../src/seq/axi4_random_seq.sv(55) @ 2975000: uvm_test_top.env.master_agent.sqr@@rand_seq [axi4_random_seq] [1/50] AXI4_WRITE: ID=0x3 ADDR=0xc07ed1ac LEN=142 BURST=AXI4_BURST_INCR
# UVM_INFO ../src/mst/axi4_master_driver.sv(55) @ 2975000: uvm_test_top.env.master_agent.drv [axi4_master_driver] Driving AXI4_READ  ID=0x1  ADDR=0xfe80a22a  LEN=7
# UVM_INFO ../src/slv/axi4_slave_driver.sv(300) @ 3005000: uvm_test_top.env.slave_agent.drv [axi4_slave_driver] AR received: ID=0x1 ADDR=0xfe80a22a LEN=7 LOCK=AXI4_LOCK_EXCLUSIVE
# UVM_INFO ../src/mst/axi4_master_monitor.sv(246) @ 3005000: uvm_test_top.env.master_agent.mon [axi4_master_monitor] AR observed: ID=0x1 ADDR=0xfe80a22a LEN=7
# UVM_INFO ../src/slv/axi4_slave_monitor.sv(224) @ 3005000: uvm_test_top.env.slave_agent.mon [axi4_slave_monitor] AR received: ID=0x1 ADDR=0xfe80a22a LEN=7
# UVM_INFO ../src/mst/axi4_master_driver.sv(254) @ 3165000: uvm_test_top.env.master_agent.drv [axi4_master_driver] Read complete: 8 beats received
# UVM_INFO ../src/slv/axi4_slave_driver.sv(349) @ 3165000: uvm_test_top.env.slave_agent.drv [axi4_slave_driver] Read complete: ID=0x1 ADDR=0xfe80a22a RESP=AXI4_RESP_DECERR  8 beats sent
# UVM_INFO ../src/mst/axi4_master_monitor.sv(314) @ 3165000: uvm_test_top.env.master_agent.mon [axi4_master_monitor] Read complete: ID=0x1 ADDR=0xfe80a22a 8 beats
# UVM_INFO ../src/env/axi4_scoreboard.sv(82) @ 3165000: uvm_test_top.env.scb [axi4_scoreboard] Master AXI4_READ received: ID=0x1 ADDR=0xfe80a22a LEN=7
# UVM_INFO ../src/slv/axi4_slave_monitor.sv(287) @ 3165000: uvm_test_top.env.slave_agent.mon [axi4_slave_monitor] Read data sent: ID=0x1 ADDR=0xfe80a22a 8 beats
# UVM_INFO ../src/env/axi4_scoreboard.sv(103) @ 3165000: uvm_test_top.env.scb [axi4_scoreboard] Slave AXI4_READ received: ID=0x1 ADDR=0xfe80a22a LEN=7
# UVM_INFO ../src/env/axi4_scoreboard.sv(154) @ 3165000: uvm_test_top.env.scb [axi4_scoreboard] [READ] MATCH #2: ID=0x1 ADDR=0xfe80a22a LEN=7
# UVM_INFO ../src/seq/axi4_random_seq.sv(55) @ 3165000: uvm_test_top.env.master_agent.sqr@@rand_seq [axi4_random_seq] [2/50] AXI4_READ: ID=0x1 ADDR=0xfe80a22a LEN=7 BURST=AXI4_BURST_WRAP
# UVM_INFO ../src/mst/axi4_master_driver.sv(55) @ 3165000: uvm_test_top.env.master_agent.drv [axi4_master_driver] Driving AXI4_WRITE  ID=0xd  ADDR=0x7384e269  LEN=90
# UVM_INFO ../src/mst/axi4_master_driver.sv(101) @ 3165000: uvm_test_top.env.master_agent.drv [axi4_master_driver] Write order: AW -> W (sequential)
# UVM_INFO ../src/slv/axi4_slave_driver.sv(165) @ 3195000: uvm_test_top.env.slave_agent.drv [axi4_slave_driver] AW received: ID=0xd ADDR=0x7384e269 LEN=90 LOCK=AXI4_LOCK_NORMAL
# UVM_INFO ../src/slv/axi4_slave_monitor.sv(116) @ 3195000: uvm_test_top.env.slave_agent.mon [axi4_slave_monitor] AW received: ID=0xd ADDR=0x7384e269 LEN=90
# UVM_INFO ../src/mst/axi4_master_monitor.sv(124) @ 3195000: uvm_test_top.env.master_agent.mon [axi4_master_monitor] AW observed: ID=0xd ADDR=0x7384e269 LEN=90
# UVM_INFO ../src/slv/axi4_slave_monitor.sv(167) @ 5015000: uvm_test_top.env.slave_agent.mon [axi4_slave_monitor] W data assembled: ID=0xd ADDR=0x7384e269 91 beats
# UVM_INFO ../src/mst/axi4_master_monitor.sv(184) @ 5015000: uvm_test_top.env.master_agent.mon [axi4_master_monitor] W data assembled: ID=0xd ADDR=0x7384e269 91 beats
# UVM_INFO ../src/mst/axi4_master_driver.sv(197) @ 5045000: uvm_test_top.env.master_agent.drv [axi4_master_driver] Write response: AXI4_RESP_OKAY
# UVM_INFO ../src/slv/axi4_slave_driver.sv(261) @ 5045000: uvm_test_top.env.slave_agent.drv [axi4_slave_driver] Write complete: ID=0xd ADDR=0x7384e269 RESP=AXI4_RESP_OKAY  91 beats processed
# UVM_INFO ../src/mst/axi4_master_monitor.sv(210) @ 5045000: uvm_test_top.env.master_agent.mon [axi4_master_monitor] Write complete: ID=0xd ADDR=0x7384e269 RESP=AXI4_RESP_OKAY
# UVM_INFO ../src/env/axi4_scoreboard.sv(82) @ 5045000: uvm_test_top.env.scb [axi4_scoreboard] Master AXI4_WRITE received: ID=0xd ADDR=0x7384e269 LEN=90
# UVM_INFO ../src/slv/axi4_slave_monitor.sv(189) @ 5045000: uvm_test_top.env.slave_agent.mon [axi4_slave_monitor] Write response sent: ID=0xd ADDR=0x7384e269 RESP=AXI4_RESP_OKAY
# UVM_INFO ../src/env/axi4_scoreboard.sv(103) @ 5045000: uvm_test_top.env.scb [axi4_scoreboard] Slave AXI4_WRITE received: ID=0xd ADDR=0x7384e269 LEN=90
# UVM_INFO ../src/env/axi4_scoreboard.sv(154) @ 5045000: uvm_test_top.env.scb [axi4_scoreboard] [WRITE] MATCH #3: ID=0xd ADDR=0x7384e269 LEN=90
# UVM_INFO ../src/seq/axi4_random_seq.sv(55) @ 5045000: uvm_test_top.env.master_agent.sqr@@rand_seq [axi4_random_seq] [3/50] AXI4_WRITE: ID=0xd ADDR=0x7384e269 LEN=90 BURST=AXI4_BURST_INCR
# UVM_INFO ../src/mst/axi4_master_driver.sv(55) @ 5045000: uvm_test_top.env.master_agent.drv [axi4_master_driver] Driving AXI4_READ  ID=0xf  ADDR=0x60ea9c94  LEN=69
# UVM_INFO ../src/slv/axi4_slave_driver.sv(300) @ 5075000: uvm_test_top.env.slave_agent.drv [axi4_slave_driver] AR received: ID=0xf ADDR=0x60ea9c94 LEN=69 LOCK=AXI4_LOCK_EXCLUSIVE
# UVM_INFO ../src/slv/axi4_slave_monitor.sv(224) @ 5075000: uvm_test_top.env.slave_agent.mon [axi4_slave_monitor] AR received: ID=0xf ADDR=0x60ea9c94 LEN=69
# UVM_INFO ../src/mst/axi4_master_monitor.sv(246) @ 5075000: uvm_test_top.env.master_agent.mon [axi4_master_monitor] AR observed: ID=0xf ADDR=0x60ea9c94 LEN=69
# UVM_INFO ../src/mst/axi4_master_driver.sv(254) @ 6475000: uvm_test_top.env.master_agent.drv [axi4_master_driver] Read complete: 70 beats received
# UVM_INFO ../src/slv/axi4_slave_driver.sv(349) @ 6475000: uvm_test_top.env.slave_agent.drv [axi4_slave_driver] Read complete: ID=0xf ADDR=0x60ea9c94 RESP=AXI4_RESP_EXOKAY  70 beats sent
# UVM_INFO ../src/slv/axi4_slave_monitor.sv(287) @ 6475000: uvm_test_top.env.slave_agent.mon [axi4_slave_monitor] Read data sent: ID=0xf ADDR=0x60ea9c94 70 beats
# UVM_INFO ../src/env/axi4_scoreboard.sv(103) @ 6475000: uvm_test_top.env.scb [axi4_scoreboard] Slave AXI4_READ received: ID=0xf ADDR=0x60ea9c94 LEN=69
# UVM_INFO ../src/mst/axi4_master_monitor.sv(314) @ 6475000: uvm_test_top.env.master_agent.mon [axi4_master_monitor] Read complete: ID=0xf ADDR=0x60ea9c94 70 beats
# UVM_INFO ../src/env/axi4_scoreboard.sv(82) @ 6475000: uvm_test_top.env.scb [axi4_scoreboard] Master AXI4_READ received: ID=0xf ADDR=0x60ea9c94 LEN=69
# UVM_INFO ../src/env/axi4_scoreboard.sv(154) @ 6475000: uvm_test_top.env.scb [axi4_scoreboard] [READ] MATCH #4: ID=0xf ADDR=0x60ea9c94 LEN=69
# UVM_INFO ../src/seq/axi4_random_seq.sv(55) @ 6475000: uvm_test_top.env.master_agent.sqr@@rand_seq [axi4_random_seq] [4/50] AXI4_READ: ID=0xf ADDR=0x60ea9c94 LEN=69 BURST=AXI4_BURST_INCR
# UVM_INFO ../src/mst/axi4_master_driver.sv(55) @ 6475000: uvm_test_top.env.master_agent.drv [axi4_master_driver] Driving AXI4_WRITE  ID=0x5  ADDR=0x54f4355e  LEN=15
# UVM_INFO ../src/mst/axi4_master_driver.sv(94) @ 6475000: uvm_test_top.env.master_agent.drv [axi4_master_driver] Write order: AW || W (parallel)
# UVM_INFO ../src/slv/axi4_slave_driver.sv(165) @ 6505000: uvm_test_top.env.slave_agent.drv [axi4_slave_driver] AW received: ID=0x5 ADDR=0x54f4355e LEN=15 LOCK=AXI4_LOCK_EXCLUSIVE
# UVM_INFO ../src/mst/axi4_master_monitor.sv(124) @ 6505000: uvm_test_top.env.master_agent.mon [axi4_master_monitor] AW observed: ID=0x5 ADDR=0x54f4355e LEN=15
# UVM_INFO ../src/slv/axi4_slave_monitor.sv(116) @ 6505000: uvm_test_top.env.slave_agent.mon [axi4_slave_monitor] AW received: ID=0x5 ADDR=0x54f4355e LEN=15
# UVM_INFO ../src/slv/axi4_slave_monitor.sv(167) @ 6795000: uvm_test_top.env.slave_agent.mon [axi4_slave_monitor] W data assembled: ID=0x5 ADDR=0x54f4355e 16 beats
# UVM_INFO ../src/mst/axi4_master_monitor.sv(184) @ 6795000: uvm_test_top.env.master_agent.mon [axi4_master_monitor] W data assembled: ID=0x5 ADDR=0x54f4355e 16 beats
# UVM_INFO ../src/mst/axi4_master_driver.sv(197) @ 6825000: uvm_test_top.env.master_agent.drv [axi4_master_driver] Write response: AXI4_RESP_OKAY
# UVM_INFO ../src/slv/axi4_slave_driver.sv(261) @ 6825000: uvm_test_top.env.slave_agent.drv [axi4_slave_driver] Write complete: ID=0x5 ADDR=0x54f4355e RESP=AXI4_RESP_OKAY  16 beats processed
# UVM_INFO ../src/mst/axi4_master_monitor.sv(210) @ 6825000: uvm_test_top.env.master_agent.mon [axi4_master_monitor] Write complete: ID=0x5 ADDR=0x54f4355e RESP=AXI4_RESP_OKAY
# UVM_INFO ../src/env/axi4_scoreboard.sv(82) @ 6825000: uvm_test_top.env.scb [axi4_scoreboard] Master AXI4_WRITE received: ID=0x5 ADDR=0x54f4355e LEN=15
# UVM_INFO ../src/slv/axi4_slave_monitor.sv(189) @ 6825000: uvm_test_top.env.slave_agent.mon [axi4_slave_monitor] Write response sent: ID=0x5 ADDR=0x54f4355e RESP=AXI4_RESP_OKAY
# UVM_INFO ../src/env/axi4_scoreboard.sv(103) @ 6825000: uvm_test_top.env.scb [axi4_scoreboard] Slave AXI4_WRITE received: ID=0x5 ADDR=0x54f4355e LEN=15
# UVM_INFO ../src/env/axi4_scoreboard.sv(154) @ 6825000: uvm_test_top.env.scb [axi4_scoreboard] [WRITE] MATCH #5: ID=0x5 ADDR=0x54f4355e LEN=15
# UVM_INFO ../src/seq/axi4_random_seq.sv(55) @ 6825000: uvm_test_top.env.master_agent.sqr@@rand_seq [axi4_random_seq] [5/50] AXI4_WRITE: ID=0x5 ADDR=0x54f4355e LEN=15 BURST=AXI4_BURST_WRAP
# UVM_INFO ../src/mst/axi4_master_driver.sv(55) @ 6825000: uvm_test_top.env.master_agent.drv [axi4_master_driver] Driving AXI4_WRITE  ID=0xd  ADDR=0x75c1407c  LEN=5
# UVM_INFO ../src/mst/axi4_master_driver.sv(106) @ 6825000: uvm_test_top.env.master_agent.drv [axi4_master_driver] Write order: W -> AW (W first)
# UVM_INFO ../src/slv/axi4_slave_driver.sv(165) @ 6895000: uvm_test_top.env.slave_agent.drv [axi4_slave_driver] AW received: ID=0xd ADDR=0x75c1407c LEN=5 LOCK=AXI4_LOCK_EXCLUSIVE
# UVM_INFO ../src/slv/axi4_slave_monitor.sv(116) @ 6895000: uvm_test_top.env.slave_agent.mon [axi4_slave_monitor] AW received: ID=0xd ADDR=0x75c1407c LEN=5
# UVM_INFO ../src/mst/axi4_master_monitor.sv(124) @ 6895000: uvm_test_top.env.master_agent.mon [axi4_master_monitor] AW observed: ID=0xd ADDR=0x75c1407c LEN=5
# UVM_INFO ../src/mst/axi4_master_monitor.sv(184) @ 6945000: uvm_test_top.env.master_agent.mon [axi4_master_monitor] W data assembled: ID=0xd ADDR=0x75c1407c 6 beats
# UVM_INFO ../src/slv/axi4_slave_monitor.sv(167) @ 6945000: uvm_test_top.env.slave_agent.mon [axi4_slave_monitor] W data assembled: ID=0xd ADDR=0x75c1407c 6 beats
# UVM_INFO ../src/mst/axi4_master_driver.sv(197) @ 6975000: uvm_test_top.env.master_agent.drv [axi4_master_driver] Write response: AXI4_RESP_OKAY
# UVM_INFO ../src/slv/axi4_slave_driver.sv(261) @ 6975000: uvm_test_top.env.slave_agent.drv [axi4_slave_driver] Write complete: ID=0xd ADDR=0x75c1407c RESP=AXI4_RESP_OKAY  6 beats processed
# UVM_INFO ../src/slv/axi4_slave_monitor.sv(189) @ 6975000: uvm_test_top.env.slave_agent.mon [axi4_slave_monitor] Write response sent: ID=0xd ADDR=0x75c1407c RESP=AXI4_RESP_OKAY
# UVM_INFO ../src/env/axi4_scoreboard.sv(103) @ 6975000: uvm_test_top.env.scb [axi4_scoreboard] Slave AXI4_WRITE received: ID=0xd ADDR=0x75c1407c LEN=5
# UVM_INFO ../src/mst/axi4_master_monitor.sv(210) @ 6975000: uvm_test_top.env.master_agent.mon [axi4_master_monitor] Write complete: ID=0xd ADDR=0x75c1407c RESP=AXI4_RESP_OKAY
# UVM_INFO ../src/env/axi4_scoreboard.sv(82) @ 6975000: uvm_test_top.env.scb [axi4_scoreboard] Master AXI4_WRITE received: ID=0xd ADDR=0x75c1407c LEN=5
# UVM_INFO ../src/env/axi4_scoreboard.sv(154) @ 6975000: uvm_test_top.env.scb [axi4_scoreboard] [WRITE] MATCH #6: ID=0xd ADDR=0x75c1407c LEN=5
# UVM_INFO ../src/seq/axi4_random_seq.sv(55) @ 6975000: uvm_test_top.env.master_agent.sqr@@rand_seq [axi4_random_seq] [6/50] AXI4_WRITE: ID=0xd ADDR=0x75c1407c LEN=5 BURST=AXI4_BURST_FIXED
# UVM_INFO ../src/mst/axi4_master_driver.sv(55) @ 6975000: uvm_test_top.env.master_agent.drv [axi4_master_driver] Driving AXI4_WRITE  ID=0x5  ADDR=0xf722b2e8  LEN=149
# UVM_INFO ../src/mst/axi4_master_driver.sv(101) @ 6975000: uvm_test_top.env.master_agent.drv [axi4_master_driver] Write order: AW -> W (sequential)
# UVM_INFO ../src/slv/axi4_slave_driver.sv(165) @ 7005000: uvm_test_top.env.slave_agent.drv [axi4_slave_driver] AW received: ID=0x5 ADDR=0xf722b2e8 LEN=149 LOCK=AXI4_LOCK_EXCLUSIVE
# UVM_INFO ../src/mst/axi4_master_monitor.sv(124) @ 7005000: uvm_test_top.env.master_agent.mon [axi4_master_monitor] AW observed: ID=0x5 ADDR=0xf722b2e8 LEN=149
# UVM_INFO ../src/slv/axi4_slave_monitor.sv(116) @ 7005000: uvm_test_top.env.slave_agent.mon [axi4_slave_monitor] AW received: ID=0x5 ADDR=0xf722b2e8 LEN=149
# UVM_INFO ../src/mst/axi4_master_monitor.sv(184) @ 10005000: uvm_test_top.env.master_agent.mon [axi4_master_monitor] W data assembled: ID=0x5 ADDR=0xf722b2e8 150 beats
# UVM_INFO ../src/slv/axi4_slave_monitor.sv(167) @ 10005000: uvm_test_top.env.slave_agent.mon [axi4_slave_monitor] W data assembled: ID=0x5 ADDR=0xf722b2e8 150 beats
# UVM_INFO ../src/mst/axi4_master_driver.sv(197) @ 10035000: uvm_test_top.env.master_agent.drv [axi4_master_driver] Write response: AXI4_RESP_DECERR
# UVM_INFO ../src/slv/axi4_slave_driver.sv(261) @ 10035000: uvm_test_top.env.slave_agent.drv [axi4_slave_driver] Write complete: ID=0x5 ADDR=0xf722b2e8 RESP=AXI4_RESP_DECERR  150 beats processed
# UVM_INFO ../src/slv/axi4_slave_monitor.sv(189) @ 10035000: uvm_test_top.env.slave_agent.mon [axi4_slave_monitor] Write response sent: ID=0x5 ADDR=0xf722b2e8 RESP=AXI4_RESP_DECERR
# UVM_INFO ../src/env/axi4_scoreboard.sv(103) @ 10035000: uvm_test_top.env.scb [axi4_scoreboard] Slave AXI4_WRITE received: ID=0x5 ADDR=0xf722b2e8 LEN=149
# UVM_INFO ../src/mst/axi4_master_monitor.sv(210) @ 10035000: uvm_test_top.env.master_agent.mon [axi4_master_monitor] Write complete: ID=0x5 ADDR=0xf722b2e8 RESP=AXI4_RESP_DECERR
# UVM_INFO ../src/env/axi4_scoreboard.sv(82) @ 10035000: uvm_test_top.env.scb [axi4_scoreboard] Master AXI4_WRITE received: ID=0x5 ADDR=0xf722b2e8 LEN=149
# UVM_INFO ../src/env/axi4_scoreboard.sv(154) @ 10035000: uvm_test_top.env.scb [axi4_scoreboard] [WRITE] MATCH #7: ID=0x5 ADDR=0xf722b2e8 LEN=149
# UVM_INFO ../src/seq/axi4_random_seq.sv(55) @ 10035000: uvm_test_top.env.master_agent.sqr@@rand_seq [axi4_random_seq] [7/50] AXI4_WRITE: ID=0x5 ADDR=0xf722b2e8 LEN=149 BURST=AXI4_BURST_INCR
# UVM_INFO ../src/mst/axi4_master_driver.sv(55) @ 10035000: uvm_test_top.env.master_agent.drv [axi4_master_driver] Driving AXI4_READ  ID=0xa  ADDR=0x8b1c1fa8  LEN=140
# UVM_INFO ../src/slv/axi4_slave_driver.sv(300) @ 10065000: uvm_test_top.env.slave_agent.drv [axi4_slave_driver] AR received: ID=0xa ADDR=0x8b1c1fa8 LEN=140 LOCK=AXI4_LOCK_NORMAL
# UVM_INFO ../src/mst/axi4_master_monitor.sv(246) @ 10065000: uvm_test_top.env.master_agent.mon [axi4_master_monitor] AR observed: ID=0xa ADDR=0x8b1c1fa8 LEN=140
# UVM_INFO ../src/slv/axi4_slave_monitor.sv(224) @ 10065000: uvm_test_top.env.slave_agent.mon [axi4_slave_monitor] AR received: ID=0xa ADDR=0x8b1c1fa8 LEN=140
# UVM_INFO ../src/mst/axi4_master_driver.sv(254) @ 12885000: uvm_test_top.env.master_agent.drv [axi4_master_driver] Read complete: 141 beats received
# UVM_INFO ../src/slv/axi4_slave_driver.sv(349) @ 12885000: uvm_test_top.env.slave_agent.drv [axi4_slave_driver] Read complete: ID=0xa ADDR=0x8b1c1fa8 RESP=AXI4_RESP_OKAY  141 beats sent
# UVM_INFO ../src/mst/axi4_master_monitor.sv(314) @ 12885000: uvm_test_top.env.master_agent.mon [axi4_master_monitor] Read complete: ID=0xa ADDR=0x8b1c1fa8 141 beats
# UVM_INFO ../src/env/axi4_scoreboard.sv(82) @ 12885000: uvm_test_top.env.scb [axi4_scoreboard] Master AXI4_READ received: ID=0xa ADDR=0x8b1c1fa8 LEN=140
# UVM_INFO ../src/slv/axi4_slave_monitor.sv(287) @ 12885000: uvm_test_top.env.slave_agent.mon [axi4_slave_monitor] Read data sent: ID=0xa ADDR=0x8b1c1fa8 141 beats
# UVM_INFO ../src/env/axi4_scoreboard.sv(103) @ 12885000: uvm_test_top.env.scb [axi4_scoreboard] Slave AXI4_READ received: ID=0xa ADDR=0x8b1c1fa8 LEN=140
# UVM_INFO ../src/env/axi4_scoreboard.sv(154) @ 12885000: uvm_test_top.env.scb [axi4_scoreboard] [READ] MATCH #8: ID=0xa ADDR=0x8b1c1fa8 LEN=140
# UVM_INFO ../src/seq/axi4_random_seq.sv(55) @ 12885000: uvm_test_top.env.master_agent.sqr@@rand_seq [axi4_random_seq] [8/50] AXI4_READ: ID=0xa ADDR=0x8b1c1fa8 LEN=140 BURST=AXI4_BURST_INCR
# UVM_INFO ../src/mst/axi4_master_driver.sv(55) @ 12885000: uvm_test_top.env.master_agent.drv [axi4_master_driver] Driving AXI4_WRITE  ID=0xf  ADDR=0x5ba330ca  LEN=163
# UVM_INFO ../src/mst/axi4_master_driver.sv(94) @ 12885000: uvm_test_top.env.master_agent.drv [axi4_master_driver] Write order: AW || W (parallel)
# UVM_INFO ../src/slv/axi4_slave_driver.sv(165) @ 12915000: uvm_test_top.env.slave_agent.drv [axi4_slave_driver] AW received: ID=0xf ADDR=0x5ba330ca LEN=163 LOCK=AXI4_LOCK_NORMAL
# UVM_INFO ../src/slv/axi4_slave_monitor.sv(116) @ 12915000: uvm_test_top.env.slave_agent.mon [axi4_slave_monitor] AW received: ID=0xf ADDR=0x5ba330ca LEN=163
# UVM_INFO ../src/mst/axi4_master_monitor.sv(124) @ 12915000: uvm_test_top.env.master_agent.mon [axi4_master_monitor] AW observed: ID=0xf ADDR=0x5ba330ca LEN=163
# UVM_INFO ../src/mst/axi4_master_monitor.sv(184) @ 16165000: uvm_test_top.env.master_agent.mon [axi4_master_monitor] W data assembled: ID=0xf ADDR=0x5ba330ca 164 beats
# UVM_INFO ../src/slv/axi4_slave_monitor.sv(167) @ 16165000: uvm_test_top.env.slave_agent.mon [axi4_slave_monitor] W data assembled: ID=0xf ADDR=0x5ba330ca 164 beats
# UVM_INFO ../src/mst/axi4_master_driver.sv(197) @ 16195000: uvm_test_top.env.master_agent.drv [axi4_master_driver] Write response: AXI4_RESP_OKAY
# UVM_INFO ../src/slv/axi4_slave_driver.sv(261) @ 16195000: uvm_test_top.env.slave_agent.drv [axi4_slave_driver] Write complete: ID=0xf ADDR=0x5ba330ca RESP=AXI4_RESP_OKAY  164 beats processed
# UVM_INFO ../src/slv/axi4_slave_monitor.sv(189) @ 16195000: uvm_test_top.env.slave_agent.mon [axi4_slave_monitor] Write response sent: ID=0xf ADDR=0x5ba330ca RESP=AXI4_RESP_OKAY
# UVM_INFO ../src/env/axi4_scoreboard.sv(103) @ 16195000: uvm_test_top.env.scb [axi4_scoreboard] Slave AXI4_WRITE received: ID=0xf ADDR=0x5ba330ca LEN=163
# UVM_INFO ../src/mst/axi4_master_monitor.sv(210) @ 16195000: uvm_test_top.env.master_agent.mon [axi4_master_monitor] Write complete: ID=0xf ADDR=0x5ba330ca RESP=AXI4_RESP_OKAY
# UVM_INFO ../src/env/axi4_scoreboard.sv(82) @ 16195000: uvm_test_top.env.scb [axi4_scoreboard] Master AXI4_WRITE received: ID=0xf ADDR=0x5ba330ca LEN=163
# UVM_INFO ../src/env/axi4_scoreboard.sv(154) @ 16195000: uvm_test_top.env.scb [axi4_scoreboard] [WRITE] MATCH #9: ID=0xf ADDR=0x5ba330ca LEN=163
# UVM_INFO ../src/seq/axi4_random_seq.sv(55) @ 16195000: uvm_test_top.env.master_agent.sqr@@rand_seq [axi4_random_seq] [9/50] AXI4_WRITE: ID=0xf ADDR=0x5ba330ca LEN=163 BURST=AXI4_BURST_INCR
# UVM_INFO ../src/mst/axi4_master_driver.sv(55) @ 16195000: uvm_test_top.env.master_agent.drv [axi4_master_driver] Driving AXI4_READ  ID=0xc  ADDR=0x74b0bffc  LEN=129
# UVM_INFO ../src/slv/axi4_slave_driver.sv(300) @ 16225000: uvm_test_top.env.slave_agent.drv [axi4_slave_driver] AR received: ID=0xc ADDR=0x74b0bffc LEN=129 LOCK=AXI4_LOCK_NORMAL
# UVM_INFO ../src/mst/axi4_master_monitor.sv(246) @ 16225000: uvm_test_top.env.master_agent.mon [axi4_master_monitor] AR observed: ID=0xc ADDR=0x74b0bffc LEN=129
# UVM_INFO ../src/slv/axi4_slave_monitor.sv(224) @ 16225000: uvm_test_top.env.slave_agent.mon [axi4_slave_monitor] AR received: ID=0xc ADDR=0x74b0bffc LEN=129
# UVM_INFO ../src/mst/axi4_master_driver.sv(254) @ 18825000: uvm_test_top.env.master_agent.drv [axi4_master_driver] Read complete: 130 beats received
# UVM_INFO ../src/slv/axi4_slave_driver.sv(349) @ 18825000: uvm_test_top.env.slave_agent.drv [axi4_slave_driver] Read complete: ID=0xc ADDR=0x74b0bffc RESP=AXI4_RESP_OKAY  130 beats sent
# UVM_INFO ../src/mst/axi4_master_monitor.sv(314) @ 18825000: uvm_test_top.env.master_agent.mon [axi4_master_monitor] Read complete: ID=0xc ADDR=0x74b0bffc 130 beats
# UVM_INFO ../src/env/axi4_scoreboard.sv(82) @ 18825000: uvm_test_top.env.scb [axi4_scoreboard] Master AXI4_READ received: ID=0xc ADDR=0x74b0bffc LEN=129
# UVM_INFO ../src/slv/axi4_slave_monitor.sv(287) @ 18825000: uvm_test_top.env.slave_agent.mon [axi4_slave_monitor] Read data sent: ID=0xc ADDR=0x74b0bffc 130 beats
# UVM_INFO ../src/env/axi4_scoreboard.sv(103) @ 18825000: uvm_test_top.env.scb [axi4_scoreboard] Slave AXI4_READ received: ID=0xc ADDR=0x74b0bffc LEN=129
# UVM_INFO ../src/env/axi4_scoreboard.sv(154) @ 18825000: uvm_test_top.env.scb [axi4_scoreboard] [READ] MATCH #10: ID=0xc ADDR=0x74b0bffc LEN=129
# UVM_INFO ../src/seq/axi4_random_seq.sv(55) @ 18825000: uvm_test_top.env.master_agent.sqr@@rand_seq [axi4_random_seq] [10/50] AXI4_READ: ID=0xc ADDR=0x74b0bffc LEN=129 BURST=AXI4_BURST_INCR
# UVM_INFO ../src/mst/axi4_master_driver.sv(55) @ 18825000: uvm_test_top.env.master_agent.drv [axi4_master_driver] Driving AXI4_WRITE  ID=0x8  ADDR=0x649a0ab5  LEN=189
# UVM_INFO ../src/mst/axi4_master_driver.sv(101) @ 18825000: uvm_test_top.env.master_agent.drv [axi4_master_driver] Write order: AW -> W (sequential)
# UVM_INFO ../src/slv/axi4_slave_driver.sv(165) @ 18855000: uvm_test_top.env.slave_agent.drv [axi4_slave_driver] AW received: ID=0x8 ADDR=0x649a0ab5 LEN=189 LOCK=AXI4_LOCK_EXCLUSIVE
# UVM_INFO ../src/slv/axi4_slave_monitor.sv(116) @ 18855000: uvm_test_top.env.slave_agent.mon [axi4_slave_monitor] AW received: ID=0x8 ADDR=0x649a0ab5 LEN=189
# UVM_INFO ../src/mst/axi4_master_monitor.sv(124) @ 18855000: uvm_test_top.env.master_agent.mon [axi4_master_monitor] AW observed: ID=0x8 ADDR=0x649a0ab5 LEN=189
# UVM_INFO ../src/slv/axi4_slave_monitor.sv(167) @ 22655000: uvm_test_top.env.slave_agent.mon [axi4_slave_monitor] W data assembled: ID=0x8 ADDR=0x649a0ab5 190 beats
# UVM_INFO ../src/mst/axi4_master_monitor.sv(184) @ 22655000: uvm_test_top.env.master_agent.mon [axi4_master_monitor] W data assembled: ID=0x8 ADDR=0x649a0ab5 190 beats
# UVM_INFO ../src/mst/axi4_master_driver.sv(197) @ 22685000: uvm_test_top.env.master_agent.drv [axi4_master_driver] Write response: AXI4_RESP_OKAY
# UVM_INFO ../src/slv/axi4_slave_driver.sv(261) @ 22685000: uvm_test_top.env.slave_agent.drv [axi4_slave_driver] Write complete: ID=0x8 ADDR=0x649a0ab5 RESP=AXI4_RESP_OKAY  190 beats processed
# UVM_INFO ../src/mst/axi4_master_monitor.sv(210) @ 22685000: uvm_test_top.env.master_agent.mon [axi4_master_monitor] Write complete: ID=0x8 ADDR=0x649a0ab5 RESP=AXI4_RESP_OKAY
# UVM_INFO ../src/env/axi4_scoreboard.sv(82) @ 22685000: uvm_test_top.env.scb [axi4_scoreboard] Master AXI4_WRITE received: ID=0x8 ADDR=0x649a0ab5 LEN=189
# UVM_INFO ../src/slv/axi4_slave_monitor.sv(189) @ 22685000: uvm_test_top.env.slave_agent.mon [axi4_slave_monitor] Write response sent: ID=0x8 ADDR=0x649a0ab5 RESP=AXI4_RESP_OKAY
# UVM_INFO ../src/env/axi4_scoreboard.sv(103) @ 22685000: uvm_test_top.env.scb [axi4_scoreboard] Slave AXI4_WRITE received: ID=0x8 ADDR=0x649a0ab5 LEN=189
# UVM_INFO ../src/env/axi4_scoreboard.sv(154) @ 22685000: uvm_test_top.env.scb [axi4_scoreboard] [WRITE] MATCH #11: ID=0x8 ADDR=0x649a0ab5 LEN=189
# UVM_INFO ../src/seq/axi4_random_seq.sv(55) @ 22685000: uvm_test_top.env.master_agent.sqr@@rand_seq [axi4_random_seq] [11/50] AXI4_WRITE: ID=0x8 ADDR=0x649a0ab5 LEN=189 BURST=AXI4_BURST_INCR
# UVM_INFO ../src/mst/axi4_master_driver.sv(55) @ 22685000: uvm_test_top.env.master_agent.drv [axi4_master_driver] Driving AXI4_WRITE  ID=0x7  ADDR=0x85d7e1ff  LEN=42
# UVM_INFO ../src/mst/axi4_master_driver.sv(94) @ 22685000: uvm_test_top.env.master_agent.drv [axi4_master_driver] Write order: AW || W (parallel)
# UVM_INFO ../src/slv/axi4_slave_driver.sv(165) @ 22715000: uvm_test_top.env.slave_agent.drv [axi4_slave_driver] AW received: ID=0x7 ADDR=0x85d7e1ff LEN=42 LOCK=AXI4_LOCK_NORMAL
# UVM_INFO ../src/slv/axi4_slave_monitor.sv(116) @ 22715000: uvm_test_top.env.slave_agent.mon [axi4_slave_monitor] AW received: ID=0x7 ADDR=0x85d7e1ff LEN=42
# UVM_INFO ../src/mst/axi4_master_monitor.sv(124) @ 22715000: uvm_test_top.env.master_agent.mon [axi4_master_monitor] AW observed: ID=0x7 ADDR=0x85d7e1ff LEN=42
# UVM_INFO ../src/mst/axi4_master_monitor.sv(184) @ 23545000: uvm_test_top.env.master_agent.mon [axi4_master_monitor] W data assembled: ID=0x7 ADDR=0x85d7e1ff 43 beats
# UVM_INFO ../src/slv/axi4_slave_monitor.sv(167) @ 23545000: uvm_test_top.env.slave_agent.mon [axi4_slave_monitor] W data assembled: ID=0x7 ADDR=0x85d7e1ff 43 beats
# UVM_INFO ../src/mst/axi4_master_driver.sv(197) @ 23575000: uvm_test_top.env.master_agent.drv [axi4_master_driver] Write response: AXI4_RESP_OKAY
# UVM_INFO ../src/slv/axi4_slave_driver.sv(261) @ 23575000: uvm_test_top.env.slave_agent.drv [axi4_slave_driver] Write complete: ID=0x7 ADDR=0x85d7e1ff RESP=AXI4_RESP_OKAY  43 beats processed
# UVM_INFO ../src/slv/axi4_slave_monitor.sv(189) @ 23575000: uvm_test_top.env.slave_agent.mon [axi4_slave_monitor] Write response sent: ID=0x7 ADDR=0x85d7e1ff RESP=AXI4_RESP_OKAY
# UVM_INFO ../src/env/axi4_scoreboard.sv(103) @ 23575000: uvm_test_top.env.scb [axi4_scoreboard] Slave AXI4_WRITE received: ID=0x7 ADDR=0x85d7e1ff LEN=42
# UVM_INFO ../src/mst/axi4_master_monitor.sv(210) @ 23575000: uvm_test_top.env.master_agent.mon [axi4_master_monitor] Write complete: ID=0x7 ADDR=0x85d7e1ff RESP=AXI4_RESP_OKAY
# UVM_INFO ../src/env/axi4_scoreboard.sv(82) @ 23575000: uvm_test_top.env.scb [axi4_scoreboard] Master AXI4_WRITE received: ID=0x7 ADDR=0x85d7e1ff LEN=42
# UVM_INFO ../src/env/axi4_scoreboard.sv(154) @ 23575000: uvm_test_top.env.scb [axi4_scoreboard] [WRITE] MATCH #12: ID=0x7 ADDR=0x85d7e1ff LEN=42
# UVM_INFO ../src/seq/axi4_random_seq.sv(55) @ 23575000: uvm_test_top.env.master_agent.sqr@@rand_seq [axi4_random_seq] [12/50] AXI4_WRITE: ID=0x7 ADDR=0x85d7e1ff LEN=42 BURST=AXI4_BURST_INCR
# UVM_INFO ../src/mst/axi4_master_driver.sv(55) @ 23575000: uvm_test_top.env.master_agent.drv [axi4_master_driver] Driving AXI4_WRITE  ID=0xf  ADDR=0xff3ed4de  LEN=115
# UVM_INFO ../src/mst/axi4_master_driver.sv(101) @ 23575000: uvm_test_top.env.master_agent.drv [axi4_master_driver] Write order: AW -> W (sequential)
# UVM_INFO ../src/slv/axi4_slave_driver.sv(165) @ 23605000: uvm_test_top.env.slave_agent.drv [axi4_slave_driver] AW received: ID=0xf ADDR=0xff3ed4de LEN=115 LOCK=AXI4_LOCK_EXCLUSIVE
# UVM_INFO ../src/mst/axi4_master_monitor.sv(124) @ 23605000: uvm_test_top.env.master_agent.mon [axi4_master_monitor] AW observed: ID=0xf ADDR=0xff3ed4de LEN=115
# UVM_INFO ../src/slv/axi4_slave_monitor.sv(116) @ 23605000: uvm_test_top.env.slave_agent.mon [axi4_slave_monitor] AW received: ID=0xf ADDR=0xff3ed4de LEN=115
# UVM_INFO ../src/mst/axi4_master_monitor.sv(184) @ 25925000: uvm_test_top.env.master_agent.mon [axi4_master_monitor] W data assembled: ID=0xf ADDR=0xff3ed4de 116 beats
# UVM_INFO ../src/slv/axi4_slave_monitor.sv(167) @ 25925000: uvm_test_top.env.slave_agent.mon [axi4_slave_monitor] W data assembled: ID=0xf ADDR=0xff3ed4de 116 beats
# UVM_INFO ../src/mst/axi4_master_driver.sv(197) @ 25955000: uvm_test_top.env.master_agent.drv [axi4_master_driver] Write response: AXI4_RESP_DECERR
# UVM_INFO ../src/slv/axi4_slave_driver.sv(261) @ 25955000: uvm_test_top.env.slave_agent.drv [axi4_slave_driver] Write complete: ID=0xf ADDR=0xff3ed4de RESP=AXI4_RESP_DECERR  116 beats processed
# UVM_INFO ../src/slv/axi4_slave_monitor.sv(189) @ 25955000: uvm_test_top.env.slave_agent.mon [axi4_slave_monitor] Write response sent: ID=0xf ADDR=0xff3ed4de RESP=AXI4_RESP_DECERR
# UVM_INFO ../src/env/axi4_scoreboard.sv(103) @ 25955000: uvm_test_top.env.scb [axi4_scoreboard] Slave AXI4_WRITE received: ID=0xf ADDR=0xff3ed4de LEN=115
# UVM_INFO ../src/mst/axi4_master_monitor.sv(210) @ 25955000: uvm_test_top.env.master_agent.mon [axi4_master_monitor] Write complete: ID=0xf ADDR=0xff3ed4de RESP=AXI4_RESP_DECERR
# UVM_INFO ../src/env/axi4_scoreboard.sv(82) @ 25955000: uvm_test_top.env.scb [axi4_scoreboard] Master AXI4_WRITE received: ID=0xf ADDR=0xff3ed4de LEN=115
# UVM_INFO ../src/env/axi4_scoreboard.sv(154) @ 25955000: uvm_test_top.env.scb [axi4_scoreboard] [WRITE] MATCH #13: ID=0xf ADDR=0xff3ed4de LEN=115
# UVM_INFO ../src/seq/axi4_random_seq.sv(55) @ 25955000: uvm_test_top.env.master_agent.sqr@@rand_seq [axi4_random_seq] [13/50] AXI4_WRITE: ID=0xf ADDR=0xff3ed4de LEN=115 BURST=AXI4_BURST_INCR
# UVM_INFO ../src/mst/axi4_master_driver.sv(55) @ 25955000: uvm_test_top.env.master_agent.drv [axi4_master_driver] Driving AXI4_WRITE  ID=0x7  ADDR=0xe88c948a  LEN=226
# UVM_INFO ../src/mst/axi4_master_driver.sv(94) @ 25955000: uvm_test_top.env.master_agent.drv [axi4_master_driver] Write order: AW || W (parallel)
# UVM_INFO ../src/slv/axi4_slave_driver.sv(165) @ 25985000: uvm_test_top.env.slave_agent.drv [axi4_slave_driver] AW received: ID=0x7 ADDR=0xe88c948a LEN=226 LOCK=AXI4_LOCK_NORMAL
# UVM_INFO ../src/mst/axi4_master_monitor.sv(124) @ 25985000: uvm_test_top.env.master_agent.mon [axi4_master_monitor] AW observed: ID=0x7 ADDR=0xe88c948a LEN=226
# UVM_INFO ../src/slv/axi4_slave_monitor.sv(116) @ 25985000: uvm_test_top.env.slave_agent.mon [axi4_slave_monitor] AW received: ID=0x7 ADDR=0xe88c948a LEN=226
# UVM_INFO ../src/slv/axi4_slave_monitor.sv(167) @ 30495000: uvm_test_top.env.slave_agent.mon [axi4_slave_monitor] W data assembled: ID=0x7 ADDR=0xe88c948a 227 beats
# UVM_INFO ../src/mst/axi4_master_monitor.sv(184) @ 30495000: uvm_test_top.env.master_agent.mon [axi4_master_monitor] W data assembled: ID=0x7 ADDR=0xe88c948a 227 beats
# UVM_INFO ../src/mst/axi4_master_driver.sv(197) @ 30525000: uvm_test_top.env.master_agent.drv [axi4_master_driver] Write response: AXI4_RESP_SLVERR
# UVM_INFO ../src/slv/axi4_slave_driver.sv(261) @ 30525000: uvm_test_top.env.slave_agent.drv [axi4_slave_driver] Write complete: ID=0x7 ADDR=0xe88c948a RESP=AXI4_RESP_SLVERR  227 beats processed
# UVM_INFO ../src/mst/axi4_master_monitor.sv(210) @ 30525000: uvm_test_top.env.master_agent.mon [axi4_master_monitor] Write complete: ID=0x7 ADDR=0xe88c948a RESP=AXI4_RESP_SLVERR
# UVM_INFO ../src/env/axi4_scoreboard.sv(82) @ 30525000: uvm_test_top.env.scb [axi4_scoreboard] Master AXI4_WRITE received: ID=0x7 ADDR=0xe88c948a LEN=226
# UVM_INFO ../src/slv/axi4_slave_monitor.sv(189) @ 30525000: uvm_test_top.env.slave_agent.mon [axi4_slave_monitor] Write response sent: ID=0x7 ADDR=0xe88c948a RESP=AXI4_RESP_SLVERR
# UVM_INFO ../src/env/axi4_scoreboard.sv(103) @ 30525000: uvm_test_top.env.scb [axi4_scoreboard] Slave AXI4_WRITE received: ID=0x7 ADDR=0xe88c948a LEN=226
# UVM_INFO ../src/env/axi4_scoreboard.sv(154) @ 30525000: uvm_test_top.env.scb [axi4_scoreboard] [WRITE] MATCH #14: ID=0x7 ADDR=0xe88c948a LEN=226
# UVM_INFO ../src/seq/axi4_random_seq.sv(55) @ 30525000: uvm_test_top.env.master_agent.sqr@@rand_seq [axi4_random_seq] [14/50] AXI4_WRITE: ID=0x7 ADDR=0xe88c948a LEN=226 BURST=AXI4_BURST_INCR
# UVM_INFO ../src/mst/axi4_master_driver.sv(55) @ 30525000: uvm_test_top.env.master_agent.drv [axi4_master_driver] Driving AXI4_WRITE  ID=0x4  ADDR=0x39d51417  LEN=1
# UVM_INFO ../src/mst/axi4_master_driver.sv(101) @ 30525000: uvm_test_top.env.master_agent.drv [axi4_master_driver] Write order: AW -> W (sequential)
# UVM_INFO ../src/slv/axi4_slave_driver.sv(165) @ 30555000: uvm_test_top.env.slave_agent.drv [axi4_slave_driver] AW received: ID=0x4 ADDR=0x39d51417 LEN=1 LOCK=AXI4_LOCK_EXCLUSIVE
# UVM_INFO ../src/slv/axi4_slave_monitor.sv(116) @ 30555000: uvm_test_top.env.slave_agent.mon [axi4_slave_monitor] AW received: ID=0x4 ADDR=0x39d51417 LEN=1
# UVM_INFO ../src/mst/axi4_master_monitor.sv(124) @ 30555000: uvm_test_top.env.master_agent.mon [axi4_master_monitor] AW observed: ID=0x4 ADDR=0x39d51417 LEN=1
# UVM_INFO ../src/slv/axi4_slave_monitor.sv(167) @ 30595000: uvm_test_top.env.slave_agent.mon [axi4_slave_monitor] W data assembled: ID=0x4 ADDR=0x39d51417 2 beats
# UVM_INFO ../src/mst/axi4_master_monitor.sv(184) @ 30595000: uvm_test_top.env.master_agent.mon [axi4_master_monitor] W data assembled: ID=0x4 ADDR=0x39d51417 2 beats
# UVM_INFO ../src/mst/axi4_master_driver.sv(197) @ 30625000: uvm_test_top.env.master_agent.drv [axi4_master_driver] Write response: AXI4_RESP_OKAY
# UVM_INFO ../src/slv/axi4_slave_driver.sv(261) @ 30625000: uvm_test_top.env.slave_agent.drv [axi4_slave_driver] Write complete: ID=0x4 ADDR=0x39d51417 RESP=AXI4_RESP_OKAY  2 beats processed
# UVM_INFO ../src/mst/axi4_master_monitor.sv(210) @ 30625000: uvm_test_top.env.master_agent.mon [axi4_master_monitor] Write complete: ID=0x4 ADDR=0x39d51417 RESP=AXI4_RESP_OKAY
# UVM_INFO ../src/env/axi4_scoreboard.sv(82) @ 30625000: uvm_test_top.env.scb [axi4_scoreboard] Master AXI4_WRITE received: ID=0x4 ADDR=0x39d51417 LEN=1
# UVM_INFO ../src/slv/axi4_slave_monitor.sv(189) @ 30625000: uvm_test_top.env.slave_agent.mon [axi4_slave_monitor] Write response sent: ID=0x4 ADDR=0x39d51417 RESP=AXI4_RESP_OKAY
# UVM_INFO ../src/env/axi4_scoreboard.sv(103) @ 30625000: uvm_test_top.env.scb [axi4_scoreboard] Slave AXI4_WRITE received: ID=0x4 ADDR=0x39d51417 LEN=1
# UVM_INFO ../src/env/axi4_scoreboard.sv(154) @ 30625000: uvm_test_top.env.scb [axi4_scoreboard] [WRITE] MATCH #15: ID=0x4 ADDR=0x39d51417 LEN=1
# UVM_INFO ../src/seq/axi4_random_seq.sv(55) @ 30625000: uvm_test_top.env.master_agent.sqr@@rand_seq [axi4_random_seq] [15/50] AXI4_WRITE: ID=0x4 ADDR=0x39d51417 LEN=1 BURST=AXI4_BURST_WRAP
# UVM_INFO ../src/mst/axi4_master_driver.sv(55) @ 30625000: uvm_test_top.env.master_agent.drv [axi4_master_driver] Driving AXI4_READ  ID=0x4  ADDR=0xb7f63b70  LEN=200
# UVM_INFO ../src/slv/axi4_slave_driver.sv(300) @ 30655000: uvm_test_top.env.slave_agent.drv [axi4_slave_driver] AR received: ID=0x4 ADDR=0xb7f63b70 LEN=200 LOCK=AXI4_LOCK_NORMAL
# UVM_INFO ../src/slv/axi4_slave_monitor.sv(224) @ 30655000: uvm_test_top.env.slave_agent.mon [axi4_slave_monitor] AR received: ID=0x4 ADDR=0xb7f63b70 LEN=200
# UVM_INFO ../src/mst/axi4_master_monitor.sv(246) @ 30655000: uvm_test_top.env.master_agent.mon [axi4_master_monitor] AR observed: ID=0x4 ADDR=0xb7f63b70 LEN=200
# UVM_INFO ../src/mst/axi4_master_driver.sv(254) @ 34675000: uvm_test_top.env.master_agent.drv [axi4_master_driver] Read complete: 201 beats received
# UVM_INFO ../src/slv/axi4_slave_driver.sv(349) @ 34675000: uvm_test_top.env.slave_agent.drv [axi4_slave_driver] Read complete: ID=0x4 ADDR=0xb7f63b70 RESP=AXI4_RESP_OKAY  201 beats sent
# UVM_INFO ../src/slv/axi4_slave_monitor.sv(287) @ 34675000: uvm_test_top.env.slave_agent.mon [axi4_slave_monitor] Read data sent: ID=0x4 ADDR=0xb7f63b70 201 beats
# UVM_INFO ../src/env/axi4_scoreboard.sv(103) @ 34675000: uvm_test_top.env.scb [axi4_scoreboard] Slave AXI4_READ received: ID=0x4 ADDR=0xb7f63b70 LEN=200
# UVM_INFO ../src/mst/axi4_master_monitor.sv(314) @ 34675000: uvm_test_top.env.master_agent.mon [axi4_master_monitor] Read complete: ID=0x4 ADDR=0xb7f63b70 201 beats
# UVM_INFO ../src/env/axi4_scoreboard.sv(82) @ 34675000: uvm_test_top.env.scb [axi4_scoreboard] Master AXI4_READ received: ID=0x4 ADDR=0xb7f63b70 LEN=200
# UVM_INFO ../src/env/axi4_scoreboard.sv(154) @ 34675000: uvm_test_top.env.scb [axi4_scoreboard] [READ] MATCH #16: ID=0x4 ADDR=0xb7f63b70 LEN=200
# UVM_INFO ../src/seq/axi4_random_seq.sv(55) @ 34675000: uvm_test_top.env.master_agent.sqr@@rand_seq [axi4_random_seq] [16/50] AXI4_READ: ID=0x4 ADDR=0xb7f63b70 LEN=200 BURST=AXI4_BURST_INCR
# UVM_INFO ../src/mst/axi4_master_driver.sv(55) @ 34675000: uvm_test_top.env.master_agent.drv [axi4_master_driver] Driving AXI4_WRITE  ID=0x6  ADDR=0x2bab9fc6  LEN=44
# UVM_INFO ../src/mst/axi4_master_driver.sv(94) @ 34675000: uvm_test_top.env.master_agent.drv [axi4_master_driver] Write order: AW || W (parallel)
# UVM_INFO ../src/slv/axi4_slave_driver.sv(165) @ 34705000: uvm_test_top.env.slave_agent.drv [axi4_slave_driver] AW received: ID=0x6 ADDR=0x2bab9fc6 LEN=44 LOCK=AXI4_LOCK_EXCLUSIVE
# UVM_INFO ../src/mst/axi4_master_monitor.sv(124) @ 34705000: uvm_test_top.env.master_agent.mon [axi4_master_monitor] AW observed: ID=0x6 ADDR=0x2bab9fc6 LEN=44
# UVM_INFO ../src/slv/axi4_slave_monitor.sv(116) @ 34705000: uvm_test_top.env.slave_agent.mon [axi4_slave_monitor] AW received: ID=0x6 ADDR=0x2bab9fc6 LEN=44
# UVM_INFO ../src/slv/axi4_slave_monitor.sv(167) @ 35575000: uvm_test_top.env.slave_agent.mon [axi4_slave_monitor] W data assembled: ID=0x6 ADDR=0x2bab9fc6 45 beats
# UVM_INFO ../src/mst/axi4_master_monitor.sv(184) @ 35575000: uvm_test_top.env.master_agent.mon [axi4_master_monitor] W data assembled: ID=0x6 ADDR=0x2bab9fc6 45 beats
# UVM_INFO ../src/mst/axi4_master_driver.sv(197) @ 35605000: uvm_test_top.env.master_agent.drv [axi4_master_driver] Write response: AXI4_RESP_OKAY
# UVM_INFO ../src/slv/axi4_slave_driver.sv(261) @ 35605000: uvm_test_top.env.slave_agent.drv [axi4_slave_driver] Write complete: ID=0x6 ADDR=0x2bab9fc6 RESP=AXI4_RESP_OKAY  45 beats processed
# UVM_INFO ../src/mst/axi4_master_monitor.sv(210) @ 35605000: uvm_test_top.env.master_agent.mon [axi4_master_monitor] Write complete: ID=0x6 ADDR=0x2bab9fc6 RESP=AXI4_RESP_OKAY
# UVM_INFO ../src/env/axi4_scoreboard.sv(82) @ 35605000: uvm_test_top.env.scb [axi4_scoreboard] Master AXI4_WRITE received: ID=0x6 ADDR=0x2bab9fc6 LEN=44
# UVM_INFO ../src/slv/axi4_slave_monitor.sv(189) @ 35605000: uvm_test_top.env.slave_agent.mon [axi4_slave_monitor] Write response sent: ID=0x6 ADDR=0x2bab9fc6 RESP=AXI4_RESP_OKAY
# UVM_INFO ../src/env/axi4_scoreboard.sv(103) @ 35605000: uvm_test_top.env.scb [axi4_scoreboard] Slave AXI4_WRITE received: ID=0x6 ADDR=0x2bab9fc6 LEN=44
# UVM_INFO ../src/env/axi4_scoreboard.sv(154) @ 35605000: uvm_test_top.env.scb [axi4_scoreboard] [WRITE] MATCH #17: ID=0x6 ADDR=0x2bab9fc6 LEN=44
# UVM_INFO ../src/seq/axi4_random_seq.sv(55) @ 35605000: uvm_test_top.env.master_agent.sqr@@rand_seq [axi4_random_seq] [17/50] AXI4_WRITE: ID=0x6 ADDR=0x2bab9fc6 LEN=44 BURST=AXI4_BURST_INCR
# UVM_INFO ../src/mst/axi4_master_driver.sv(55) @ 35605000: uvm_test_top.env.master_agent.drv [axi4_master_driver] Driving AXI4_WRITE  ID=0xd  ADDR=0x052395af  LEN=9
# UVM_INFO ../src/mst/axi4_master_driver.sv(101) @ 35605000: uvm_test_top.env.master_agent.drv [axi4_master_driver] Write order: AW -> W (sequential)
# UVM_INFO ../src/slv/axi4_slave_driver.sv(165) @ 35635000: uvm_test_top.env.slave_agent.drv [axi4_slave_driver] AW received: ID=0xd ADDR=0x052395af LEN=9 LOCK=AXI4_LOCK_NORMAL
# UVM_INFO ../src/slv/axi4_slave_monitor.sv(116) @ 35635000: uvm_test_top.env.slave_agent.mon [axi4_slave_monitor] AW received: ID=0xd ADDR=0x052395af LEN=9
# UVM_INFO ../src/mst/axi4_master_monitor.sv(124) @ 35635000: uvm_test_top.env.master_agent.mon [axi4_master_monitor] AW observed: ID=0xd ADDR=0x052395af LEN=9
# UVM_INFO ../src/slv/axi4_slave_monitor.sv(167) @ 35835000: uvm_test_top.env.slave_agent.mon [axi4_slave_monitor] W data assembled: ID=0xd ADDR=0x052395af 10 beats
# UVM_INFO ../src/mst/axi4_master_monitor.sv(184) @ 35835000: uvm_test_top.env.master_agent.mon [axi4_master_monitor] W data assembled: ID=0xd ADDR=0x052395af 10 beats
# UVM_INFO ../src/mst/axi4_master_driver.sv(197) @ 35865000: uvm_test_top.env.master_agent.drv [axi4_master_driver] Write response: AXI4_RESP_OKAY
# UVM_INFO ../src/slv/axi4_slave_driver.sv(261) @ 35865000: uvm_test_top.env.slave_agent.drv [axi4_slave_driver] Write complete: ID=0xd ADDR=0x052395af RESP=AXI4_RESP_OKAY  10 beats processed
# UVM_INFO ../src/mst/axi4_master_monitor.sv(210) @ 35865000: uvm_test_top.env.master_agent.mon [axi4_master_monitor] Write complete: ID=0xd ADDR=0x052395af RESP=AXI4_RESP_OKAY
# UVM_INFO ../src/env/axi4_scoreboard.sv(82) @ 35865000: uvm_test_top.env.scb [axi4_scoreboard] Master AXI4_WRITE received: ID=0xd ADDR=0x052395af LEN=9
# UVM_INFO ../src/slv/axi4_slave_monitor.sv(189) @ 35865000: uvm_test_top.env.slave_agent.mon [axi4_slave_monitor] Write response sent: ID=0xd ADDR=0x052395af RESP=AXI4_RESP_OKAY
# UVM_INFO ../src/env/axi4_scoreboard.sv(103) @ 35865000: uvm_test_top.env.scb [axi4_scoreboard] Slave AXI4_WRITE received: ID=0xd ADDR=0x052395af LEN=9
# UVM_INFO ../src/env/axi4_scoreboard.sv(154) @ 35865000: uvm_test_top.env.scb [axi4_scoreboard] [WRITE] MATCH #18: ID=0xd ADDR=0x052395af LEN=9
# UVM_INFO ../src/seq/axi4_random_seq.sv(55) @ 35865000: uvm_test_top.env.master_agent.sqr@@rand_seq [axi4_random_seq] [18/50] AXI4_WRITE: ID=0xd ADDR=0x052395af LEN=9 BURST=AXI4_BURST_INCR
# UVM_INFO ../src/mst/axi4_master_driver.sv(55) @ 35865000: uvm_test_top.env.master_agent.drv [axi4_master_driver] Driving AXI4_WRITE  ID=0x9  ADDR=0x8f6b0d6e  LEN=9
# UVM_INFO ../src/mst/axi4_master_driver.sv(94) @ 35865000: uvm_test_top.env.master_agent.drv [axi4_master_driver] Write order: AW || W (parallel)
# UVM_INFO ../src/slv/axi4_slave_driver.sv(165) @ 35895000: uvm_test_top.env.slave_agent.drv [axi4_slave_driver] AW received: ID=0x9 ADDR=0x8f6b0d6e LEN=9 LOCK=AXI4_LOCK_EXCLUSIVE
# UVM_INFO ../src/slv/axi4_slave_monitor.sv(116) @ 35895000: uvm_test_top.env.slave_agent.mon [axi4_slave_monitor] AW received: ID=0x9 ADDR=0x8f6b0d6e LEN=9
# UVM_INFO ../src/mst/axi4_master_monitor.sv(124) @ 35895000: uvm_test_top.env.master_agent.mon [axi4_master_monitor] AW observed: ID=0x9 ADDR=0x8f6b0d6e LEN=9
# UVM_INFO ../src/mst/axi4_master_monitor.sv(184) @ 36065000: uvm_test_top.env.master_agent.mon [axi4_master_monitor] W data assembled: ID=0x9 ADDR=0x8f6b0d6e 10 beats
# UVM_INFO ../src/slv/axi4_slave_monitor.sv(167) @ 36065000: uvm_test_top.env.slave_agent.mon [axi4_slave_monitor] W data assembled: ID=0x9 ADDR=0x8f6b0d6e 10 beats
# UVM_INFO ../src/mst/axi4_master_driver.sv(197) @ 36095000: uvm_test_top.env.master_agent.drv [axi4_master_driver] Write response: AXI4_RESP_OKAY
# UVM_INFO ../src/slv/axi4_slave_driver.sv(261) @ 36095000: uvm_test_top.env.slave_agent.drv [axi4_slave_driver] Write complete: ID=0x9 ADDR=0x8f6b0d6e RESP=AXI4_RESP_OKAY  10 beats processed
# UVM_INFO ../src/slv/axi4_slave_monitor.sv(189) @ 36095000: uvm_test_top.env.slave_agent.mon [axi4_slave_monitor] Write response sent: ID=0x9 ADDR=0x8f6b0d6e RESP=AXI4_RESP_OKAY
# UVM_INFO ../src/env/axi4_scoreboard.sv(103) @ 36095000: uvm_test_top.env.scb [axi4_scoreboard] Slave AXI4_WRITE received: ID=0x9 ADDR=0x8f6b0d6e LEN=9
# UVM_INFO ../src/mst/axi4_master_monitor.sv(210) @ 36095000: uvm_test_top.env.master_agent.mon [axi4_master_monitor] Write complete: ID=0x9 ADDR=0x8f6b0d6e RESP=AXI4_RESP_OKAY
# UVM_INFO ../src/env/axi4_scoreboard.sv(82) @ 36095000: uvm_test_top.env.scb [axi4_scoreboard] Master AXI4_WRITE received: ID=0x9 ADDR=0x8f6b0d6e LEN=9
# UVM_INFO ../src/env/axi4_scoreboard.sv(154) @ 36095000: uvm_test_top.env.scb [axi4_scoreboard] [WRITE] MATCH #19: ID=0x9 ADDR=0x8f6b0d6e LEN=9
# UVM_INFO ../src/seq/axi4_random_seq.sv(55) @ 36095000: uvm_test_top.env.master_agent.sqr@@rand_seq [axi4_random_seq] [19/50] AXI4_WRITE: ID=0x9 ADDR=0x8f6b0d6e LEN=9 BURST=AXI4_BURST_INCR
# UVM_INFO ../src/mst/axi4_master_driver.sv(55) @ 36095000: uvm_test_top.env.master_agent.drv [axi4_master_driver] Driving AXI4_WRITE  ID=0x4  ADDR=0x082c79e1  LEN=173
# UVM_INFO ../src/mst/axi4_master_driver.sv(101) @ 36095000: uvm_test_top.env.master_agent.drv [axi4_master_driver] Write order: AW -> W (sequential)
# UVM_INFO ../src/slv/axi4_slave_driver.sv(165) @ 36125000: uvm_test_top.env.slave_agent.drv [axi4_slave_driver] AW received: ID=0x4 ADDR=0x082c79e1 LEN=173 LOCK=AXI4_LOCK_EXCLUSIVE
# UVM_INFO ../src/mst/axi4_master_monitor.sv(124) @ 36125000: uvm_test_top.env.master_agent.mon [axi4_master_monitor] AW observed: ID=0x4 ADDR=0x082c79e1 LEN=173
# UVM_INFO ../src/slv/axi4_slave_monitor.sv(116) @ 36125000: uvm_test_top.env.slave_agent.mon [axi4_slave_monitor] AW received: ID=0x4 ADDR=0x082c79e1 LEN=173
# UVM_INFO ../src/mst/axi4_master_monitor.sv(184) @ 39605000: uvm_test_top.env.master_agent.mon [axi4_master_monitor] W data assembled: ID=0x4 ADDR=0x082c79e1 174 beats
# UVM_INFO ../src/slv/axi4_slave_monitor.sv(167) @ 39605000: uvm_test_top.env.slave_agent.mon [axi4_slave_monitor] W data assembled: ID=0x4 ADDR=0x082c79e1 174 beats
# UVM_INFO ../src/mst/axi4_master_driver.sv(197) @ 39635000: uvm_test_top.env.master_agent.drv [axi4_master_driver] Write response: AXI4_RESP_OKAY
# UVM_INFO ../src/slv/axi4_slave_driver.sv(261) @ 39635000: uvm_test_top.env.slave_agent.drv [axi4_slave_driver] Write complete: ID=0x4 ADDR=0x082c79e1 RESP=AXI4_RESP_OKAY  174 beats processed
# UVM_INFO ../src/slv/axi4_slave_monitor.sv(189) @ 39635000: uvm_test_top.env.slave_agent.mon [axi4_slave_monitor] Write response sent: ID=0x4 ADDR=0x082c79e1 RESP=AXI4_RESP_OKAY
# UVM_INFO ../src/env/axi4_scoreboard.sv(103) @ 39635000: uvm_test_top.env.scb [axi4_scoreboard] Slave AXI4_WRITE received: ID=0x4 ADDR=0x082c79e1 LEN=173
# UVM_INFO ../src/mst/axi4_master_monitor.sv(210) @ 39635000: uvm_test_top.env.master_agent.mon [axi4_master_monitor] Write complete: ID=0x4 ADDR=0x082c79e1 RESP=AXI4_RESP_OKAY
# UVM_INFO ../src/env/axi4_scoreboard.sv(82) @ 39635000: uvm_test_top.env.scb [axi4_scoreboard] Master AXI4_WRITE received: ID=0x4 ADDR=0x082c79e1 LEN=173
# UVM_INFO ../src/env/axi4_scoreboard.sv(154) @ 39635000: uvm_test_top.env.scb [axi4_scoreboard] [WRITE] MATCH #20: ID=0x4 ADDR=0x082c79e1 LEN=173
# UVM_INFO ../src/seq/axi4_random_seq.sv(55) @ 39635000: uvm_test_top.env.master_agent.sqr@@rand_seq [axi4_random_seq] [20/50] AXI4_WRITE: ID=0x4 ADDR=0x082c79e1 LEN=173 BURST=AXI4_BURST_INCR
# UVM_INFO ../src/mst/axi4_master_driver.sv(55) @ 39635000: uvm_test_top.env.master_agent.drv [axi4_master_driver] Driving AXI4_WRITE  ID=0xe  ADDR=0x85396043  LEN=11
# UVM_INFO ../src/mst/axi4_master_driver.sv(106) @ 39635000: uvm_test_top.env.master_agent.drv [axi4_master_driver] Write order: W -> AW (W first)
# UVM_INFO ../src/slv/axi4_slave_driver.sv(165) @ 39705000: uvm_test_top.env.slave_agent.drv [axi4_slave_driver] AW received: ID=0xe ADDR=0x85396043 LEN=11 LOCK=AXI4_LOCK_EXCLUSIVE
# UVM_INFO ../src/mst/axi4_master_monitor.sv(124) @ 39705000: uvm_test_top.env.master_agent.mon [axi4_master_monitor] AW observed: ID=0xe ADDR=0x85396043 LEN=11
# UVM_INFO ../src/slv/axi4_slave_monitor.sv(116) @ 39705000: uvm_test_top.env.slave_agent.mon [axi4_slave_monitor] AW received: ID=0xe ADDR=0x85396043 LEN=11
# UVM_INFO ../src/slv/axi4_slave_monitor.sv(167) @ 39875000: uvm_test_top.env.slave_agent.mon [axi4_slave_monitor] W data assembled: ID=0xe ADDR=0x85396043 12 beats
# UVM_INFO ../src/mst/axi4_master_monitor.sv(184) @ 39875000: uvm_test_top.env.master_agent.mon [axi4_master_monitor] W data assembled: ID=0xe ADDR=0x85396043 12 beats
# UVM_INFO ../src/mst/axi4_master_driver.sv(197) @ 39905000: uvm_test_top.env.master_agent.drv [axi4_master_driver] Write response: AXI4_RESP_OKAY
# UVM_INFO ../src/slv/axi4_slave_driver.sv(261) @ 39905000: uvm_test_top.env.slave_agent.drv [axi4_slave_driver] Write complete: ID=0xe ADDR=0x85396043 RESP=AXI4_RESP_OKAY  12 beats processed
# UVM_INFO ../src/mst/axi4_master_monitor.sv(210) @ 39905000: uvm_test_top.env.master_agent.mon [axi4_master_monitor] Write complete: ID=0xe ADDR=0x85396043 RESP=AXI4_RESP_OKAY
# UVM_INFO ../src/env/axi4_scoreboard.sv(82) @ 39905000: uvm_test_top.env.scb [axi4_scoreboard] Master AXI4_WRITE received: ID=0xe ADDR=0x85396043 LEN=11
# UVM_INFO ../src/slv/axi4_slave_monitor.sv(189) @ 39905000: uvm_test_top.env.slave_agent.mon [axi4_slave_monitor] Write response sent: ID=0xe ADDR=0x85396043 RESP=AXI4_RESP_OKAY
# UVM_INFO ../src/env/axi4_scoreboard.sv(103) @ 39905000: uvm_test_top.env.scb [axi4_scoreboard] Slave AXI4_WRITE received: ID=0xe ADDR=0x85396043 LEN=11
# UVM_INFO ../src/env/axi4_scoreboard.sv(154) @ 39905000: uvm_test_top.env.scb [axi4_scoreboard] [WRITE] MATCH #21: ID=0xe ADDR=0x85396043 LEN=11
# UVM_INFO ../src/seq/axi4_random_seq.sv(55) @ 39905000: uvm_test_top.env.master_agent.sqr@@rand_seq [axi4_random_seq] [21/50] AXI4_WRITE: ID=0xe ADDR=0x85396043 LEN=11 BURST=AXI4_BURST_FIXED
# UVM_INFO ../src/mst/axi4_master_driver.sv(55) @ 39905000: uvm_test_top.env.master_agent.drv [axi4_master_driver] Driving AXI4_WRITE  ID=0xc  ADDR=0x754a32ee  LEN=67
# UVM_INFO ../src/mst/axi4_master_driver.sv(94) @ 39905000: uvm_test_top.env.master_agent.drv [axi4_master_driver] Write order: AW || W (parallel)
# UVM_INFO ../src/slv/axi4_slave_driver.sv(165) @ 39935000: uvm_test_top.env.slave_agent.drv [axi4_slave_driver] AW received: ID=0xc ADDR=0x754a32ee LEN=67 LOCK=AXI4_LOCK_NORMAL
# UVM_INFO ../src/slv/axi4_slave_monitor.sv(116) @ 39935000: uvm_test_top.env.slave_agent.mon [axi4_slave_monitor] AW received: ID=0xc ADDR=0x754a32ee LEN=67
# UVM_INFO ../src/mst/axi4_master_monitor.sv(124) @ 39935000: uvm_test_top.env.master_agent.mon [axi4_master_monitor] AW observed: ID=0xc ADDR=0x754a32ee LEN=67
# UVM_INFO ../src/mst/axi4_master_monitor.sv(184) @ 41265000: uvm_test_top.env.master_agent.mon [axi4_master_monitor] W data assembled: ID=0xc ADDR=0x754a32ee 68 beats
# UVM_INFO ../src/slv/axi4_slave_monitor.sv(167) @ 41265000: uvm_test_top.env.slave_agent.mon [axi4_slave_monitor] W data assembled: ID=0xc ADDR=0x754a32ee 68 beats
# UVM_INFO ../src/mst/axi4_master_driver.sv(197) @ 41295000: uvm_test_top.env.master_agent.drv [axi4_master_driver] Write response: AXI4_RESP_OKAY
# UVM_INFO ../src/slv/axi4_slave_driver.sv(261) @ 41295000: uvm_test_top.env.slave_agent.drv [axi4_slave_driver] Write complete: ID=0xc ADDR=0x754a32ee RESP=AXI4_RESP_OKAY  68 beats processed
# UVM_INFO ../src/slv/axi4_slave_monitor.sv(189) @ 41295000: uvm_test_top.env.slave_agent.mon [axi4_slave_monitor] Write response sent: ID=0xc ADDR=0x754a32ee RESP=AXI4_RESP_OKAY
# UVM_INFO ../src/env/axi4_scoreboard.sv(103) @ 41295000: uvm_test_top.env.scb [axi4_scoreboard] Slave AXI4_WRITE received: ID=0xc ADDR=0x754a32ee LEN=67
# UVM_INFO ../src/mst/axi4_master_monitor.sv(210) @ 41295000: uvm_test_top.env.master_agent.mon [axi4_master_monitor] Write complete: ID=0xc ADDR=0x754a32ee RESP=AXI4_RESP_OKAY
# UVM_INFO ../src/env/axi4_scoreboard.sv(82) @ 41295000: uvm_test_top.env.scb [axi4_scoreboard] Master AXI4_WRITE received: ID=0xc ADDR=0x754a32ee LEN=67
# UVM_INFO ../src/env/axi4_scoreboard.sv(154) @ 41295000: uvm_test_top.env.scb [axi4_scoreboard] [WRITE] MATCH #22: ID=0xc ADDR=0x754a32ee LEN=67
# UVM_INFO ../src/seq/axi4_random_seq.sv(55) @ 41295000: uvm_test_top.env.master_agent.sqr@@rand_seq [axi4_random_seq] [22/50] AXI4_WRITE: ID=0xc ADDR=0x754a32ee LEN=67 BURST=AXI4_BURST_INCR
# UVM_INFO ../src/mst/axi4_master_driver.sv(55) @ 41295000: uvm_test_top.env.master_agent.drv [axi4_master_driver] Driving AXI4_WRITE  ID=0x7  ADDR=0xd95b641e  LEN=250
# UVM_INFO ../src/mst/axi4_master_driver.sv(94) @ 41295000: uvm_test_top.env.master_agent.drv [axi4_master_driver] Write order: AW || W (parallel)
# UVM_INFO ../src/slv/axi4_slave_driver.sv(165) @ 41325000: uvm_test_top.env.slave_agent.drv [axi4_slave_driver] AW received: ID=0x7 ADDR=0xd95b641e LEN=250 LOCK=AXI4_LOCK_EXCLUSIVE
# UVM_INFO ../src/mst/axi4_master_monitor.sv(124) @ 41325000: uvm_test_top.env.master_agent.mon [axi4_master_monitor] AW observed: ID=0x7 ADDR=0xd95b641e LEN=250
# UVM_INFO ../src/slv/axi4_slave_monitor.sv(116) @ 41325000: uvm_test_top.env.slave_agent.mon [axi4_slave_monitor] AW received: ID=0x7 ADDR=0xd95b641e LEN=250
# UVM_INFO ../src/slv/axi4_slave_monitor.sv(167) @ 46315000: uvm_test_top.env.slave_agent.mon [axi4_slave_monitor] W data assembled: ID=0x7 ADDR=0xd95b641e 251 beats
# UVM_INFO ../src/mst/axi4_master_monitor.sv(184) @ 46315000: uvm_test_top.env.master_agent.mon [axi4_master_monitor] W data assembled: ID=0x7 ADDR=0xd95b641e 251 beats
# UVM_INFO ../src/mst/axi4_master_driver.sv(197) @ 46345000: uvm_test_top.env.master_agent.drv [axi4_master_driver] Write response: AXI4_RESP_OKAY
# UVM_INFO ../src/slv/axi4_slave_driver.sv(261) @ 46345000: uvm_test_top.env.slave_agent.drv [axi4_slave_driver] Write complete: ID=0x7 ADDR=0xd95b641e RESP=AXI4_RESP_OKAY  251 beats processed
# UVM_INFO ../src/mst/axi4_master_monitor.sv(210) @ 46345000: uvm_test_top.env.master_agent.mon [axi4_master_monitor] Write complete: ID=0x7 ADDR=0xd95b641e RESP=AXI4_RESP_OKAY
# UVM_INFO ../src/env/axi4_scoreboard.sv(82) @ 46345000: uvm_test_top.env.scb [axi4_scoreboard] Master AXI4_WRITE received: ID=0x7 ADDR=0xd95b641e LEN=250
# UVM_INFO ../src/slv/axi4_slave_monitor.sv(189) @ 46345000: uvm_test_top.env.slave_agent.mon [axi4_slave_monitor] Write response sent: ID=0x7 ADDR=0xd95b641e RESP=AXI4_RESP_OKAY
# UVM_INFO ../src/env/axi4_scoreboard.sv(103) @ 46345000: uvm_test_top.env.scb [axi4_scoreboard] Slave AXI4_WRITE received: ID=0x7 ADDR=0xd95b641e LEN=250
# UVM_INFO ../src/env/axi4_scoreboard.sv(154) @ 46345000: uvm_test_top.env.scb [axi4_scoreboard] [WRITE] MATCH #23: ID=0x7 ADDR=0xd95b641e LEN=250
# UVM_INFO ../src/seq/axi4_random_seq.sv(55) @ 46345000: uvm_test_top.env.master_agent.sqr@@rand_seq [axi4_random_seq] [23/50] AXI4_WRITE: ID=0x7 ADDR=0xd95b641e LEN=250 BURST=AXI4_BURST_INCR
# UVM_INFO ../src/mst/axi4_master_driver.sv(55) @ 46345000: uvm_test_top.env.master_agent.drv [axi4_master_driver] Driving AXI4_WRITE  ID=0x1  ADDR=0xccfcc4f7  LEN=218
# UVM_INFO ../src/mst/axi4_master_driver.sv(101) @ 46345000: uvm_test_top.env.master_agent.drv [axi4_master_driver] Write order: AW -> W (sequential)
# UVM_INFO ../src/slv/axi4_slave_driver.sv(165) @ 46375000: uvm_test_top.env.slave_agent.drv [axi4_slave_driver] AW received: ID=0x1 ADDR=0xccfcc4f7 LEN=218 LOCK=AXI4_LOCK_NORMAL
# UVM_INFO ../src/slv/axi4_slave_monitor.sv(116) @ 46375000: uvm_test_top.env.slave_agent.mon [axi4_slave_monitor] AW received: ID=0x1 ADDR=0xccfcc4f7 LEN=218
# UVM_INFO ../src/mst/axi4_master_monitor.sv(124) @ 46375000: uvm_test_top.env.master_agent.mon [axi4_master_monitor] AW observed: ID=0x1 ADDR=0xccfcc4f7 LEN=218
# UVM_INFO ../src/slv/axi4_slave_monitor.sv(167) @ 50755000: uvm_test_top.env.slave_agent.mon [axi4_slave_monitor] W data assembled: ID=0x1 ADDR=0xccfcc4f7 219 beats
# UVM_INFO ../src/mst/axi4_master_monitor.sv(184) @ 50755000: uvm_test_top.env.master_agent.mon [axi4_master_monitor] W data assembled: ID=0x1 ADDR=0xccfcc4f7 219 beats
# UVM_INFO ../src/mst/axi4_master_driver.sv(197) @ 50785000: uvm_test_top.env.master_agent.drv [axi4_master_driver] Write response: AXI4_RESP_OKAY
# UVM_INFO ../src/slv/axi4_slave_driver.sv(261) @ 50785000: uvm_test_top.env.slave_agent.drv [axi4_slave_driver] Write complete: ID=0x1 ADDR=0xccfcc4f7 RESP=AXI4_RESP_OKAY  219 beats processed
# UVM_INFO ../src/mst/axi4_master_monitor.sv(210) @ 50785000: uvm_test_top.env.master_agent.mon [axi4_master_monitor] Write complete: ID=0x1 ADDR=0xccfcc4f7 RESP=AXI4_RESP_OKAY
# UVM_INFO ../src/env/axi4_scoreboard.sv(82) @ 50785000: uvm_test_top.env.scb [axi4_scoreboard] Master AXI4_WRITE received: ID=0x1 ADDR=0xccfcc4f7 LEN=218
# UVM_INFO ../src/slv/axi4_slave_monitor.sv(189) @ 50785000: uvm_test_top.env.slave_agent.mon [axi4_slave_monitor] Write response sent: ID=0x1 ADDR=0xccfcc4f7 RESP=AXI4_RESP_OKAY
# UVM_INFO ../src/env/axi4_scoreboard.sv(103) @ 50785000: uvm_test_top.env.scb [axi4_scoreboard] Slave AXI4_WRITE received: ID=0x1 ADDR=0xccfcc4f7 LEN=218
# UVM_INFO ../src/env/axi4_scoreboard.sv(154) @ 50785000: uvm_test_top.env.scb [axi4_scoreboard] [WRITE] MATCH #24: ID=0x1 ADDR=0xccfcc4f7 LEN=218
# UVM_INFO ../src/seq/axi4_random_seq.sv(55) @ 50785000: uvm_test_top.env.master_agent.sqr@@rand_seq [axi4_random_seq] [24/50] AXI4_WRITE: ID=0x1 ADDR=0xccfcc4f7 LEN=218 BURST=AXI4_BURST_INCR
# UVM_INFO ../src/mst/axi4_master_driver.sv(55) @ 50785000: uvm_test_top.env.master_agent.drv [axi4_master_driver] Driving AXI4_READ  ID=0xb  ADDR=0x80319544  LEN=1
# UVM_INFO ../src/slv/axi4_slave_driver.sv(300) @ 50815000: uvm_test_top.env.slave_agent.drv [axi4_slave_driver] AR received: ID=0xb ADDR=0x80319544 LEN=1 LOCK=AXI4_LOCK_NORMAL
# UVM_INFO ../src/slv/axi4_slave_monitor.sv(224) @ 50815000: uvm_test_top.env.slave_agent.mon [axi4_slave_monitor] AR received: ID=0xb ADDR=0x80319544 LEN=1
# UVM_INFO ../src/mst/axi4_master_monitor.sv(246) @ 50815000: uvm_test_top.env.master_agent.mon [axi4_master_monitor] AR observed: ID=0xb ADDR=0x80319544 LEN=1
# UVM_INFO ../src/mst/axi4_master_driver.sv(254) @ 50855000: uvm_test_top.env.master_agent.drv [axi4_master_driver] Read complete: 2 beats received
# UVM_INFO ../src/slv/axi4_slave_driver.sv(349) @ 50855000: uvm_test_top.env.slave_agent.drv [axi4_slave_driver] Read complete: ID=0xb ADDR=0x80319544 RESP=AXI4_RESP_OKAY  2 beats sent
# UVM_INFO ../src/slv/axi4_slave_monitor.sv(287) @ 50855000: uvm_test_top.env.slave_agent.mon [axi4_slave_monitor] Read data sent: ID=0xb ADDR=0x80319544 2 beats
# UVM_INFO ../src/env/axi4_scoreboard.sv(103) @ 50855000: uvm_test_top.env.scb [axi4_scoreboard] Slave AXI4_READ received: ID=0xb ADDR=0x80319544 LEN=1
# UVM_INFO ../src/mst/axi4_master_monitor.sv(314) @ 50855000: uvm_test_top.env.master_agent.mon [axi4_master_monitor] Read complete: ID=0xb ADDR=0x80319544 2 beats
# UVM_INFO ../src/env/axi4_scoreboard.sv(82) @ 50855000: uvm_test_top.env.scb [axi4_scoreboard] Master AXI4_READ received: ID=0xb ADDR=0x80319544 LEN=1
# UVM_INFO ../src/env/axi4_scoreboard.sv(154) @ 50855000: uvm_test_top.env.scb [axi4_scoreboard] [READ] MATCH #25: ID=0xb ADDR=0x80319544 LEN=1
# UVM_INFO ../src/seq/axi4_random_seq.sv(55) @ 50855000: uvm_test_top.env.master_agent.sqr@@rand_seq [axi4_random_seq] [25/50] AXI4_READ: ID=0xb ADDR=0x80319544 LEN=1 BURST=AXI4_BURST_WRAP
# UVM_INFO ../src/mst/axi4_master_driver.sv(55) @ 50855000: uvm_test_top.env.master_agent.drv [axi4_master_driver] Driving AXI4_WRITE  ID=0xf  ADDR=0x62cd00ac  LEN=3
# UVM_INFO ../src/mst/axi4_master_driver.sv(106) @ 50855000: uvm_test_top.env.master_agent.drv [axi4_master_driver] Write order: W -> AW (W first)
# UVM_INFO ../src/slv/axi4_slave_driver.sv(165) @ 50935000: uvm_test_top.env.slave_agent.drv [axi4_slave_driver] AW received: ID=0xf ADDR=0x62cd00ac LEN=3 LOCK=AXI4_LOCK_EXCLUSIVE
# UVM_INFO ../src/slv/axi4_slave_monitor.sv(116) @ 50935000: uvm_test_top.env.slave_agent.mon [axi4_slave_monitor] AW received: ID=0xf ADDR=0x62cd00ac LEN=3
# UVM_INFO ../src/mst/axi4_master_monitor.sv(124) @ 50935000: uvm_test_top.env.master_agent.mon [axi4_master_monitor] AW observed: ID=0xf ADDR=0x62cd00ac LEN=3
# UVM_INFO ../src/slv/axi4_slave_monitor.sv(167) @ 50935000: uvm_test_top.env.slave_agent.mon [axi4_slave_monitor] W data assembled: ID=0xf ADDR=0x62cd00ac 4 beats
# UVM_INFO ../src/mst/axi4_master_monitor.sv(184) @ 50935000: uvm_test_top.env.master_agent.mon [axi4_master_monitor] W data assembled: ID=0xf ADDR=0x62cd00ac 4 beats
# UVM_INFO ../src/mst/axi4_master_driver.sv(197) @ 50965000: uvm_test_top.env.master_agent.drv [axi4_master_driver] Write response: AXI4_RESP_OKAY
# UVM_INFO ../src/slv/axi4_slave_driver.sv(261) @ 50965000: uvm_test_top.env.slave_agent.drv [axi4_slave_driver] Write complete: ID=0xf ADDR=0x62cd00ac RESP=AXI4_RESP_OKAY  4 beats processed
# UVM_INFO ../src/mst/axi4_master_monitor.sv(210) @ 50965000: uvm_test_top.env.master_agent.mon [axi4_master_monitor] Write complete: ID=0xf ADDR=0x62cd00ac RESP=AXI4_RESP_OKAY
# UVM_INFO ../src/env/axi4_scoreboard.sv(82) @ 50965000: uvm_test_top.env.scb [axi4_scoreboard] Master AXI4_WRITE received: ID=0xf ADDR=0x62cd00ac LEN=3
# UVM_INFO ../src/slv/axi4_slave_monitor.sv(189) @ 50965000: uvm_test_top.env.slave_agent.mon [axi4_slave_monitor] Write response sent: ID=0xf ADDR=0x62cd00ac RESP=AXI4_RESP_OKAY
# UVM_INFO ../src/env/axi4_scoreboard.sv(103) @ 50965000: uvm_test_top.env.scb [axi4_scoreboard] Slave AXI4_WRITE received: ID=0xf ADDR=0x62cd00ac LEN=3
# UVM_INFO ../src/env/axi4_scoreboard.sv(154) @ 50965000: uvm_test_top.env.scb [axi4_scoreboard] [WRITE] MATCH #26: ID=0xf ADDR=0x62cd00ac LEN=3
# UVM_INFO ../src/seq/axi4_random_seq.sv(55) @ 50965000: uvm_test_top.env.master_agent.sqr@@rand_seq [axi4_random_seq] [26/50] AXI4_WRITE: ID=0xf ADDR=0x62cd00ac LEN=3 BURST=AXI4_BURST_WRAP
# UVM_INFO ../src/mst/axi4_master_driver.sv(55) @ 50965000: uvm_test_top.env.master_agent.drv [axi4_master_driver] Driving AXI4_WRITE  ID=0xf  ADDR=0x74b235aa  LEN=4
# UVM_INFO ../src/mst/axi4_master_driver.sv(94) @ 50965000: uvm_test_top.env.master_agent.drv [axi4_master_driver] Write order: AW || W (parallel)
# UVM_INFO ../src/slv/axi4_slave_driver.sv(165) @ 50995000: uvm_test_top.env.slave_agent.drv [axi4_slave_driver] AW received: ID=0xf ADDR=0x74b235aa LEN=4 LOCK=AXI4_LOCK_NORMAL
# UVM_INFO ../src/slv/axi4_slave_monitor.sv(116) @ 50995000: uvm_test_top.env.slave_agent.mon [axi4_slave_monitor] AW received: ID=0xf ADDR=0x74b235aa LEN=4
# UVM_INFO ../src/mst/axi4_master_monitor.sv(124) @ 50995000: uvm_test_top.env.master_agent.mon [axi4_master_monitor] AW observed: ID=0xf ADDR=0x74b235aa LEN=4
# UVM_INFO ../src/mst/axi4_master_monitor.sv(184) @ 51065000: uvm_test_top.env.master_agent.mon [axi4_master_monitor] W data assembled: ID=0xf ADDR=0x74b235aa 5 beats
# UVM_INFO ../src/slv/axi4_slave_monitor.sv(167) @ 51065000: uvm_test_top.env.slave_agent.mon [axi4_slave_monitor] W data assembled: ID=0xf ADDR=0x74b235aa 5 beats
# UVM_INFO ../src/mst/axi4_master_driver.sv(197) @ 51095000: uvm_test_top.env.master_agent.drv [axi4_master_driver] Write response: AXI4_RESP_OKAY
# UVM_INFO ../src/slv/axi4_slave_driver.sv(261) @ 51095000: uvm_test_top.env.slave_agent.drv [axi4_slave_driver] Write complete: ID=0xf ADDR=0x74b235aa RESP=AXI4_RESP_OKAY  5 beats processed
# UVM_INFO ../src/slv/axi4_slave_monitor.sv(189) @ 51095000: uvm_test_top.env.slave_agent.mon [axi4_slave_monitor] Write response sent: ID=0xf ADDR=0x74b235aa RESP=AXI4_RESP_OKAY
# UVM_INFO ../src/env/axi4_scoreboard.sv(103) @ 51095000: uvm_test_top.env.scb [axi4_scoreboard] Slave AXI4_WRITE received: ID=0xf ADDR=0x74b235aa LEN=4
# UVM_INFO ../src/mst/axi4_master_monitor.sv(210) @ 51095000: uvm_test_top.env.master_agent.mon [axi4_master_monitor] Write complete: ID=0xf ADDR=0x74b235aa RESP=AXI4_RESP_OKAY
# UVM_INFO ../src/env/axi4_scoreboard.sv(82) @ 51095000: uvm_test_top.env.scb [axi4_scoreboard] Master AXI4_WRITE received: ID=0xf ADDR=0x74b235aa LEN=4
# UVM_INFO ../src/env/axi4_scoreboard.sv(154) @ 51095000: uvm_test_top.env.scb [axi4_scoreboard] [WRITE] MATCH #27: ID=0xf ADDR=0x74b235aa LEN=4
# UVM_INFO ../src/seq/axi4_random_seq.sv(55) @ 51095000: uvm_test_top.env.master_agent.sqr@@rand_seq [axi4_random_seq] [27/50] AXI4_WRITE: ID=0xf ADDR=0x74b235aa LEN=4 BURST=AXI4_BURST_INCR
# UVM_INFO ../src/mst/axi4_master_driver.sv(55) @ 51095000: uvm_test_top.env.master_agent.drv [axi4_master_driver] Driving AXI4_WRITE  ID=0xb  ADDR=0xbf03d5e5  LEN=175
# UVM_INFO ../src/mst/axi4_master_driver.sv(94) @ 51095000: uvm_test_top.env.master_agent.drv [axi4_master_driver] Write order: AW || W (parallel)
# UVM_INFO ../src/slv/axi4_slave_driver.sv(165) @ 51125000: uvm_test_top.env.slave_agent.drv [axi4_slave_driver] AW received: ID=0xb ADDR=0xbf03d5e5 LEN=175 LOCK=AXI4_LOCK_NORMAL
# UVM_INFO ../src/mst/axi4_master_monitor.sv(124) @ 51125000: uvm_test_top.env.master_agent.mon [axi4_master_monitor] AW observed: ID=0xb ADDR=0xbf03d5e5 LEN=175
# UVM_INFO ../src/slv/axi4_slave_monitor.sv(116) @ 51125000: uvm_test_top.env.slave_agent.mon [axi4_slave_monitor] AW received: ID=0xb ADDR=0xbf03d5e5 LEN=175
# UVM_INFO ../src/slv/axi4_slave_monitor.sv(167) @ 54615000: uvm_test_top.env.slave_agent.mon [axi4_slave_monitor] W data assembled: ID=0xb ADDR=0xbf03d5e5 176 beats
# UVM_INFO ../src/mst/axi4_master_monitor.sv(184) @ 54615000: uvm_test_top.env.master_agent.mon [axi4_master_monitor] W data assembled: ID=0xb ADDR=0xbf03d5e5 176 beats
# UVM_INFO ../src/mst/axi4_master_driver.sv(197) @ 54645000: uvm_test_top.env.master_agent.drv [axi4_master_driver] Write response: AXI4_RESP_OKAY
# UVM_INFO ../src/slv/axi4_slave_driver.sv(261) @ 54645000: uvm_test_top.env.slave_agent.drv [axi4_slave_driver] Write complete: ID=0xb ADDR=0xbf03d5e5 RESP=AXI4_RESP_OKAY  176 beats processed
# UVM_INFO ../src/mst/axi4_master_monitor.sv(210) @ 54645000: uvm_test_top.env.master_agent.mon [axi4_master_monitor] Write complete: ID=0xb ADDR=0xbf03d5e5 RESP=AXI4_RESP_OKAY
# UVM_INFO ../src/env/axi4_scoreboard.sv(82) @ 54645000: uvm_test_top.env.scb [axi4_scoreboard] Master AXI4_WRITE received: ID=0xb ADDR=0xbf03d5e5 LEN=175
# UVM_INFO ../src/slv/axi4_slave_monitor.sv(189) @ 54645000: uvm_test_top.env.slave_agent.mon [axi4_slave_monitor] Write response sent: ID=0xb ADDR=0xbf03d5e5 RESP=AXI4_RESP_OKAY
# UVM_INFO ../src/env/axi4_scoreboard.sv(103) @ 54645000: uvm_test_top.env.scb [axi4_scoreboard] Slave AXI4_WRITE received: ID=0xb ADDR=0xbf03d5e5 LEN=175
# UVM_INFO ../src/env/axi4_scoreboard.sv(154) @ 54645000: uvm_test_top.env.scb [axi4_scoreboard] [WRITE] MATCH #28: ID=0xb ADDR=0xbf03d5e5 LEN=175
# UVM_INFO ../src/seq/axi4_random_seq.sv(55) @ 54645000: uvm_test_top.env.master_agent.sqr@@rand_seq [axi4_random_seq] [28/50] AXI4_WRITE: ID=0xb ADDR=0xbf03d5e5 LEN=175 BURST=AXI4_BURST_INCR
# UVM_INFO ../src/mst/axi4_master_driver.sv(55) @ 54645000: uvm_test_top.env.master_agent.drv [axi4_master_driver] Driving AXI4_WRITE  ID=0x1  ADDR=0xda7c02fe  LEN=39
# UVM_INFO ../src/mst/axi4_master_driver.sv(101) @ 54645000: uvm_test_top.env.master_agent.drv [axi4_master_driver] Write order: AW -> W (sequential)
# UVM_INFO ../src/slv/axi4_slave_driver.sv(165) @ 54675000: uvm_test_top.env.slave_agent.drv [axi4_slave_driver] AW received: ID=0x1 ADDR=0xda7c02fe LEN=39 LOCK=AXI4_LOCK_NORMAL
# UVM_INFO ../src/slv/axi4_slave_monitor.sv(116) @ 54675000: uvm_test_top.env.slave_agent.mon [axi4_slave_monitor] AW received: ID=0x1 ADDR=0xda7c02fe LEN=39
# UVM_INFO ../src/mst/axi4_master_monitor.sv(124) @ 54675000: uvm_test_top.env.master_agent.mon [axi4_master_monitor] AW observed: ID=0x1 ADDR=0xda7c02fe LEN=39
# UVM_INFO ../src/slv/axi4_slave_monitor.sv(167) @ 55475000: uvm_test_top.env.slave_agent.mon [axi4_slave_monitor] W data assembled: ID=0x1 ADDR=0xda7c02fe 40 beats
# UVM_INFO ../src/mst/axi4_master_monitor.sv(184) @ 55475000: uvm_test_top.env.master_agent.mon [axi4_master_monitor] W data assembled: ID=0x1 ADDR=0xda7c02fe 40 beats
# UVM_INFO ../src/mst/axi4_master_driver.sv(197) @ 55505000: uvm_test_top.env.master_agent.drv [axi4_master_driver] Write response: AXI4_RESP_OKAY
# UVM_INFO ../src/slv/axi4_slave_driver.sv(261) @ 55505000: uvm_test_top.env.slave_agent.drv [axi4_slave_driver] Write complete: ID=0x1 ADDR=0xda7c02fe RESP=AXI4_RESP_OKAY  40 beats processed
# UVM_INFO ../src/mst/axi4_master_monitor.sv(210) @ 55505000: uvm_test_top.env.master_agent.mon [axi4_master_monitor] Write complete: ID=0x1 ADDR=0xda7c02fe RESP=AXI4_RESP_OKAY
# UVM_INFO ../src/env/axi4_scoreboard.sv(82) @ 55505000: uvm_test_top.env.scb [axi4_scoreboard] Master AXI4_WRITE received: ID=0x1 ADDR=0xda7c02fe LEN=39
# UVM_INFO ../src/slv/axi4_slave_monitor.sv(189) @ 55505000: uvm_test_top.env.slave_agent.mon [axi4_slave_monitor] Write response sent: ID=0x1 ADDR=0xda7c02fe RESP=AXI4_RESP_OKAY
# UVM_INFO ../src/env/axi4_scoreboard.sv(103) @ 55505000: uvm_test_top.env.scb [axi4_scoreboard] Slave AXI4_WRITE received: ID=0x1 ADDR=0xda7c02fe LEN=39
# UVM_INFO ../src/env/axi4_scoreboard.sv(154) @ 55505000: uvm_test_top.env.scb [axi4_scoreboard] [WRITE] MATCH #29: ID=0x1 ADDR=0xda7c02fe LEN=39
# UVM_INFO ../src/seq/axi4_random_seq.sv(55) @ 55505000: uvm_test_top.env.master_agent.sqr@@rand_seq [axi4_random_seq] [29/50] AXI4_WRITE: ID=0x1 ADDR=0xda7c02fe LEN=39 BURST=AXI4_BURST_INCR
# UVM_INFO ../src/mst/axi4_master_driver.sv(55) @ 55505000: uvm_test_top.env.master_agent.drv [axi4_master_driver] Driving AXI4_READ  ID=0xa  ADDR=0x7005f4a1  LEN=1
# UVM_INFO ../src/slv/axi4_slave_driver.sv(300) @ 55535000: uvm_test_top.env.slave_agent.drv [axi4_slave_driver] AR received: ID=0xa ADDR=0x7005f4a1 LEN=1 LOCK=AXI4_LOCK_NORMAL
# UVM_INFO ../src/slv/axi4_slave_monitor.sv(224) @ 55535000: uvm_test_top.env.slave_agent.mon [axi4_slave_monitor] AR received: ID=0xa ADDR=0x7005f4a1 LEN=1
# UVM_INFO ../src/mst/axi4_master_monitor.sv(246) @ 55535000: uvm_test_top.env.master_agent.mon [axi4_master_monitor] AR observed: ID=0xa ADDR=0x7005f4a1 LEN=1
# UVM_INFO ../src/mst/axi4_master_driver.sv(254) @ 55575000: uvm_test_top.env.master_agent.drv [axi4_master_driver] Read complete: 2 beats received
# UVM_INFO ../src/slv/axi4_slave_driver.sv(349) @ 55575000: uvm_test_top.env.slave_agent.drv [axi4_slave_driver] Read complete: ID=0xa ADDR=0x7005f4a1 RESP=AXI4_RESP_OKAY  2 beats sent
# UVM_INFO ../src/slv/axi4_slave_monitor.sv(287) @ 55575000: uvm_test_top.env.slave_agent.mon [axi4_slave_monitor] Read data sent: ID=0xa ADDR=0x7005f4a1 2 beats
# UVM_INFO ../src/env/axi4_scoreboard.sv(103) @ 55575000: uvm_test_top.env.scb [axi4_scoreboard] Slave AXI4_READ received: ID=0xa ADDR=0x7005f4a1 LEN=1
# UVM_INFO ../src/mst/axi4_master_monitor.sv(314) @ 55575000: uvm_test_top.env.master_agent.mon [axi4_master_monitor] Read complete: ID=0xa ADDR=0x7005f4a1 2 beats
# UVM_INFO ../src/env/axi4_scoreboard.sv(82) @ 55575000: uvm_test_top.env.scb [axi4_scoreboard] Master AXI4_READ received: ID=0xa ADDR=0x7005f4a1 LEN=1
# UVM_INFO ../src/env/axi4_scoreboard.sv(154) @ 55575000: uvm_test_top.env.scb [axi4_scoreboard] [READ] MATCH #30: ID=0xa ADDR=0x7005f4a1 LEN=1
# UVM_INFO ../src/seq/axi4_random_seq.sv(55) @ 55575000: uvm_test_top.env.master_agent.sqr@@rand_seq [axi4_random_seq] [30/50] AXI4_READ: ID=0xa ADDR=0x7005f4a1 LEN=1 BURST=AXI4_BURST_FIXED
# UVM_INFO ../src/mst/axi4_master_driver.sv(55) @ 55575000: uvm_test_top.env.master_agent.drv [axi4_master_driver] Driving AXI4_READ  ID=0xe  ADDR=0x30ab0481  LEN=12
# UVM_INFO ../src/slv/axi4_slave_driver.sv(300) @ 55605000: uvm_test_top.env.slave_agent.drv [axi4_slave_driver] AR received: ID=0xe ADDR=0x30ab0481 LEN=12 LOCK=AXI4_LOCK_EXCLUSIVE
# UVM_INFO ../src/mst/axi4_master_monitor.sv(246) @ 55605000: uvm_test_top.env.master_agent.mon [axi4_master_monitor] AR observed: ID=0xe ADDR=0x30ab0481 LEN=12
# UVM_INFO ../src/slv/axi4_slave_monitor.sv(224) @ 55605000: uvm_test_top.env.slave_agent.mon [axi4_slave_monitor] AR received: ID=0xe ADDR=0x30ab0481 LEN=12
# UVM_INFO ../src/mst/axi4_master_driver.sv(254) @ 55865000: uvm_test_top.env.master_agent.drv [axi4_master_driver] Read complete: 13 beats received
# UVM_INFO ../src/slv/axi4_slave_driver.sv(349) @ 55865000: uvm_test_top.env.slave_agent.drv [axi4_slave_driver] Read complete: ID=0xe ADDR=0x30ab0481 RESP=AXI4_RESP_EXOKAY  13 beats sent
# UVM_INFO ../src/mst/axi4_master_monitor.sv(314) @ 55865000: uvm_test_top.env.master_agent.mon [axi4_master_monitor] Read complete: ID=0xe ADDR=0x30ab0481 13 beats
# UVM_INFO ../src/env/axi4_scoreboard.sv(82) @ 55865000: uvm_test_top.env.scb [axi4_scoreboard] Master AXI4_READ received: ID=0xe ADDR=0x30ab0481 LEN=12
# UVM_INFO ../src/slv/axi4_slave_monitor.sv(287) @ 55865000: uvm_test_top.env.slave_agent.mon [axi4_slave_monitor] Read data sent: ID=0xe ADDR=0x30ab0481 13 beats
# UVM_INFO ../src/env/axi4_scoreboard.sv(103) @ 55865000: uvm_test_top.env.scb [axi4_scoreboard] Slave AXI4_READ received: ID=0xe ADDR=0x30ab0481 LEN=12
# UVM_INFO ../src/env/axi4_scoreboard.sv(154) @ 55865000: uvm_test_top.env.scb [axi4_scoreboard] [READ] MATCH #31: ID=0xe ADDR=0x30ab0481 LEN=12
# UVM_INFO ../src/seq/axi4_random_seq.sv(55) @ 55865000: uvm_test_top.env.master_agent.sqr@@rand_seq [axi4_random_seq] [31/50] AXI4_READ: ID=0xe ADDR=0x30ab0481 LEN=12 BURST=AXI4_BURST_INCR
# UVM_INFO ../src/mst/axi4_master_driver.sv(55) @ 55865000: uvm_test_top.env.master_agent.drv [axi4_master_driver] Driving AXI4_WRITE  ID=0x5  ADDR=0x905f3559  LEN=15
# UVM_INFO ../src/mst/axi4_master_driver.sv(106) @ 55865000: uvm_test_top.env.master_agent.drv [axi4_master_driver] Write order: W -> AW (W first)
# UVM_INFO ../src/slv/axi4_slave_driver.sv(165) @ 55925000: uvm_test_top.env.slave_agent.drv [axi4_slave_driver] AW received: ID=0x5 ADDR=0x905f3559 LEN=15 LOCK=AXI4_LOCK_NORMAL
# UVM_INFO ../src/mst/axi4_master_monitor.sv(124) @ 55925000: uvm_test_top.env.master_agent.mon [axi4_master_monitor] AW observed: ID=0x5 ADDR=0x905f3559 LEN=15
# UVM_INFO ../src/slv/axi4_slave_monitor.sv(116) @ 55925000: uvm_test_top.env.slave_agent.mon [axi4_slave_monitor] AW received: ID=0x5 ADDR=0x905f3559 LEN=15
# UVM_INFO ../src/mst/axi4_master_monitor.sv(184) @ 56185000: uvm_test_top.env.master_agent.mon [axi4_master_monitor] W data assembled: ID=0x5 ADDR=0x905f3559 16 beats
# UVM_INFO ../src/slv/axi4_slave_monitor.sv(167) @ 56185000: uvm_test_top.env.slave_agent.mon [axi4_slave_monitor] W data assembled: ID=0x5 ADDR=0x905f3559 16 beats
# UVM_INFO ../src/mst/axi4_master_driver.sv(197) @ 56215000: uvm_test_top.env.master_agent.drv [axi4_master_driver] Write response: AXI4_RESP_OKAY
# UVM_INFO ../src/slv/axi4_slave_driver.sv(261) @ 56215000: uvm_test_top.env.slave_agent.drv [axi4_slave_driver] Write complete: ID=0x5 ADDR=0x905f3559 RESP=AXI4_RESP_OKAY  16 beats processed
# UVM_INFO ../src/slv/axi4_slave_monitor.sv(189) @ 56215000: uvm_test_top.env.slave_agent.mon [axi4_slave_monitor] Write response sent: ID=0x5 ADDR=0x905f3559 RESP=AXI4_RESP_OKAY
# UVM_INFO ../src/env/axi4_scoreboard.sv(103) @ 56215000: uvm_test_top.env.scb [axi4_scoreboard] Slave AXI4_WRITE received: ID=0x5 ADDR=0x905f3559 LEN=15
# UVM_INFO ../src/mst/axi4_master_monitor.sv(210) @ 56215000: uvm_test_top.env.master_agent.mon [axi4_master_monitor] Write complete: ID=0x5 ADDR=0x905f3559 RESP=AXI4_RESP_OKAY
# UVM_INFO ../src/env/axi4_scoreboard.sv(82) @ 56215000: uvm_test_top.env.scb [axi4_scoreboard] Master AXI4_WRITE received: ID=0x5 ADDR=0x905f3559 LEN=15
# UVM_INFO ../src/env/axi4_scoreboard.sv(154) @ 56215000: uvm_test_top.env.scb [axi4_scoreboard] [WRITE] MATCH #32: ID=0x5 ADDR=0x905f3559 LEN=15
# UVM_INFO ../src/seq/axi4_random_seq.sv(55) @ 56215000: uvm_test_top.env.master_agent.sqr@@rand_seq [axi4_random_seq] [32/50] AXI4_WRITE: ID=0x5 ADDR=0x905f3559 LEN=15 BURST=AXI4_BURST_FIXED
# UVM_INFO ../src/mst/axi4_master_driver.sv(55) @ 56215000: uvm_test_top.env.master_agent.drv [axi4_master_driver] Driving AXI4_WRITE  ID=0xe  ADDR=0x2791824a  LEN=27
# UVM_INFO ../src/mst/axi4_master_driver.sv(94) @ 56215000: uvm_test_top.env.master_agent.drv [axi4_master_driver] Write order: AW || W (parallel)
# UVM_INFO ../src/slv/axi4_slave_driver.sv(165) @ 56245000: uvm_test_top.env.slave_agent.drv [axi4_slave_driver] AW received: ID=0xe ADDR=0x2791824a LEN=27 LOCK=AXI4_LOCK_EXCLUSIVE
# UVM_INFO ../src/mst/axi4_master_monitor.sv(124) @ 56245000: uvm_test_top.env.master_agent.mon [axi4_master_monitor] AW observed: ID=0xe ADDR=0x2791824a LEN=27
# UVM_INFO ../src/slv/axi4_slave_monitor.sv(116) @ 56245000: uvm_test_top.env.slave_agent.mon [axi4_slave_monitor] AW received: ID=0xe ADDR=0x2791824a LEN=27
# UVM_INFO ../src/slv/axi4_slave_monitor.sv(167) @ 56775000: uvm_test_top.env.slave_agent.mon [axi4_slave_monitor] W data assembled: ID=0xe ADDR=0x2791824a 28 beats
# UVM_INFO ../src/mst/axi4_master_monitor.sv(184) @ 56775000: uvm_test_top.env.master_agent.mon [axi4_master_monitor] W data assembled: ID=0xe ADDR=0x2791824a 28 beats
# UVM_INFO ../src/mst/axi4_master_driver.sv(197) @ 56805000: uvm_test_top.env.master_agent.drv [axi4_master_driver] Write response: AXI4_RESP_OKAY
# UVM_INFO ../src/slv/axi4_slave_driver.sv(261) @ 56805000: uvm_test_top.env.slave_agent.drv [axi4_slave_driver] Write complete: ID=0xe ADDR=0x2791824a RESP=AXI4_RESP_OKAY  28 beats processed
# UVM_INFO ../src/mst/axi4_master_monitor.sv(210) @ 56805000: uvm_test_top.env.master_agent.mon [axi4_master_monitor] Write complete: ID=0xe ADDR=0x2791824a RESP=AXI4_RESP_OKAY
# UVM_INFO ../src/env/axi4_scoreboard.sv(82) @ 56805000: uvm_test_top.env.scb [axi4_scoreboard] Master AXI4_WRITE received: ID=0xe ADDR=0x2791824a LEN=27
# UVM_INFO ../src/slv/axi4_slave_monitor.sv(189) @ 56805000: uvm_test_top.env.slave_agent.mon [axi4_slave_monitor] Write response sent: ID=0xe ADDR=0x2791824a RESP=AXI4_RESP_OKAY
# UVM_INFO ../src/env/axi4_scoreboard.sv(103) @ 56805000: uvm_test_top.env.scb [axi4_scoreboard] Slave AXI4_WRITE received: ID=0xe ADDR=0x2791824a LEN=27
# UVM_INFO ../src/env/axi4_scoreboard.sv(154) @ 56805000: uvm_test_top.env.scb [axi4_scoreboard] [WRITE] MATCH #33: ID=0xe ADDR=0x2791824a LEN=27
# UVM_INFO ../src/seq/axi4_random_seq.sv(55) @ 56805000: uvm_test_top.env.master_agent.sqr@@rand_seq [axi4_random_seq] [33/50] AXI4_WRITE: ID=0xe ADDR=0x2791824a LEN=27 BURST=AXI4_BURST_INCR
# UVM_INFO ../src/mst/axi4_master_driver.sv(55) @ 56805000: uvm_test_top.env.master_agent.drv [axi4_master_driver] Driving AXI4_WRITE  ID=0xb  ADDR=0x826689cc  LEN=221
# UVM_INFO ../src/mst/axi4_master_driver.sv(94) @ 56805000: uvm_test_top.env.master_agent.drv [axi4_master_driver] Write order: AW || W (parallel)
# UVM_INFO ../src/slv/axi4_slave_driver.sv(165) @ 56835000: uvm_test_top.env.slave_agent.drv [axi4_slave_driver] AW received: ID=0xb ADDR=0x826689cc LEN=221 LOCK=AXI4_LOCK_EXCLUSIVE
# UVM_INFO ../src/slv/axi4_slave_monitor.sv(116) @ 56835000: uvm_test_top.env.slave_agent.mon [axi4_slave_monitor] AW received: ID=0xb ADDR=0x826689cc LEN=221
# UVM_INFO ../src/mst/axi4_master_monitor.sv(124) @ 56835000: uvm_test_top.env.master_agent.mon [axi4_master_monitor] AW observed: ID=0xb ADDR=0x826689cc LEN=221
# UVM_INFO ../src/mst/axi4_master_monitor.sv(184) @ 61245000: uvm_test_top.env.master_agent.mon [axi4_master_monitor] W data assembled: ID=0xb ADDR=0x826689cc 222 beats
# UVM_INFO ../src/slv/axi4_slave_monitor.sv(167) @ 61245000: uvm_test_top.env.slave_agent.mon [axi4_slave_monitor] W data assembled: ID=0xb ADDR=0x826689cc 222 beats
# UVM_INFO ../src/mst/axi4_master_driver.sv(197) @ 61275000: uvm_test_top.env.master_agent.drv [axi4_master_driver] Write response: AXI4_RESP_OKAY
# UVM_INFO ../src/slv/axi4_slave_driver.sv(261) @ 61275000: uvm_test_top.env.slave_agent.drv [axi4_slave_driver] Write complete: ID=0xb ADDR=0x826689cc RESP=AXI4_RESP_OKAY  222 beats processed
# UVM_INFO ../src/slv/axi4_slave_monitor.sv(189) @ 61275000: uvm_test_top.env.slave_agent.mon [axi4_slave_monitor] Write response sent: ID=0xb ADDR=0x826689cc RESP=AXI4_RESP_OKAY
# UVM_INFO ../src/env/axi4_scoreboard.sv(103) @ 61275000: uvm_test_top.env.scb [axi4_scoreboard] Slave AXI4_WRITE received: ID=0xb ADDR=0x826689cc LEN=221
# UVM_INFO ../src/mst/axi4_master_monitor.sv(210) @ 61275000: uvm_test_top.env.master_agent.mon [axi4_master_monitor] Write complete: ID=0xb ADDR=0x826689cc RESP=AXI4_RESP_OKAY
# UVM_INFO ../src/env/axi4_scoreboard.sv(82) @ 61275000: uvm_test_top.env.scb [axi4_scoreboard] Master AXI4_WRITE received: ID=0xb ADDR=0x826689cc LEN=221
# UVM_INFO ../src/env/axi4_scoreboard.sv(154) @ 61275000: uvm_test_top.env.scb [axi4_scoreboard] [WRITE] MATCH #34: ID=0xb ADDR=0x826689cc LEN=221
# UVM_INFO ../src/seq/axi4_random_seq.sv(55) @ 61275000: uvm_test_top.env.master_agent.sqr@@rand_seq [axi4_random_seq] [34/50] AXI4_WRITE: ID=0xb ADDR=0x826689cc LEN=221 BURST=AXI4_BURST_INCR
# UVM_INFO ../src/mst/axi4_master_driver.sv(55) @ 61275000: uvm_test_top.env.master_agent.drv [axi4_master_driver] Driving AXI4_WRITE  ID=0xc  ADDR=0xba10b3fc  LEN=21
# UVM_INFO ../src/mst/axi4_master_driver.sv(94) @ 61275000: uvm_test_top.env.master_agent.drv [axi4_master_driver] Write order: AW || W (parallel)
# UVM_INFO ../src/slv/axi4_slave_driver.sv(165) @ 61305000: uvm_test_top.env.slave_agent.drv [axi4_slave_driver] AW received: ID=0xc ADDR=0xba10b3fc LEN=21 LOCK=AXI4_LOCK_EXCLUSIVE
# UVM_INFO ../src/mst/axi4_master_monitor.sv(124) @ 61305000: uvm_test_top.env.master_agent.mon [axi4_master_monitor] AW observed: ID=0xc ADDR=0xba10b3fc LEN=21
# UVM_INFO ../src/slv/axi4_slave_monitor.sv(116) @ 61305000: uvm_test_top.env.slave_agent.mon [axi4_slave_monitor] AW received: ID=0xc ADDR=0xba10b3fc LEN=21
# UVM_INFO ../src/slv/axi4_slave_monitor.sv(167) @ 61715000: uvm_test_top.env.slave_agent.mon [axi4_slave_monitor] W data assembled: ID=0xc ADDR=0xba10b3fc 22 beats
# UVM_INFO ../src/mst/axi4_master_monitor.sv(184) @ 61715000: uvm_test_top.env.master_agent.mon [axi4_master_monitor] W data assembled: ID=0xc ADDR=0xba10b3fc 22 beats
# UVM_INFO ../src/mst/axi4_master_driver.sv(197) @ 61745000: uvm_test_top.env.master_agent.drv [axi4_master_driver] Write response: AXI4_RESP_OKAY
# UVM_INFO ../src/slv/axi4_slave_driver.sv(261) @ 61745000: uvm_test_top.env.slave_agent.drv [axi4_slave_driver] Write complete: ID=0xc ADDR=0xba10b3fc RESP=AXI4_RESP_OKAY  22 beats processed
# UVM_INFO ../src/mst/axi4_master_monitor.sv(210) @ 61745000: uvm_test_top.env.master_agent.mon [axi4_master_monitor] Write complete: ID=0xc ADDR=0xba10b3fc RESP=AXI4_RESP_OKAY
# UVM_INFO ../src/env/axi4_scoreboard.sv(82) @ 61745000: uvm_test_top.env.scb [axi4_scoreboard] Master AXI4_WRITE received: ID=0xc ADDR=0xba10b3fc LEN=21
# UVM_INFO ../src/slv/axi4_slave_monitor.sv(189) @ 61745000: uvm_test_top.env.slave_agent.mon [axi4_slave_monitor] Write response sent: ID=0xc ADDR=0xba10b3fc RESP=AXI4_RESP_OKAY
# UVM_INFO ../src/env/axi4_scoreboard.sv(103) @ 61745000: uvm_test_top.env.scb [axi4_scoreboard] Slave AXI4_WRITE received: ID=0xc ADDR=0xba10b3fc LEN=21
# UVM_INFO ../src/env/axi4_scoreboard.sv(154) @ 61745000: uvm_test_top.env.scb [axi4_scoreboard] [WRITE] MATCH #35: ID=0xc ADDR=0xba10b3fc LEN=21
# UVM_INFO ../src/seq/axi4_random_seq.sv(55) @ 61745000: uvm_test_top.env.master_agent.sqr@@rand_seq [axi4_random_seq] [35/50] AXI4_WRITE: ID=0xc ADDR=0xba10b3fc LEN=21 BURST=AXI4_BURST_INCR
# UVM_INFO ../src/mst/axi4_master_driver.sv(55) @ 61745000: uvm_test_top.env.master_agent.drv [axi4_master_driver] Driving AXI4_WRITE  ID=0x3  ADDR=0xa644b404  LEN=11
# UVM_INFO ../src/mst/axi4_master_driver.sv(94) @ 61745000: uvm_test_top.env.master_agent.drv [axi4_master_driver] Write order: AW || W (parallel)
# UVM_INFO ../src/slv/axi4_slave_driver.sv(165) @ 61775000: uvm_test_top.env.slave_agent.drv [axi4_slave_driver] AW received: ID=0x3 ADDR=0xa644b404 LEN=11 LOCK=AXI4_LOCK_EXCLUSIVE
# UVM_INFO ../src/slv/axi4_slave_monitor.sv(116) @ 61775000: uvm_test_top.env.slave_agent.mon [axi4_slave_monitor] AW received: ID=0x3 ADDR=0xa644b404 LEN=11
# UVM_INFO ../src/mst/axi4_master_monitor.sv(124) @ 61775000: uvm_test_top.env.master_agent.mon [axi4_master_monitor] AW observed: ID=0x3 ADDR=0xa644b404 LEN=11
# UVM_INFO ../src/mst/axi4_master_monitor.sv(184) @ 61985000: uvm_test_top.env.master_agent.mon [axi4_master_monitor] W data assembled: ID=0x3 ADDR=0xa644b404 12 beats
# UVM_INFO ../src/slv/axi4_slave_monitor.sv(167) @ 61985000: uvm_test_top.env.slave_agent.mon [axi4_slave_monitor] W data assembled: ID=0x3 ADDR=0xa644b404 12 beats
# UVM_INFO ../src/mst/axi4_master_driver.sv(197) @ 62015000: uvm_test_top.env.master_agent.drv [axi4_master_driver] Write response: AXI4_RESP_OKAY
# UVM_INFO ../src/slv/axi4_slave_driver.sv(261) @ 62015000: uvm_test_top.env.slave_agent.drv [axi4_slave_driver] Write complete: ID=0x3 ADDR=0xa644b404 RESP=AXI4_RESP_OKAY  12 beats processed
# UVM_INFO ../src/slv/axi4_slave_monitor.sv(189) @ 62015000: uvm_test_top.env.slave_agent.mon [axi4_slave_monitor] Write response sent: ID=0x3 ADDR=0xa644b404 RESP=AXI4_RESP_OKAY
# UVM_INFO ../src/env/axi4_scoreboard.sv(103) @ 62015000: uvm_test_top.env.scb [axi4_scoreboard] Slave AXI4_WRITE received: ID=0x3 ADDR=0xa644b404 LEN=11
# UVM_INFO ../src/mst/axi4_master_monitor.sv(210) @ 62015000: uvm_test_top.env.master_agent.mon [axi4_master_monitor] Write complete: ID=0x3 ADDR=0xa644b404 RESP=AXI4_RESP_OKAY
# UVM_INFO ../src/env/axi4_scoreboard.sv(82) @ 62015000: uvm_test_top.env.scb [axi4_scoreboard] Master AXI4_WRITE received: ID=0x3 ADDR=0xa644b404 LEN=11
# UVM_INFO ../src/env/axi4_scoreboard.sv(154) @ 62015000: uvm_test_top.env.scb [axi4_scoreboard] [WRITE] MATCH #36: ID=0x3 ADDR=0xa644b404 LEN=11
# UVM_INFO ../src/seq/axi4_random_seq.sv(55) @ 62015000: uvm_test_top.env.master_agent.sqr@@rand_seq [axi4_random_seq] [36/50] AXI4_WRITE: ID=0x3 ADDR=0xa644b404 LEN=11 BURST=AXI4_BURST_FIXED
# UVM_INFO ../src/mst/axi4_master_driver.sv(55) @ 62015000: uvm_test_top.env.master_agent.drv [axi4_master_driver] Driving AXI4_WRITE  ID=0x6  ADDR=0x1e448099  LEN=48
# UVM_INFO ../src/mst/axi4_master_driver.sv(94) @ 62015000: uvm_test_top.env.master_agent.drv [axi4_master_driver] Write order: AW || W (parallel)
# UVM_INFO ../src/slv/axi4_slave_driver.sv(165) @ 62045000: uvm_test_top.env.slave_agent.drv [axi4_slave_driver] AW received: ID=0x6 ADDR=0x1e448099 LEN=48 LOCK=AXI4_LOCK_EXCLUSIVE
# UVM_INFO ../src/mst/axi4_master_monitor.sv(124) @ 62045000: uvm_test_top.env.master_agent.mon [axi4_master_monitor] AW observed: ID=0x6 ADDR=0x1e448099 LEN=48
# UVM_INFO ../src/slv/axi4_slave_monitor.sv(116) @ 62045000: uvm_test_top.env.slave_agent.mon [axi4_slave_monitor] AW received: ID=0x6 ADDR=0x1e448099 LEN=48
# UVM_INFO ../src/slv/axi4_slave_monitor.sv(167) @ 62995000: uvm_test_top.env.slave_agent.mon [axi4_slave_monitor] W data assembled: ID=0x6 ADDR=0x1e448099 49 beats
# UVM_INFO ../src/mst/axi4_master_monitor.sv(184) @ 62995000: uvm_test_top.env.master_agent.mon [axi4_master_monitor] W data assembled: ID=0x6 ADDR=0x1e448099 49 beats
# UVM_INFO ../src/mst/axi4_master_driver.sv(197) @ 63025000: uvm_test_top.env.master_agent.drv [axi4_master_driver] Write response: AXI4_RESP_OKAY
# UVM_INFO ../src/slv/axi4_slave_driver.sv(261) @ 63025000: uvm_test_top.env.slave_agent.drv [axi4_slave_driver] Write complete: ID=0x6 ADDR=0x1e448099 RESP=AXI4_RESP_OKAY  49 beats processed
# UVM_INFO ../src/mst/axi4_master_monitor.sv(210) @ 63025000: uvm_test_top.env.master_agent.mon [axi4_master_monitor] Write complete: ID=0x6 ADDR=0x1e448099 RESP=AXI4_RESP_OKAY
# UVM_INFO ../src/env/axi4_scoreboard.sv(82) @ 63025000: uvm_test_top.env.scb [axi4_scoreboard] Master AXI4_WRITE received: ID=0x6 ADDR=0x1e448099 LEN=48
# UVM_INFO ../src/slv/axi4_slave_monitor.sv(189) @ 63025000: uvm_test_top.env.slave_agent.mon [axi4_slave_monitor] Write response sent: ID=0x6 ADDR=0x1e448099 RESP=AXI4_RESP_OKAY
# UVM_INFO ../src/env/axi4_scoreboard.sv(103) @ 63025000: uvm_test_top.env.scb [axi4_scoreboard] Slave AXI4_WRITE received: ID=0x6 ADDR=0x1e448099 LEN=48
# UVM_INFO ../src/env/axi4_scoreboard.sv(154) @ 63025000: uvm_test_top.env.scb [axi4_scoreboard] [WRITE] MATCH #37: ID=0x6 ADDR=0x1e448099 LEN=48
# UVM_INFO ../src/seq/axi4_random_seq.sv(55) @ 63025000: uvm_test_top.env.master_agent.sqr@@rand_seq [axi4_random_seq] [37/50] AXI4_WRITE: ID=0x6 ADDR=0x1e448099 LEN=48 BURST=AXI4_BURST_INCR
# UVM_INFO ../src/mst/axi4_master_driver.sv(55) @ 63025000: uvm_test_top.env.master_agent.drv [axi4_master_driver] Driving AXI4_WRITE  ID=0x6  ADDR=0xfd71e7d9  LEN=25
# UVM_INFO ../src/mst/axi4_master_driver.sv(94) @ 63025000: uvm_test_top.env.master_agent.drv [axi4_master_driver] Write order: AW || W (parallel)
# UVM_INFO ../src/slv/axi4_slave_driver.sv(165) @ 63055000: uvm_test_top.env.slave_agent.drv [axi4_slave_driver] AW received: ID=0x6 ADDR=0xfd71e7d9 LEN=25 LOCK=AXI4_LOCK_EXCLUSIVE
# UVM_INFO ../src/slv/axi4_slave_monitor.sv(116) @ 63055000: uvm_test_top.env.slave_agent.mon [axi4_slave_monitor] AW received: ID=0x6 ADDR=0xfd71e7d9 LEN=25
# UVM_INFO ../src/mst/axi4_master_monitor.sv(124) @ 63055000: uvm_test_top.env.master_agent.mon [axi4_master_monitor] AW observed: ID=0x6 ADDR=0xfd71e7d9 LEN=25
# UVM_INFO ../src/mst/axi4_master_monitor.sv(184) @ 63545000: uvm_test_top.env.master_agent.mon [axi4_master_monitor] W data assembled: ID=0x6 ADDR=0xfd71e7d9 26 beats
# UVM_INFO ../src/slv/axi4_slave_monitor.sv(167) @ 63545000: uvm_test_top.env.slave_agent.mon [axi4_slave_monitor] W data assembled: ID=0x6 ADDR=0xfd71e7d9 26 beats
# UVM_INFO ../src/mst/axi4_master_driver.sv(197) @ 63575000: uvm_test_top.env.master_agent.drv [axi4_master_driver] Write response: AXI4_RESP_DECERR
# UVM_INFO ../src/slv/axi4_slave_driver.sv(261) @ 63575000: uvm_test_top.env.slave_agent.drv [axi4_slave_driver] Write complete: ID=0x6 ADDR=0xfd71e7d9 RESP=AXI4_RESP_DECERR  26 beats processed
# UVM_INFO ../src/slv/axi4_slave_monitor.sv(189) @ 63575000: uvm_test_top.env.slave_agent.mon [axi4_slave_monitor] Write response sent: ID=0x6 ADDR=0xfd71e7d9 RESP=AXI4_RESP_DECERR
# UVM_INFO ../src/env/axi4_scoreboard.sv(103) @ 63575000: uvm_test_top.env.scb [axi4_scoreboard] Slave AXI4_WRITE received: ID=0x6 ADDR=0xfd71e7d9 LEN=25
# UVM_INFO ../src/mst/axi4_master_monitor.sv(210) @ 63575000: uvm_test_top.env.master_agent.mon [axi4_master_monitor] Write complete: ID=0x6 ADDR=0xfd71e7d9 RESP=AXI4_RESP_DECERR
# UVM_INFO ../src/env/axi4_scoreboard.sv(82) @ 63575000: uvm_test_top.env.scb [axi4_scoreboard] Master AXI4_WRITE received: ID=0x6 ADDR=0xfd71e7d9 LEN=25
# UVM_INFO ../src/env/axi4_scoreboard.sv(154) @ 63575000: uvm_test_top.env.scb [axi4_scoreboard] [WRITE] MATCH #38: ID=0x6 ADDR=0xfd71e7d9 LEN=25
# UVM_INFO ../src/seq/axi4_random_seq.sv(55) @ 63575000: uvm_test_top.env.master_agent.sqr@@rand_seq [axi4_random_seq] [38/50] AXI4_WRITE: ID=0x6 ADDR=0xfd71e7d9 LEN=25 BURST=AXI4_BURST_INCR
# UVM_INFO ../src/mst/axi4_master_driver.sv(55) @ 63575000: uvm_test_top.env.master_agent.drv [axi4_master_driver] Driving AXI4_WRITE  ID=0x7  ADDR=0x9870f1d9  LEN=124
# UVM_INFO ../src/mst/axi4_master_driver.sv(94) @ 63575000: uvm_test_top.env.master_agent.drv [axi4_master_driver] Write order: AW || W (parallel)
# UVM_INFO ../src/slv/axi4_slave_driver.sv(165) @ 63605000: uvm_test_top.env.slave_agent.drv [axi4_slave_driver] AW received: ID=0x7 ADDR=0x9870f1d9 LEN=124 LOCK=AXI4_LOCK_NORMAL
# UVM_INFO ../src/mst/axi4_master_monitor.sv(124) @ 63605000: uvm_test_top.env.master_agent.mon [axi4_master_monitor] AW observed: ID=0x7 ADDR=0x9870f1d9 LEN=124
# UVM_INFO ../src/slv/axi4_slave_monitor.sv(116) @ 63605000: uvm_test_top.env.slave_agent.mon [axi4_slave_monitor] AW received: ID=0x7 ADDR=0x9870f1d9 LEN=124
# UVM_INFO ../src/slv/axi4_slave_monitor.sv(167) @ 66075000: uvm_test_top.env.slave_agent.mon [axi4_slave_monitor] W data assembled: ID=0x7 ADDR=0x9870f1d9 125 beats
# UVM_INFO ../src/mst/axi4_master_monitor.sv(184) @ 66075000: uvm_test_top.env.master_agent.mon [axi4_master_monitor] W data assembled: ID=0x7 ADDR=0x9870f1d9 125 beats
# UVM_INFO ../src/mst/axi4_master_driver.sv(197) @ 66105000: uvm_test_top.env.master_agent.drv [axi4_master_driver] Write response: AXI4_RESP_OKAY
# UVM_INFO ../src/slv/axi4_slave_driver.sv(261) @ 66105000: uvm_test_top.env.slave_agent.drv [axi4_slave_driver] Write complete: ID=0x7 ADDR=0x9870f1d9 RESP=AXI4_RESP_OKAY  125 beats processed
# UVM_INFO ../src/mst/axi4_master_monitor.sv(210) @ 66105000: uvm_test_top.env.master_agent.mon [axi4_master_monitor] Write complete: ID=0x7 ADDR=0x9870f1d9 RESP=AXI4_RESP_OKAY
# UVM_INFO ../src/env/axi4_scoreboard.sv(82) @ 66105000: uvm_test_top.env.scb [axi4_scoreboard] Master AXI4_WRITE received: ID=0x7 ADDR=0x9870f1d9 LEN=124
# UVM_INFO ../src/slv/axi4_slave_monitor.sv(189) @ 66105000: uvm_test_top.env.slave_agent.mon [axi4_slave_monitor] Write response sent: ID=0x7 ADDR=0x9870f1d9 RESP=AXI4_RESP_OKAY
# UVM_INFO ../src/env/axi4_scoreboard.sv(103) @ 66105000: uvm_test_top.env.scb [axi4_scoreboard] Slave AXI4_WRITE received: ID=0x7 ADDR=0x9870f1d9 LEN=124
# UVM_INFO ../src/env/axi4_scoreboard.sv(154) @ 66105000: uvm_test_top.env.scb [axi4_scoreboard] [WRITE] MATCH #39: ID=0x7 ADDR=0x9870f1d9 LEN=124
