# vsim -c -coverage -sv_seed 81036667 "+UVM_TESTNAME=axi4_burst_sweep_test" "+UVM_VERBOSITY=UVM_HIGH" "+DUMP_VCD" -l ./report/logs/axi4_burst_sweep_test_run_4_seed_81036667.log -do "coverage save -onexit ./report/coverage/axi4_burst_sweep_test_run_4_seed_81036667.ucdb; run -all; quit -f" opt_tb_top 
# Start time: 11:29:55 on Jun 05,2026
# //  Questa Sim-64
# //  Version 10.6b linux_x86_64 May 25 2017
# //
# //  Copyright 1991-2017 Mentor Graphics Corporation
# //  All Rights Reserved.
# //
# //  QuestaSim and its associated documentation contain trade
# //  secrets and commercial or financial information that are the property of
# //  Mentor Graphics Corporation and are privileged, confidential,
# //  and exempt from disclosure under the Freedom of Information Act,
# //  5 U.S.C. Section 552. Furthermore, this information
# //  is prohibited from disclosure under the Trade Secrets Act,
# //  18 U.S.C. Section 1905.
# //
# Loading sv_std.std
# Loading work.axi4_if(fast)
# Loading mtiUvm.uvm_pkg
# Loading work.axi4_pkg(fast)
# Loading work.axi4_test_pkg(fast)
# Loading work.tb_top(fast)
# Loading work.axi4_if(fast)
# Loading work.axi4_sva(fast)
# Loading mtiUvm.questa_uvm_pkg(fast)
# Loading /cadtools/mentor/Questa_10.6b/questasim/uvm-1.1d/linux_x86_64/uvm_dpi.so
# coverage save -onexit ./report/coverage/axi4_burst_sweep_test_run_4_seed_81036667.ucdb
#  run -all
# ----------------------------------------------------------------
# UVM-1.1d
# (C) 2007-2013 Mentor Graphics Corporation
# (C) 2007-2013 Cadence Design Systems, Inc.
# (C) 2006-2013 Synopsys, Inc.
# (C) 2011-2013 Cypress Semiconductor Corp.
# ----------------------------------------------------------------
# 
#   ***********       IMPORTANT RELEASE NOTES         ************
# 
#   You are using a version of the UVM library that has been compiled
#   with `UVM_NO_DEPRECATED undefined.
#   See http://www.eda.org/svdb/view.php?id=3313 for more details.
# 
#   You are using a version of the UVM library that has been compiled
#   with `UVM_OBJECT_MUST_HAVE_CONSTRUCTOR undefined.
#   See http://www.eda.org/svdb/view.php?id=3770 for more details.
# 
#       (Specify +UVM_NO_RELNOTES to turn off this notice)
# 
# UVM_INFO verilog_src/questa_uvm_pkg-1.2/src/questa_uvm_pkg.sv(215) @ 0: reporter [Questa UVM] QUESTA_UVM-1.2.3
# UVM_INFO verilog_src/questa_uvm_pkg-1.2/src/questa_uvm_pkg.sv(217) @ 0: reporter [Questa UVM]  questa_uvm::init(+struct)
# UVM_INFO ../src/tb_top.sv(128) @ 0: reporter [TB_TOP] Virtual interface set in config_db
# UVM_INFO @ 0: reporter [RNTST] Running test axi4_burst_sweep_test...
# UVM_INFO ../src/tb_top.sv(142) @ 0: reporter [TB_TOP] Waveform VCD dumping enabled (axi4_vip.vcd)
# UVM_INFO ../src/env/axi4_vip_env.sv(83) @ 0: uvm_test_top.env [axi4_vip_env] slave_vif not set - reusing master_vif (passthrough mode)
# UVM_INFO ../src/env/axi4_vip_env.sv(93) @ 0: uvm_test_top.env [axi4_vip_env] Scoreboard created
# UVM_INFO ../src/env/axi4_vip_env.sv(100) @ 0: uvm_test_top.env [axi4_vip_env] Coverage collectors created
# UVM_INFO ../src/mst/axi4_master_agent.sv(69) @ 0: uvm_test_top.env.master_agent [axi4_master_agent] ACTIVE mode - driver + sequencer created
# UVM_INFO ../src/slv/axi4_slave_agent.sv(82) @ 0: uvm_test_top.env.slave_agent [axi4_slave_agent] ACTIVE mode — ready_delay=[0:0] resp_delay=[0:0]
# UVM_INFO ../src/env/axi4_vip_env.sv(116) @ 0: uvm_test_top.env [axi4_vip_env] Scoreboard connected: master_mon.ap -> scb, slave_mon.ap -> scb
# UVM_INFO ../src/env/axi4_vip_env.sv(124) @ 0: uvm_test_top.env [axi4_vip_env] Coverage connected: master_mon.ap -> master_cov, slave_mon.ap -> slave_cov
# UVM_INFO @ 0: reporter [UVMTOP] UVM testbench topology:
# ---------------------------------------------------------------
# Name                       Type                     Size  Value
# ---------------------------------------------------------------
# uvm_test_top               axi4_burst_sweep_test    -     @473 
#   env                      axi4_vip_env             -     @488 
#     master_agent           axi4_master_agent        -     @503 
#       drv                  axi4_master_driver       -     @567 
#         rsp_port           uvm_analysis_port        -     @582 
#         seq_item_port      uvm_seq_item_pull_port   -     @574 
#       mon                  axi4_master_monitor      -     @559 
#         ap                 uvm_analysis_port        -     @700 
#       sqr                  axi4_master_sequencer    -     @590 
#         rsp_export         uvm_analysis_export      -     @597 
#         seq_item_export    uvm_seq_item_pull_imp    -     @691 
#         arbitration_queue  array                    0     -    
#         lock_queue         array                    0     -    
#         num_last_reqs      integral                 32    'd1  
#         num_last_rsps      integral                 32    'd1  
#     master_cov             axi4_coverage            -     @524 
#       analysis_imp         uvm_analysis_imp         -     @531 
#     scb                    axi4_scoreboard          -     @517 
#       master_export        uvm_analysis_imp_master  -     @714 
#       slave_export         uvm_analysis_imp_slave   -     @722 
#     slave_agent            axi4_slave_agent         -     @510 
#       drv                  axi4_slave_driver        -     @753 
#         rsp_port           uvm_analysis_port        -     @768 
#         seq_item_port      uvm_seq_item_pull_port   -     @760 
#       mon                  axi4_slave_monitor       -     @735 
#         ap                 uvm_analysis_port        -     @890 
#       sqr                  axi4_slave_sequencer     -     @776 
#         rsp_export         uvm_analysis_export      -     @783 
#         seq_item_export    uvm_seq_item_pull_imp    -     @877 
#         arbitration_queue  array                    0     -    
#         lock_queue         array                    0     -    
#         num_last_reqs      integral                 32    'd1  
#         num_last_rsps      integral                 32    'd1  
#     slave_cov              axi4_coverage            -     @539 
#       analysis_imp         uvm_analysis_imp         -     @546 
# ---------------------------------------------------------------
# 
# UVM_INFO verilog_src/questa_uvm_pkg-1.2/src/questa_uvm_pkg.sv(277) @ 0: reporter [Questa UVM] End Of Elaboration
# UVM_INFO ../src/test/axi4_burst_sweep_test.sv(24) @ 0: uvm_test_top [axi4_burst_sweep_test] Starting burst parameters sweep test (including error injection)
# UVM_INFO ../src/seq/axi4_burst_sweep_seq.sv(30) @ 0: uvm_test_top.env.master_agent.sqr@@sweep_seq [axi4_burst_sweep_seq] Starting burst type, size, and length sweep sequence
# UVM_INFO ../src/tb_top.sv(49) @ 95000: reporter [TOP_TB] Reset de-asserted
# UVM_INFO ../src/slv/axi4_slave_driver.sv(70) @ 95000: uvm_test_top.env.slave_agent.drv [axi4_slave_driver] Reset deasserted - slave driver active
# UVM_INFO ../src/mst/axi4_master_driver.sv(46) @ 95000: uvm_test_top.env.master_agent.drv [axi4_master_driver] Reset deasserted - master driver active
# UVM_INFO ../src/mst/axi4_master_monitor.sv(77) @ 95000: uvm_test_top.env.master_agent.mon [axi4_master_monitor] Reset deasserted — monitor active
# UVM_INFO ../src/slv/axi4_slave_monitor.sv(71) @ 95000: uvm_test_top.env.slave_agent.mon [axi4_slave_monitor] Reset deasserted — monitor active
# UVM_INFO ../src/mst/axi4_master_driver.sv(55) @ 95000: uvm_test_top.env.master_agent.drv [axi4_master_driver] Driving AXI4_WRITE  ID=0x3  ADDR=0x94785a34  LEN=0
# UVM_INFO ../src/mst/axi4_master_driver.sv(94) @ 95000: uvm_test_top.env.master_agent.drv [axi4_master_driver] Write order: AW || W (parallel)
# UVM_INFO ../src/slv/axi4_slave_driver.sv(165) @ 115000: uvm_test_top.env.slave_agent.drv [axi4_slave_driver] AW received: ID=0x3 ADDR=0x94785a34 LEN=0 LOCK=AXI4_LOCK_NORMAL
# UVM_INFO ../src/slv/axi4_slave_monitor.sv(116) @ 115000: uvm_test_top.env.slave_agent.mon [axi4_slave_monitor] AW received: ID=0x3 ADDR=0x94785a34 LEN=0
# UVM_INFO ../src/mst/axi4_master_monitor.sv(124) @ 115000: uvm_test_top.env.master_agent.mon [axi4_master_monitor] AW observed: ID=0x3 ADDR=0x94785a34 LEN=0
# UVM_INFO ../src/slv/axi4_slave_monitor.sv(167) @ 115000: uvm_test_top.env.slave_agent.mon [axi4_slave_monitor] W data assembled: ID=0x3 ADDR=0x94785a34 1 beats
# UVM_INFO ../src/mst/axi4_master_monitor.sv(184) @ 115000: uvm_test_top.env.master_agent.mon [axi4_master_monitor] W data assembled: ID=0x3 ADDR=0x94785a34 1 beats
# UVM_INFO ../src/mst/axi4_master_driver.sv(197) @ 135000: uvm_test_top.env.master_agent.drv [axi4_master_driver] Write response: AXI4_RESP_OKAY
# UVM_INFO ../src/slv/axi4_slave_driver.sv(261) @ 135000: uvm_test_top.env.slave_agent.drv [axi4_slave_driver] Write complete: ID=0x3 ADDR=0x94785a34 RESP=AXI4_RESP_OKAY  1 beats processed
# UVM_INFO ../src/slv/axi4_slave_monitor.sv(189) @ 135000: uvm_test_top.env.slave_agent.mon [axi4_slave_monitor] Write response sent: ID=0x3 ADDR=0x94785a34 RESP=AXI4_RESP_OKAY
# UVM_INFO ../src/env/axi4_scoreboard.sv(103) @ 135000: uvm_test_top.env.scb [axi4_scoreboard] Slave AXI4_WRITE received: ID=0x3 ADDR=0x94785a34 LEN=0
# UVM_INFO ../src/mst/axi4_master_monitor.sv(210) @ 135000: uvm_test_top.env.master_agent.mon [axi4_master_monitor] Write complete: ID=0x3 ADDR=0x94785a34 RESP=AXI4_RESP_OKAY
# UVM_INFO ../src/env/axi4_scoreboard.sv(82) @ 135000: uvm_test_top.env.scb [axi4_scoreboard] Master AXI4_WRITE received: ID=0x3 ADDR=0x94785a34 LEN=0
# UVM_INFO ../src/env/axi4_scoreboard.sv(154) @ 135000: uvm_test_top.env.scb [axi4_scoreboard] [WRITE] MATCH #1: ID=0x3 ADDR=0x94785a34 LEN=0
# UVM_INFO ../src/mst/axi4_master_driver.sv(55) @ 135000: uvm_test_top.env.master_agent.drv [axi4_master_driver] Driving AXI4_READ  ID=0x8  ADDR=0x8d878612  LEN=0
# UVM_INFO ../src/slv/axi4_slave_driver.sv(300) @ 165000: uvm_test_top.env.slave_agent.drv [axi4_slave_driver] AR received: ID=0x8 ADDR=0x8d878612 LEN=0 LOCK=AXI4_LOCK_NORMAL
# UVM_INFO ../src/mst/axi4_master_monitor.sv(246) @ 165000: uvm_test_top.env.master_agent.mon [axi4_master_monitor] AR observed: ID=0x8 ADDR=0x8d878612 LEN=0
# UVM_INFO ../src/slv/axi4_slave_monitor.sv(224) @ 165000: uvm_test_top.env.slave_agent.mon [axi4_slave_monitor] AR received: ID=0x8 ADDR=0x8d878612 LEN=0
# UVM_INFO ../src/mst/axi4_master_driver.sv(254) @ 185000: uvm_test_top.env.master_agent.drv [axi4_master_driver] Read complete: 1 beats received
# UVM_INFO ../src/slv/axi4_slave_driver.sv(349) @ 185000: uvm_test_top.env.slave_agent.drv [axi4_slave_driver] Read complete: ID=0x8 ADDR=0x8d878612 RESP=AXI4_RESP_OKAY  1 beats sent
# UVM_INFO ../src/mst/axi4_master_monitor.sv(314) @ 185000: uvm_test_top.env.master_agent.mon [axi4_master_monitor] Read complete: ID=0x8 ADDR=0x8d878612 1 beats
# UVM_INFO ../src/env/axi4_scoreboard.sv(82) @ 185000: uvm_test_top.env.scb [axi4_scoreboard] Master AXI4_READ received: ID=0x8 ADDR=0x8d878612 LEN=0
# UVM_INFO ../src/slv/axi4_slave_monitor.sv(287) @ 185000: uvm_test_top.env.slave_agent.mon [axi4_slave_monitor] Read data sent: ID=0x8 ADDR=0x8d878612 1 beats
# UVM_INFO ../src/env/axi4_scoreboard.sv(103) @ 185000: uvm_test_top.env.scb [axi4_scoreboard] Slave AXI4_READ received: ID=0x8 ADDR=0x8d878612 LEN=0
# UVM_INFO ../src/env/axi4_scoreboard.sv(154) @ 185000: uvm_test_top.env.scb [axi4_scoreboard] [READ] MATCH #2: ID=0x8 ADDR=0x8d878612 LEN=0
# UVM_INFO ../src/mst/axi4_master_driver.sv(55) @ 185000: uvm_test_top.env.master_agent.drv [axi4_master_driver] Driving AXI4_WRITE  ID=0x3  ADDR=0xae2eabb7  LEN=0
# UVM_INFO ../src/mst/axi4_master_driver.sv(94) @ 185000: uvm_test_top.env.master_agent.drv [axi4_master_driver] Write order: AW || W (parallel)
# UVM_INFO ../src/slv/axi4_slave_driver.sv(165) @ 215000: uvm_test_top.env.slave_agent.drv [axi4_slave_driver] AW received: ID=0x3 ADDR=0xae2eabb7 LEN=0 LOCK=AXI4_LOCK_NORMAL
# UVM_INFO ../src/slv/axi4_slave_monitor.sv(116) @ 215000: uvm_test_top.env.slave_agent.mon [axi4_slave_monitor] AW received: ID=0x3 ADDR=0xae2eabb7 LEN=0
# UVM_INFO ../src/mst/axi4_master_monitor.sv(124) @ 215000: uvm_test_top.env.master_agent.mon [axi4_master_monitor] AW observed: ID=0x3 ADDR=0xae2eabb7 LEN=0
# UVM_INFO ../src/slv/axi4_slave_monitor.sv(167) @ 215000: uvm_test_top.env.slave_agent.mon [axi4_slave_monitor] W data assembled: ID=0x3 ADDR=0xae2eabb7 1 beats
# UVM_INFO ../src/mst/axi4_master_monitor.sv(184) @ 215000: uvm_test_top.env.master_agent.mon [axi4_master_monitor] W data assembled: ID=0x3 ADDR=0xae2eabb7 1 beats
# UVM_INFO ../src/mst/axi4_master_driver.sv(197) @ 235000: uvm_test_top.env.master_agent.drv [axi4_master_driver] Write response: AXI4_RESP_OKAY
# UVM_INFO ../src/slv/axi4_slave_driver.sv(261) @ 235000: uvm_test_top.env.slave_agent.drv [axi4_slave_driver] Write complete: ID=0x3 ADDR=0xae2eabb7 RESP=AXI4_RESP_OKAY  1 beats processed
# UVM_INFO ../src/slv/axi4_slave_monitor.sv(189) @ 235000: uvm_test_top.env.slave_agent.mon [axi4_slave_monitor] Write response sent: ID=0x3 ADDR=0xae2eabb7 RESP=AXI4_RESP_OKAY
# UVM_INFO ../src/env/axi4_scoreboard.sv(103) @ 235000: uvm_test_top.env.scb [axi4_scoreboard] Slave AXI4_WRITE received: ID=0x3 ADDR=0xae2eabb7 LEN=0
# UVM_INFO ../src/mst/axi4_master_monitor.sv(210) @ 235000: uvm_test_top.env.master_agent.mon [axi4_master_monitor] Write complete: ID=0x3 ADDR=0xae2eabb7 RESP=AXI4_RESP_OKAY
# UVM_INFO ../src/env/axi4_scoreboard.sv(82) @ 235000: uvm_test_top.env.scb [axi4_scoreboard] Master AXI4_WRITE received: ID=0x3 ADDR=0xae2eabb7 LEN=0
# UVM_INFO ../src/env/axi4_scoreboard.sv(154) @ 235000: uvm_test_top.env.scb [axi4_scoreboard] [WRITE] MATCH #3: ID=0x3 ADDR=0xae2eabb7 LEN=0
# UVM_INFO ../src/mst/axi4_master_driver.sv(55) @ 235000: uvm_test_top.env.master_agent.drv [axi4_master_driver] Driving AXI4_READ  ID=0x3  ADDR=0x536395aa  LEN=0
# UVM_INFO ../src/slv/axi4_slave_driver.sv(300) @ 265000: uvm_test_top.env.slave_agent.drv [axi4_slave_driver] AR received: ID=0x3 ADDR=0x536395aa LEN=0 LOCK=AXI4_LOCK_NORMAL
# UVM_INFO ../src/mst/axi4_master_monitor.sv(246) @ 265000: uvm_test_top.env.master_agent.mon [axi4_master_monitor] AR observed: ID=0x3 ADDR=0x536395aa LEN=0
# UVM_INFO ../src/slv/axi4_slave_monitor.sv(224) @ 265000: uvm_test_top.env.slave_agent.mon [axi4_slave_monitor] AR received: ID=0x3 ADDR=0x536395aa LEN=0
# UVM_INFO ../src/mst/axi4_master_driver.sv(254) @ 285000: uvm_test_top.env.master_agent.drv [axi4_master_driver] Read complete: 1 beats received
# UVM_INFO ../src/slv/axi4_slave_driver.sv(349) @ 285000: uvm_test_top.env.slave_agent.drv [axi4_slave_driver] Read complete: ID=0x3 ADDR=0x536395aa RESP=AXI4_RESP_OKAY  1 beats sent
# UVM_INFO ../src/mst/axi4_master_monitor.sv(314) @ 285000: uvm_test_top.env.master_agent.mon [axi4_master_monitor] Read complete: ID=0x3 ADDR=0x536395aa 1 beats
# UVM_INFO ../src/env/axi4_scoreboard.sv(82) @ 285000: uvm_test_top.env.scb [axi4_scoreboard] Master AXI4_READ received: ID=0x3 ADDR=0x536395aa LEN=0
# UVM_INFO ../src/slv/axi4_slave_monitor.sv(287) @ 285000: uvm_test_top.env.slave_agent.mon [axi4_slave_monitor] Read data sent: ID=0x3 ADDR=0x536395aa 1 beats
# UVM_INFO ../src/env/axi4_scoreboard.sv(103) @ 285000: uvm_test_top.env.scb [axi4_scoreboard] Slave AXI4_READ received: ID=0x3 ADDR=0x536395aa LEN=0
# UVM_INFO ../src/env/axi4_scoreboard.sv(154) @ 285000: uvm_test_top.env.scb [axi4_scoreboard] [READ] MATCH #4: ID=0x3 ADDR=0x536395aa LEN=0
# UVM_INFO ../src/mst/axi4_master_driver.sv(55) @ 285000: uvm_test_top.env.master_agent.drv [axi4_master_driver] Driving AXI4_WRITE  ID=0x8  ADDR=0x19693a96  LEN=0
# UVM_INFO ../src/mst/axi4_master_driver.sv(101) @ 285000: uvm_test_top.env.master_agent.drv [axi4_master_driver] Write order: AW -> W (sequential)
# UVM_INFO ../src/slv/axi4_slave_driver.sv(165) @ 315000: uvm_test_top.env.slave_agent.drv [axi4_slave_driver] AW received: ID=0x8 ADDR=0x19693a96 LEN=0 LOCK=AXI4_LOCK_EXCLUSIVE
# UVM_INFO ../src/slv/axi4_slave_monitor.sv(116) @ 315000: uvm_test_top.env.slave_agent.mon [axi4_slave_monitor] AW received: ID=0x8 ADDR=0x19693a96 LEN=0
# UVM_INFO ../src/mst/axi4_master_monitor.sv(124) @ 315000: uvm_test_top.env.master_agent.mon [axi4_master_monitor] AW observed: ID=0x8 ADDR=0x19693a96 LEN=0
# UVM_INFO ../src/slv/axi4_slave_monitor.sv(167) @ 335000: uvm_test_top.env.slave_agent.mon [axi4_slave_monitor] W data assembled: ID=0x8 ADDR=0x19693a96 1 beats
# UVM_INFO ../src/mst/axi4_master_monitor.sv(184) @ 335000: uvm_test_top.env.master_agent.mon [axi4_master_monitor] W data assembled: ID=0x8 ADDR=0x19693a96 1 beats
# UVM_INFO ../src/mst/axi4_master_driver.sv(197) @ 365000: uvm_test_top.env.master_agent.drv [axi4_master_driver] Write response: AXI4_RESP_OKAY
# UVM_INFO ../src/slv/axi4_slave_driver.sv(261) @ 365000: uvm_test_top.env.slave_agent.drv [axi4_slave_driver] Write complete: ID=0x8 ADDR=0x19693a96 RESP=AXI4_RESP_OKAY  1 beats processed
# UVM_INFO ../src/mst/axi4_master_monitor.sv(210) @ 365000: uvm_test_top.env.master_agent.mon [axi4_master_monitor] Write complete: ID=0x8 ADDR=0x19693a96 RESP=AXI4_RESP_OKAY
# UVM_INFO ../src/env/axi4_scoreboard.sv(82) @ 365000: uvm_test_top.env.scb [axi4_scoreboard] Master AXI4_WRITE received: ID=0x8 ADDR=0x19693a96 LEN=0
# UVM_INFO ../src/slv/axi4_slave_monitor.sv(189) @ 365000: uvm_test_top.env.slave_agent.mon [axi4_slave_monitor] Write response sent: ID=0x8 ADDR=0x19693a96 RESP=AXI4_RESP_OKAY
# UVM_INFO ../src/env/axi4_scoreboard.sv(103) @ 365000: uvm_test_top.env.scb [axi4_scoreboard] Slave AXI4_WRITE received: ID=0x8 ADDR=0x19693a96 LEN=0
# UVM_INFO ../src/env/axi4_scoreboard.sv(154) @ 365000: uvm_test_top.env.scb [axi4_scoreboard] [WRITE] MATCH #5: ID=0x8 ADDR=0x19693a96 LEN=0
# UVM_INFO ../src/mst/axi4_master_driver.sv(55) @ 365000: uvm_test_top.env.master_agent.drv [axi4_master_driver] Driving AXI4_READ  ID=0x0  ADDR=0x20e2192f  LEN=0
# UVM_INFO ../src/slv/axi4_slave_driver.sv(300) @ 395000: uvm_test_top.env.slave_agent.drv [axi4_slave_driver] AR received: ID=0x0 ADDR=0x20e2192f LEN=0 LOCK=AXI4_LOCK_NORMAL
# UVM_INFO ../src/slv/axi4_slave_monitor.sv(224) @ 395000: uvm_test_top.env.slave_agent.mon [axi4_slave_monitor] AR received: ID=0x0 ADDR=0x20e2192f LEN=0
# UVM_INFO ../src/mst/axi4_master_monitor.sv(246) @ 395000: uvm_test_top.env.master_agent.mon [axi4_master_monitor] AR observed: ID=0x0 ADDR=0x20e2192f LEN=0
# UVM_INFO ../src/mst/axi4_master_driver.sv(254) @ 415000: uvm_test_top.env.master_agent.drv [axi4_master_driver] Read complete: 1 beats received
# UVM_INFO ../src/slv/axi4_slave_driver.sv(349) @ 415000: uvm_test_top.env.slave_agent.drv [axi4_slave_driver] Read complete: ID=0x0 ADDR=0x20e2192f RESP=AXI4_RESP_OKAY  1 beats sent
# UVM_INFO ../src/slv/axi4_slave_monitor.sv(287) @ 415000: uvm_test_top.env.slave_agent.mon [axi4_slave_monitor] Read data sent: ID=0x0 ADDR=0x20e2192f 1 beats
# UVM_INFO ../src/env/axi4_scoreboard.sv(103) @ 415000: uvm_test_top.env.scb [axi4_scoreboard] Slave AXI4_READ received: ID=0x0 ADDR=0x20e2192f LEN=0
# UVM_INFO ../src/mst/axi4_master_monitor.sv(314) @ 415000: uvm_test_top.env.master_agent.mon [axi4_master_monitor] Read complete: ID=0x0 ADDR=0x20e2192f 1 beats
# UVM_INFO ../src/env/axi4_scoreboard.sv(82) @ 415000: uvm_test_top.env.scb [axi4_scoreboard] Master AXI4_READ received: ID=0x0 ADDR=0x20e2192f LEN=0
# UVM_INFO ../src/env/axi4_scoreboard.sv(154) @ 415000: uvm_test_top.env.scb [axi4_scoreboard] [READ] MATCH #6: ID=0x0 ADDR=0x20e2192f LEN=0
# UVM_INFO ../src/mst/axi4_master_driver.sv(55) @ 415000: uvm_test_top.env.master_agent.drv [axi4_master_driver] Driving AXI4_WRITE  ID=0x0  ADDR=0x2e4084be  LEN=1
# UVM_INFO ../src/mst/axi4_master_driver.sv(101) @ 415000: uvm_test_top.env.master_agent.drv [axi4_master_driver] Write order: AW -> W (sequential)
# UVM_INFO ../src/slv/axi4_slave_driver.sv(165) @ 445000: uvm_test_top.env.slave_agent.drv [axi4_slave_driver] AW received: ID=0x0 ADDR=0x2e4084be LEN=1 LOCK=AXI4_LOCK_NORMAL
# UVM_INFO ../src/mst/axi4_master_monitor.sv(124) @ 445000: uvm_test_top.env.master_agent.mon [axi4_master_monitor] AW observed: ID=0x0 ADDR=0x2e4084be LEN=1
# UVM_INFO ../src/slv/axi4_slave_monitor.sv(116) @ 445000: uvm_test_top.env.slave_agent.mon [axi4_slave_monitor] AW received: ID=0x0 ADDR=0x2e4084be LEN=1
# UVM_INFO ../src/mst/axi4_master_monitor.sv(184) @ 485000: uvm_test_top.env.master_agent.mon [axi4_master_monitor] W data assembled: ID=0x0 ADDR=0x2e4084be 2 beats
# UVM_INFO ../src/slv/axi4_slave_monitor.sv(167) @ 485000: uvm_test_top.env.slave_agent.mon [axi4_slave_monitor] W data assembled: ID=0x0 ADDR=0x2e4084be 2 beats
# UVM_INFO ../src/mst/axi4_master_driver.sv(197) @ 515000: uvm_test_top.env.master_agent.drv [axi4_master_driver] Write response: AXI4_RESP_OKAY
# UVM_INFO ../src/slv/axi4_slave_driver.sv(261) @ 515000: uvm_test_top.env.slave_agent.drv [axi4_slave_driver] Write complete: ID=0x0 ADDR=0x2e4084be RESP=AXI4_RESP_OKAY  2 beats processed
# UVM_INFO ../src/slv/axi4_slave_monitor.sv(189) @ 515000: uvm_test_top.env.slave_agent.mon [axi4_slave_monitor] Write response sent: ID=0x0 ADDR=0x2e4084be RESP=AXI4_RESP_OKAY
# UVM_INFO ../src/env/axi4_scoreboard.sv(103) @ 515000: uvm_test_top.env.scb [axi4_scoreboard] Slave AXI4_WRITE received: ID=0x0 ADDR=0x2e4084be LEN=1
# UVM_INFO ../src/mst/axi4_master_monitor.sv(210) @ 515000: uvm_test_top.env.master_agent.mon [axi4_master_monitor] Write complete: ID=0x0 ADDR=0x2e4084be RESP=AXI4_RESP_OKAY
# UVM_INFO ../src/env/axi4_scoreboard.sv(82) @ 515000: uvm_test_top.env.scb [axi4_scoreboard] Master AXI4_WRITE received: ID=0x0 ADDR=0x2e4084be LEN=1
# UVM_INFO ../src/env/axi4_scoreboard.sv(154) @ 515000: uvm_test_top.env.scb [axi4_scoreboard] [WRITE] MATCH #7: ID=0x0 ADDR=0x2e4084be LEN=1
# UVM_INFO ../src/mst/axi4_master_driver.sv(55) @ 515000: uvm_test_top.env.master_agent.drv [axi4_master_driver] Driving AXI4_READ  ID=0xa  ADDR=0x1f8e540b  LEN=1
# UVM_INFO ../src/slv/axi4_slave_driver.sv(300) @ 545000: uvm_test_top.env.slave_agent.drv [axi4_slave_driver] AR received: ID=0xa ADDR=0x1f8e540b LEN=1 LOCK=AXI4_LOCK_EXCLUSIVE
# UVM_INFO ../src/mst/axi4_master_monitor.sv(246) @ 545000: uvm_test_top.env.master_agent.mon [axi4_master_monitor] AR observed: ID=0xa ADDR=0x1f8e540b LEN=1
# UVM_INFO ../src/slv/axi4_slave_monitor.sv(224) @ 545000: uvm_test_top.env.slave_agent.mon [axi4_slave_monitor] AR received: ID=0xa ADDR=0x1f8e540b LEN=1
# UVM_INFO ../src/mst/axi4_master_driver.sv(254) @ 585000: uvm_test_top.env.master_agent.drv [axi4_master_driver] Read complete: 2 beats received
# UVM_INFO ../src/slv/axi4_slave_driver.sv(349) @ 585000: uvm_test_top.env.slave_agent.drv [axi4_slave_driver] Read complete: ID=0xa ADDR=0x1f8e540b RESP=AXI4_RESP_EXOKAY  2 beats sent
# UVM_INFO ../src/mst/axi4_master_monitor.sv(314) @ 585000: uvm_test_top.env.master_agent.mon [axi4_master_monitor] Read complete: ID=0xa ADDR=0x1f8e540b 2 beats
# UVM_INFO ../src/env/axi4_scoreboard.sv(82) @ 585000: uvm_test_top.env.scb [axi4_scoreboard] Master AXI4_READ received: ID=0xa ADDR=0x1f8e540b LEN=1
# UVM_INFO ../src/slv/axi4_slave_monitor.sv(287) @ 585000: uvm_test_top.env.slave_agent.mon [axi4_slave_monitor] Read data sent: ID=0xa ADDR=0x1f8e540b 2 beats
# UVM_INFO ../src/env/axi4_scoreboard.sv(103) @ 585000: uvm_test_top.env.scb [axi4_scoreboard] Slave AXI4_READ received: ID=0xa ADDR=0x1f8e540b LEN=1
# UVM_INFO ../src/env/axi4_scoreboard.sv(154) @ 585000: uvm_test_top.env.scb [axi4_scoreboard] [READ] MATCH #8: ID=0xa ADDR=0x1f8e540b LEN=1
# UVM_INFO ../src/mst/axi4_master_driver.sv(55) @ 585000: uvm_test_top.env.master_agent.drv [axi4_master_driver] Driving AXI4_WRITE  ID=0x6  ADDR=0xaadea42c  LEN=1
# UVM_INFO ../src/mst/axi4_master_driver.sv(94) @ 585000: uvm_test_top.env.master_agent.drv [axi4_master_driver] Write order: AW || W (parallel)
# UVM_INFO ../src/slv/axi4_slave_driver.sv(165) @ 615000: uvm_test_top.env.slave_agent.drv [axi4_slave_driver] AW received: ID=0x6 ADDR=0xaadea42c LEN=1 LOCK=AXI4_LOCK_EXCLUSIVE
# UVM_INFO ../src/slv/axi4_slave_monitor.sv(116) @ 615000: uvm_test_top.env.slave_agent.mon [axi4_slave_monitor] AW received: ID=0x6 ADDR=0xaadea42c LEN=1
# UVM_INFO ../src/mst/axi4_master_monitor.sv(124) @ 615000: uvm_test_top.env.master_agent.mon [axi4_master_monitor] AW observed: ID=0x6 ADDR=0xaadea42c LEN=1
# UVM_INFO ../src/mst/axi4_master_monitor.sv(184) @ 625000: uvm_test_top.env.master_agent.mon [axi4_master_monitor] W data assembled: ID=0x6 ADDR=0xaadea42c 2 beats
# UVM_INFO ../src/slv/axi4_slave_monitor.sv(167) @ 625000: uvm_test_top.env.slave_agent.mon [axi4_slave_monitor] W data assembled: ID=0x6 ADDR=0xaadea42c 2 beats
# UVM_INFO ../src/mst/axi4_master_driver.sv(197) @ 655000: uvm_test_top.env.master_agent.drv [axi4_master_driver] Write response: AXI4_RESP_OKAY
# UVM_INFO ../src/slv/axi4_slave_driver.sv(261) @ 655000: uvm_test_top.env.slave_agent.drv [axi4_slave_driver] Write complete: ID=0x6 ADDR=0xaadea42c RESP=AXI4_RESP_OKAY  2 beats processed
# UVM_INFO ../src/slv/axi4_slave_monitor.sv(189) @ 655000: uvm_test_top.env.slave_agent.mon [axi4_slave_monitor] Write response sent: ID=0x6 ADDR=0xaadea42c RESP=AXI4_RESP_OKAY
# UVM_INFO ../src/env/axi4_scoreboard.sv(103) @ 655000: uvm_test_top.env.scb [axi4_scoreboard] Slave AXI4_WRITE received: ID=0x6 ADDR=0xaadea42c LEN=1
# UVM_INFO ../src/mst/axi4_master_monitor.sv(210) @ 655000: uvm_test_top.env.master_agent.mon [axi4_master_monitor] Write complete: ID=0x6 ADDR=0xaadea42c RESP=AXI4_RESP_OKAY
# UVM_INFO ../src/env/axi4_scoreboard.sv(82) @ 655000: uvm_test_top.env.scb [axi4_scoreboard] Master AXI4_WRITE received: ID=0x6 ADDR=0xaadea42c LEN=1
# UVM_INFO ../src/env/axi4_scoreboard.sv(154) @ 655000: uvm_test_top.env.scb [axi4_scoreboard] [WRITE] MATCH #9: ID=0x6 ADDR=0xaadea42c LEN=1
# UVM_INFO ../src/mst/axi4_master_driver.sv(55) @ 655000: uvm_test_top.env.master_agent.drv [axi4_master_driver] Driving AXI4_READ  ID=0xe  ADDR=0x9fa19519  LEN=1
# UVM_INFO ../src/slv/axi4_slave_driver.sv(300) @ 685000: uvm_test_top.env.slave_agent.drv [axi4_slave_driver] AR received: ID=0xe ADDR=0x9fa19519 LEN=1 LOCK=AXI4_LOCK_NORMAL
# UVM_INFO ../src/mst/axi4_master_monitor.sv(246) @ 685000: uvm_test_top.env.master_agent.mon [axi4_master_monitor] AR observed: ID=0xe ADDR=0x9fa19519 LEN=1
# UVM_INFO ../src/slv/axi4_slave_monitor.sv(224) @ 685000: uvm_test_top.env.slave_agent.mon [axi4_slave_monitor] AR received: ID=0xe ADDR=0x9fa19519 LEN=1
# UVM_INFO ../src/mst/axi4_master_driver.sv(254) @ 725000: uvm_test_top.env.master_agent.drv [axi4_master_driver] Read complete: 2 beats received
# UVM_INFO ../src/slv/axi4_slave_driver.sv(349) @ 725000: uvm_test_top.env.slave_agent.drv [axi4_slave_driver] Read complete: ID=0xe ADDR=0x9fa19519 RESP=AXI4_RESP_OKAY  2 beats sent
# UVM_INFO ../src/mst/axi4_master_monitor.sv(314) @ 725000: uvm_test_top.env.master_agent.mon [axi4_master_monitor] Read complete: ID=0xe ADDR=0x9fa19519 2 beats
# UVM_INFO ../src/env/axi4_scoreboard.sv(82) @ 725000: uvm_test_top.env.scb [axi4_scoreboard] Master AXI4_READ received: ID=0xe ADDR=0x9fa19519 LEN=1
# UVM_INFO ../src/slv/axi4_slave_monitor.sv(287) @ 725000: uvm_test_top.env.slave_agent.mon [axi4_slave_monitor] Read data sent: ID=0xe ADDR=0x9fa19519 2 beats
# UVM_INFO ../src/env/axi4_scoreboard.sv(103) @ 725000: uvm_test_top.env.scb [axi4_scoreboard] Slave AXI4_READ received: ID=0xe ADDR=0x9fa19519 LEN=1
# UVM_INFO ../src/env/axi4_scoreboard.sv(154) @ 725000: uvm_test_top.env.scb [axi4_scoreboard] [READ] MATCH #10: ID=0xe ADDR=0x9fa19519 LEN=1
# UVM_INFO ../src/mst/axi4_master_driver.sv(55) @ 725000: uvm_test_top.env.master_agent.drv [axi4_master_driver] Driving AXI4_WRITE  ID=0xf  ADDR=0xb1d4be09  LEN=1
# UVM_INFO ../src/mst/axi4_master_driver.sv(106) @ 725000: uvm_test_top.env.master_agent.drv [axi4_master_driver] Write order: W -> AW (W first)
# UVM_INFO ../src/slv/axi4_slave_driver.sv(165) @ 805000: uvm_test_top.env.slave_agent.drv [axi4_slave_driver] AW received: ID=0xf ADDR=0xb1d4be09 LEN=1 LOCK=AXI4_LOCK_NORMAL
# UVM_INFO ../src/mst/axi4_master_monitor.sv(124) @ 805000: uvm_test_top.env.master_agent.mon [axi4_master_monitor] AW observed: ID=0xf ADDR=0xb1d4be09 LEN=1
# UVM_INFO ../src/slv/axi4_slave_monitor.sv(116) @ 805000: uvm_test_top.env.slave_agent.mon [axi4_slave_monitor] AW received: ID=0xf ADDR=0xb1d4be09 LEN=1
# UVM_INFO ../src/mst/axi4_master_monitor.sv(184) @ 805000: uvm_test_top.env.master_agent.mon [axi4_master_monitor] W data assembled: ID=0xf ADDR=0xb1d4be09 2 beats
# UVM_INFO ../src/slv/axi4_slave_monitor.sv(167) @ 805000: uvm_test_top.env.slave_agent.mon [axi4_slave_monitor] W data assembled: ID=0xf ADDR=0xb1d4be09 2 beats
# UVM_INFO ../src/mst/axi4_master_driver.sv(197) @ 825000: uvm_test_top.env.master_agent.drv [axi4_master_driver] Write response: AXI4_RESP_OKAY
# UVM_INFO ../src/slv/axi4_slave_driver.sv(261) @ 825000: uvm_test_top.env.slave_agent.drv [axi4_slave_driver] Write complete: ID=0xf ADDR=0xb1d4be09 RESP=AXI4_RESP_OKAY  2 beats processed
# UVM_INFO ../src/mst/axi4_master_monitor.sv(210) @ 825000: uvm_test_top.env.master_agent.mon [axi4_master_monitor] Write complete: ID=0xf ADDR=0xb1d4be09 RESP=AXI4_RESP_OKAY
# UVM_INFO ../src/env/axi4_scoreboard.sv(82) @ 825000: uvm_test_top.env.scb [axi4_scoreboard] Master AXI4_WRITE received: ID=0xf ADDR=0xb1d4be09 LEN=1
# UVM_INFO ../src/slv/axi4_slave_monitor.sv(189) @ 825000: uvm_test_top.env.slave_agent.mon [axi4_slave_monitor] Write response sent: ID=0xf ADDR=0xb1d4be09 RESP=AXI4_RESP_OKAY
# UVM_INFO ../src/env/axi4_scoreboard.sv(103) @ 825000: uvm_test_top.env.scb [axi4_scoreboard] Slave AXI4_WRITE received: ID=0xf ADDR=0xb1d4be09 LEN=1
# UVM_INFO ../src/env/axi4_scoreboard.sv(154) @ 825000: uvm_test_top.env.scb [axi4_scoreboard] [WRITE] MATCH #11: ID=0xf ADDR=0xb1d4be09 LEN=1
# UVM_INFO ../src/mst/axi4_master_driver.sv(55) @ 825000: uvm_test_top.env.master_agent.drv [axi4_master_driver] Driving AXI4_READ  ID=0x8  ADDR=0xbdba294c  LEN=1
# UVM_INFO ../src/slv/axi4_slave_driver.sv(300) @ 855000: uvm_test_top.env.slave_agent.drv [axi4_slave_driver] AR received: ID=0x8 ADDR=0xbdba294c LEN=1 LOCK=AXI4_LOCK_NORMAL
# UVM_INFO ../src/slv/axi4_slave_monitor.sv(224) @ 855000: uvm_test_top.env.slave_agent.mon [axi4_slave_monitor] AR received: ID=0x8 ADDR=0xbdba294c LEN=1
# UVM_INFO ../src/mst/axi4_master_monitor.sv(246) @ 855000: uvm_test_top.env.master_agent.mon [axi4_master_monitor] AR observed: ID=0x8 ADDR=0xbdba294c LEN=1
# UVM_INFO ../src/mst/axi4_master_driver.sv(254) @ 895000: uvm_test_top.env.master_agent.drv [axi4_master_driver] Read complete: 2 beats received
# UVM_INFO ../src/slv/axi4_slave_driver.sv(349) @ 895000: uvm_test_top.env.slave_agent.drv [axi4_slave_driver] Read complete: ID=0x8 ADDR=0xbdba294c RESP=AXI4_RESP_OKAY  2 beats sent
# UVM_INFO ../src/slv/axi4_slave_monitor.sv(287) @ 895000: uvm_test_top.env.slave_agent.mon [axi4_slave_monitor] Read data sent: ID=0x8 ADDR=0xbdba294c 2 beats
# UVM_INFO ../src/env/axi4_scoreboard.sv(103) @ 895000: uvm_test_top.env.scb [axi4_scoreboard] Slave AXI4_READ received: ID=0x8 ADDR=0xbdba294c LEN=1
# UVM_INFO ../src/mst/axi4_master_monitor.sv(314) @ 895000: uvm_test_top.env.master_agent.mon [axi4_master_monitor] Read complete: ID=0x8 ADDR=0xbdba294c 2 beats
# UVM_INFO ../src/env/axi4_scoreboard.sv(82) @ 895000: uvm_test_top.env.scb [axi4_scoreboard] Master AXI4_READ received: ID=0x8 ADDR=0xbdba294c LEN=1
# UVM_INFO ../src/env/axi4_scoreboard.sv(154) @ 895000: uvm_test_top.env.scb [axi4_scoreboard] [READ] MATCH #12: ID=0x8 ADDR=0xbdba294c LEN=1
# UVM_INFO ../src/mst/axi4_master_driver.sv(55) @ 895000: uvm_test_top.env.master_agent.drv [axi4_master_driver] Driving AXI4_WRITE  ID=0xb  ADDR=0x0a9c3266  LEN=3
# UVM_INFO ../src/mst/axi4_master_driver.sv(101) @ 895000: uvm_test_top.env.master_agent.drv [axi4_master_driver] Write order: AW -> W (sequential)
# UVM_INFO ../src/slv/axi4_slave_driver.sv(165) @ 925000: uvm_test_top.env.slave_agent.drv [axi4_slave_driver] AW received: ID=0xb ADDR=0x0a9c3266 LEN=3 LOCK=AXI4_LOCK_NORMAL
# UVM_INFO ../src/mst/axi4_master_monitor.sv(124) @ 925000: uvm_test_top.env.master_agent.mon [axi4_master_monitor] AW observed: ID=0xb ADDR=0x0a9c3266 LEN=3
# UVM_INFO ../src/slv/axi4_slave_monitor.sv(116) @ 925000: uvm_test_top.env.slave_agent.mon [axi4_slave_monitor] AW received: ID=0xb ADDR=0x0a9c3266 LEN=3
# UVM_INFO ../src/mst/axi4_master_monitor.sv(184) @ 1005000: uvm_test_top.env.master_agent.mon [axi4_master_monitor] W data assembled: ID=0xb ADDR=0x0a9c3266 4 beats
# UVM_INFO ../src/slv/axi4_slave_monitor.sv(167) @ 1005000: uvm_test_top.env.slave_agent.mon [axi4_slave_monitor] W data assembled: ID=0xb ADDR=0x0a9c3266 4 beats
# UVM_INFO ../src/mst/axi4_master_driver.sv(197) @ 1035000: uvm_test_top.env.master_agent.drv [axi4_master_driver] Write response: AXI4_RESP_OKAY
# UVM_INFO ../src/slv/axi4_slave_driver.sv(261) @ 1035000: uvm_test_top.env.slave_agent.drv [axi4_slave_driver] Write complete: ID=0xb ADDR=0x0a9c3266 RESP=AXI4_RESP_OKAY  4 beats processed
# UVM_INFO ../src/slv/axi4_slave_monitor.sv(189) @ 1035000: uvm_test_top.env.slave_agent.mon [axi4_slave_monitor] Write response sent: ID=0xb ADDR=0x0a9c3266 RESP=AXI4_RESP_OKAY
# UVM_INFO ../src/env/axi4_scoreboard.sv(103) @ 1035000: uvm_test_top.env.scb [axi4_scoreboard] Slave AXI4_WRITE received: ID=0xb ADDR=0x0a9c3266 LEN=3
# UVM_INFO ../src/mst/axi4_master_monitor.sv(210) @ 1035000: uvm_test_top.env.master_agent.mon [axi4_master_monitor] Write complete: ID=0xb ADDR=0x0a9c3266 RESP=AXI4_RESP_OKAY
# UVM_INFO ../src/env/axi4_scoreboard.sv(82) @ 1035000: uvm_test_top.env.scb [axi4_scoreboard] Master AXI4_WRITE received: ID=0xb ADDR=0x0a9c3266 LEN=3
# UVM_INFO ../src/env/axi4_scoreboard.sv(154) @ 1035000: uvm_test_top.env.scb [axi4_scoreboard] [WRITE] MATCH #13: ID=0xb ADDR=0x0a9c3266 LEN=3
# UVM_INFO ../src/mst/axi4_master_driver.sv(55) @ 1035000: uvm_test_top.env.master_agent.drv [axi4_master_driver] Driving AXI4_READ  ID=0x8  ADDR=0xb7203794  LEN=3
# UVM_INFO ../src/slv/axi4_slave_driver.sv(300) @ 1065000: uvm_test_top.env.slave_agent.drv [axi4_slave_driver] AR received: ID=0x8 ADDR=0xb7203794 LEN=3 LOCK=AXI4_LOCK_EXCLUSIVE
# UVM_INFO ../src/mst/axi4_master_monitor.sv(246) @ 1065000: uvm_test_top.env.master_agent.mon [axi4_master_monitor] AR observed: ID=0x8 ADDR=0xb7203794 LEN=3
# UVM_INFO ../src/slv/axi4_slave_monitor.sv(224) @ 1065000: uvm_test_top.env.slave_agent.mon [axi4_slave_monitor] AR received: ID=0x8 ADDR=0xb7203794 LEN=3
# UVM_INFO ../src/mst/axi4_master_driver.sv(254) @ 1145000: uvm_test_top.env.master_agent.drv [axi4_master_driver] Read complete: 4 beats received
# UVM_INFO ../src/slv/axi4_slave_driver.sv(349) @ 1145000: uvm_test_top.env.slave_agent.drv [axi4_slave_driver] Read complete: ID=0x8 ADDR=0xb7203794 RESP=AXI4_RESP_EXOKAY  4 beats sent
# UVM_INFO ../src/mst/axi4_master_monitor.sv(314) @ 1145000: uvm_test_top.env.master_agent.mon [axi4_master_monitor] Read complete: ID=0x8 ADDR=0xb7203794 4 beats
# UVM_INFO ../src/env/axi4_scoreboard.sv(82) @ 1145000: uvm_test_top.env.scb [axi4_scoreboard] Master AXI4_READ received: ID=0x8 ADDR=0xb7203794 LEN=3
# UVM_INFO ../src/slv/axi4_slave_monitor.sv(287) @ 1145000: uvm_test_top.env.slave_agent.mon [axi4_slave_monitor] Read data sent: ID=0x8 ADDR=0xb7203794 4 beats
# UVM_INFO ../src/env/axi4_scoreboard.sv(103) @ 1145000: uvm_test_top.env.scb [axi4_scoreboard] Slave AXI4_READ received: ID=0x8 ADDR=0xb7203794 LEN=3
# UVM_INFO ../src/env/axi4_scoreboard.sv(154) @ 1145000: uvm_test_top.env.scb [axi4_scoreboard] [READ] MATCH #14: ID=0x8 ADDR=0xb7203794 LEN=3
# UVM_INFO ../src/mst/axi4_master_driver.sv(55) @ 1145000: uvm_test_top.env.master_agent.drv [axi4_master_driver] Driving AXI4_WRITE  ID=0xf  ADDR=0x013a6e02  LEN=3
# UVM_INFO ../src/mst/axi4_master_driver.sv(94) @ 1145000: uvm_test_top.env.master_agent.drv [axi4_master_driver] Write order: AW || W (parallel)
# UVM_INFO ../src/slv/axi4_slave_driver.sv(165) @ 1175000: uvm_test_top.env.slave_agent.drv [axi4_slave_driver] AW received: ID=0xf ADDR=0x013a6e02 LEN=3 LOCK=AXI4_LOCK_NORMAL
# UVM_INFO ../src/slv/axi4_slave_monitor.sv(116) @ 1175000: uvm_test_top.env.slave_agent.mon [axi4_slave_monitor] AW received: ID=0xf ADDR=0x013a6e02 LEN=3
# UVM_INFO ../src/mst/axi4_master_monitor.sv(124) @ 1175000: uvm_test_top.env.master_agent.mon [axi4_master_monitor] AW observed: ID=0xf ADDR=0x013a6e02 LEN=3
# UVM_INFO ../src/mst/axi4_master_monitor.sv(184) @ 1225000: uvm_test_top.env.master_agent.mon [axi4_master_monitor] W data assembled: ID=0xf ADDR=0x013a6e02 4 beats
# UVM_INFO ../src/slv/axi4_slave_monitor.sv(167) @ 1225000: uvm_test_top.env.slave_agent.mon [axi4_slave_monitor] W data assembled: ID=0xf ADDR=0x013a6e02 4 beats
# UVM_INFO ../src/mst/axi4_master_driver.sv(197) @ 1255000: uvm_test_top.env.master_agent.drv [axi4_master_driver] Write response: AXI4_RESP_OKAY
# UVM_INFO ../src/slv/axi4_slave_driver.sv(261) @ 1255000: uvm_test_top.env.slave_agent.drv [axi4_slave_driver] Write complete: ID=0xf ADDR=0x013a6e02 RESP=AXI4_RESP_OKAY  4 beats processed
# UVM_INFO ../src/slv/axi4_slave_monitor.sv(189) @ 1255000: uvm_test_top.env.slave_agent.mon [axi4_slave_monitor] Write response sent: ID=0xf ADDR=0x013a6e02 RESP=AXI4_RESP_OKAY
# UVM_INFO ../src/env/axi4_scoreboard.sv(103) @ 1255000: uvm_test_top.env.scb [axi4_scoreboard] Slave AXI4_WRITE received: ID=0xf ADDR=0x013a6e02 LEN=3
# UVM_INFO ../src/mst/axi4_master_monitor.sv(210) @ 1255000: uvm_test_top.env.master_agent.mon [axi4_master_monitor] Write complete: ID=0xf ADDR=0x013a6e02 RESP=AXI4_RESP_OKAY
# UVM_INFO ../src/env/axi4_scoreboard.sv(82) @ 1255000: uvm_test_top.env.scb [axi4_scoreboard] Master AXI4_WRITE received: ID=0xf ADDR=0x013a6e02 LEN=3
# UVM_INFO ../src/env/axi4_scoreboard.sv(154) @ 1255000: uvm_test_top.env.scb [axi4_scoreboard] [WRITE] MATCH #15: ID=0xf ADDR=0x013a6e02 LEN=3
# UVM_INFO ../src/mst/axi4_master_driver.sv(55) @ 1255000: uvm_test_top.env.master_agent.drv [axi4_master_driver] Driving AXI4_READ  ID=0x6  ADDR=0x8f34b888  LEN=3
# UVM_INFO ../src/slv/axi4_slave_driver.sv(300) @ 1285000: uvm_test_top.env.slave_agent.drv [axi4_slave_driver] AR received: ID=0x6 ADDR=0x8f34b888 LEN=3 LOCK=AXI4_LOCK_NORMAL
# UVM_INFO ../src/mst/axi4_master_monitor.sv(246) @ 1285000: uvm_test_top.env.master_agent.mon [axi4_master_monitor] AR observed: ID=0x6 ADDR=0x8f34b888 LEN=3
# UVM_INFO ../src/slv/axi4_slave_monitor.sv(224) @ 1285000: uvm_test_top.env.slave_agent.mon [axi4_slave_monitor] AR received: ID=0x6 ADDR=0x8f34b888 LEN=3
# UVM_INFO ../src/mst/axi4_master_driver.sv(254) @ 1365000: uvm_test_top.env.master_agent.drv [axi4_master_driver] Read complete: 4 beats received
# UVM_INFO ../src/slv/axi4_slave_driver.sv(349) @ 1365000: uvm_test_top.env.slave_agent.drv [axi4_slave_driver] Read complete: ID=0x6 ADDR=0x8f34b888 RESP=AXI4_RESP_OKAY  4 beats sent
# UVM_INFO ../src/mst/axi4_master_monitor.sv(314) @ 1365000: uvm_test_top.env.master_agent.mon [axi4_master_monitor] Read complete: ID=0x6 ADDR=0x8f34b888 4 beats
# UVM_INFO ../src/env/axi4_scoreboard.sv(82) @ 1365000: uvm_test_top.env.scb [axi4_scoreboard] Master AXI4_READ received: ID=0x6 ADDR=0x8f34b888 LEN=3
# UVM_INFO ../src/slv/axi4_slave_monitor.sv(287) @ 1365000: uvm_test_top.env.slave_agent.mon [axi4_slave_monitor] Read data sent: ID=0x6 ADDR=0x8f34b888 4 beats
# UVM_INFO ../src/env/axi4_scoreboard.sv(103) @ 1365000: uvm_test_top.env.scb [axi4_scoreboard] Slave AXI4_READ received: ID=0x6 ADDR=0x8f34b888 LEN=3
# UVM_INFO ../src/env/axi4_scoreboard.sv(154) @ 1365000: uvm_test_top.env.scb [axi4_scoreboard] [READ] MATCH #16: ID=0x6 ADDR=0x8f34b888 LEN=3
# UVM_INFO ../src/mst/axi4_master_driver.sv(55) @ 1365000: uvm_test_top.env.master_agent.drv [axi4_master_driver] Driving AXI4_WRITE  ID=0x6  ADDR=0x30b58078  LEN=3
# UVM_INFO ../src/mst/axi4_master_driver.sv(94) @ 1365000: uvm_test_top.env.master_agent.drv [axi4_master_driver] Write order: AW || W (parallel)
# UVM_INFO ../src/slv/axi4_slave_driver.sv(165) @ 1395000: uvm_test_top.env.slave_agent.drv [axi4_slave_driver] AW received: ID=0x6 ADDR=0x30b58078 LEN=3 LOCK=AXI4_LOCK_EXCLUSIVE
# UVM_INFO ../src/slv/axi4_slave_monitor.sv(116) @ 1395000: uvm_test_top.env.slave_agent.mon [axi4_slave_monitor] AW received: ID=0x6 ADDR=0x30b58078 LEN=3
# UVM_INFO ../src/mst/axi4_master_monitor.sv(124) @ 1395000: uvm_test_top.env.master_agent.mon [axi4_master_monitor] AW observed: ID=0x6 ADDR=0x30b58078 LEN=3
# UVM_INFO ../src/mst/axi4_master_monitor.sv(184) @ 1445000: uvm_test_top.env.master_agent.mon [axi4_master_monitor] W data assembled: ID=0x6 ADDR=0x30b58078 4 beats
# UVM_INFO ../src/slv/axi4_slave_monitor.sv(167) @ 1445000: uvm_test_top.env.slave_agent.mon [axi4_slave_monitor] W data assembled: ID=0x6 ADDR=0x30b58078 4 beats
# UVM_INFO ../src/mst/axi4_master_driver.sv(197) @ 1475000: uvm_test_top.env.master_agent.drv [axi4_master_driver] Write response: AXI4_RESP_OKAY
# UVM_INFO ../src/slv/axi4_slave_driver.sv(261) @ 1475000: uvm_test_top.env.slave_agent.drv [axi4_slave_driver] Write complete: ID=0x6 ADDR=0x30b58078 RESP=AXI4_RESP_OKAY  4 beats processed
# UVM_INFO ../src/slv/axi4_slave_monitor.sv(189) @ 1475000: uvm_test_top.env.slave_agent.mon [axi4_slave_monitor] Write response sent: ID=0x6 ADDR=0x30b58078 RESP=AXI4_RESP_OKAY
# UVM_INFO ../src/env/axi4_scoreboard.sv(103) @ 1475000: uvm_test_top.env.scb [axi4_scoreboard] Slave AXI4_WRITE received: ID=0x6 ADDR=0x30b58078 LEN=3
# UVM_INFO ../src/mst/axi4_master_monitor.sv(210) @ 1475000: uvm_test_top.env.master_agent.mon [axi4_master_monitor] Write complete: ID=0x6 ADDR=0x30b58078 RESP=AXI4_RESP_OKAY
# UVM_INFO ../src/env/axi4_scoreboard.sv(82) @ 1475000: uvm_test_top.env.scb [axi4_scoreboard] Master AXI4_WRITE received: ID=0x6 ADDR=0x30b58078 LEN=3
# UVM_INFO ../src/env/axi4_scoreboard.sv(154) @ 1475000: uvm_test_top.env.scb [axi4_scoreboard] [WRITE] MATCH #17: ID=0x6 ADDR=0x30b58078 LEN=3
# UVM_INFO ../src/mst/axi4_master_driver.sv(55) @ 1475000: uvm_test_top.env.master_agent.drv [axi4_master_driver] Driving AXI4_READ  ID=0x3  ADDR=0x870a6e4e  LEN=3
# UVM_INFO ../src/slv/axi4_slave_driver.sv(300) @ 1505000: uvm_test_top.env.slave_agent.drv [axi4_slave_driver] AR received: ID=0x3 ADDR=0x870a6e4e LEN=3 LOCK=AXI4_LOCK_NORMAL
# UVM_INFO ../src/mst/axi4_master_monitor.sv(246) @ 1505000: uvm_test_top.env.master_agent.mon [axi4_master_monitor] AR observed: ID=0x3 ADDR=0x870a6e4e LEN=3
# UVM_INFO ../src/slv/axi4_slave_monitor.sv(224) @ 1505000: uvm_test_top.env.slave_agent.mon [axi4_slave_monitor] AR received: ID=0x3 ADDR=0x870a6e4e LEN=3
# UVM_INFO ../src/mst/axi4_master_driver.sv(254) @ 1585000: uvm_test_top.env.master_agent.drv [axi4_master_driver] Read complete: 4 beats received
# UVM_INFO ../src/slv/axi4_slave_driver.sv(349) @ 1585000: uvm_test_top.env.slave_agent.drv [axi4_slave_driver] Read complete: ID=0x3 ADDR=0x870a6e4e RESP=AXI4_RESP_OKAY  4 beats sent
# UVM_INFO ../src/mst/axi4_master_monitor.sv(314) @ 1585000: uvm_test_top.env.master_agent.mon [axi4_master_monitor] Read complete: ID=0x3 ADDR=0x870a6e4e 4 beats
# UVM_INFO ../src/env/axi4_scoreboard.sv(82) @ 1585000: uvm_test_top.env.scb [axi4_scoreboard] Master AXI4_READ received: ID=0x3 ADDR=0x870a6e4e LEN=3
# UVM_INFO ../src/slv/axi4_slave_monitor.sv(287) @ 1585000: uvm_test_top.env.slave_agent.mon [axi4_slave_monitor] Read data sent: ID=0x3 ADDR=0x870a6e4e 4 beats
# UVM_INFO ../src/env/axi4_scoreboard.sv(103) @ 1585000: uvm_test_top.env.scb [axi4_scoreboard] Slave AXI4_READ received: ID=0x3 ADDR=0x870a6e4e LEN=3
# UVM_INFO ../src/env/axi4_scoreboard.sv(154) @ 1585000: uvm_test_top.env.scb [axi4_scoreboard] [READ] MATCH #18: ID=0x3 ADDR=0x870a6e4e LEN=3
# UVM_INFO ../src/mst/axi4_master_driver.sv(55) @ 1585000: uvm_test_top.env.master_agent.drv [axi4_master_driver] Driving AXI4_WRITE  ID=0x4  ADDR=0x02619493  LEN=7
# UVM_INFO ../src/mst/axi4_master_driver.sv(94) @ 1585000: uvm_test_top.env.master_agent.drv [axi4_master_driver] Write order: AW || W (parallel)
# UVM_INFO ../src/slv/axi4_slave_driver.sv(165) @ 1615000: uvm_test_top.env.slave_agent.drv [axi4_slave_driver] AW received: ID=0x4 ADDR=0x02619493 LEN=7 LOCK=AXI4_LOCK_NORMAL
# UVM_INFO ../src/slv/axi4_slave_monitor.sv(116) @ 1615000: uvm_test_top.env.slave_agent.mon [axi4_slave_monitor] AW received: ID=0x4 ADDR=0x02619493 LEN=7
# UVM_INFO ../src/mst/axi4_master_monitor.sv(124) @ 1615000: uvm_test_top.env.master_agent.mon [axi4_master_monitor] AW observed: ID=0x4 ADDR=0x02619493 LEN=7
# UVM_INFO ../src/mst/axi4_master_monitor.sv(184) @ 1745000: uvm_test_top.env.master_agent.mon [axi4_master_monitor] W data assembled: ID=0x4 ADDR=0x02619493 8 beats
# UVM_INFO ../src/slv/axi4_slave_monitor.sv(167) @ 1745000: uvm_test_top.env.slave_agent.mon [axi4_slave_monitor] W data assembled: ID=0x4 ADDR=0x02619493 8 beats
# UVM_INFO ../src/mst/axi4_master_driver.sv(197) @ 1775000: uvm_test_top.env.master_agent.drv [axi4_master_driver] Write response: AXI4_RESP_OKAY
# UVM_INFO ../src/slv/axi4_slave_driver.sv(261) @ 1775000: uvm_test_top.env.slave_agent.drv [axi4_slave_driver] Write complete: ID=0x4 ADDR=0x02619493 RESP=AXI4_RESP_OKAY  8 beats processed
# UVM_INFO ../src/slv/axi4_slave_monitor.sv(189) @ 1775000: uvm_test_top.env.slave_agent.mon [axi4_slave_monitor] Write response sent: ID=0x4 ADDR=0x02619493 RESP=AXI4_RESP_OKAY
# UVM_INFO ../src/env/axi4_scoreboard.sv(103) @ 1775000: uvm_test_top.env.scb [axi4_scoreboard] Slave AXI4_WRITE received: ID=0x4 ADDR=0x02619493 LEN=7
# UVM_INFO ../src/mst/axi4_master_monitor.sv(210) @ 1775000: uvm_test_top.env.master_agent.mon [axi4_master_monitor] Write complete: ID=0x4 ADDR=0x02619493 RESP=AXI4_RESP_OKAY
# UVM_INFO ../src/env/axi4_scoreboard.sv(82) @ 1775000: uvm_test_top.env.scb [axi4_scoreboard] Master AXI4_WRITE received: ID=0x4 ADDR=0x02619493 LEN=7
# UVM_INFO ../src/env/axi4_scoreboard.sv(154) @ 1775000: uvm_test_top.env.scb [axi4_scoreboard] [WRITE] MATCH #19: ID=0x4 ADDR=0x02619493 LEN=7
# UVM_INFO ../src/mst/axi4_master_driver.sv(55) @ 1775000: uvm_test_top.env.master_agent.drv [axi4_master_driver] Driving AXI4_READ  ID=0xc  ADDR=0xdf8f2bb8  LEN=7
# UVM_INFO ../src/slv/axi4_slave_driver.sv(300) @ 1805000: uvm_test_top.env.slave_agent.drv [axi4_slave_driver] AR received: ID=0xc ADDR=0xdf8f2bb8 LEN=7 LOCK=AXI4_LOCK_NORMAL
# UVM_INFO ../src/mst/axi4_master_monitor.sv(246) @ 1805000: uvm_test_top.env.master_agent.mon [axi4_master_monitor] AR observed: ID=0xc ADDR=0xdf8f2bb8 LEN=7
# UVM_INFO ../src/slv/axi4_slave_monitor.sv(224) @ 1805000: uvm_test_top.env.slave_agent.mon [axi4_slave_monitor] AR received: ID=0xc ADDR=0xdf8f2bb8 LEN=7
# UVM_INFO ../src/mst/axi4_master_driver.sv(254) @ 1965000: uvm_test_top.env.master_agent.drv [axi4_master_driver] Read complete: 8 beats received
# UVM_INFO ../src/slv/axi4_slave_driver.sv(349) @ 1965000: uvm_test_top.env.slave_agent.drv [axi4_slave_driver] Read complete: ID=0xc ADDR=0xdf8f2bb8 RESP=AXI4_RESP_OKAY  8 beats sent
# UVM_INFO ../src/mst/axi4_master_monitor.sv(314) @ 1965000: uvm_test_top.env.master_agent.mon [axi4_master_monitor] Read complete: ID=0xc ADDR=0xdf8f2bb8 8 beats
# UVM_INFO ../src/env/axi4_scoreboard.sv(82) @ 1965000: uvm_test_top.env.scb [axi4_scoreboard] Master AXI4_READ received: ID=0xc ADDR=0xdf8f2bb8 LEN=7
# UVM_INFO ../src/slv/axi4_slave_monitor.sv(287) @ 1965000: uvm_test_top.env.slave_agent.mon [axi4_slave_monitor] Read data sent: ID=0xc ADDR=0xdf8f2bb8 8 beats
# UVM_INFO ../src/env/axi4_scoreboard.sv(103) @ 1965000: uvm_test_top.env.scb [axi4_scoreboard] Slave AXI4_READ received: ID=0xc ADDR=0xdf8f2bb8 LEN=7
# UVM_INFO ../src/env/axi4_scoreboard.sv(154) @ 1965000: uvm_test_top.env.scb [axi4_scoreboard] [READ] MATCH #20: ID=0xc ADDR=0xdf8f2bb8 LEN=7
# UVM_INFO ../src/mst/axi4_master_driver.sv(55) @ 1965000: uvm_test_top.env.master_agent.drv [axi4_master_driver] Driving AXI4_WRITE  ID=0xb  ADDR=0x3b87e52e  LEN=7
# UVM_INFO ../src/mst/axi4_master_driver.sv(101) @ 1965000: uvm_test_top.env.master_agent.drv [axi4_master_driver] Write order: AW -> W (sequential)
# UVM_INFO ../src/slv/axi4_slave_driver.sv(165) @ 1995000: uvm_test_top.env.slave_agent.drv [axi4_slave_driver] AW received: ID=0xb ADDR=0x3b87e52e LEN=7 LOCK=AXI4_LOCK_EXCLUSIVE
# UVM_INFO ../src/slv/axi4_slave_monitor.sv(116) @ 1995000: uvm_test_top.env.slave_agent.mon [axi4_slave_monitor] AW received: ID=0xb ADDR=0x3b87e52e LEN=7
# UVM_INFO ../src/mst/axi4_master_monitor.sv(124) @ 1995000: uvm_test_top.env.master_agent.mon [axi4_master_monitor] AW observed: ID=0xb ADDR=0x3b87e52e LEN=7
# UVM_INFO ../src/slv/axi4_slave_monitor.sv(167) @ 2155000: uvm_test_top.env.slave_agent.mon [axi4_slave_monitor] W data assembled: ID=0xb ADDR=0x3b87e52e 8 beats
# UVM_INFO ../src/mst/axi4_master_monitor.sv(184) @ 2155000: uvm_test_top.env.master_agent.mon [axi4_master_monitor] W data assembled: ID=0xb ADDR=0x3b87e52e 8 beats
# UVM_INFO ../src/mst/axi4_master_driver.sv(197) @ 2185000: uvm_test_top.env.master_agent.drv [axi4_master_driver] Write response: AXI4_RESP_OKAY
# UVM_INFO ../src/slv/axi4_slave_driver.sv(261) @ 2185000: uvm_test_top.env.slave_agent.drv [axi4_slave_driver] Write complete: ID=0xb ADDR=0x3b87e52e RESP=AXI4_RESP_OKAY  8 beats processed
# UVM_INFO ../src/mst/axi4_master_monitor.sv(210) @ 2185000: uvm_test_top.env.master_agent.mon [axi4_master_monitor] Write complete: ID=0xb ADDR=0x3b87e52e RESP=AXI4_RESP_OKAY
# UVM_INFO ../src/env/axi4_scoreboard.sv(82) @ 2185000: uvm_test_top.env.scb [axi4_scoreboard] Master AXI4_WRITE received: ID=0xb ADDR=0x3b87e52e LEN=7
# UVM_INFO ../src/slv/axi4_slave_monitor.sv(189) @ 2185000: uvm_test_top.env.slave_agent.mon [axi4_slave_monitor] Write response sent: ID=0xb ADDR=0x3b87e52e RESP=AXI4_RESP_OKAY
# UVM_INFO ../src/env/axi4_scoreboard.sv(103) @ 2185000: uvm_test_top.env.scb [axi4_scoreboard] Slave AXI4_WRITE received: ID=0xb ADDR=0x3b87e52e LEN=7
# UVM_INFO ../src/env/axi4_scoreboard.sv(154) @ 2185000: uvm_test_top.env.scb [axi4_scoreboard] [WRITE] MATCH #21: ID=0xb ADDR=0x3b87e52e LEN=7
# UVM_INFO ../src/mst/axi4_master_driver.sv(55) @ 2185000: uvm_test_top.env.master_agent.drv [axi4_master_driver] Driving AXI4_READ  ID=0x6  ADDR=0x157de537  LEN=7
# UVM_INFO ../src/slv/axi4_slave_driver.sv(300) @ 2215000: uvm_test_top.env.slave_agent.drv [axi4_slave_driver] AR received: ID=0x6 ADDR=0x157de537 LEN=7 LOCK=AXI4_LOCK_NORMAL
# UVM_INFO ../src/slv/axi4_slave_monitor.sv(224) @ 2215000: uvm_test_top.env.slave_agent.mon [axi4_slave_monitor] AR received: ID=0x6 ADDR=0x157de537 LEN=7
# UVM_INFO ../src/mst/axi4_master_monitor.sv(246) @ 2215000: uvm_test_top.env.master_agent.mon [axi4_master_monitor] AR observed: ID=0x6 ADDR=0x157de537 LEN=7
# UVM_INFO ../src/mst/axi4_master_driver.sv(254) @ 2375000: uvm_test_top.env.master_agent.drv [axi4_master_driver] Read complete: 8 beats received
# UVM_INFO ../src/slv/axi4_slave_driver.sv(349) @ 2375000: uvm_test_top.env.slave_agent.drv [axi4_slave_driver] Read complete: ID=0x6 ADDR=0x157de537 RESP=AXI4_RESP_OKAY  8 beats sent
# UVM_INFO ../src/slv/axi4_slave_monitor.sv(287) @ 2375000: uvm_test_top.env.slave_agent.mon [axi4_slave_monitor] Read data sent: ID=0x6 ADDR=0x157de537 8 beats
# UVM_INFO ../src/env/axi4_scoreboard.sv(103) @ 2375000: uvm_test_top.env.scb [axi4_scoreboard] Slave AXI4_READ received: ID=0x6 ADDR=0x157de537 LEN=7
# UVM_INFO ../src/mst/axi4_master_monitor.sv(314) @ 2375000: uvm_test_top.env.master_agent.mon [axi4_master_monitor] Read complete: ID=0x6 ADDR=0x157de537 8 beats
# UVM_INFO ../src/env/axi4_scoreboard.sv(82) @ 2375000: uvm_test_top.env.scb [axi4_scoreboard] Master AXI4_READ received: ID=0x6 ADDR=0x157de537 LEN=7
# UVM_INFO ../src/env/axi4_scoreboard.sv(154) @ 2375000: uvm_test_top.env.scb [axi4_scoreboard] [READ] MATCH #22: ID=0x6 ADDR=0x157de537 LEN=7
# UVM_INFO ../src/mst/axi4_master_driver.sv(55) @ 2375000: uvm_test_top.env.master_agent.drv [axi4_master_driver] Driving AXI4_WRITE  ID=0xc  ADDR=0x9361d6c0  LEN=7
# UVM_INFO ../src/mst/axi4_master_driver.sv(106) @ 2375000: uvm_test_top.env.master_agent.drv [axi4_master_driver] Write order: W -> AW (W first)
# UVM_INFO ../src/slv/axi4_slave_driver.sv(165) @ 2435000: uvm_test_top.env.slave_agent.drv [axi4_slave_driver] AW received: ID=0xc ADDR=0x9361d6c0 LEN=7 LOCK=AXI4_LOCK_EXCLUSIVE
# UVM_INFO ../src/slv/axi4_slave_monitor.sv(116) @ 2435000: uvm_test_top.env.slave_agent.mon [axi4_slave_monitor] AW received: ID=0xc ADDR=0x9361d6c0 LEN=7
# UVM_INFO ../src/mst/axi4_master_monitor.sv(124) @ 2435000: uvm_test_top.env.master_agent.mon [axi4_master_monitor] AW observed: ID=0xc ADDR=0x9361d6c0 LEN=7
# UVM_INFO ../src/slv/axi4_slave_monitor.sv(167) @ 2535000: uvm_test_top.env.slave_agent.mon [axi4_slave_monitor] W data assembled: ID=0xc ADDR=0x9361d6c0 8 beats
# UVM_INFO ../src/mst/axi4_master_monitor.sv(184) @ 2535000: uvm_test_top.env.master_agent.mon [axi4_master_monitor] W data assembled: ID=0xc ADDR=0x9361d6c0 8 beats
# UVM_INFO ../src/mst/axi4_master_driver.sv(197) @ 2565000: uvm_test_top.env.master_agent.drv [axi4_master_driver] Write response: AXI4_RESP_OKAY
# UVM_INFO ../src/slv/axi4_slave_driver.sv(261) @ 2565000: uvm_test_top.env.slave_agent.drv [axi4_slave_driver] Write complete: ID=0xc ADDR=0x9361d6c0 RESP=AXI4_RESP_OKAY  8 beats processed
# UVM_INFO ../src/mst/axi4_master_monitor.sv(210) @ 2565000: uvm_test_top.env.master_agent.mon [axi4_master_monitor] Write complete: ID=0xc ADDR=0x9361d6c0 RESP=AXI4_RESP_OKAY
# UVM_INFO ../src/env/axi4_scoreboard.sv(82) @ 2565000: uvm_test_top.env.scb [axi4_scoreboard] Master AXI4_WRITE received: ID=0xc ADDR=0x9361d6c0 LEN=7
# UVM_INFO ../src/slv/axi4_slave_monitor.sv(189) @ 2565000: uvm_test_top.env.slave_agent.mon [axi4_slave_monitor] Write response sent: ID=0xc ADDR=0x9361d6c0 RESP=AXI4_RESP_OKAY
# UVM_INFO ../src/env/axi4_scoreboard.sv(103) @ 2565000: uvm_test_top.env.scb [axi4_scoreboard] Slave AXI4_WRITE received: ID=0xc ADDR=0x9361d6c0 LEN=7
# UVM_INFO ../src/env/axi4_scoreboard.sv(154) @ 2565000: uvm_test_top.env.scb [axi4_scoreboard] [WRITE] MATCH #23: ID=0xc ADDR=0x9361d6c0 LEN=7
# UVM_INFO ../src/mst/axi4_master_driver.sv(55) @ 2565000: uvm_test_top.env.master_agent.drv [axi4_master_driver] Driving AXI4_READ  ID=0x2  ADDR=0xde1b29a6  LEN=7
# UVM_INFO ../src/slv/axi4_slave_driver.sv(300) @ 2595000: uvm_test_top.env.slave_agent.drv [axi4_slave_driver] AR received: ID=0x2 ADDR=0xde1b29a6 LEN=7 LOCK=AXI4_LOCK_NORMAL
# UVM_INFO ../src/slv/axi4_slave_monitor.sv(224) @ 2595000: uvm_test_top.env.slave_agent.mon [axi4_slave_monitor] AR received: ID=0x2 ADDR=0xde1b29a6 LEN=7
# UVM_INFO ../src/mst/axi4_master_monitor.sv(246) @ 2595000: uvm_test_top.env.master_agent.mon [axi4_master_monitor] AR observed: ID=0x2 ADDR=0xde1b29a6 LEN=7
# UVM_INFO ../src/mst/axi4_master_driver.sv(254) @ 2755000: uvm_test_top.env.master_agent.drv [axi4_master_driver] Read complete: 8 beats received
# UVM_INFO ../src/slv/axi4_slave_driver.sv(349) @ 2755000: uvm_test_top.env.slave_agent.drv [axi4_slave_driver] Read complete: ID=0x2 ADDR=0xde1b29a6 RESP=AXI4_RESP_OKAY  8 beats sent
# UVM_INFO ../src/slv/axi4_slave_monitor.sv(287) @ 2755000: uvm_test_top.env.slave_agent.mon [axi4_slave_monitor] Read data sent: ID=0x2 ADDR=0xde1b29a6 8 beats
# UVM_INFO ../src/env/axi4_scoreboard.sv(103) @ 2755000: uvm_test_top.env.scb [axi4_scoreboard] Slave AXI4_READ received: ID=0x2 ADDR=0xde1b29a6 LEN=7
# UVM_INFO ../src/mst/axi4_master_monitor.sv(314) @ 2755000: uvm_test_top.env.master_agent.mon [axi4_master_monitor] Read complete: ID=0x2 ADDR=0xde1b29a6 8 beats
# UVM_INFO ../src/env/axi4_scoreboard.sv(82) @ 2755000: uvm_test_top.env.scb [axi4_scoreboard] Master AXI4_READ received: ID=0x2 ADDR=0xde1b29a6 LEN=7
# UVM_INFO ../src/env/axi4_scoreboard.sv(154) @ 2755000: uvm_test_top.env.scb [axi4_scoreboard] [READ] MATCH #24: ID=0x2 ADDR=0xde1b29a6 LEN=7
# UVM_INFO ../src/mst/axi4_master_driver.sv(55) @ 2755000: uvm_test_top.env.master_agent.drv [axi4_master_driver] Driving AXI4_WRITE  ID=0xf  ADDR=0x0724c8fa  LEN=15
# UVM_INFO ../src/mst/axi4_master_driver.sv(94) @ 2755000: uvm_test_top.env.master_agent.drv [axi4_master_driver] Write order: AW || W (parallel)
# UVM_INFO ../src/slv/axi4_slave_driver.sv(165) @ 2785000: uvm_test_top.env.slave_agent.drv [axi4_slave_driver] AW received: ID=0xf ADDR=0x0724c8fa LEN=15 LOCK=AXI4_LOCK_EXCLUSIVE
# UVM_INFO ../src/mst/axi4_master_monitor.sv(124) @ 2785000: uvm_test_top.env.master_agent.mon [axi4_master_monitor] AW observed: ID=0xf ADDR=0x0724c8fa LEN=15
# UVM_INFO ../src/slv/axi4_slave_monitor.sv(116) @ 2785000: uvm_test_top.env.slave_agent.mon [axi4_slave_monitor] AW received: ID=0xf ADDR=0x0724c8fa LEN=15
# UVM_INFO ../src/slv/axi4_slave_monitor.sv(167) @ 3075000: uvm_test_top.env.slave_agent.mon [axi4_slave_monitor] W data assembled: ID=0xf ADDR=0x0724c8fa 16 beats
# UVM_INFO ../src/mst/axi4_master_monitor.sv(184) @ 3075000: uvm_test_top.env.master_agent.mon [axi4_master_monitor] W data assembled: ID=0xf ADDR=0x0724c8fa 16 beats
# UVM_INFO ../src/mst/axi4_master_driver.sv(197) @ 3105000: uvm_test_top.env.master_agent.drv [axi4_master_driver] Write response: AXI4_RESP_OKAY
# UVM_INFO ../src/slv/axi4_slave_driver.sv(261) @ 3105000: uvm_test_top.env.slave_agent.drv [axi4_slave_driver] Write complete: ID=0xf ADDR=0x0724c8fa RESP=AXI4_RESP_OKAY  16 beats processed
# UVM_INFO ../src/mst/axi4_master_monitor.sv(210) @ 3105000: uvm_test_top.env.master_agent.mon [axi4_master_monitor] Write complete: ID=0xf ADDR=0x0724c8fa RESP=AXI4_RESP_OKAY
# UVM_INFO ../src/env/axi4_scoreboard.sv(82) @ 3105000: uvm_test_top.env.scb [axi4_scoreboard] Master AXI4_WRITE received: ID=0xf ADDR=0x0724c8fa LEN=15
# UVM_INFO ../src/slv/axi4_slave_monitor.sv(189) @ 3105000: uvm_test_top.env.slave_agent.mon [axi4_slave_monitor] Write response sent: ID=0xf ADDR=0x0724c8fa RESP=AXI4_RESP_OKAY
# UVM_INFO ../src/env/axi4_scoreboard.sv(103) @ 3105000: uvm_test_top.env.scb [axi4_scoreboard] Slave AXI4_WRITE received: ID=0xf ADDR=0x0724c8fa LEN=15
# UVM_INFO ../src/env/axi4_scoreboard.sv(154) @ 3105000: uvm_test_top.env.scb [axi4_scoreboard] [WRITE] MATCH #25: ID=0xf ADDR=0x0724c8fa LEN=15
# UVM_INFO ../src/mst/axi4_master_driver.sv(55) @ 3105000: uvm_test_top.env.master_agent.drv [axi4_master_driver] Driving AXI4_READ  ID=0xa  ADDR=0x5f234500  LEN=15
# UVM_INFO ../src/slv/axi4_slave_driver.sv(300) @ 3135000: uvm_test_top.env.slave_agent.drv [axi4_slave_driver] AR received: ID=0xa ADDR=0x5f234500 LEN=15 LOCK=AXI4_LOCK_NORMAL
# UVM_INFO ../src/slv/axi4_slave_monitor.sv(224) @ 3135000: uvm_test_top.env.slave_agent.mon [axi4_slave_monitor] AR received: ID=0xa ADDR=0x5f234500 LEN=15
# UVM_INFO ../src/mst/axi4_master_monitor.sv(246) @ 3135000: uvm_test_top.env.master_agent.mon [axi4_master_monitor] AR observed: ID=0xa ADDR=0x5f234500 LEN=15
# UVM_INFO ../src/mst/axi4_master_driver.sv(254) @ 3455000: uvm_test_top.env.master_agent.drv [axi4_master_driver] Read complete: 16 beats received
# UVM_INFO ../src/slv/axi4_slave_driver.sv(349) @ 3455000: uvm_test_top.env.slave_agent.drv [axi4_slave_driver] Read complete: ID=0xa ADDR=0x5f234500 RESP=AXI4_RESP_OKAY  16 beats sent
# UVM_INFO ../src/slv/axi4_slave_monitor.sv(287) @ 3455000: uvm_test_top.env.slave_agent.mon [axi4_slave_monitor] Read data sent: ID=0xa ADDR=0x5f234500 16 beats
# UVM_INFO ../src/env/axi4_scoreboard.sv(103) @ 3455000: uvm_test_top.env.scb [axi4_scoreboard] Slave AXI4_READ received: ID=0xa ADDR=0x5f234500 LEN=15
# UVM_INFO ../src/mst/axi4_master_monitor.sv(314) @ 3455000: uvm_test_top.env.master_agent.mon [axi4_master_monitor] Read complete: ID=0xa ADDR=0x5f234500 16 beats
# UVM_INFO ../src/env/axi4_scoreboard.sv(82) @ 3455000: uvm_test_top.env.scb [axi4_scoreboard] Master AXI4_READ received: ID=0xa ADDR=0x5f234500 LEN=15
# UVM_INFO ../src/env/axi4_scoreboard.sv(154) @ 3455000: uvm_test_top.env.scb [axi4_scoreboard] [READ] MATCH #26: ID=0xa ADDR=0x5f234500 LEN=15
# UVM_INFO ../src/mst/axi4_master_driver.sv(55) @ 3455000: uvm_test_top.env.master_agent.drv [axi4_master_driver] Driving AXI4_WRITE  ID=0x5  ADDR=0x4f057585  LEN=15
# UVM_INFO ../src/mst/axi4_master_driver.sv(106) @ 3455000: uvm_test_top.env.master_agent.drv [axi4_master_driver] Write order: W -> AW (W first)
# UVM_INFO ../src/slv/axi4_slave_driver.sv(165) @ 3535000: uvm_test_top.env.slave_agent.drv [axi4_slave_driver] AW received: ID=0x5 ADDR=0x4f057585 LEN=15 LOCK=AXI4_LOCK_EXCLUSIVE
# UVM_INFO ../src/slv/axi4_slave_monitor.sv(116) @ 3535000: uvm_test_top.env.slave_agent.mon [axi4_slave_monitor] AW received: ID=0x5 ADDR=0x4f057585 LEN=15
# UVM_INFO ../src/mst/axi4_master_monitor.sv(124) @ 3535000: uvm_test_top.env.master_agent.mon [axi4_master_monitor] AW observed: ID=0x5 ADDR=0x4f057585 LEN=15
# UVM_INFO ../src/slv/axi4_slave_monitor.sv(167) @ 3775000: uvm_test_top.env.slave_agent.mon [axi4_slave_monitor] W data assembled: ID=0x5 ADDR=0x4f057585 16 beats
# UVM_INFO ../src/mst/axi4_master_monitor.sv(184) @ 3775000: uvm_test_top.env.master_agent.mon [axi4_master_monitor] W data assembled: ID=0x5 ADDR=0x4f057585 16 beats
# UVM_INFO ../src/mst/axi4_master_driver.sv(197) @ 3805000: uvm_test_top.env.master_agent.drv [axi4_master_driver] Write response: AXI4_RESP_OKAY
# UVM_INFO ../src/slv/axi4_slave_driver.sv(261) @ 3805000: uvm_test_top.env.slave_agent.drv [axi4_slave_driver] Write complete: ID=0x5 ADDR=0x4f057585 RESP=AXI4_RESP_OKAY  16 beats processed
# UVM_INFO ../src/mst/axi4_master_monitor.sv(210) @ 3805000: uvm_test_top.env.master_agent.mon [axi4_master_monitor] Write complete: ID=0x5 ADDR=0x4f057585 RESP=AXI4_RESP_OKAY
# UVM_INFO ../src/env/axi4_scoreboard.sv(82) @ 3805000: uvm_test_top.env.scb [axi4_scoreboard] Master AXI4_WRITE received: ID=0x5 ADDR=0x4f057585 LEN=15
# UVM_INFO ../src/slv/axi4_slave_monitor.sv(189) @ 3805000: uvm_test_top.env.slave_agent.mon [axi4_slave_monitor] Write response sent: ID=0x5 ADDR=0x4f057585 RESP=AXI4_RESP_OKAY
# UVM_INFO ../src/env/axi4_scoreboard.sv(103) @ 3805000: uvm_test_top.env.scb [axi4_scoreboard] Slave AXI4_WRITE received: ID=0x5 ADDR=0x4f057585 LEN=15
# UVM_INFO ../src/env/axi4_scoreboard.sv(154) @ 3805000: uvm_test_top.env.scb [axi4_scoreboard] [WRITE] MATCH #27: ID=0x5 ADDR=0x4f057585 LEN=15
# UVM_INFO ../src/mst/axi4_master_driver.sv(55) @ 3805000: uvm_test_top.env.master_agent.drv [axi4_master_driver] Driving AXI4_READ  ID=0xa  ADDR=0x43c6cea0  LEN=15
# UVM_INFO ../src/slv/axi4_slave_driver.sv(300) @ 3835000: uvm_test_top.env.slave_agent.drv [axi4_slave_driver] AR received: ID=0xa ADDR=0x43c6cea0 LEN=15 LOCK=AXI4_LOCK_NORMAL
# UVM_INFO ../src/slv/axi4_slave_monitor.sv(224) @ 3835000: uvm_test_top.env.slave_agent.mon [axi4_slave_monitor] AR received: ID=0xa ADDR=0x43c6cea0 LEN=15
# UVM_INFO ../src/mst/axi4_master_monitor.sv(246) @ 3835000: uvm_test_top.env.master_agent.mon [axi4_master_monitor] AR observed: ID=0xa ADDR=0x43c6cea0 LEN=15
# UVM_INFO ../src/mst/axi4_master_driver.sv(254) @ 4155000: uvm_test_top.env.master_agent.drv [axi4_master_driver] Read complete: 16 beats received
# UVM_INFO ../src/slv/axi4_slave_driver.sv(349) @ 4155000: uvm_test_top.env.slave_agent.drv [axi4_slave_driver] Read complete: ID=0xa ADDR=0x43c6cea0 RESP=AXI4_RESP_OKAY  16 beats sent
# UVM_INFO ../src/slv/axi4_slave_monitor.sv(287) @ 4155000: uvm_test_top.env.slave_agent.mon [axi4_slave_monitor] Read data sent: ID=0xa ADDR=0x43c6cea0 16 beats
# UVM_INFO ../src/env/axi4_scoreboard.sv(103) @ 4155000: uvm_test_top.env.scb [axi4_scoreboard] Slave AXI4_READ received: ID=0xa ADDR=0x43c6cea0 LEN=15
# UVM_INFO ../src/mst/axi4_master_monitor.sv(314) @ 4155000: uvm_test_top.env.master_agent.mon [axi4_master_monitor] Read complete: ID=0xa ADDR=0x43c6cea0 16 beats
# UVM_INFO ../src/env/axi4_scoreboard.sv(82) @ 4155000: uvm_test_top.env.scb [axi4_scoreboard] Master AXI4_READ received: ID=0xa ADDR=0x43c6cea0 LEN=15
# UVM_INFO ../src/env/axi4_scoreboard.sv(154) @ 4155000: uvm_test_top.env.scb [axi4_scoreboard] [READ] MATCH #28: ID=0xa ADDR=0x43c6cea0 LEN=15
# UVM_INFO ../src/mst/axi4_master_driver.sv(55) @ 4155000: uvm_test_top.env.master_agent.drv [axi4_master_driver] Driving AXI4_WRITE  ID=0x1  ADDR=0xd11f9798  LEN=15
# UVM_INFO ../src/mst/axi4_master_driver.sv(94) @ 4155000: uvm_test_top.env.master_agent.drv [axi4_master_driver] Write order: AW || W (parallel)
# UVM_INFO ../src/slv/axi4_slave_driver.sv(165) @ 4185000: uvm_test_top.env.slave_agent.drv [axi4_slave_driver] AW received: ID=0x1 ADDR=0xd11f9798 LEN=15 LOCK=AXI4_LOCK_EXCLUSIVE
# UVM_INFO ../src/mst/axi4_master_monitor.sv(124) @ 4185000: uvm_test_top.env.master_agent.mon [axi4_master_monitor] AW observed: ID=0x1 ADDR=0xd11f9798 LEN=15
# UVM_INFO ../src/slv/axi4_slave_monitor.sv(116) @ 4185000: uvm_test_top.env.slave_agent.mon [axi4_slave_monitor] AW received: ID=0x1 ADDR=0xd11f9798 LEN=15
# UVM_INFO ../src/slv/axi4_slave_monitor.sv(167) @ 4475000: uvm_test_top.env.slave_agent.mon [axi4_slave_monitor] W data assembled: ID=0x1 ADDR=0xd11f9798 16 beats
# UVM_INFO ../src/mst/axi4_master_monitor.sv(184) @ 4475000: uvm_test_top.env.master_agent.mon [axi4_master_monitor] W data assembled: ID=0x1 ADDR=0xd11f9798 16 beats
# UVM_INFO ../src/mst/axi4_master_driver.sv(197) @ 4505000: uvm_test_top.env.master_agent.drv [axi4_master_driver] Write response: AXI4_RESP_OKAY
# UVM_INFO ../src/slv/axi4_slave_driver.sv(261) @ 4505000: uvm_test_top.env.slave_agent.drv [axi4_slave_driver] Write complete: ID=0x1 ADDR=0xd11f9798 RESP=AXI4_RESP_OKAY  16 beats processed
# UVM_INFO ../src/mst/axi4_master_monitor.sv(210) @ 4505000: uvm_test_top.env.master_agent.mon [axi4_master_monitor] Write complete: ID=0x1 ADDR=0xd11f9798 RESP=AXI4_RESP_OKAY
# UVM_INFO ../src/env/axi4_scoreboard.sv(82) @ 4505000: uvm_test_top.env.scb [axi4_scoreboard] Master AXI4_WRITE received: ID=0x1 ADDR=0xd11f9798 LEN=15
# UVM_INFO ../src/slv/axi4_slave_monitor.sv(189) @ 4505000: uvm_test_top.env.slave_agent.mon [axi4_slave_monitor] Write response sent: ID=0x1 ADDR=0xd11f9798 RESP=AXI4_RESP_OKAY
# UVM_INFO ../src/env/axi4_scoreboard.sv(103) @ 4505000: uvm_test_top.env.scb [axi4_scoreboard] Slave AXI4_WRITE received: ID=0x1 ADDR=0xd11f9798 LEN=15
# UVM_INFO ../src/env/axi4_scoreboard.sv(154) @ 4505000: uvm_test_top.env.scb [axi4_scoreboard] [WRITE] MATCH #29: ID=0x1 ADDR=0xd11f9798 LEN=15
# UVM_INFO ../src/mst/axi4_master_driver.sv(55) @ 4505000: uvm_test_top.env.master_agent.drv [axi4_master_driver] Driving AXI4_READ  ID=0xd  ADDR=0xb50ee581  LEN=15
# UVM_INFO ../src/slv/axi4_slave_driver.sv(300) @ 4535000: uvm_test_top.env.slave_agent.drv [axi4_slave_driver] AR received: ID=0xd ADDR=0xb50ee581 LEN=15 LOCK=AXI4_LOCK_EXCLUSIVE
# UVM_INFO ../src/slv/axi4_slave_monitor.sv(224) @ 4535000: uvm_test_top.env.slave_agent.mon [axi4_slave_monitor] AR received: ID=0xd ADDR=0xb50ee581 LEN=15
# UVM_INFO ../src/mst/axi4_master_monitor.sv(246) @ 4535000: uvm_test_top.env.master_agent.mon [axi4_master_monitor] AR observed: ID=0xd ADDR=0xb50ee581 LEN=15
# UVM_INFO ../src/mst/axi4_master_driver.sv(254) @ 4855000: uvm_test_top.env.master_agent.drv [axi4_master_driver] Read complete: 16 beats received
# UVM_INFO ../src/slv/axi4_slave_driver.sv(349) @ 4855000: uvm_test_top.env.slave_agent.drv [axi4_slave_driver] Read complete: ID=0xd ADDR=0xb50ee581 RESP=AXI4_RESP_EXOKAY  16 beats sent
# UVM_INFO ../src/slv/axi4_slave_monitor.sv(287) @ 4855000: uvm_test_top.env.slave_agent.mon [axi4_slave_monitor] Read data sent: ID=0xd ADDR=0xb50ee581 16 beats
# UVM_INFO ../src/env/axi4_scoreboard.sv(103) @ 4855000: uvm_test_top.env.scb [axi4_scoreboard] Slave AXI4_READ received: ID=0xd ADDR=0xb50ee581 LEN=15
# UVM_INFO ../src/mst/axi4_master_monitor.sv(314) @ 4855000: uvm_test_top.env.master_agent.mon [axi4_master_monitor] Read complete: ID=0xd ADDR=0xb50ee581 16 beats
# UVM_INFO ../src/env/axi4_scoreboard.sv(82) @ 4855000: uvm_test_top.env.scb [axi4_scoreboard] Master AXI4_READ received: ID=0xd ADDR=0xb50ee581 LEN=15
# UVM_INFO ../src/env/axi4_scoreboard.sv(154) @ 4855000: uvm_test_top.env.scb [axi4_scoreboard] [READ] MATCH #30: ID=0xd ADDR=0xb50ee581 LEN=15
# UVM_INFO ../src/mst/axi4_master_driver.sv(55) @ 4855000: uvm_test_top.env.master_agent.drv [axi4_master_driver] Driving AXI4_WRITE  ID=0xd  ADDR=0x2c605a91  LEN=1
# UVM_INFO ../src/mst/axi4_master_driver.sv(101) @ 4855000: uvm_test_top.env.master_agent.drv [axi4_master_driver] Write order: AW -> W (sequential)
# UVM_INFO ../src/slv/axi4_slave_driver.sv(165) @ 4885000: uvm_test_top.env.slave_agent.drv [axi4_slave_driver] AW received: ID=0xd ADDR=0x2c605a91 LEN=1 LOCK=AXI4_LOCK_NORMAL
# UVM_INFO ../src/mst/axi4_master_monitor.sv(124) @ 4885000: uvm_test_top.env.master_agent.mon [axi4_master_monitor] AW observed: ID=0xd ADDR=0x2c605a91 LEN=1
# UVM_INFO ../src/slv/axi4_slave_monitor.sv(116) @ 4885000: uvm_test_top.env.slave_agent.mon [axi4_slave_monitor] AW received: ID=0xd ADDR=0x2c605a91 LEN=1
# UVM_INFO ../src/mst/axi4_master_monitor.sv(184) @ 4925000: uvm_test_top.env.master_agent.mon [axi4_master_monitor] W data assembled: ID=0xd ADDR=0x2c605a91 2 beats
# UVM_INFO ../src/slv/axi4_slave_monitor.sv(167) @ 4925000: uvm_test_top.env.slave_agent.mon [axi4_slave_monitor] W data assembled: ID=0xd ADDR=0x2c605a91 2 beats
# UVM_INFO ../src/mst/axi4_master_driver.sv(197) @ 4955000: uvm_test_top.env.master_agent.drv [axi4_master_driver] Write response: AXI4_RESP_OKAY
# UVM_INFO ../src/slv/axi4_slave_driver.sv(261) @ 4955000: uvm_test_top.env.slave_agent.drv [axi4_slave_driver] Write complete: ID=0xd ADDR=0x2c605a91 RESP=AXI4_RESP_OKAY  2 beats processed
# UVM_INFO ../src/slv/axi4_slave_monitor.sv(189) @ 4955000: uvm_test_top.env.slave_agent.mon [axi4_slave_monitor] Write response sent: ID=0xd ADDR=0x2c605a91 RESP=AXI4_RESP_OKAY
# UVM_INFO ../src/env/axi4_scoreboard.sv(103) @ 4955000: uvm_test_top.env.scb [axi4_scoreboard] Slave AXI4_WRITE received: ID=0xd ADDR=0x2c605a91 LEN=1
# UVM_INFO ../src/mst/axi4_master_monitor.sv(210) @ 4955000: uvm_test_top.env.master_agent.mon [axi4_master_monitor] Write complete: ID=0xd ADDR=0x2c605a91 RESP=AXI4_RESP_OKAY
# UVM_INFO ../src/env/axi4_scoreboard.sv(82) @ 4955000: uvm_test_top.env.scb [axi4_scoreboard] Master AXI4_WRITE received: ID=0xd ADDR=0x2c605a91 LEN=1
# UVM_INFO ../src/env/axi4_scoreboard.sv(154) @ 4955000: uvm_test_top.env.scb [axi4_scoreboard] [WRITE] MATCH #31: ID=0xd ADDR=0x2c605a91 LEN=1
# UVM_INFO ../src/mst/axi4_master_driver.sv(55) @ 4955000: uvm_test_top.env.master_agent.drv [axi4_master_driver] Driving AXI4_READ  ID=0xe  ADDR=0x7c3127ad  LEN=1
# UVM_INFO ../src/slv/axi4_slave_driver.sv(300) @ 4985000: uvm_test_top.env.slave_agent.drv [axi4_slave_driver] AR received: ID=0xe ADDR=0x7c3127ad LEN=1 LOCK=AXI4_LOCK_EXCLUSIVE
# UVM_INFO ../src/mst/axi4_master_monitor.sv(246) @ 4985000: uvm_test_top.env.master_agent.mon [axi4_master_monitor] AR observed: ID=0xe ADDR=0x7c3127ad LEN=1
# UVM_INFO ../src/slv/axi4_slave_monitor.sv(224) @ 4985000: uvm_test_top.env.slave_agent.mon [axi4_slave_monitor] AR received: ID=0xe ADDR=0x7c3127ad LEN=1
# UVM_INFO ../src/mst/axi4_master_driver.sv(254) @ 5025000: uvm_test_top.env.master_agent.drv [axi4_master_driver] Read complete: 2 beats received
# UVM_INFO ../src/slv/axi4_slave_driver.sv(349) @ 5025000: uvm_test_top.env.slave_agent.drv [axi4_slave_driver] Read complete: ID=0xe ADDR=0x7c3127ad RESP=AXI4_RESP_EXOKAY  2 beats sent
# UVM_INFO ../src/mst/axi4_master_monitor.sv(314) @ 5025000: uvm_test_top.env.master_agent.mon [axi4_master_monitor] Read complete: ID=0xe ADDR=0x7c3127ad 2 beats
# UVM_INFO ../src/env/axi4_scoreboard.sv(82) @ 5025000: uvm_test_top.env.scb [axi4_scoreboard] Master AXI4_READ received: ID=0xe ADDR=0x7c3127ad LEN=1
# UVM_INFO ../src/slv/axi4_slave_monitor.sv(287) @ 5025000: uvm_test_top.env.slave_agent.mon [axi4_slave_monitor] Read data sent: ID=0xe ADDR=0x7c3127ad 2 beats
# UVM_INFO ../src/env/axi4_scoreboard.sv(103) @ 5025000: uvm_test_top.env.scb [axi4_scoreboard] Slave AXI4_READ received: ID=0xe ADDR=0x7c3127ad LEN=1
# UVM_INFO ../src/env/axi4_scoreboard.sv(154) @ 5025000: uvm_test_top.env.scb [axi4_scoreboard] [READ] MATCH #32: ID=0xe ADDR=0x7c3127ad LEN=1
# UVM_INFO ../src/mst/axi4_master_driver.sv(55) @ 5025000: uvm_test_top.env.master_agent.drv [axi4_master_driver] Driving AXI4_WRITE  ID=0xe  ADDR=0xcf033b7e  LEN=1
# UVM_INFO ../src/mst/axi4_master_driver.sv(94) @ 5025000: uvm_test_top.env.master_agent.drv [axi4_master_driver] Write order: AW || W (parallel)
# UVM_INFO ../src/slv/axi4_slave_driver.sv(165) @ 5055000: uvm_test_top.env.slave_agent.drv [axi4_slave_driver] AW received: ID=0xe ADDR=0xcf033b7e LEN=1 LOCK=AXI4_LOCK_EXCLUSIVE
# UVM_INFO ../src/slv/axi4_slave_monitor.sv(116) @ 5055000: uvm_test_top.env.slave_agent.mon [axi4_slave_monitor] AW received: ID=0xe ADDR=0xcf033b7e LEN=1
# UVM_INFO ../src/mst/axi4_master_monitor.sv(124) @ 5055000: uvm_test_top.env.master_agent.mon [axi4_master_monitor] AW observed: ID=0xe ADDR=0xcf033b7e LEN=1
# UVM_INFO ../src/mst/axi4_master_monitor.sv(184) @ 5065000: uvm_test_top.env.master_agent.mon [axi4_master_monitor] W data assembled: ID=0xe ADDR=0xcf033b7e 2 beats
# UVM_INFO ../src/slv/axi4_slave_monitor.sv(167) @ 5065000: uvm_test_top.env.slave_agent.mon [axi4_slave_monitor] W data assembled: ID=0xe ADDR=0xcf033b7e 2 beats
# UVM_INFO ../src/mst/axi4_master_driver.sv(197) @ 5095000: uvm_test_top.env.master_agent.drv [axi4_master_driver] Write response: AXI4_RESP_OKAY
# UVM_INFO ../src/slv/axi4_slave_driver.sv(261) @ 5095000: uvm_test_top.env.slave_agent.drv [axi4_slave_driver] Write complete: ID=0xe ADDR=0xcf033b7e RESP=AXI4_RESP_OKAY  2 beats processed
# UVM_INFO ../src/slv/axi4_slave_monitor.sv(189) @ 5095000: uvm_test_top.env.slave_agent.mon [axi4_slave_monitor] Write response sent: ID=0xe ADDR=0xcf033b7e RESP=AXI4_RESP_OKAY
# UVM_INFO ../src/env/axi4_scoreboard.sv(103) @ 5095000: uvm_test_top.env.scb [axi4_scoreboard] Slave AXI4_WRITE received: ID=0xe ADDR=0xcf033b7e LEN=1
# UVM_INFO ../src/mst/axi4_master_monitor.sv(210) @ 5095000: uvm_test_top.env.master_agent.mon [axi4_master_monitor] Write complete: ID=0xe ADDR=0xcf033b7e RESP=AXI4_RESP_OKAY
# UVM_INFO ../src/env/axi4_scoreboard.sv(82) @ 5095000: uvm_test_top.env.scb [axi4_scoreboard] Master AXI4_WRITE received: ID=0xe ADDR=0xcf033b7e LEN=1
# UVM_INFO ../src/env/axi4_scoreboard.sv(154) @ 5095000: uvm_test_top.env.scb [axi4_scoreboard] [WRITE] MATCH #33: ID=0xe ADDR=0xcf033b7e LEN=1
# UVM_INFO ../src/mst/axi4_master_driver.sv(55) @ 5095000: uvm_test_top.env.master_agent.drv [axi4_master_driver] Driving AXI4_READ  ID=0xe  ADDR=0x45c493f8  LEN=1
# UVM_INFO ../src/slv/axi4_slave_driver.sv(300) @ 5125000: uvm_test_top.env.slave_agent.drv [axi4_slave_driver] AR received: ID=0xe ADDR=0x45c493f8 LEN=1 LOCK=AXI4_LOCK_EXCLUSIVE
# UVM_INFO ../src/mst/axi4_master_monitor.sv(246) @ 5125000: uvm_test_top.env.master_agent.mon [axi4_master_monitor] AR observed: ID=0xe ADDR=0x45c493f8 LEN=1
# UVM_INFO ../src/slv/axi4_slave_monitor.sv(224) @ 5125000: uvm_test_top.env.slave_agent.mon [axi4_slave_monitor] AR received: ID=0xe ADDR=0x45c493f8 LEN=1
# UVM_INFO ../src/mst/axi4_master_driver.sv(254) @ 5165000: uvm_test_top.env.master_agent.drv [axi4_master_driver] Read complete: 2 beats received
# UVM_INFO ../src/slv/axi4_slave_driver.sv(349) @ 5165000: uvm_test_top.env.slave_agent.drv [axi4_slave_driver] Read complete: ID=0xe ADDR=0x45c493f8 RESP=AXI4_RESP_EXOKAY  2 beats sent
# UVM_INFO ../src/mst/axi4_master_monitor.sv(314) @ 5165000: uvm_test_top.env.master_agent.mon [axi4_master_monitor] Read complete: ID=0xe ADDR=0x45c493f8 2 beats
# UVM_INFO ../src/env/axi4_scoreboard.sv(82) @ 5165000: uvm_test_top.env.scb [axi4_scoreboard] Master AXI4_READ received: ID=0xe ADDR=0x45c493f8 LEN=1
# UVM_INFO ../src/slv/axi4_slave_monitor.sv(287) @ 5165000: uvm_test_top.env.slave_agent.mon [axi4_slave_monitor] Read data sent: ID=0xe ADDR=0x45c493f8 2 beats
# UVM_INFO ../src/env/axi4_scoreboard.sv(103) @ 5165000: uvm_test_top.env.scb [axi4_scoreboard] Slave AXI4_READ received: ID=0xe ADDR=0x45c493f8 LEN=1
# UVM_INFO ../src/env/axi4_scoreboard.sv(154) @ 5165000: uvm_test_top.env.scb [axi4_scoreboard] [READ] MATCH #34: ID=0xe ADDR=0x45c493f8 LEN=1
# UVM_INFO ../src/mst/axi4_master_driver.sv(55) @ 5165000: uvm_test_top.env.master_agent.drv [axi4_master_driver] Driving AXI4_WRITE  ID=0xd  ADDR=0xb870659c  LEN=1
# UVM_INFO ../src/mst/axi4_master_driver.sv(94) @ 5165000: uvm_test_top.env.master_agent.drv [axi4_master_driver] Write order: AW || W (parallel)
# UVM_INFO ../src/slv/axi4_slave_driver.sv(165) @ 5195000: uvm_test_top.env.slave_agent.drv [axi4_slave_driver] AW received: ID=0xd ADDR=0xb870659c LEN=1 LOCK=AXI4_LOCK_EXCLUSIVE
# UVM_INFO ../src/slv/axi4_slave_monitor.sv(116) @ 5195000: uvm_test_top.env.slave_agent.mon [axi4_slave_monitor] AW received: ID=0xd ADDR=0xb870659c LEN=1
# UVM_INFO ../src/mst/axi4_master_monitor.sv(124) @ 5195000: uvm_test_top.env.master_agent.mon [axi4_master_monitor] AW observed: ID=0xd ADDR=0xb870659c LEN=1
# UVM_INFO ../src/mst/axi4_master_monitor.sv(184) @ 5205000: uvm_test_top.env.master_agent.mon [axi4_master_monitor] W data assembled: ID=0xd ADDR=0xb870659c 2 beats
# UVM_INFO ../src/slv/axi4_slave_monitor.sv(167) @ 5205000: uvm_test_top.env.slave_agent.mon [axi4_slave_monitor] W data assembled: ID=0xd ADDR=0xb870659c 2 beats
# UVM_INFO ../src/mst/axi4_master_driver.sv(197) @ 5235000: uvm_test_top.env.master_agent.drv [axi4_master_driver] Write response: AXI4_RESP_OKAY
# UVM_INFO ../src/slv/axi4_slave_driver.sv(261) @ 5235000: uvm_test_top.env.slave_agent.drv [axi4_slave_driver] Write complete: ID=0xd ADDR=0xb870659c RESP=AXI4_RESP_OKAY  2 beats processed
# UVM_INFO ../src/slv/axi4_slave_monitor.sv(189) @ 5235000: uvm_test_top.env.slave_agent.mon [axi4_slave_monitor] Write response sent: ID=0xd ADDR=0xb870659c RESP=AXI4_RESP_OKAY
# UVM_INFO ../src/env/axi4_scoreboard.sv(103) @ 5235000: uvm_test_top.env.scb [axi4_scoreboard] Slave AXI4_WRITE received: ID=0xd ADDR=0xb870659c LEN=1
# UVM_INFO ../src/mst/axi4_master_monitor.sv(210) @ 5235000: uvm_test_top.env.master_agent.mon [axi4_master_monitor] Write complete: ID=0xd ADDR=0xb870659c RESP=AXI4_RESP_OKAY
# UVM_INFO ../src/env/axi4_scoreboard.sv(82) @ 5235000: uvm_test_top.env.scb [axi4_scoreboard] Master AXI4_WRITE received: ID=0xd ADDR=0xb870659c LEN=1
# UVM_INFO ../src/env/axi4_scoreboard.sv(154) @ 5235000: uvm_test_top.env.scb [axi4_scoreboard] [WRITE] MATCH #35: ID=0xd ADDR=0xb870659c LEN=1
# UVM_INFO ../src/mst/axi4_master_driver.sv(55) @ 5235000: uvm_test_top.env.master_agent.drv [axi4_master_driver] Driving AXI4_READ  ID=0x5  ADDR=0x0c811920  LEN=1
# UVM_INFO ../src/slv/axi4_slave_driver.sv(300) @ 5265000: uvm_test_top.env.slave_agent.drv [axi4_slave_driver] AR received: ID=0x5 ADDR=0x0c811920 LEN=1 LOCK=AXI4_LOCK_NORMAL
# UVM_INFO ../src/mst/axi4_master_monitor.sv(246) @ 5265000: uvm_test_top.env.master_agent.mon [axi4_master_monitor] AR observed: ID=0x5 ADDR=0x0c811920 LEN=1
# UVM_INFO ../src/slv/axi4_slave_monitor.sv(224) @ 5265000: uvm_test_top.env.slave_agent.mon [axi4_slave_monitor] AR received: ID=0x5 ADDR=0x0c811920 LEN=1
# UVM_INFO ../src/mst/axi4_master_driver.sv(254) @ 5305000: uvm_test_top.env.master_agent.drv [axi4_master_driver] Read complete: 2 beats received
# UVM_INFO ../src/slv/axi4_slave_driver.sv(349) @ 5305000: uvm_test_top.env.slave_agent.drv [axi4_slave_driver] Read complete: ID=0x5 ADDR=0x0c811920 RESP=AXI4_RESP_OKAY  2 beats sent
# UVM_INFO ../src/mst/axi4_master_monitor.sv(314) @ 5305000: uvm_test_top.env.master_agent.mon [axi4_master_monitor] Read complete: ID=0x5 ADDR=0x0c811920 2 beats
# UVM_INFO ../src/env/axi4_scoreboard.sv(82) @ 5305000: uvm_test_top.env.scb [axi4_scoreboard] Master AXI4_READ received: ID=0x5 ADDR=0x0c811920 LEN=1
# UVM_INFO ../src/slv/axi4_slave_monitor.sv(287) @ 5305000: uvm_test_top.env.slave_agent.mon [axi4_slave_monitor] Read data sent: ID=0x5 ADDR=0x0c811920 2 beats
# UVM_INFO ../src/env/axi4_scoreboard.sv(103) @ 5305000: uvm_test_top.env.scb [axi4_scoreboard] Slave AXI4_READ received: ID=0x5 ADDR=0x0c811920 LEN=1
# UVM_INFO ../src/env/axi4_scoreboard.sv(154) @ 5305000: uvm_test_top.env.scb [axi4_scoreboard] [READ] MATCH #36: ID=0x5 ADDR=0x0c811920 LEN=1
# UVM_INFO ../src/mst/axi4_master_driver.sv(55) @ 5305000: uvm_test_top.env.master_agent.drv [axi4_master_driver] Driving AXI4_WRITE  ID=0x3  ADDR=0x9236c5ae  LEN=3
# UVM_INFO ../src/mst/axi4_master_driver.sv(101) @ 5305000: uvm_test_top.env.master_agent.drv [axi4_master_driver] Write order: AW -> W (sequential)
# UVM_INFO ../src/slv/axi4_slave_driver.sv(165) @ 5335000: uvm_test_top.env.slave_agent.drv [axi4_slave_driver] AW received: ID=0x3 ADDR=0x9236c5ae LEN=3 LOCK=AXI4_LOCK_NORMAL
# UVM_INFO ../src/slv/axi4_slave_monitor.sv(116) @ 5335000: uvm_test_top.env.slave_agent.mon [axi4_slave_monitor] AW received: ID=0x3 ADDR=0x9236c5ae LEN=3
# UVM_INFO ../src/mst/axi4_master_monitor.sv(124) @ 5335000: uvm_test_top.env.master_agent.mon [axi4_master_monitor] AW observed: ID=0x3 ADDR=0x9236c5ae LEN=3
# UVM_INFO ../src/slv/axi4_slave_monitor.sv(167) @ 5415000: uvm_test_top.env.slave_agent.mon [axi4_slave_monitor] W data assembled: ID=0x3 ADDR=0x9236c5ae 4 beats
# UVM_INFO ../src/mst/axi4_master_monitor.sv(184) @ 5415000: uvm_test_top.env.master_agent.mon [axi4_master_monitor] W data assembled: ID=0x3 ADDR=0x9236c5ae 4 beats
# UVM_INFO ../src/mst/axi4_master_driver.sv(197) @ 5445000: uvm_test_top.env.master_agent.drv [axi4_master_driver] Write response: AXI4_RESP_OKAY
# UVM_INFO ../src/slv/axi4_slave_driver.sv(261) @ 5445000: uvm_test_top.env.slave_agent.drv [axi4_slave_driver] Write complete: ID=0x3 ADDR=0x9236c5ae RESP=AXI4_RESP_OKAY  4 beats processed
# UVM_INFO ../src/mst/axi4_master_monitor.sv(210) @ 5445000: uvm_test_top.env.master_agent.mon [axi4_master_monitor] Write complete: ID=0x3 ADDR=0x9236c5ae RESP=AXI4_RESP_OKAY
# UVM_INFO ../src/env/axi4_scoreboard.sv(82) @ 5445000: uvm_test_top.env.scb [axi4_scoreboard] Master AXI4_WRITE received: ID=0x3 ADDR=0x9236c5ae LEN=3
# UVM_INFO ../src/slv/axi4_slave_monitor.sv(189) @ 5445000: uvm_test_top.env.slave_agent.mon [axi4_slave_monitor] Write response sent: ID=0x3 ADDR=0x9236c5ae RESP=AXI4_RESP_OKAY
# UVM_INFO ../src/env/axi4_scoreboard.sv(103) @ 5445000: uvm_test_top.env.scb [axi4_scoreboard] Slave AXI4_WRITE received: ID=0x3 ADDR=0x9236c5ae LEN=3
# UVM_INFO ../src/env/axi4_scoreboard.sv(154) @ 5445000: uvm_test_top.env.scb [axi4_scoreboard] [WRITE] MATCH #37: ID=0x3 ADDR=0x9236c5ae LEN=3
# UVM_INFO ../src/mst/axi4_master_driver.sv(55) @ 5445000: uvm_test_top.env.master_agent.drv [axi4_master_driver] Driving AXI4_READ  ID=0x9  ADDR=0x72d0b82e  LEN=3
# UVM_INFO ../src/slv/axi4_slave_driver.sv(300) @ 5475000: uvm_test_top.env.slave_agent.drv [axi4_slave_driver] AR received: ID=0x9 ADDR=0x72d0b82e LEN=3 LOCK=AXI4_LOCK_NORMAL
# UVM_INFO ../src/slv/axi4_slave_monitor.sv(224) @ 5475000: uvm_test_top.env.slave_agent.mon [axi4_slave_monitor] AR received: ID=0x9 ADDR=0x72d0b82e LEN=3
# UVM_INFO ../src/mst/axi4_master_monitor.sv(246) @ 5475000: uvm_test_top.env.master_agent.mon [axi4_master_monitor] AR observed: ID=0x9 ADDR=0x72d0b82e LEN=3
# UVM_INFO ../src/mst/axi4_master_driver.sv(254) @ 5555000: uvm_test_top.env.master_agent.drv [axi4_master_driver] Read complete: 4 beats received
# UVM_INFO ../src/slv/axi4_slave_driver.sv(349) @ 5555000: uvm_test_top.env.slave_agent.drv [axi4_slave_driver] Read complete: ID=0x9 ADDR=0x72d0b82e RESP=AXI4_RESP_OKAY  4 beats sent
# UVM_INFO ../src/slv/axi4_slave_monitor.sv(287) @ 5555000: uvm_test_top.env.slave_agent.mon [axi4_slave_monitor] Read data sent: ID=0x9 ADDR=0x72d0b82e 4 beats
# UVM_INFO ../src/env/axi4_scoreboard.sv(103) @ 5555000: uvm_test_top.env.scb [axi4_scoreboard] Slave AXI4_READ received: ID=0x9 ADDR=0x72d0b82e LEN=3
# UVM_INFO ../src/mst/axi4_master_monitor.sv(314) @ 5555000: uvm_test_top.env.master_agent.mon [axi4_master_monitor] Read complete: ID=0x9 ADDR=0x72d0b82e 4 beats
# UVM_INFO ../src/env/axi4_scoreboard.sv(82) @ 5555000: uvm_test_top.env.scb [axi4_scoreboard] Master AXI4_READ received: ID=0x9 ADDR=0x72d0b82e LEN=3
# UVM_INFO ../src/env/axi4_scoreboard.sv(154) @ 5555000: uvm_test_top.env.scb [axi4_scoreboard] [READ] MATCH #38: ID=0x9 ADDR=0x72d0b82e LEN=3
# UVM_INFO ../src/mst/axi4_master_driver.sv(55) @ 5555000: uvm_test_top.env.master_agent.drv [axi4_master_driver] Driving AXI4_WRITE  ID=0xb  ADDR=0x01652f80  LEN=3
# UVM_INFO ../src/mst/axi4_master_driver.sv(101) @ 5555000: uvm_test_top.env.master_agent.drv [axi4_master_driver] Write order: AW -> W (sequential)
# UVM_INFO ../src/slv/axi4_slave_driver.sv(165) @ 5585000: uvm_test_top.env.slave_agent.drv [axi4_slave_driver] AW received: ID=0xb ADDR=0x01652f80 LEN=3 LOCK=AXI4_LOCK_EXCLUSIVE
# UVM_INFO ../src/mst/axi4_master_monitor.sv(124) @ 5585000: uvm_test_top.env.master_agent.mon [axi4_master_monitor] AW observed: ID=0xb ADDR=0x01652f80 LEN=3
# UVM_INFO ../src/slv/axi4_slave_monitor.sv(116) @ 5585000: uvm_test_top.env.slave_agent.mon [axi4_slave_monitor] AW received: ID=0xb ADDR=0x01652f80 LEN=3
# UVM_INFO ../src/mst/axi4_master_monitor.sv(184) @ 5665000: uvm_test_top.env.master_agent.mon [axi4_master_monitor] W data assembled: ID=0xb ADDR=0x01652f80 4 beats
# UVM_INFO ../src/slv/axi4_slave_monitor.sv(167) @ 5665000: uvm_test_top.env.slave_agent.mon [axi4_slave_monitor] W data assembled: ID=0xb ADDR=0x01652f80 4 beats
# UVM_INFO ../src/mst/axi4_master_driver.sv(197) @ 5695000: uvm_test_top.env.master_agent.drv [axi4_master_driver] Write response: AXI4_RESP_OKAY
# UVM_INFO ../src/slv/axi4_slave_driver.sv(261) @ 5695000: uvm_test_top.env.slave_agent.drv [axi4_slave_driver] Write complete: ID=0xb ADDR=0x01652f80 RESP=AXI4_RESP_OKAY  4 beats processed
# UVM_INFO ../src/slv/axi4_slave_monitor.sv(189) @ 5695000: uvm_test_top.env.slave_agent.mon [axi4_slave_monitor] Write response sent: ID=0xb ADDR=0x01652f80 RESP=AXI4_RESP_OKAY
# UVM_INFO ../src/env/axi4_scoreboard.sv(103) @ 5695000: uvm_test_top.env.scb [axi4_scoreboard] Slave AXI4_WRITE received: ID=0xb ADDR=0x01652f80 LEN=3
# UVM_INFO ../src/mst/axi4_master_monitor.sv(210) @ 5695000: uvm_test_top.env.master_agent.mon [axi4_master_monitor] Write complete: ID=0xb ADDR=0x01652f80 RESP=AXI4_RESP_OKAY
# UVM_INFO ../src/env/axi4_scoreboard.sv(82) @ 5695000: uvm_test_top.env.scb [axi4_scoreboard] Master AXI4_WRITE received: ID=0xb ADDR=0x01652f80 LEN=3
# UVM_INFO ../src/env/axi4_scoreboard.sv(154) @ 5695000: uvm_test_top.env.scb [axi4_scoreboard] [WRITE] MATCH #39: ID=0xb ADDR=0x01652f80 LEN=3
# UVM_INFO ../src/mst/axi4_master_driver.sv(55) @ 5695000: uvm_test_top.env.master_agent.drv [axi4_master_driver] Driving AXI4_READ  ID=0xd  ADDR=0x150b4a78  LEN=3
# UVM_INFO ../src/slv/axi4_slave_driver.sv(300) @ 5725000: uvm_test_top.env.slave_agent.drv [axi4_slave_driver] AR received: ID=0xd ADDR=0x150b4a78 LEN=3 LOCK=AXI4_LOCK_NORMAL
# UVM_INFO ../src/mst/axi4_master_monitor.sv(246) @ 5725000: uvm_test_top.env.master_agent.mon [axi4_master_monitor] AR observed: ID=0xd ADDR=0x150b4a78 LEN=3
# UVM_INFO ../src/slv/axi4_slave_monitor.sv(224) @ 5725000: uvm_test_top.env.slave_agent.mon [axi4_slave_monitor] AR received: ID=0xd ADDR=0x150b4a78 LEN=3
# UVM_INFO ../src/mst/axi4_master_driver.sv(254) @ 5805000: uvm_test_top.env.master_agent.drv [axi4_master_driver] Read complete: 4 beats received
# UVM_INFO ../src/slv/axi4_slave_driver.sv(349) @ 5805000: uvm_test_top.env.slave_agent.drv [axi4_slave_driver] Read complete: ID=0xd ADDR=0x150b4a78 RESP=AXI4_RESP_OKAY  4 beats sent
# UVM_INFO ../src/mst/axi4_master_monitor.sv(314) @ 5805000: uvm_test_top.env.master_agent.mon [axi4_master_monitor] Read complete: ID=0xd ADDR=0x150b4a78 4 beats
# UVM_INFO ../src/env/axi4_scoreboard.sv(82) @ 5805000: uvm_test_top.env.scb [axi4_scoreboard] Master AXI4_READ received: ID=0xd ADDR=0x150b4a78 LEN=3
# UVM_INFO ../src/slv/axi4_slave_monitor.sv(287) @ 5805000: uvm_test_top.env.slave_agent.mon [axi4_slave_monitor] Read data sent: ID=0xd ADDR=0x150b4a78 4 beats
# UVM_INFO ../src/env/axi4_scoreboard.sv(103) @ 5805000: uvm_test_top.env.scb [axi4_scoreboard] Slave AXI4_READ received: ID=0xd ADDR=0x150b4a78 LEN=3
# UVM_INFO ../src/env/axi4_scoreboard.sv(154) @ 5805000: uvm_test_top.env.scb [axi4_scoreboard] [READ] MATCH #40: ID=0xd ADDR=0x150b4a78 LEN=3
# UVM_INFO ../src/mst/axi4_master_driver.sv(55) @ 5805000: uvm_test_top.env.master_agent.drv [axi4_master_driver] Driving AXI4_WRITE  ID=0xc  ADDR=0x0a61a600  LEN=3
# UVM_INFO ../src/mst/axi4_master_driver.sv(101) @ 5805000: uvm_test_top.env.master_agent.drv [axi4_master_driver] Write order: AW -> W (sequential)
# UVM_INFO ../src/slv/axi4_slave_driver.sv(165) @ 5835000: uvm_test_top.env.slave_agent.drv [axi4_slave_driver] AW received: ID=0xc ADDR=0x0a61a600 LEN=3 LOCK=AXI4_LOCK_EXCLUSIVE
# UVM_INFO ../src/slv/axi4_slave_monitor.sv(116) @ 5835000: uvm_test_top.env.slave_agent.mon [axi4_slave_monitor] AW received: ID=0xc ADDR=0x0a61a600 LEN=3
# UVM_INFO ../src/mst/axi4_master_monitor.sv(124) @ 5835000: uvm_test_top.env.master_agent.mon [axi4_master_monitor] AW observed: ID=0xc ADDR=0x0a61a600 LEN=3
# UVM_INFO ../src/slv/axi4_slave_monitor.sv(167) @ 5915000: uvm_test_top.env.slave_agent.mon [axi4_slave_monitor] W data assembled: ID=0xc ADDR=0x0a61a600 4 beats
# UVM_INFO ../src/mst/axi4_master_monitor.sv(184) @ 5915000: uvm_test_top.env.master_agent.mon [axi4_master_monitor] W data assembled: ID=0xc ADDR=0x0a61a600 4 beats
# UVM_INFO ../src/mst/axi4_master_driver.sv(197) @ 5945000: uvm_test_top.env.master_agent.drv [axi4_master_driver] Write response: AXI4_RESP_OKAY
# UVM_INFO ../src/slv/axi4_slave_driver.sv(261) @ 5945000: uvm_test_top.env.slave_agent.drv [axi4_slave_driver] Write complete: ID=0xc ADDR=0x0a61a600 RESP=AXI4_RESP_OKAY  4 beats processed
# UVM_INFO ../src/mst/axi4_master_monitor.sv(210) @ 5945000: uvm_test_top.env.master_agent.mon [axi4_master_monitor] Write complete: ID=0xc ADDR=0x0a61a600 RESP=AXI4_RESP_OKAY
# UVM_INFO ../src/env/axi4_scoreboard.sv(82) @ 5945000: uvm_test_top.env.scb [axi4_scoreboard] Master AXI4_WRITE received: ID=0xc ADDR=0x0a61a600 LEN=3
# UVM_INFO ../src/slv/axi4_slave_monitor.sv(189) @ 5945000: uvm_test_top.env.slave_agent.mon [axi4_slave_monitor] Write response sent: ID=0xc ADDR=0x0a61a600 RESP=AXI4_RESP_OKAY
# UVM_INFO ../src/env/axi4_scoreboard.sv(103) @ 5945000: uvm_test_top.env.scb [axi4_scoreboard] Slave AXI4_WRITE received: ID=0xc ADDR=0x0a61a600 LEN=3
# UVM_INFO ../src/env/axi4_scoreboard.sv(154) @ 5945000: uvm_test_top.env.scb [axi4_scoreboard] [WRITE] MATCH #41: ID=0xc ADDR=0x0a61a600 LEN=3
# UVM_INFO ../src/mst/axi4_master_driver.sv(55) @ 5945000: uvm_test_top.env.master_agent.drv [axi4_master_driver] Driving AXI4_READ  ID=0x8  ADDR=0x986a686c  LEN=3
# UVM_INFO ../src/slv/axi4_slave_driver.sv(300) @ 5975000: uvm_test_top.env.slave_agent.drv [axi4_slave_driver] AR received: ID=0x8 ADDR=0x986a686c LEN=3 LOCK=AXI4_LOCK_EXCLUSIVE
# UVM_INFO ../src/slv/axi4_slave_monitor.sv(224) @ 5975000: uvm_test_top.env.slave_agent.mon [axi4_slave_monitor] AR received: ID=0x8 ADDR=0x986a686c LEN=3
# UVM_INFO ../src/mst/axi4_master_monitor.sv(246) @ 5975000: uvm_test_top.env.master_agent.mon [axi4_master_monitor] AR observed: ID=0x8 ADDR=0x986a686c LEN=3
# UVM_INFO ../src/mst/axi4_master_driver.sv(254) @ 6055000: uvm_test_top.env.master_agent.drv [axi4_master_driver] Read complete: 4 beats received
# UVM_INFO ../src/slv/axi4_slave_driver.sv(349) @ 6055000: uvm_test_top.env.slave_agent.drv [axi4_slave_driver] Read complete: ID=0x8 ADDR=0x986a686c RESP=AXI4_RESP_EXOKAY  4 beats sent
# UVM_INFO ../src/slv/axi4_slave_monitor.sv(287) @ 6055000: uvm_test_top.env.slave_agent.mon [axi4_slave_monitor] Read data sent: ID=0x8 ADDR=0x986a686c 4 beats
# UVM_INFO ../src/env/axi4_scoreboard.sv(103) @ 6055000: uvm_test_top.env.scb [axi4_scoreboard] Slave AXI4_READ received: ID=0x8 ADDR=0x986a686c LEN=3
# UVM_INFO ../src/mst/axi4_master_monitor.sv(314) @ 6055000: uvm_test_top.env.master_agent.mon [axi4_master_monitor] Read complete: ID=0x8 ADDR=0x986a686c 4 beats
# UVM_INFO ../src/env/axi4_scoreboard.sv(82) @ 6055000: uvm_test_top.env.scb [axi4_scoreboard] Master AXI4_READ received: ID=0x8 ADDR=0x986a686c LEN=3
# UVM_INFO ../src/env/axi4_scoreboard.sv(154) @ 6055000: uvm_test_top.env.scb [axi4_scoreboard] [READ] MATCH #42: ID=0x8 ADDR=0x986a686c LEN=3
# UVM_INFO ../src/mst/axi4_master_driver.sv(55) @ 6055000: uvm_test_top.env.master_agent.drv [axi4_master_driver] Driving AXI4_WRITE  ID=0xb  ADDR=0x96351e46  LEN=7
# UVM_INFO ../src/mst/axi4_master_driver.sv(94) @ 6055000: uvm_test_top.env.master_agent.drv [axi4_master_driver] Write order: AW || W (parallel)
# UVM_INFO ../src/slv/axi4_slave_driver.sv(165) @ 6085000: uvm_test_top.env.slave_agent.drv [axi4_slave_driver] AW received: ID=0xb ADDR=0x96351e46 LEN=7 LOCK=AXI4_LOCK_EXCLUSIVE
# UVM_INFO ../src/mst/axi4_master_monitor.sv(124) @ 6085000: uvm_test_top.env.master_agent.mon [axi4_master_monitor] AW observed: ID=0xb ADDR=0x96351e46 LEN=7
# UVM_INFO ../src/slv/axi4_slave_monitor.sv(116) @ 6085000: uvm_test_top.env.slave_agent.mon [axi4_slave_monitor] AW received: ID=0xb ADDR=0x96351e46 LEN=7
# UVM_INFO ../src/slv/axi4_slave_monitor.sv(167) @ 6215000: uvm_test_top.env.slave_agent.mon [axi4_slave_monitor] W data assembled: ID=0xb ADDR=0x96351e46 8 beats
# UVM_INFO ../src/mst/axi4_master_monitor.sv(184) @ 6215000: uvm_test_top.env.master_agent.mon [axi4_master_monitor] W data assembled: ID=0xb ADDR=0x96351e46 8 beats
# UVM_INFO ../src/mst/axi4_master_driver.sv(197) @ 6245000: uvm_test_top.env.master_agent.drv [axi4_master_driver] Write response: AXI4_RESP_OKAY
# UVM_INFO ../src/slv/axi4_slave_driver.sv(261) @ 6245000: uvm_test_top.env.slave_agent.drv [axi4_slave_driver] Write complete: ID=0xb ADDR=0x96351e46 RESP=AXI4_RESP_OKAY  8 beats processed
# UVM_INFO ../src/mst/axi4_master_monitor.sv(210) @ 6245000: uvm_test_top.env.master_agent.mon [axi4_master_monitor] Write complete: ID=0xb ADDR=0x96351e46 RESP=AXI4_RESP_OKAY
# UVM_INFO ../src/env/axi4_scoreboard.sv(82) @ 6245000: uvm_test_top.env.scb [axi4_scoreboard] Master AXI4_WRITE received: ID=0xb ADDR=0x96351e46 LEN=7
# UVM_INFO ../src/slv/axi4_slave_monitor.sv(189) @ 6245000: uvm_test_top.env.slave_agent.mon [axi4_slave_monitor] Write response sent: ID=0xb ADDR=0x96351e46 RESP=AXI4_RESP_OKAY
# UVM_INFO ../src/env/axi4_scoreboard.sv(103) @ 6245000: uvm_test_top.env.scb [axi4_scoreboard] Slave AXI4_WRITE received: ID=0xb ADDR=0x96351e46 LEN=7
# UVM_INFO ../src/env/axi4_scoreboard.sv(154) @ 6245000: uvm_test_top.env.scb [axi4_scoreboard] [WRITE] MATCH #43: ID=0xb ADDR=0x96351e46 LEN=7
# UVM_INFO ../src/mst/axi4_master_driver.sv(55) @ 6245000: uvm_test_top.env.master_agent.drv [axi4_master_driver] Driving AXI4_READ  ID=0x8  ADDR=0xb015d703  LEN=7
# UVM_INFO ../src/slv/axi4_slave_driver.sv(300) @ 6275000: uvm_test_top.env.slave_agent.drv [axi4_slave_driver] AR received: ID=0x8 ADDR=0xb015d703 LEN=7 LOCK=AXI4_LOCK_EXCLUSIVE
# UVM_INFO ../src/slv/axi4_slave_monitor.sv(224) @ 6275000: uvm_test_top.env.slave_agent.mon [axi4_slave_monitor] AR received: ID=0x8 ADDR=0xb015d703 LEN=7
# UVM_INFO ../src/mst/axi4_master_monitor.sv(246) @ 6275000: uvm_test_top.env.master_agent.mon [axi4_master_monitor] AR observed: ID=0x8 ADDR=0xb015d703 LEN=7
# UVM_INFO ../src/mst/axi4_master_driver.sv(254) @ 6435000: uvm_test_top.env.master_agent.drv [axi4_master_driver] Read complete: 8 beats received
# UVM_INFO ../src/slv/axi4_slave_driver.sv(349) @ 6435000: uvm_test_top.env.slave_agent.drv [axi4_slave_driver] Read complete: ID=0x8 ADDR=0xb015d703 RESP=AXI4_RESP_EXOKAY  8 beats sent
# UVM_INFO ../src/slv/axi4_slave_monitor.sv(287) @ 6435000: uvm_test_top.env.slave_agent.mon [axi4_slave_monitor] Read data sent: ID=0x8 ADDR=0xb015d703 8 beats
# UVM_INFO ../src/env/axi4_scoreboard.sv(103) @ 6435000: uvm_test_top.env.scb [axi4_scoreboard] Slave AXI4_READ received: ID=0x8 ADDR=0xb015d703 LEN=7
# UVM_INFO ../src/mst/axi4_master_monitor.sv(314) @ 6435000: uvm_test_top.env.master_agent.mon [axi4_master_monitor] Read complete: ID=0x8 ADDR=0xb015d703 8 beats
# UVM_INFO ../src/env/axi4_scoreboard.sv(82) @ 6435000: uvm_test_top.env.scb [axi4_scoreboard] Master AXI4_READ received: ID=0x8 ADDR=0xb015d703 LEN=7
# UVM_INFO ../src/env/axi4_scoreboard.sv(154) @ 6435000: uvm_test_top.env.scb [axi4_scoreboard] [READ] MATCH #44: ID=0x8 ADDR=0xb015d703 LEN=7
# UVM_INFO ../src/mst/axi4_master_driver.sv(55) @ 6435000: uvm_test_top.env.master_agent.drv [axi4_master_driver] Driving AXI4_WRITE  ID=0x7  ADDR=0xbf9a6e1c  LEN=7
# UVM_INFO ../src/mst/axi4_master_driver.sv(94) @ 6435000: uvm_test_top.env.master_agent.drv [axi4_master_driver] Write order: AW || W (parallel)
# UVM_INFO ../src/slv/axi4_slave_driver.sv(165) @ 6465000: uvm_test_top.env.slave_agent.drv [axi4_slave_driver] AW received: ID=0x7 ADDR=0xbf9a6e1c LEN=7 LOCK=AXI4_LOCK_EXCLUSIVE
# UVM_INFO ../src/mst/axi4_master_monitor.sv(124) @ 6465000: uvm_test_top.env.master_agent.mon [axi4_master_monitor] AW observed: ID=0x7 ADDR=0xbf9a6e1c LEN=7
# UVM_INFO ../src/slv/axi4_slave_monitor.sv(116) @ 6465000: uvm_test_top.env.slave_agent.mon [axi4_slave_monitor] AW received: ID=0x7 ADDR=0xbf9a6e1c LEN=7
# UVM_INFO ../src/slv/axi4_slave_monitor.sv(167) @ 6595000: uvm_test_top.env.slave_agent.mon [axi4_slave_monitor] W data assembled: ID=0x7 ADDR=0xbf9a6e1c 8 beats
# UVM_INFO ../src/mst/axi4_master_monitor.sv(184) @ 6595000: uvm_test_top.env.master_agent.mon [axi4_master_monitor] W data assembled: ID=0x7 ADDR=0xbf9a6e1c 8 beats
# UVM_INFO ../src/mst/axi4_master_driver.sv(197) @ 6625000: uvm_test_top.env.master_agent.drv [axi4_master_driver] Write response: AXI4_RESP_OKAY
# UVM_INFO ../src/slv/axi4_slave_driver.sv(261) @ 6625000: uvm_test_top.env.slave_agent.drv [axi4_slave_driver] Write complete: ID=0x7 ADDR=0xbf9a6e1c RESP=AXI4_RESP_OKAY  8 beats processed
# UVM_INFO ../src/mst/axi4_master_monitor.sv(210) @ 6625000: uvm_test_top.env.master_agent.mon [axi4_master_monitor] Write complete: ID=0x7 ADDR=0xbf9a6e1c RESP=AXI4_RESP_OKAY
# UVM_INFO ../src/env/axi4_scoreboard.sv(82) @ 6625000: uvm_test_top.env.scb [axi4_scoreboard] Master AXI4_WRITE received: ID=0x7 ADDR=0xbf9a6e1c LEN=7
# UVM_INFO ../src/slv/axi4_slave_monitor.sv(189) @ 6625000: uvm_test_top.env.slave_agent.mon [axi4_slave_monitor] Write response sent: ID=0x7 ADDR=0xbf9a6e1c RESP=AXI4_RESP_OKAY
# UVM_INFO ../src/env/axi4_scoreboard.sv(103) @ 6625000: uvm_test_top.env.scb [axi4_scoreboard] Slave AXI4_WRITE received: ID=0x7 ADDR=0xbf9a6e1c LEN=7
# UVM_INFO ../src/env/axi4_scoreboard.sv(154) @ 6625000: uvm_test_top.env.scb [axi4_scoreboard] [WRITE] MATCH #45: ID=0x7 ADDR=0xbf9a6e1c LEN=7
# UVM_INFO ../src/mst/axi4_master_driver.sv(55) @ 6625000: uvm_test_top.env.master_agent.drv [axi4_master_driver] Driving AXI4_READ  ID=0xb  ADDR=0xc394ee26  LEN=7
# UVM_INFO ../src/slv/axi4_slave_driver.sv(300) @ 6655000: uvm_test_top.env.slave_agent.drv [axi4_slave_driver] AR received: ID=0xb ADDR=0xc394ee26 LEN=7 LOCK=AXI4_LOCK_NORMAL
# UVM_INFO ../src/slv/axi4_slave_monitor.sv(224) @ 6655000: uvm_test_top.env.slave_agent.mon [axi4_slave_monitor] AR received: ID=0xb ADDR=0xc394ee26 LEN=7
# UVM_INFO ../src/mst/axi4_master_monitor.sv(246) @ 6655000: uvm_test_top.env.master_agent.mon [axi4_master_monitor] AR observed: ID=0xb ADDR=0xc394ee26 LEN=7
# UVM_INFO ../src/mst/axi4_master_driver.sv(254) @ 6815000: uvm_test_top.env.master_agent.drv [axi4_master_driver] Read complete: 8 beats received
# UVM_INFO ../src/slv/axi4_slave_driver.sv(349) @ 6815000: uvm_test_top.env.slave_agent.drv [axi4_slave_driver] Read complete: ID=0xb ADDR=0xc394ee26 RESP=AXI4_RESP_OKAY  8 beats sent
# UVM_INFO ../src/slv/axi4_slave_monitor.sv(287) @ 6815000: uvm_test_top.env.slave_agent.mon [axi4_slave_monitor] Read data sent: ID=0xb ADDR=0xc394ee26 8 beats
# UVM_INFO ../src/env/axi4_scoreboard.sv(103) @ 6815000: uvm_test_top.env.scb [axi4_scoreboard] Slave AXI4_READ received: ID=0xb ADDR=0xc394ee26 LEN=7
# UVM_INFO ../src/mst/axi4_master_monitor.sv(314) @ 6815000: uvm_test_top.env.master_agent.mon [axi4_master_monitor] Read complete: ID=0xb ADDR=0xc394ee26 8 beats
# UVM_INFO ../src/env/axi4_scoreboard.sv(82) @ 6815000: uvm_test_top.env.scb [axi4_scoreboard] Master AXI4_READ received: ID=0xb ADDR=0xc394ee26 LEN=7
# UVM_INFO ../src/env/axi4_scoreboard.sv(154) @ 6815000: uvm_test_top.env.scb [axi4_scoreboard] [READ] MATCH #46: ID=0xb ADDR=0xc394ee26 LEN=7
