# vsim -c -coverage -sv_seed 13006919 "+UVM_TESTNAME=axi4_unaligned_test" "+UVM_VERBOSITY=UVM_HIGH" "+DUMP_VCD" -l ./report/logs/axi4_unaligned_test_run_8_seed_13006919.log -do "coverage save -onexit ./report/coverage/axi4_unaligned_test_run_8_seed_13006919.ucdb; run -all; quit -f" opt_tb_top 
# Start time: 11:26:24 on Jun 05,2026
# //  Questa Sim-64
# //  Version 10.6b linux_x86_64 May 25 2017
# //
# //  Copyright 1991-2017 Mentor Graphics Corporation
# //  All Rights Reserved.
# //
# //  QuestaSim and its associated documentation contain trade
# //  secrets and commercial or financial information that are the property of
# //  Mentor Graphics Corporation and are privileged, confidential,
# //  and exempt from disclosure under the Freedom of Information Act,
# //  5 U.S.C. Section 552. Furthermore, this information
# //  is prohibited from disclosure under the Trade Secrets Act,
# //  18 U.S.C. Section 1905.
# //
# Loading sv_std.std
# Loading work.axi4_if(fast)
# Loading mtiUvm.uvm_pkg
# Loading work.axi4_pkg(fast)
# Loading work.axi4_test_pkg(fast)
# Loading work.tb_top(fast)
# Loading work.axi4_if(fast)
# Loading work.axi4_sva(fast)
# Loading mtiUvm.questa_uvm_pkg(fast)
# Loading /cadtools/mentor/Questa_10.6b/questasim/uvm-1.1d/linux_x86_64/uvm_dpi.so
# coverage save -onexit ./report/coverage/axi4_unaligned_test_run_8_seed_13006919.ucdb
#  run -all
# ----------------------------------------------------------------
# UVM-1.1d
# (C) 2007-2013 Mentor Graphics Corporation
# (C) 2007-2013 Cadence Design Systems, Inc.
# (C) 2006-2013 Synopsys, Inc.
# (C) 2011-2013 Cypress Semiconductor Corp.
# ----------------------------------------------------------------
# 
#   ***********       IMPORTANT RELEASE NOTES         ************
# 
#   You are using a version of the UVM library that has been compiled
#   with `UVM_NO_DEPRECATED undefined.
#   See http://www.eda.org/svdb/view.php?id=3313 for more details.
# 
#   You are using a version of the UVM library that has been compiled
#   with `UVM_OBJECT_MUST_HAVE_CONSTRUCTOR undefined.
#   See http://www.eda.org/svdb/view.php?id=3770 for more details.
# 
#       (Specify +UVM_NO_RELNOTES to turn off this notice)
# 
# UVM_INFO verilog_src/questa_uvm_pkg-1.2/src/questa_uvm_pkg.sv(215) @ 0: reporter [Questa UVM] QUESTA_UVM-1.2.3
# UVM_INFO verilog_src/questa_uvm_pkg-1.2/src/questa_uvm_pkg.sv(217) @ 0: reporter [Questa UVM]  questa_uvm::init(+struct)
# UVM_INFO ../src/tb_top.sv(128) @ 0: reporter [TB_TOP] Virtual interface set in config_db
# UVM_INFO @ 0: reporter [RNTST] Running test axi4_unaligned_test...
# UVM_INFO ../src/tb_top.sv(142) @ 0: reporter [TB_TOP] Waveform VCD dumping enabled (axi4_vip.vcd)
# UVM_INFO ../src/env/axi4_vip_env.sv(83) @ 0: uvm_test_top.env [axi4_vip_env] slave_vif not set - reusing master_vif (passthrough mode)
# UVM_INFO ../src/env/axi4_vip_env.sv(93) @ 0: uvm_test_top.env [axi4_vip_env] Scoreboard created
# UVM_INFO ../src/env/axi4_vip_env.sv(100) @ 0: uvm_test_top.env [axi4_vip_env] Coverage collectors created
# UVM_INFO ../src/mst/axi4_master_agent.sv(69) @ 0: uvm_test_top.env.master_agent [axi4_master_agent] ACTIVE mode - driver + sequencer created
# UVM_INFO ../src/slv/axi4_slave_agent.sv(82) @ 0: uvm_test_top.env.slave_agent [axi4_slave_agent] ACTIVE mode — ready_delay=[0:0] resp_delay=[0:0]
# UVM_INFO ../src/env/axi4_vip_env.sv(116) @ 0: uvm_test_top.env [axi4_vip_env] Scoreboard connected: master_mon.ap -> scb, slave_mon.ap -> scb
# UVM_INFO ../src/env/axi4_vip_env.sv(124) @ 0: uvm_test_top.env [axi4_vip_env] Coverage connected: master_mon.ap -> master_cov, slave_mon.ap -> slave_cov
# UVM_INFO @ 0: reporter [UVMTOP] UVM testbench topology:
# ---------------------------------------------------------------
# Name                       Type                     Size  Value
# ---------------------------------------------------------------
# uvm_test_top               axi4_unaligned_test      -     @473 
#   env                      axi4_vip_env             -     @488 
#     master_agent           axi4_master_agent        -     @503 
#       drv                  axi4_master_driver       -     @567 
#         rsp_port           uvm_analysis_port        -     @582 
#         seq_item_port      uvm_seq_item_pull_port   -     @574 
#       mon                  axi4_master_monitor      -     @559 
#         ap                 uvm_analysis_port        -     @700 
#       sqr                  axi4_master_sequencer    -     @590 
#         rsp_export         uvm_analysis_export      -     @597 
#         seq_item_export    uvm_seq_item_pull_imp    -     @691 
#         arbitration_queue  array                    0     -    
#         lock_queue         array                    0     -    
#         num_last_reqs      integral                 32    'd1  
#         num_last_rsps      integral                 32    'd1  
#     master_cov             axi4_coverage            -     @524 
#       analysis_imp         uvm_analysis_imp         -     @531 
#     scb                    axi4_scoreboard          -     @517 
#       master_export        uvm_analysis_imp_master  -     @714 
#       slave_export         uvm_analysis_imp_slave   -     @722 
#     slave_agent            axi4_slave_agent         -     @510 
#       drv                  axi4_slave_driver        -     @753 
#         rsp_port           uvm_analysis_port        -     @768 
#         seq_item_port      uvm_seq_item_pull_port   -     @760 
#       mon                  axi4_slave_monitor       -     @735 
#         ap                 uvm_analysis_port        -     @890 
#       sqr                  axi4_slave_sequencer     -     @776 
#         rsp_export         uvm_analysis_export      -     @783 
#         seq_item_export    uvm_seq_item_pull_imp    -     @877 
#         arbitration_queue  array                    0     -    
#         lock_queue         array                    0     -    
#         num_last_reqs      integral                 32    'd1  
#         num_last_rsps      integral                 32    'd1  
#     slave_cov              axi4_coverage            -     @539 
#       analysis_imp         uvm_analysis_imp         -     @546 
# ---------------------------------------------------------------
# 
# UVM_INFO verilog_src/questa_uvm_pkg-1.2/src/questa_uvm_pkg.sv(277) @ 0: reporter [Questa UVM] End Of Elaboration
# UVM_INFO ../src/test/axi4_unaligned_test.sv(24) @ 0: uvm_test_top [axi4_unaligned_test] Starting unaligned access test
# UVM_INFO ../src/seq/axi4_unaligned_seq.sv(25) @ 0: uvm_test_top.env.master_agent.sqr@@unalign_seq [axi4_unaligned_seq] Starting unaligned access sequence: 40 transactions
# UVM_INFO ../src/tb_top.sv(49) @ 95000: reporter [TOP_TB] Reset de-asserted
# UVM_INFO ../src/slv/axi4_slave_driver.sv(70) @ 95000: uvm_test_top.env.slave_agent.drv [axi4_slave_driver] Reset deasserted - slave driver active
# UVM_INFO ../src/mst/axi4_master_driver.sv(46) @ 95000: uvm_test_top.env.master_agent.drv [axi4_master_driver] Reset deasserted - master driver active
# UVM_INFO ../src/mst/axi4_master_monitor.sv(77) @ 95000: uvm_test_top.env.master_agent.mon [axi4_master_monitor] Reset deasserted — monitor active
# UVM_INFO ../src/slv/axi4_slave_monitor.sv(71) @ 95000: uvm_test_top.env.slave_agent.mon [axi4_slave_monitor] Reset deasserted — monitor active
# UVM_INFO ../src/mst/axi4_master_driver.sv(55) @ 95000: uvm_test_top.env.master_agent.drv [axi4_master_driver] Driving AXI4_WRITE  ID=0x6  ADDR=0xb3d3406a  LEN=10
# UVM_INFO ../src/mst/axi4_master_driver.sv(94) @ 95000: uvm_test_top.env.master_agent.drv [axi4_master_driver] Write order: AW || W (parallel)
# UVM_INFO ../src/slv/axi4_slave_driver.sv(165) @ 115000: uvm_test_top.env.slave_agent.drv [axi4_slave_driver] AW received: ID=0x6 ADDR=0xb3d3406a LEN=10 LOCK=AXI4_LOCK_EXCLUSIVE
# UVM_INFO ../src/slv/axi4_slave_monitor.sv(116) @ 115000: uvm_test_top.env.slave_agent.mon [axi4_slave_monitor] AW received: ID=0x6 ADDR=0xb3d3406a LEN=10
# UVM_INFO ../src/mst/axi4_master_monitor.sv(124) @ 115000: uvm_test_top.env.master_agent.mon [axi4_master_monitor] AW observed: ID=0x6 ADDR=0xb3d3406a LEN=10
# UVM_INFO ../src/mst/axi4_master_monitor.sv(184) @ 305000: uvm_test_top.env.master_agent.mon [axi4_master_monitor] W data assembled: ID=0x6 ADDR=0xb3d3406a 11 beats
# UVM_INFO ../src/slv/axi4_slave_monitor.sv(167) @ 305000: uvm_test_top.env.slave_agent.mon [axi4_slave_monitor] W data assembled: ID=0x6 ADDR=0xb3d3406a 11 beats
# UVM_INFO ../src/mst/axi4_master_driver.sv(197) @ 335000: uvm_test_top.env.master_agent.drv [axi4_master_driver] Write response: AXI4_RESP_OKAY
# UVM_INFO ../src/slv/axi4_slave_driver.sv(261) @ 335000: uvm_test_top.env.slave_agent.drv [axi4_slave_driver] Write complete: ID=0x6 ADDR=0xb3d3406a RESP=AXI4_RESP_OKAY  11 beats processed
# UVM_INFO ../src/slv/axi4_slave_monitor.sv(189) @ 335000: uvm_test_top.env.slave_agent.mon [axi4_slave_monitor] Write response sent: ID=0x6 ADDR=0xb3d3406a RESP=AXI4_RESP_OKAY
# UVM_INFO ../src/env/axi4_scoreboard.sv(103) @ 335000: uvm_test_top.env.scb [axi4_scoreboard] Slave AXI4_WRITE received: ID=0x6 ADDR=0xb3d3406a LEN=10
# UVM_INFO ../src/mst/axi4_master_monitor.sv(210) @ 335000: uvm_test_top.env.master_agent.mon [axi4_master_monitor] Write complete: ID=0x6 ADDR=0xb3d3406a RESP=AXI4_RESP_OKAY
# UVM_INFO ../src/env/axi4_scoreboard.sv(82) @ 335000: uvm_test_top.env.scb [axi4_scoreboard] Master AXI4_WRITE received: ID=0x6 ADDR=0xb3d3406a LEN=10
# UVM_INFO ../src/env/axi4_scoreboard.sv(154) @ 335000: uvm_test_top.env.scb [axi4_scoreboard] [WRITE] MATCH #1: ID=0x6 ADDR=0xb3d3406a LEN=10
# UVM_INFO ../src/seq/axi4_unaligned_seq.sv(51) @ 335000: uvm_test_top.env.master_agent.sqr@@unalign_seq [axi4_unaligned_seq] [1/40] Unaligned AXI4_WRITE: ADDR=0xb3d3406a SIZE=AXI4_SIZE_4B BURST=AXI4_BURST_INCR (AlignmentOffset=2)
# UVM_INFO ../src/mst/axi4_master_driver.sv(55) @ 335000: uvm_test_top.env.master_agent.drv [axi4_master_driver] Driving AXI4_WRITE  ID=0x1  ADDR=0x72a93c9b  LEN=88
# UVM_INFO ../src/mst/axi4_master_driver.sv(101) @ 335000: uvm_test_top.env.master_agent.drv [axi4_master_driver] Write order: AW -> W (sequential)
# UVM_INFO ../src/slv/axi4_slave_driver.sv(165) @ 365000: uvm_test_top.env.slave_agent.drv [axi4_slave_driver] AW received: ID=0x1 ADDR=0x72a93c9b LEN=88 LOCK=AXI4_LOCK_NORMAL
# UVM_INFO ../src/mst/axi4_master_monitor.sv(124) @ 365000: uvm_test_top.env.master_agent.mon [axi4_master_monitor] AW observed: ID=0x1 ADDR=0x72a93c9b LEN=88
# UVM_INFO ../src/slv/axi4_slave_monitor.sv(116) @ 365000: uvm_test_top.env.slave_agent.mon [axi4_slave_monitor] AW received: ID=0x1 ADDR=0x72a93c9b LEN=88
# UVM_INFO ../src/mst/axi4_master_monitor.sv(184) @ 2145000: uvm_test_top.env.master_agent.mon [axi4_master_monitor] W data assembled: ID=0x1 ADDR=0x72a93c9b 89 beats
# UVM_INFO ../src/slv/axi4_slave_monitor.sv(167) @ 2145000: uvm_test_top.env.slave_agent.mon [axi4_slave_monitor] W data assembled: ID=0x1 ADDR=0x72a93c9b 89 beats
# UVM_INFO ../src/mst/axi4_master_driver.sv(197) @ 2175000: uvm_test_top.env.master_agent.drv [axi4_master_driver] Write response: AXI4_RESP_OKAY
# UVM_INFO ../src/slv/axi4_slave_driver.sv(261) @ 2175000: uvm_test_top.env.slave_agent.drv [axi4_slave_driver] Write complete: ID=0x1 ADDR=0x72a93c9b RESP=AXI4_RESP_OKAY  89 beats processed
# UVM_INFO ../src/slv/axi4_slave_monitor.sv(189) @ 2175000: uvm_test_top.env.slave_agent.mon [axi4_slave_monitor] Write response sent: ID=0x1 ADDR=0x72a93c9b RESP=AXI4_RESP_OKAY
# UVM_INFO ../src/env/axi4_scoreboard.sv(103) @ 2175000: uvm_test_top.env.scb [axi4_scoreboard] Slave AXI4_WRITE received: ID=0x1 ADDR=0x72a93c9b LEN=88
# UVM_INFO ../src/mst/axi4_master_monitor.sv(210) @ 2175000: uvm_test_top.env.master_agent.mon [axi4_master_monitor] Write complete: ID=0x1 ADDR=0x72a93c9b RESP=AXI4_RESP_OKAY
# UVM_INFO ../src/env/axi4_scoreboard.sv(82) @ 2175000: uvm_test_top.env.scb [axi4_scoreboard] Master AXI4_WRITE received: ID=0x1 ADDR=0x72a93c9b LEN=88
# UVM_INFO ../src/env/axi4_scoreboard.sv(154) @ 2175000: uvm_test_top.env.scb [axi4_scoreboard] [WRITE] MATCH #2: ID=0x1 ADDR=0x72a93c9b LEN=88
# UVM_INFO ../src/seq/axi4_unaligned_seq.sv(51) @ 2175000: uvm_test_top.env.master_agent.sqr@@unalign_seq [axi4_unaligned_seq] [2/40] Unaligned AXI4_WRITE: ADDR=0x72a93c9b SIZE=AXI4_SIZE_4B BURST=AXI4_BURST_INCR (AlignmentOffset=3)
# UVM_INFO ../src/mst/axi4_master_driver.sv(55) @ 2175000: uvm_test_top.env.master_agent.drv [axi4_master_driver] Driving AXI4_READ  ID=0x5  ADDR=0x3f4771a5  LEN=174
# UVM_INFO ../src/slv/axi4_slave_driver.sv(300) @ 2205000: uvm_test_top.env.slave_agent.drv [axi4_slave_driver] AR received: ID=0x5 ADDR=0x3f4771a5 LEN=174 LOCK=AXI4_LOCK_EXCLUSIVE
# UVM_INFO ../src/mst/axi4_master_monitor.sv(246) @ 2205000: uvm_test_top.env.master_agent.mon [axi4_master_monitor] AR observed: ID=0x5 ADDR=0x3f4771a5 LEN=174
# UVM_INFO ../src/slv/axi4_slave_monitor.sv(224) @ 2205000: uvm_test_top.env.slave_agent.mon [axi4_slave_monitor] AR received: ID=0x5 ADDR=0x3f4771a5 LEN=174
# UVM_INFO ../src/mst/axi4_master_driver.sv(254) @ 5705000: uvm_test_top.env.master_agent.drv [axi4_master_driver] Read complete: 175 beats received
# UVM_INFO ../src/slv/axi4_slave_driver.sv(349) @ 5705000: uvm_test_top.env.slave_agent.drv [axi4_slave_driver] Read complete: ID=0x5 ADDR=0x3f4771a5 RESP=AXI4_RESP_EXOKAY  175 beats sent
# UVM_INFO ../src/mst/axi4_master_monitor.sv(314) @ 5705000: uvm_test_top.env.master_agent.mon [axi4_master_monitor] Read complete: ID=0x5 ADDR=0x3f4771a5 175 beats
# UVM_INFO ../src/env/axi4_scoreboard.sv(82) @ 5705000: uvm_test_top.env.scb [axi4_scoreboard] Master AXI4_READ received: ID=0x5 ADDR=0x3f4771a5 LEN=174
# UVM_INFO ../src/slv/axi4_slave_monitor.sv(287) @ 5705000: uvm_test_top.env.slave_agent.mon [axi4_slave_monitor] Read data sent: ID=0x5 ADDR=0x3f4771a5 175 beats
# UVM_INFO ../src/env/axi4_scoreboard.sv(103) @ 5705000: uvm_test_top.env.scb [axi4_scoreboard] Slave AXI4_READ received: ID=0x5 ADDR=0x3f4771a5 LEN=174
# UVM_INFO ../src/env/axi4_scoreboard.sv(154) @ 5705000: uvm_test_top.env.scb [axi4_scoreboard] [READ] MATCH #3: ID=0x5 ADDR=0x3f4771a5 LEN=174
# UVM_INFO ../src/seq/axi4_unaligned_seq.sv(51) @ 5705000: uvm_test_top.env.master_agent.sqr@@unalign_seq [axi4_unaligned_seq] [3/40] Unaligned AXI4_READ: ADDR=0x3f4771a5 SIZE=AXI4_SIZE_2B BURST=AXI4_BURST_INCR (AlignmentOffset=1)
# UVM_INFO ../src/mst/axi4_master_driver.sv(55) @ 5705000: uvm_test_top.env.master_agent.drv [axi4_master_driver] Driving AXI4_READ  ID=0x0  ADDR=0xbd6be4d6  LEN=186
# UVM_INFO ../src/slv/axi4_slave_driver.sv(300) @ 5735000: uvm_test_top.env.slave_agent.drv [axi4_slave_driver] AR received: ID=0x0 ADDR=0xbd6be4d6 LEN=186 LOCK=AXI4_LOCK_NORMAL
# UVM_INFO ../src/slv/axi4_slave_monitor.sv(224) @ 5735000: uvm_test_top.env.slave_agent.mon [axi4_slave_monitor] AR received: ID=0x0 ADDR=0xbd6be4d6 LEN=186
# UVM_INFO ../src/mst/axi4_master_monitor.sv(246) @ 5735000: uvm_test_top.env.master_agent.mon [axi4_master_monitor] AR observed: ID=0x0 ADDR=0xbd6be4d6 LEN=186
# UVM_INFO ../src/mst/axi4_master_driver.sv(254) @ 9475000: uvm_test_top.env.master_agent.drv [axi4_master_driver] Read complete: 187 beats received
# UVM_INFO ../src/slv/axi4_slave_driver.sv(349) @ 9475000: uvm_test_top.env.slave_agent.drv [axi4_slave_driver] Read complete: ID=0x0 ADDR=0xbd6be4d6 RESP=AXI4_RESP_OKAY  187 beats sent
# UVM_INFO ../src/slv/axi4_slave_monitor.sv(287) @ 9475000: uvm_test_top.env.slave_agent.mon [axi4_slave_monitor] Read data sent: ID=0x0 ADDR=0xbd6be4d6 187 beats
# UVM_INFO ../src/env/axi4_scoreboard.sv(103) @ 9475000: uvm_test_top.env.scb [axi4_scoreboard] Slave AXI4_READ received: ID=0x0 ADDR=0xbd6be4d6 LEN=186
# UVM_INFO ../src/mst/axi4_master_monitor.sv(314) @ 9475000: uvm_test_top.env.master_agent.mon [axi4_master_monitor] Read complete: ID=0x0 ADDR=0xbd6be4d6 187 beats
# UVM_INFO ../src/env/axi4_scoreboard.sv(82) @ 9475000: uvm_test_top.env.scb [axi4_scoreboard] Master AXI4_READ received: ID=0x0 ADDR=0xbd6be4d6 LEN=186
# UVM_INFO ../src/env/axi4_scoreboard.sv(154) @ 9475000: uvm_test_top.env.scb [axi4_scoreboard] [READ] MATCH #4: ID=0x0 ADDR=0xbd6be4d6 LEN=186
# UVM_INFO ../src/seq/axi4_unaligned_seq.sv(51) @ 9475000: uvm_test_top.env.master_agent.sqr@@unalign_seq [axi4_unaligned_seq] [4/40] Unaligned AXI4_READ: ADDR=0xbd6be4d6 SIZE=AXI4_SIZE_4B BURST=AXI4_BURST_INCR (AlignmentOffset=2)
# UVM_INFO ../src/mst/axi4_master_driver.sv(55) @ 9475000: uvm_test_top.env.master_agent.drv [axi4_master_driver] Driving AXI4_READ  ID=0x2  ADDR=0xb4a83aab  LEN=97
# UVM_INFO ../src/slv/axi4_slave_driver.sv(300) @ 9505000: uvm_test_top.env.slave_agent.drv [axi4_slave_driver] AR received: ID=0x2 ADDR=0xb4a83aab LEN=97 LOCK=AXI4_LOCK_EXCLUSIVE
# UVM_INFO ../src/mst/axi4_master_monitor.sv(246) @ 9505000: uvm_test_top.env.master_agent.mon [axi4_master_monitor] AR observed: ID=0x2 ADDR=0xb4a83aab LEN=97
# UVM_INFO ../src/slv/axi4_slave_monitor.sv(224) @ 9505000: uvm_test_top.env.slave_agent.mon [axi4_slave_monitor] AR received: ID=0x2 ADDR=0xb4a83aab LEN=97
# UVM_INFO ../src/mst/axi4_master_driver.sv(254) @ 11465000: uvm_test_top.env.master_agent.drv [axi4_master_driver] Read complete: 98 beats received
# UVM_INFO ../src/slv/axi4_slave_driver.sv(349) @ 11465000: uvm_test_top.env.slave_agent.drv [axi4_slave_driver] Read complete: ID=0x2 ADDR=0xb4a83aab RESP=AXI4_RESP_EXOKAY  98 beats sent
# UVM_INFO ../src/mst/axi4_master_monitor.sv(314) @ 11465000: uvm_test_top.env.master_agent.mon [axi4_master_monitor] Read complete: ID=0x2 ADDR=0xb4a83aab 98 beats
# UVM_INFO ../src/env/axi4_scoreboard.sv(82) @ 11465000: uvm_test_top.env.scb [axi4_scoreboard] Master AXI4_READ received: ID=0x2 ADDR=0xb4a83aab LEN=97
# UVM_INFO ../src/slv/axi4_slave_monitor.sv(287) @ 11465000: uvm_test_top.env.slave_agent.mon [axi4_slave_monitor] Read data sent: ID=0x2 ADDR=0xb4a83aab 98 beats
# UVM_INFO ../src/env/axi4_scoreboard.sv(103) @ 11465000: uvm_test_top.env.scb [axi4_scoreboard] Slave AXI4_READ received: ID=0x2 ADDR=0xb4a83aab LEN=97
# UVM_INFO ../src/env/axi4_scoreboard.sv(154) @ 11465000: uvm_test_top.env.scb [axi4_scoreboard] [READ] MATCH #5: ID=0x2 ADDR=0xb4a83aab LEN=97
# UVM_INFO ../src/seq/axi4_unaligned_seq.sv(51) @ 11465000: uvm_test_top.env.master_agent.sqr@@unalign_seq [axi4_unaligned_seq] [5/40] Unaligned AXI4_READ: ADDR=0xb4a83aab SIZE=AXI4_SIZE_4B BURST=AXI4_BURST_INCR (AlignmentOffset=3)
# UVM_INFO ../src/mst/axi4_master_driver.sv(55) @ 11465000: uvm_test_top.env.master_agent.drv [axi4_master_driver] Driving AXI4_WRITE  ID=0x9  ADDR=0xa84f7faf  LEN=63
# UVM_INFO ../src/mst/axi4_master_driver.sv(94) @ 11465000: uvm_test_top.env.master_agent.drv [axi4_master_driver] Write order: AW || W (parallel)
# UVM_INFO ../src/slv/axi4_slave_driver.sv(165) @ 11495000: uvm_test_top.env.slave_agent.drv [axi4_slave_driver] AW received: ID=0x9 ADDR=0xa84f7faf LEN=63 LOCK=AXI4_LOCK_EXCLUSIVE
# UVM_INFO ../src/slv/axi4_slave_monitor.sv(116) @ 11495000: uvm_test_top.env.slave_agent.mon [axi4_slave_monitor] AW received: ID=0x9 ADDR=0xa84f7faf LEN=63
# UVM_INFO ../src/mst/axi4_master_monitor.sv(124) @ 11495000: uvm_test_top.env.master_agent.mon [axi4_master_monitor] AW observed: ID=0x9 ADDR=0xa84f7faf LEN=63
# UVM_INFO ../src/mst/axi4_master_monitor.sv(184) @ 12745000: uvm_test_top.env.master_agent.mon [axi4_master_monitor] W data assembled: ID=0x9 ADDR=0xa84f7faf 64 beats
# UVM_INFO ../src/slv/axi4_slave_monitor.sv(167) @ 12745000: uvm_test_top.env.slave_agent.mon [axi4_slave_monitor] W data assembled: ID=0x9 ADDR=0xa84f7faf 64 beats
# UVM_INFO ../src/mst/axi4_master_driver.sv(197) @ 12775000: uvm_test_top.env.master_agent.drv [axi4_master_driver] Write response: AXI4_RESP_OKAY
# UVM_INFO ../src/slv/axi4_slave_driver.sv(261) @ 12775000: uvm_test_top.env.slave_agent.drv [axi4_slave_driver] Write complete: ID=0x9 ADDR=0xa84f7faf RESP=AXI4_RESP_OKAY  64 beats processed
# UVM_INFO ../src/slv/axi4_slave_monitor.sv(189) @ 12775000: uvm_test_top.env.slave_agent.mon [axi4_slave_monitor] Write response sent: ID=0x9 ADDR=0xa84f7faf RESP=AXI4_RESP_OKAY
# UVM_INFO ../src/env/axi4_scoreboard.sv(103) @ 12775000: uvm_test_top.env.scb [axi4_scoreboard] Slave AXI4_WRITE received: ID=0x9 ADDR=0xa84f7faf LEN=63
# UVM_INFO ../src/mst/axi4_master_monitor.sv(210) @ 12775000: uvm_test_top.env.master_agent.mon [axi4_master_monitor] Write complete: ID=0x9 ADDR=0xa84f7faf RESP=AXI4_RESP_OKAY
# UVM_INFO ../src/env/axi4_scoreboard.sv(82) @ 12775000: uvm_test_top.env.scb [axi4_scoreboard] Master AXI4_WRITE received: ID=0x9 ADDR=0xa84f7faf LEN=63
# UVM_INFO ../src/env/axi4_scoreboard.sv(154) @ 12775000: uvm_test_top.env.scb [axi4_scoreboard] [WRITE] MATCH #6: ID=0x9 ADDR=0xa84f7faf LEN=63
# UVM_INFO ../src/seq/axi4_unaligned_seq.sv(51) @ 12775000: uvm_test_top.env.master_agent.sqr@@unalign_seq [axi4_unaligned_seq] [6/40] Unaligned AXI4_WRITE: ADDR=0xa84f7faf SIZE=AXI4_SIZE_4B BURST=AXI4_BURST_INCR (AlignmentOffset=3)
# UVM_INFO ../src/mst/axi4_master_driver.sv(55) @ 12775000: uvm_test_top.env.master_agent.drv [axi4_master_driver] Driving AXI4_WRITE  ID=0x8  ADDR=0xd8d733eb  LEN=10
# UVM_INFO ../src/mst/axi4_master_driver.sv(94) @ 12775000: uvm_test_top.env.master_agent.drv [axi4_master_driver] Write order: AW || W (parallel)
# UVM_INFO ../src/slv/axi4_slave_driver.sv(165) @ 12805000: uvm_test_top.env.slave_agent.drv [axi4_slave_driver] AW received: ID=0x8 ADDR=0xd8d733eb LEN=10 LOCK=AXI4_LOCK_NORMAL
# UVM_INFO ../src/mst/axi4_master_monitor.sv(124) @ 12805000: uvm_test_top.env.master_agent.mon [axi4_master_monitor] AW observed: ID=0x8 ADDR=0xd8d733eb LEN=10
# UVM_INFO ../src/slv/axi4_slave_monitor.sv(116) @ 12805000: uvm_test_top.env.slave_agent.mon [axi4_slave_monitor] AW received: ID=0x8 ADDR=0xd8d733eb LEN=10
# UVM_INFO ../src/slv/axi4_slave_monitor.sv(167) @ 12995000: uvm_test_top.env.slave_agent.mon [axi4_slave_monitor] W data assembled: ID=0x8 ADDR=0xd8d733eb 11 beats
# UVM_INFO ../src/mst/axi4_master_monitor.sv(184) @ 12995000: uvm_test_top.env.master_agent.mon [axi4_master_monitor] W data assembled: ID=0x8 ADDR=0xd8d733eb 11 beats
# UVM_INFO ../src/mst/axi4_master_driver.sv(197) @ 13025000: uvm_test_top.env.master_agent.drv [axi4_master_driver] Write response: AXI4_RESP_OKAY
# UVM_INFO ../src/slv/axi4_slave_driver.sv(261) @ 13025000: uvm_test_top.env.slave_agent.drv [axi4_slave_driver] Write complete: ID=0x8 ADDR=0xd8d733eb RESP=AXI4_RESP_OKAY  11 beats processed
# UVM_INFO ../src/mst/axi4_master_monitor.sv(210) @ 13025000: uvm_test_top.env.master_agent.mon [axi4_master_monitor] Write complete: ID=0x8 ADDR=0xd8d733eb RESP=AXI4_RESP_OKAY
# UVM_INFO ../src/env/axi4_scoreboard.sv(82) @ 13025000: uvm_test_top.env.scb [axi4_scoreboard] Master AXI4_WRITE received: ID=0x8 ADDR=0xd8d733eb LEN=10
# UVM_INFO ../src/slv/axi4_slave_monitor.sv(189) @ 13025000: uvm_test_top.env.slave_agent.mon [axi4_slave_monitor] Write response sent: ID=0x8 ADDR=0xd8d733eb RESP=AXI4_RESP_OKAY
# UVM_INFO ../src/env/axi4_scoreboard.sv(103) @ 13025000: uvm_test_top.env.scb [axi4_scoreboard] Slave AXI4_WRITE received: ID=0x8 ADDR=0xd8d733eb LEN=10
# UVM_INFO ../src/env/axi4_scoreboard.sv(154) @ 13025000: uvm_test_top.env.scb [axi4_scoreboard] [WRITE] MATCH #7: ID=0x8 ADDR=0xd8d733eb LEN=10
# UVM_INFO ../src/seq/axi4_unaligned_seq.sv(51) @ 13025000: uvm_test_top.env.master_agent.sqr@@unalign_seq [axi4_unaligned_seq] [7/40] Unaligned AXI4_WRITE: ADDR=0xd8d733eb SIZE=AXI4_SIZE_2B BURST=AXI4_BURST_FIXED (AlignmentOffset=1)
# UVM_INFO ../src/mst/axi4_master_driver.sv(55) @ 13025000: uvm_test_top.env.master_agent.drv [axi4_master_driver] Driving AXI4_WRITE  ID=0xc  ADDR=0x56546581  LEN=112
# UVM_INFO ../src/mst/axi4_master_driver.sv(94) @ 13025000: uvm_test_top.env.master_agent.drv [axi4_master_driver] Write order: AW || W (parallel)
# UVM_INFO ../src/slv/axi4_slave_driver.sv(165) @ 13055000: uvm_test_top.env.slave_agent.drv [axi4_slave_driver] AW received: ID=0xc ADDR=0x56546581 LEN=112 LOCK=AXI4_LOCK_NORMAL
# UVM_INFO ../src/slv/axi4_slave_monitor.sv(116) @ 13055000: uvm_test_top.env.slave_agent.mon [axi4_slave_monitor] AW received: ID=0xc ADDR=0x56546581 LEN=112
# UVM_INFO ../src/mst/axi4_master_monitor.sv(124) @ 13055000: uvm_test_top.env.master_agent.mon [axi4_master_monitor] AW observed: ID=0xc ADDR=0x56546581 LEN=112
# UVM_INFO ../src/mst/axi4_master_monitor.sv(184) @ 15285000: uvm_test_top.env.master_agent.mon [axi4_master_monitor] W data assembled: ID=0xc ADDR=0x56546581 113 beats
# UVM_INFO ../src/slv/axi4_slave_monitor.sv(167) @ 15285000: uvm_test_top.env.slave_agent.mon [axi4_slave_monitor] W data assembled: ID=0xc ADDR=0x56546581 113 beats
# UVM_INFO ../src/mst/axi4_master_driver.sv(197) @ 15315000: uvm_test_top.env.master_agent.drv [axi4_master_driver] Write response: AXI4_RESP_OKAY
# UVM_INFO ../src/slv/axi4_slave_driver.sv(261) @ 15315000: uvm_test_top.env.slave_agent.drv [axi4_slave_driver] Write complete: ID=0xc ADDR=0x56546581 RESP=AXI4_RESP_OKAY  113 beats processed
# UVM_INFO ../src/slv/axi4_slave_monitor.sv(189) @ 15315000: uvm_test_top.env.slave_agent.mon [axi4_slave_monitor] Write response sent: ID=0xc ADDR=0x56546581 RESP=AXI4_RESP_OKAY
# UVM_INFO ../src/env/axi4_scoreboard.sv(103) @ 15315000: uvm_test_top.env.scb [axi4_scoreboard] Slave AXI4_WRITE received: ID=0xc ADDR=0x56546581 LEN=112
# UVM_INFO ../src/mst/axi4_master_monitor.sv(210) @ 15315000: uvm_test_top.env.master_agent.mon [axi4_master_monitor] Write complete: ID=0xc ADDR=0x56546581 RESP=AXI4_RESP_OKAY
# UVM_INFO ../src/env/axi4_scoreboard.sv(82) @ 15315000: uvm_test_top.env.scb [axi4_scoreboard] Master AXI4_WRITE received: ID=0xc ADDR=0x56546581 LEN=112
# UVM_INFO ../src/env/axi4_scoreboard.sv(154) @ 15315000: uvm_test_top.env.scb [axi4_scoreboard] [WRITE] MATCH #8: ID=0xc ADDR=0x56546581 LEN=112
# UVM_INFO ../src/seq/axi4_unaligned_seq.sv(51) @ 15315000: uvm_test_top.env.master_agent.sqr@@unalign_seq [axi4_unaligned_seq] [8/40] Unaligned AXI4_WRITE: ADDR=0x56546581 SIZE=AXI4_SIZE_4B BURST=AXI4_BURST_INCR (AlignmentOffset=1)
# UVM_INFO ../src/mst/axi4_master_driver.sv(55) @ 15315000: uvm_test_top.env.master_agent.drv [axi4_master_driver] Driving AXI4_READ  ID=0x5  ADDR=0x9188550d  LEN=79
# UVM_INFO ../src/slv/axi4_slave_driver.sv(300) @ 15345000: uvm_test_top.env.slave_agent.drv [axi4_slave_driver] AR received: ID=0x5 ADDR=0x9188550d LEN=79 LOCK=AXI4_LOCK_NORMAL
# UVM_INFO ../src/mst/axi4_master_monitor.sv(246) @ 15345000: uvm_test_top.env.master_agent.mon [axi4_master_monitor] AR observed: ID=0x5 ADDR=0x9188550d LEN=79
# UVM_INFO ../src/slv/axi4_slave_monitor.sv(224) @ 15345000: uvm_test_top.env.slave_agent.mon [axi4_slave_monitor] AR received: ID=0x5 ADDR=0x9188550d LEN=79
# UVM_INFO ../src/mst/axi4_master_driver.sv(254) @ 16945000: uvm_test_top.env.master_agent.drv [axi4_master_driver] Read complete: 80 beats received
# UVM_INFO ../src/slv/axi4_slave_driver.sv(349) @ 16945000: uvm_test_top.env.slave_agent.drv [axi4_slave_driver] Read complete: ID=0x5 ADDR=0x9188550d RESP=AXI4_RESP_OKAY  80 beats sent
# UVM_INFO ../src/mst/axi4_master_monitor.sv(314) @ 16945000: uvm_test_top.env.master_agent.mon [axi4_master_monitor] Read complete: ID=0x5 ADDR=0x9188550d 80 beats
# UVM_INFO ../src/env/axi4_scoreboard.sv(82) @ 16945000: uvm_test_top.env.scb [axi4_scoreboard] Master AXI4_READ received: ID=0x5 ADDR=0x9188550d LEN=79
# UVM_INFO ../src/slv/axi4_slave_monitor.sv(287) @ 16945000: uvm_test_top.env.slave_agent.mon [axi4_slave_monitor] Read data sent: ID=0x5 ADDR=0x9188550d 80 beats
# UVM_INFO ../src/env/axi4_scoreboard.sv(103) @ 16945000: uvm_test_top.env.scb [axi4_scoreboard] Slave AXI4_READ received: ID=0x5 ADDR=0x9188550d LEN=79
# UVM_INFO ../src/env/axi4_scoreboard.sv(154) @ 16945000: uvm_test_top.env.scb [axi4_scoreboard] [READ] MATCH #9: ID=0x5 ADDR=0x9188550d LEN=79
# UVM_INFO ../src/seq/axi4_unaligned_seq.sv(51) @ 16945000: uvm_test_top.env.master_agent.sqr@@unalign_seq [axi4_unaligned_seq] [9/40] Unaligned AXI4_READ: ADDR=0x9188550d SIZE=AXI4_SIZE_4B BURST=AXI4_BURST_INCR (AlignmentOffset=1)
# UVM_INFO ../src/mst/axi4_master_driver.sv(55) @ 16945000: uvm_test_top.env.master_agent.drv [axi4_master_driver] Driving AXI4_WRITE  ID=0x6  ADDR=0x2cb1370e  LEN=64
# UVM_INFO ../src/mst/axi4_master_driver.sv(101) @ 16945000: uvm_test_top.env.master_agent.drv [axi4_master_driver] Write order: AW -> W (sequential)
# UVM_INFO ../src/slv/axi4_slave_driver.sv(165) @ 16975000: uvm_test_top.env.slave_agent.drv [axi4_slave_driver] AW received: ID=0x6 ADDR=0x2cb1370e LEN=64 LOCK=AXI4_LOCK_NORMAL
# UVM_INFO ../src/slv/axi4_slave_monitor.sv(116) @ 16975000: uvm_test_top.env.slave_agent.mon [axi4_slave_monitor] AW received: ID=0x6 ADDR=0x2cb1370e LEN=64
# UVM_INFO ../src/mst/axi4_master_monitor.sv(124) @ 16975000: uvm_test_top.env.master_agent.mon [axi4_master_monitor] AW observed: ID=0x6 ADDR=0x2cb1370e LEN=64
# UVM_INFO ../src/slv/axi4_slave_monitor.sv(167) @ 18275000: uvm_test_top.env.slave_agent.mon [axi4_slave_monitor] W data assembled: ID=0x6 ADDR=0x2cb1370e 65 beats
# UVM_INFO ../src/mst/axi4_master_monitor.sv(184) @ 18275000: uvm_test_top.env.master_agent.mon [axi4_master_monitor] W data assembled: ID=0x6 ADDR=0x2cb1370e 65 beats
# UVM_INFO ../src/mst/axi4_master_driver.sv(197) @ 18305000: uvm_test_top.env.master_agent.drv [axi4_master_driver] Write response: AXI4_RESP_OKAY
# UVM_INFO ../src/slv/axi4_slave_driver.sv(261) @ 18305000: uvm_test_top.env.slave_agent.drv [axi4_slave_driver] Write complete: ID=0x6 ADDR=0x2cb1370e RESP=AXI4_RESP_OKAY  65 beats processed
# UVM_INFO ../src/mst/axi4_master_monitor.sv(210) @ 18305000: uvm_test_top.env.master_agent.mon [axi4_master_monitor] Write complete: ID=0x6 ADDR=0x2cb1370e RESP=AXI4_RESP_OKAY
# UVM_INFO ../src/env/axi4_scoreboard.sv(82) @ 18305000: uvm_test_top.env.scb [axi4_scoreboard] Master AXI4_WRITE received: ID=0x6 ADDR=0x2cb1370e LEN=64
# UVM_INFO ../src/slv/axi4_slave_monitor.sv(189) @ 18305000: uvm_test_top.env.slave_agent.mon [axi4_slave_monitor] Write response sent: ID=0x6 ADDR=0x2cb1370e RESP=AXI4_RESP_OKAY
# UVM_INFO ../src/env/axi4_scoreboard.sv(103) @ 18305000: uvm_test_top.env.scb [axi4_scoreboard] Slave AXI4_WRITE received: ID=0x6 ADDR=0x2cb1370e LEN=64
# UVM_INFO ../src/env/axi4_scoreboard.sv(154) @ 18305000: uvm_test_top.env.scb [axi4_scoreboard] [WRITE] MATCH #10: ID=0x6 ADDR=0x2cb1370e LEN=64
# UVM_INFO ../src/seq/axi4_unaligned_seq.sv(51) @ 18305000: uvm_test_top.env.master_agent.sqr@@unalign_seq [axi4_unaligned_seq] [10/40] Unaligned AXI4_WRITE: ADDR=0x2cb1370e SIZE=AXI4_SIZE_4B BURST=AXI4_BURST_INCR (AlignmentOffset=2)
# UVM_INFO ../src/mst/axi4_master_driver.sv(55) @ 18305000: uvm_test_top.env.master_agent.drv [axi4_master_driver] Driving AXI4_WRITE  ID=0xd  ADDR=0xd324a4de  LEN=104
# UVM_INFO ../src/mst/axi4_master_driver.sv(106) @ 18305000: uvm_test_top.env.master_agent.drv [axi4_master_driver] Write order: W -> AW (W first)
# UVM_INFO ../src/slv/axi4_slave_driver.sv(165) @ 18385000: uvm_test_top.env.slave_agent.drv [axi4_slave_driver] AW received: ID=0xd ADDR=0xd324a4de LEN=104 LOCK=AXI4_LOCK_EXCLUSIVE
# UVM_INFO ../src/mst/axi4_master_monitor.sv(124) @ 18385000: uvm_test_top.env.master_agent.mon [axi4_master_monitor] AW observed: ID=0xd ADDR=0xd324a4de LEN=104
# UVM_INFO ../src/slv/axi4_slave_monitor.sv(116) @ 18385000: uvm_test_top.env.slave_agent.mon [axi4_slave_monitor] AW received: ID=0xd ADDR=0xd324a4de LEN=104
# UVM_INFO ../src/mst/axi4_master_monitor.sv(184) @ 20405000: uvm_test_top.env.master_agent.mon [axi4_master_monitor] W data assembled: ID=0xd ADDR=0xd324a4de 105 beats
# UVM_INFO ../src/slv/axi4_slave_monitor.sv(167) @ 20405000: uvm_test_top.env.slave_agent.mon [axi4_slave_monitor] W data assembled: ID=0xd ADDR=0xd324a4de 105 beats
# UVM_INFO ../src/mst/axi4_master_driver.sv(197) @ 20435000: uvm_test_top.env.master_agent.drv [axi4_master_driver] Write response: AXI4_RESP_OKAY
# UVM_INFO ../src/slv/axi4_slave_driver.sv(261) @ 20435000: uvm_test_top.env.slave_agent.drv [axi4_slave_driver] Write complete: ID=0xd ADDR=0xd324a4de RESP=AXI4_RESP_OKAY  105 beats processed
# UVM_INFO ../src/slv/axi4_slave_monitor.sv(189) @ 20435000: uvm_test_top.env.slave_agent.mon [axi4_slave_monitor] Write response sent: ID=0xd ADDR=0xd324a4de RESP=AXI4_RESP_OKAY
# UVM_INFO ../src/env/axi4_scoreboard.sv(103) @ 20435000: uvm_test_top.env.scb [axi4_scoreboard] Slave AXI4_WRITE received: ID=0xd ADDR=0xd324a4de LEN=104
# UVM_INFO ../src/mst/axi4_master_monitor.sv(210) @ 20435000: uvm_test_top.env.master_agent.mon [axi4_master_monitor] Write complete: ID=0xd ADDR=0xd324a4de RESP=AXI4_RESP_OKAY
# UVM_INFO ../src/env/axi4_scoreboard.sv(82) @ 20435000: uvm_test_top.env.scb [axi4_scoreboard] Master AXI4_WRITE received: ID=0xd ADDR=0xd324a4de LEN=104
# UVM_INFO ../src/env/axi4_scoreboard.sv(154) @ 20435000: uvm_test_top.env.scb [axi4_scoreboard] [WRITE] MATCH #11: ID=0xd ADDR=0xd324a4de LEN=104
# UVM_INFO ../src/seq/axi4_unaligned_seq.sv(51) @ 20435000: uvm_test_top.env.master_agent.sqr@@unalign_seq [axi4_unaligned_seq] [11/40] Unaligned AXI4_WRITE: ADDR=0xd324a4de SIZE=AXI4_SIZE_4B BURST=AXI4_BURST_INCR (AlignmentOffset=2)
# UVM_INFO ../src/mst/axi4_master_driver.sv(55) @ 20435000: uvm_test_top.env.master_agent.drv [axi4_master_driver] Driving AXI4_WRITE  ID=0xe  ADDR=0xaae7cfcd  LEN=5
# UVM_INFO ../src/mst/axi4_master_driver.sv(101) @ 20435000: uvm_test_top.env.master_agent.drv [axi4_master_driver] Write order: AW -> W (sequential)
# UVM_INFO ../src/slv/axi4_slave_driver.sv(165) @ 20465000: uvm_test_top.env.slave_agent.drv [axi4_slave_driver] AW received: ID=0xe ADDR=0xaae7cfcd LEN=5 LOCK=AXI4_LOCK_EXCLUSIVE
# UVM_INFO ../src/mst/axi4_master_monitor.sv(124) @ 20465000: uvm_test_top.env.master_agent.mon [axi4_master_monitor] AW observed: ID=0xe ADDR=0xaae7cfcd LEN=5
# UVM_INFO ../src/slv/axi4_slave_monitor.sv(116) @ 20465000: uvm_test_top.env.slave_agent.mon [axi4_slave_monitor] AW received: ID=0xe ADDR=0xaae7cfcd LEN=5
# UVM_INFO ../src/mst/axi4_master_monitor.sv(184) @ 20585000: uvm_test_top.env.master_agent.mon [axi4_master_monitor] W data assembled: ID=0xe ADDR=0xaae7cfcd 6 beats
# UVM_INFO ../src/slv/axi4_slave_monitor.sv(167) @ 20585000: uvm_test_top.env.slave_agent.mon [axi4_slave_monitor] W data assembled: ID=0xe ADDR=0xaae7cfcd 6 beats
# UVM_INFO ../src/mst/axi4_master_driver.sv(197) @ 20615000: uvm_test_top.env.master_agent.drv [axi4_master_driver] Write response: AXI4_RESP_OKAY
# UVM_INFO ../src/slv/axi4_slave_driver.sv(261) @ 20615000: uvm_test_top.env.slave_agent.drv [axi4_slave_driver] Write complete: ID=0xe ADDR=0xaae7cfcd RESP=AXI4_RESP_OKAY  6 beats processed
# UVM_INFO ../src/slv/axi4_slave_monitor.sv(189) @ 20615000: uvm_test_top.env.slave_agent.mon [axi4_slave_monitor] Write response sent: ID=0xe ADDR=0xaae7cfcd RESP=AXI4_RESP_OKAY
# UVM_INFO ../src/env/axi4_scoreboard.sv(103) @ 20615000: uvm_test_top.env.scb [axi4_scoreboard] Slave AXI4_WRITE received: ID=0xe ADDR=0xaae7cfcd LEN=5
# UVM_INFO ../src/mst/axi4_master_monitor.sv(210) @ 20615000: uvm_test_top.env.master_agent.mon [axi4_master_monitor] Write complete: ID=0xe ADDR=0xaae7cfcd RESP=AXI4_RESP_OKAY
# UVM_INFO ../src/env/axi4_scoreboard.sv(82) @ 20615000: uvm_test_top.env.scb [axi4_scoreboard] Master AXI4_WRITE received: ID=0xe ADDR=0xaae7cfcd LEN=5
# UVM_INFO ../src/env/axi4_scoreboard.sv(154) @ 20615000: uvm_test_top.env.scb [axi4_scoreboard] [WRITE] MATCH #12: ID=0xe ADDR=0xaae7cfcd LEN=5
# UVM_INFO ../src/seq/axi4_unaligned_seq.sv(51) @ 20615000: uvm_test_top.env.master_agent.sqr@@unalign_seq [axi4_unaligned_seq] [12/40] Unaligned AXI4_WRITE: ADDR=0xaae7cfcd SIZE=AXI4_SIZE_4B BURST=AXI4_BURST_FIXED (AlignmentOffset=1)
# UVM_INFO ../src/mst/axi4_master_driver.sv(55) @ 20615000: uvm_test_top.env.master_agent.drv [axi4_master_driver] Driving AXI4_READ  ID=0x9  ADDR=0x80811e13  LEN=100
# UVM_INFO ../src/slv/axi4_slave_driver.sv(300) @ 20645000: uvm_test_top.env.slave_agent.drv [axi4_slave_driver] AR received: ID=0x9 ADDR=0x80811e13 LEN=100 LOCK=AXI4_LOCK_NORMAL
# UVM_INFO ../src/mst/axi4_master_monitor.sv(246) @ 20645000: uvm_test_top.env.master_agent.mon [axi4_master_monitor] AR observed: ID=0x9 ADDR=0x80811e13 LEN=100
# UVM_INFO ../src/slv/axi4_slave_monitor.sv(224) @ 20645000: uvm_test_top.env.slave_agent.mon [axi4_slave_monitor] AR received: ID=0x9 ADDR=0x80811e13 LEN=100
# UVM_INFO ../src/mst/axi4_master_driver.sv(254) @ 22665000: uvm_test_top.env.master_agent.drv [axi4_master_driver] Read complete: 101 beats received
# UVM_INFO ../src/slv/axi4_slave_driver.sv(349) @ 22665000: uvm_test_top.env.slave_agent.drv [axi4_slave_driver] Read complete: ID=0x9 ADDR=0x80811e13 RESP=AXI4_RESP_OKAY  101 beats sent
# UVM_INFO ../src/mst/axi4_master_monitor.sv(314) @ 22665000: uvm_test_top.env.master_agent.mon [axi4_master_monitor] Read complete: ID=0x9 ADDR=0x80811e13 101 beats
# UVM_INFO ../src/env/axi4_scoreboard.sv(82) @ 22665000: uvm_test_top.env.scb [axi4_scoreboard] Master AXI4_READ received: ID=0x9 ADDR=0x80811e13 LEN=100
# UVM_INFO ../src/slv/axi4_slave_monitor.sv(287) @ 22665000: uvm_test_top.env.slave_agent.mon [axi4_slave_monitor] Read data sent: ID=0x9 ADDR=0x80811e13 101 beats
# UVM_INFO ../src/env/axi4_scoreboard.sv(103) @ 22665000: uvm_test_top.env.scb [axi4_scoreboard] Slave AXI4_READ received: ID=0x9 ADDR=0x80811e13 LEN=100
# UVM_INFO ../src/env/axi4_scoreboard.sv(154) @ 22665000: uvm_test_top.env.scb [axi4_scoreboard] [READ] MATCH #13: ID=0x9 ADDR=0x80811e13 LEN=100
# UVM_INFO ../src/seq/axi4_unaligned_seq.sv(51) @ 22665000: uvm_test_top.env.master_agent.sqr@@unalign_seq [axi4_unaligned_seq] [13/40] Unaligned AXI4_READ: ADDR=0x80811e13 SIZE=AXI4_SIZE_2B BURST=AXI4_BURST_INCR (AlignmentOffset=1)
# UVM_INFO ../src/mst/axi4_master_driver.sv(55) @ 22665000: uvm_test_top.env.master_agent.drv [axi4_master_driver] Driving AXI4_WRITE  ID=0xb  ADDR=0x7fec99ed  LEN=71
# UVM_INFO ../src/mst/axi4_master_driver.sv(94) @ 22665000: uvm_test_top.env.master_agent.drv [axi4_master_driver] Write order: AW || W (parallel)
# UVM_INFO ../src/slv/axi4_slave_driver.sv(165) @ 22695000: uvm_test_top.env.slave_agent.drv [axi4_slave_driver] AW received: ID=0xb ADDR=0x7fec99ed LEN=71 LOCK=AXI4_LOCK_NORMAL
# UVM_INFO ../src/slv/axi4_slave_monitor.sv(116) @ 22695000: uvm_test_top.env.slave_agent.mon [axi4_slave_monitor] AW received: ID=0xb ADDR=0x7fec99ed LEN=71
# UVM_INFO ../src/mst/axi4_master_monitor.sv(124) @ 22695000: uvm_test_top.env.master_agent.mon [axi4_master_monitor] AW observed: ID=0xb ADDR=0x7fec99ed LEN=71
# UVM_INFO ../src/mst/axi4_master_monitor.sv(184) @ 24105000: uvm_test_top.env.master_agent.mon [axi4_master_monitor] W data assembled: ID=0xb ADDR=0x7fec99ed 72 beats
# UVM_INFO ../src/slv/axi4_slave_monitor.sv(167) @ 24105000: uvm_test_top.env.slave_agent.mon [axi4_slave_monitor] W data assembled: ID=0xb ADDR=0x7fec99ed 72 beats
# UVM_INFO ../src/mst/axi4_master_driver.sv(197) @ 24135000: uvm_test_top.env.master_agent.drv [axi4_master_driver] Write response: AXI4_RESP_OKAY
# UVM_INFO ../src/slv/axi4_slave_driver.sv(261) @ 24135000: uvm_test_top.env.slave_agent.drv [axi4_slave_driver] Write complete: ID=0xb ADDR=0x7fec99ed RESP=AXI4_RESP_OKAY  72 beats processed
# UVM_INFO ../src/slv/axi4_slave_monitor.sv(189) @ 24135000: uvm_test_top.env.slave_agent.mon [axi4_slave_monitor] Write response sent: ID=0xb ADDR=0x7fec99ed RESP=AXI4_RESP_OKAY
# UVM_INFO ../src/env/axi4_scoreboard.sv(103) @ 24135000: uvm_test_top.env.scb [axi4_scoreboard] Slave AXI4_WRITE received: ID=0xb ADDR=0x7fec99ed LEN=71
# UVM_INFO ../src/mst/axi4_master_monitor.sv(210) @ 24135000: uvm_test_top.env.master_agent.mon [axi4_master_monitor] Write complete: ID=0xb ADDR=0x7fec99ed RESP=AXI4_RESP_OKAY
# UVM_INFO ../src/env/axi4_scoreboard.sv(82) @ 24135000: uvm_test_top.env.scb [axi4_scoreboard] Master AXI4_WRITE received: ID=0xb ADDR=0x7fec99ed LEN=71
# UVM_INFO ../src/env/axi4_scoreboard.sv(154) @ 24135000: uvm_test_top.env.scb [axi4_scoreboard] [WRITE] MATCH #14: ID=0xb ADDR=0x7fec99ed LEN=71
# UVM_INFO ../src/seq/axi4_unaligned_seq.sv(51) @ 24135000: uvm_test_top.env.master_agent.sqr@@unalign_seq [axi4_unaligned_seq] [14/40] Unaligned AXI4_WRITE: ADDR=0x7fec99ed SIZE=AXI4_SIZE_2B BURST=AXI4_BURST_INCR (AlignmentOffset=1)
# UVM_INFO ../src/mst/axi4_master_driver.sv(55) @ 24135000: uvm_test_top.env.master_agent.drv [axi4_master_driver] Driving AXI4_READ  ID=0x9  ADDR=0x9af58b66  LEN=161
# UVM_INFO ../src/slv/axi4_slave_driver.sv(300) @ 24165000: uvm_test_top.env.slave_agent.drv [axi4_slave_driver] AR received: ID=0x9 ADDR=0x9af58b66 LEN=161 LOCK=AXI4_LOCK_NORMAL
# UVM_INFO ../src/mst/axi4_master_monitor.sv(246) @ 24165000: uvm_test_top.env.master_agent.mon [axi4_master_monitor] AR observed: ID=0x9 ADDR=0x9af58b66 LEN=161
# UVM_INFO ../src/slv/axi4_slave_monitor.sv(224) @ 24165000: uvm_test_top.env.slave_agent.mon [axi4_slave_monitor] AR received: ID=0x9 ADDR=0x9af58b66 LEN=161
# UVM_INFO ../src/mst/axi4_master_driver.sv(254) @ 27405000: uvm_test_top.env.master_agent.drv [axi4_master_driver] Read complete: 162 beats received
# UVM_INFO ../src/slv/axi4_slave_driver.sv(349) @ 27405000: uvm_test_top.env.slave_agent.drv [axi4_slave_driver] Read complete: ID=0x9 ADDR=0x9af58b66 RESP=AXI4_RESP_OKAY  162 beats sent
# UVM_INFO ../src/mst/axi4_master_monitor.sv(314) @ 27405000: uvm_test_top.env.master_agent.mon [axi4_master_monitor] Read complete: ID=0x9 ADDR=0x9af58b66 162 beats
# UVM_INFO ../src/env/axi4_scoreboard.sv(82) @ 27405000: uvm_test_top.env.scb [axi4_scoreboard] Master AXI4_READ received: ID=0x9 ADDR=0x9af58b66 LEN=161
# UVM_INFO ../src/slv/axi4_slave_monitor.sv(287) @ 27405000: uvm_test_top.env.slave_agent.mon [axi4_slave_monitor] Read data sent: ID=0x9 ADDR=0x9af58b66 162 beats
# UVM_INFO ../src/env/axi4_scoreboard.sv(103) @ 27405000: uvm_test_top.env.scb [axi4_scoreboard] Slave AXI4_READ received: ID=0x9 ADDR=0x9af58b66 LEN=161
# UVM_INFO ../src/env/axi4_scoreboard.sv(154) @ 27405000: uvm_test_top.env.scb [axi4_scoreboard] [READ] MATCH #15: ID=0x9 ADDR=0x9af58b66 LEN=161
# UVM_INFO ../src/seq/axi4_unaligned_seq.sv(51) @ 27405000: uvm_test_top.env.master_agent.sqr@@unalign_seq [axi4_unaligned_seq] [15/40] Unaligned AXI4_READ: ADDR=0x9af58b66 SIZE=AXI4_SIZE_4B BURST=AXI4_BURST_INCR (AlignmentOffset=2)
# UVM_INFO ../src/mst/axi4_master_driver.sv(55) @ 27405000: uvm_test_top.env.master_agent.drv [axi4_master_driver] Driving AXI4_WRITE  ID=0xc  ADDR=0xb4932cd3  LEN=6
# UVM_INFO ../src/mst/axi4_master_driver.sv(101) @ 27405000: uvm_test_top.env.master_agent.drv [axi4_master_driver] Write order: AW -> W (sequential)
# UVM_INFO ../src/slv/axi4_slave_driver.sv(165) @ 27435000: uvm_test_top.env.slave_agent.drv [axi4_slave_driver] AW received: ID=0xc ADDR=0xb4932cd3 LEN=6 LOCK=AXI4_LOCK_NORMAL
# UVM_INFO ../src/slv/axi4_slave_monitor.sv(116) @ 27435000: uvm_test_top.env.slave_agent.mon [axi4_slave_monitor] AW received: ID=0xc ADDR=0xb4932cd3 LEN=6
# UVM_INFO ../src/mst/axi4_master_monitor.sv(124) @ 27435000: uvm_test_top.env.master_agent.mon [axi4_master_monitor] AW observed: ID=0xc ADDR=0xb4932cd3 LEN=6
# UVM_INFO ../src/slv/axi4_slave_monitor.sv(167) @ 27575000: uvm_test_top.env.slave_agent.mon [axi4_slave_monitor] W data assembled: ID=0xc ADDR=0xb4932cd3 7 beats
# UVM_INFO ../src/mst/axi4_master_monitor.sv(184) @ 27575000: uvm_test_top.env.master_agent.mon [axi4_master_monitor] W data assembled: ID=0xc ADDR=0xb4932cd3 7 beats
# UVM_INFO ../src/mst/axi4_master_driver.sv(197) @ 27605000: uvm_test_top.env.master_agent.drv [axi4_master_driver] Write response: AXI4_RESP_OKAY
# UVM_INFO ../src/slv/axi4_slave_driver.sv(261) @ 27605000: uvm_test_top.env.slave_agent.drv [axi4_slave_driver] Write complete: ID=0xc ADDR=0xb4932cd3 RESP=AXI4_RESP_OKAY  7 beats processed
# UVM_INFO ../src/mst/axi4_master_monitor.sv(210) @ 27605000: uvm_test_top.env.master_agent.mon [axi4_master_monitor] Write complete: ID=0xc ADDR=0xb4932cd3 RESP=AXI4_RESP_OKAY
# UVM_INFO ../src/env/axi4_scoreboard.sv(82) @ 27605000: uvm_test_top.env.scb [axi4_scoreboard] Master AXI4_WRITE received: ID=0xc ADDR=0xb4932cd3 LEN=6
# UVM_INFO ../src/slv/axi4_slave_monitor.sv(189) @ 27605000: uvm_test_top.env.slave_agent.mon [axi4_slave_monitor] Write response sent: ID=0xc ADDR=0xb4932cd3 RESP=AXI4_RESP_OKAY
# UVM_INFO ../src/env/axi4_scoreboard.sv(103) @ 27605000: uvm_test_top.env.scb [axi4_scoreboard] Slave AXI4_WRITE received: ID=0xc ADDR=0xb4932cd3 LEN=6
# UVM_INFO ../src/env/axi4_scoreboard.sv(154) @ 27605000: uvm_test_top.env.scb [axi4_scoreboard] [WRITE] MATCH #16: ID=0xc ADDR=0xb4932cd3 LEN=6
# UVM_INFO ../src/seq/axi4_unaligned_seq.sv(51) @ 27605000: uvm_test_top.env.master_agent.sqr@@unalign_seq [axi4_unaligned_seq] [16/40] Unaligned AXI4_WRITE: ADDR=0xb4932cd3 SIZE=AXI4_SIZE_4B BURST=AXI4_BURST_FIXED (AlignmentOffset=3)
# UVM_INFO ../src/mst/axi4_master_driver.sv(55) @ 27605000: uvm_test_top.env.master_agent.drv [axi4_master_driver] Driving AXI4_READ  ID=0x4  ADDR=0x6a8ef976  LEN=8
# UVM_INFO ../src/slv/axi4_slave_driver.sv(300) @ 27635000: uvm_test_top.env.slave_agent.drv [axi4_slave_driver] AR received: ID=0x4 ADDR=0x6a8ef976 LEN=8 LOCK=AXI4_LOCK_EXCLUSIVE
# UVM_INFO ../src/slv/axi4_slave_monitor.sv(224) @ 27635000: uvm_test_top.env.slave_agent.mon [axi4_slave_monitor] AR received: ID=0x4 ADDR=0x6a8ef976 LEN=8
# UVM_INFO ../src/mst/axi4_master_monitor.sv(246) @ 27635000: uvm_test_top.env.master_agent.mon [axi4_master_monitor] AR observed: ID=0x4 ADDR=0x6a8ef976 LEN=8
# UVM_INFO ../src/mst/axi4_master_driver.sv(254) @ 27815000: uvm_test_top.env.master_agent.drv [axi4_master_driver] Read complete: 9 beats received
# UVM_INFO ../src/slv/axi4_slave_driver.sv(349) @ 27815000: uvm_test_top.env.slave_agent.drv [axi4_slave_driver] Read complete: ID=0x4 ADDR=0x6a8ef976 RESP=AXI4_RESP_EXOKAY  9 beats sent
# UVM_INFO ../src/slv/axi4_slave_monitor.sv(287) @ 27815000: uvm_test_top.env.slave_agent.mon [axi4_slave_monitor] Read data sent: ID=0x4 ADDR=0x6a8ef976 9 beats
# UVM_INFO ../src/env/axi4_scoreboard.sv(103) @ 27815000: uvm_test_top.env.scb [axi4_scoreboard] Slave AXI4_READ received: ID=0x4 ADDR=0x6a8ef976 LEN=8
# UVM_INFO ../src/mst/axi4_master_monitor.sv(314) @ 27815000: uvm_test_top.env.master_agent.mon [axi4_master_monitor] Read complete: ID=0x4 ADDR=0x6a8ef976 9 beats
# UVM_INFO ../src/env/axi4_scoreboard.sv(82) @ 27815000: uvm_test_top.env.scb [axi4_scoreboard] Master AXI4_READ received: ID=0x4 ADDR=0x6a8ef976 LEN=8
# UVM_INFO ../src/env/axi4_scoreboard.sv(154) @ 27815000: uvm_test_top.env.scb [axi4_scoreboard] [READ] MATCH #17: ID=0x4 ADDR=0x6a8ef976 LEN=8
# UVM_INFO ../src/seq/axi4_unaligned_seq.sv(51) @ 27815000: uvm_test_top.env.master_agent.sqr@@unalign_seq [axi4_unaligned_seq] [17/40] Unaligned AXI4_READ: ADDR=0x6a8ef976 SIZE=AXI4_SIZE_4B BURST=AXI4_BURST_INCR (AlignmentOffset=2)
# UVM_INFO ../src/mst/axi4_master_driver.sv(55) @ 27815000: uvm_test_top.env.master_agent.drv [axi4_master_driver] Driving AXI4_WRITE  ID=0x1  ADDR=0x3c36433f  LEN=16
# UVM_INFO ../src/mst/axi4_master_driver.sv(94) @ 27815000: uvm_test_top.env.master_agent.drv [axi4_master_driver] Write order: AW || W (parallel)
# UVM_INFO ../src/slv/axi4_slave_driver.sv(165) @ 27845000: uvm_test_top.env.slave_agent.drv [axi4_slave_driver] AW received: ID=0x1 ADDR=0x3c36433f LEN=16 LOCK=AXI4_LOCK_NORMAL
# UVM_INFO ../src/mst/axi4_master_monitor.sv(124) @ 27845000: uvm_test_top.env.master_agent.mon [axi4_master_monitor] AW observed: ID=0x1 ADDR=0x3c36433f LEN=16
# UVM_INFO ../src/slv/axi4_slave_monitor.sv(116) @ 27845000: uvm_test_top.env.slave_agent.mon [axi4_slave_monitor] AW received: ID=0x1 ADDR=0x3c36433f LEN=16
# UVM_INFO ../src/slv/axi4_slave_monitor.sv(167) @ 28155000: uvm_test_top.env.slave_agent.mon [axi4_slave_monitor] W data assembled: ID=0x1 ADDR=0x3c36433f 17 beats
# UVM_INFO ../src/mst/axi4_master_monitor.sv(184) @ 28155000: uvm_test_top.env.master_agent.mon [axi4_master_monitor] W data assembled: ID=0x1 ADDR=0x3c36433f 17 beats
# UVM_INFO ../src/mst/axi4_master_driver.sv(197) @ 28185000: uvm_test_top.env.master_agent.drv [axi4_master_driver] Write response: AXI4_RESP_OKAY
# UVM_INFO ../src/slv/axi4_slave_driver.sv(261) @ 28185000: uvm_test_top.env.slave_agent.drv [axi4_slave_driver] Write complete: ID=0x1 ADDR=0x3c36433f RESP=AXI4_RESP_OKAY  17 beats processed
# UVM_INFO ../src/mst/axi4_master_monitor.sv(210) @ 28185000: uvm_test_top.env.master_agent.mon [axi4_master_monitor] Write complete: ID=0x1 ADDR=0x3c36433f RESP=AXI4_RESP_OKAY
# UVM_INFO ../src/env/axi4_scoreboard.sv(82) @ 28185000: uvm_test_top.env.scb [axi4_scoreboard] Master AXI4_WRITE received: ID=0x1 ADDR=0x3c36433f LEN=16
# UVM_INFO ../src/slv/axi4_slave_monitor.sv(189) @ 28185000: uvm_test_top.env.slave_agent.mon [axi4_slave_monitor] Write response sent: ID=0x1 ADDR=0x3c36433f RESP=AXI4_RESP_OKAY
# UVM_INFO ../src/env/axi4_scoreboard.sv(103) @ 28185000: uvm_test_top.env.scb [axi4_scoreboard] Slave AXI4_WRITE received: ID=0x1 ADDR=0x3c36433f LEN=16
# UVM_INFO ../src/env/axi4_scoreboard.sv(154) @ 28185000: uvm_test_top.env.scb [axi4_scoreboard] [WRITE] MATCH #18: ID=0x1 ADDR=0x3c36433f LEN=16
# UVM_INFO ../src/seq/axi4_unaligned_seq.sv(51) @ 28185000: uvm_test_top.env.master_agent.sqr@@unalign_seq [axi4_unaligned_seq] [18/40] Unaligned AXI4_WRITE: ADDR=0x3c36433f SIZE=AXI4_SIZE_2B BURST=AXI4_BURST_INCR (AlignmentOffset=1)
# UVM_INFO ../src/mst/axi4_master_driver.sv(55) @ 28185000: uvm_test_top.env.master_agent.drv [axi4_master_driver] Driving AXI4_READ  ID=0x9  ADDR=0xa115292f  LEN=162
# UVM_INFO ../src/slv/axi4_slave_driver.sv(300) @ 28215000: uvm_test_top.env.slave_agent.drv [axi4_slave_driver] AR received: ID=0x9 ADDR=0xa115292f LEN=162 LOCK=AXI4_LOCK_EXCLUSIVE
# UVM_INFO ../src/slv/axi4_slave_monitor.sv(224) @ 28215000: uvm_test_top.env.slave_agent.mon [axi4_slave_monitor] AR received: ID=0x9 ADDR=0xa115292f LEN=162
# UVM_INFO ../src/mst/axi4_master_monitor.sv(246) @ 28215000: uvm_test_top.env.master_agent.mon [axi4_master_monitor] AR observed: ID=0x9 ADDR=0xa115292f LEN=162
# UVM_INFO ../src/mst/axi4_master_driver.sv(254) @ 31475000: uvm_test_top.env.master_agent.drv [axi4_master_driver] Read complete: 163 beats received
# UVM_INFO ../src/slv/axi4_slave_driver.sv(349) @ 31475000: uvm_test_top.env.slave_agent.drv [axi4_slave_driver] Read complete: ID=0x9 ADDR=0xa115292f RESP=AXI4_RESP_EXOKAY  163 beats sent
# UVM_INFO ../src/slv/axi4_slave_monitor.sv(287) @ 31475000: uvm_test_top.env.slave_agent.mon [axi4_slave_monitor] Read data sent: ID=0x9 ADDR=0xa115292f 163 beats
# UVM_INFO ../src/env/axi4_scoreboard.sv(103) @ 31475000: uvm_test_top.env.scb [axi4_scoreboard] Slave AXI4_READ received: ID=0x9 ADDR=0xa115292f LEN=162
# UVM_INFO ../src/mst/axi4_master_monitor.sv(314) @ 31475000: uvm_test_top.env.master_agent.mon [axi4_master_monitor] Read complete: ID=0x9 ADDR=0xa115292f 163 beats
# UVM_INFO ../src/env/axi4_scoreboard.sv(82) @ 31475000: uvm_test_top.env.scb [axi4_scoreboard] Master AXI4_READ received: ID=0x9 ADDR=0xa115292f LEN=162
# UVM_INFO ../src/env/axi4_scoreboard.sv(154) @ 31475000: uvm_test_top.env.scb [axi4_scoreboard] [READ] MATCH #19: ID=0x9 ADDR=0xa115292f LEN=162
# UVM_INFO ../src/seq/axi4_unaligned_seq.sv(51) @ 31475000: uvm_test_top.env.master_agent.sqr@@unalign_seq [axi4_unaligned_seq] [19/40] Unaligned AXI4_READ: ADDR=0xa115292f SIZE=AXI4_SIZE_2B BURST=AXI4_BURST_INCR (AlignmentOffset=1)
# UVM_INFO ../src/mst/axi4_master_driver.sv(55) @ 31475000: uvm_test_top.env.master_agent.drv [axi4_master_driver] Driving AXI4_WRITE  ID=0xb  ADDR=0x38a779a9  LEN=143
# UVM_INFO ../src/mst/axi4_master_driver.sv(101) @ 31475000: uvm_test_top.env.master_agent.drv [axi4_master_driver] Write order: AW -> W (sequential)
# UVM_INFO ../src/slv/axi4_slave_driver.sv(165) @ 31505000: uvm_test_top.env.slave_agent.drv [axi4_slave_driver] AW received: ID=0xb ADDR=0x38a779a9 LEN=143 LOCK=AXI4_LOCK_EXCLUSIVE
# UVM_INFO ../src/mst/axi4_master_monitor.sv(124) @ 31505000: uvm_test_top.env.master_agent.mon [axi4_master_monitor] AW observed: ID=0xb ADDR=0x38a779a9 LEN=143
# UVM_INFO ../src/slv/axi4_slave_monitor.sv(116) @ 31505000: uvm_test_top.env.slave_agent.mon [axi4_slave_monitor] AW received: ID=0xb ADDR=0x38a779a9 LEN=143
# UVM_INFO ../src/mst/axi4_master_monitor.sv(184) @ 34385000: uvm_test_top.env.master_agent.mon [axi4_master_monitor] W data assembled: ID=0xb ADDR=0x38a779a9 144 beats
# UVM_INFO ../src/slv/axi4_slave_monitor.sv(167) @ 34385000: uvm_test_top.env.slave_agent.mon [axi4_slave_monitor] W data assembled: ID=0xb ADDR=0x38a779a9 144 beats
# UVM_INFO ../src/mst/axi4_master_driver.sv(197) @ 34415000: uvm_test_top.env.master_agent.drv [axi4_master_driver] Write response: AXI4_RESP_OKAY
# UVM_INFO ../src/slv/axi4_slave_driver.sv(261) @ 34415000: uvm_test_top.env.slave_agent.drv [axi4_slave_driver] Write complete: ID=0xb ADDR=0x38a779a9 RESP=AXI4_RESP_OKAY  144 beats processed
# UVM_INFO ../src/slv/axi4_slave_monitor.sv(189) @ 34415000: uvm_test_top.env.slave_agent.mon [axi4_slave_monitor] Write response sent: ID=0xb ADDR=0x38a779a9 RESP=AXI4_RESP_OKAY
# UVM_INFO ../src/env/axi4_scoreboard.sv(103) @ 34415000: uvm_test_top.env.scb [axi4_scoreboard] Slave AXI4_WRITE received: ID=0xb ADDR=0x38a779a9 LEN=143
# UVM_INFO ../src/mst/axi4_master_monitor.sv(210) @ 34415000: uvm_test_top.env.master_agent.mon [axi4_master_monitor] Write complete: ID=0xb ADDR=0x38a779a9 RESP=AXI4_RESP_OKAY
# UVM_INFO ../src/env/axi4_scoreboard.sv(82) @ 34415000: uvm_test_top.env.scb [axi4_scoreboard] Master AXI4_WRITE received: ID=0xb ADDR=0x38a779a9 LEN=143
# UVM_INFO ../src/env/axi4_scoreboard.sv(154) @ 34415000: uvm_test_top.env.scb [axi4_scoreboard] [WRITE] MATCH #20: ID=0xb ADDR=0x38a779a9 LEN=143
# UVM_INFO ../src/seq/axi4_unaligned_seq.sv(51) @ 34415000: uvm_test_top.env.master_agent.sqr@@unalign_seq [axi4_unaligned_seq] [20/40] Unaligned AXI4_WRITE: ADDR=0x38a779a9 SIZE=AXI4_SIZE_2B BURST=AXI4_BURST_INCR (AlignmentOffset=1)
# UVM_INFO ../src/mst/axi4_master_driver.sv(55) @ 34415000: uvm_test_top.env.master_agent.drv [axi4_master_driver] Driving AXI4_WRITE  ID=0x0  ADDR=0x25586807  LEN=0
# UVM_INFO ../src/mst/axi4_master_driver.sv(94) @ 34415000: uvm_test_top.env.master_agent.drv [axi4_master_driver] Write order: AW || W (parallel)
# UVM_INFO ../src/slv/axi4_slave_driver.sv(165) @ 34445000: uvm_test_top.env.slave_agent.drv [axi4_slave_driver] AW received: ID=0x0 ADDR=0x25586807 LEN=0 LOCK=AXI4_LOCK_NORMAL
# UVM_INFO ../src/mst/axi4_master_monitor.sv(124) @ 34445000: uvm_test_top.env.master_agent.mon [axi4_master_monitor] AW observed: ID=0x0 ADDR=0x25586807 LEN=0
# UVM_INFO ../src/slv/axi4_slave_monitor.sv(116) @ 34445000: uvm_test_top.env.slave_agent.mon [axi4_slave_monitor] AW received: ID=0x0 ADDR=0x25586807 LEN=0
# UVM_INFO ../src/mst/axi4_master_monitor.sv(184) @ 34445000: uvm_test_top.env.master_agent.mon [axi4_master_monitor] W data assembled: ID=0x0 ADDR=0x25586807 1 beats
# UVM_INFO ../src/slv/axi4_slave_monitor.sv(167) @ 34445000: uvm_test_top.env.slave_agent.mon [axi4_slave_monitor] W data assembled: ID=0x0 ADDR=0x25586807 1 beats
# UVM_INFO ../src/mst/axi4_master_driver.sv(197) @ 34465000: uvm_test_top.env.master_agent.drv [axi4_master_driver] Write response: AXI4_RESP_OKAY
# UVM_INFO ../src/slv/axi4_slave_driver.sv(261) @ 34465000: uvm_test_top.env.slave_agent.drv [axi4_slave_driver] Write complete: ID=0x0 ADDR=0x25586807 RESP=AXI4_RESP_OKAY  1 beats processed
# UVM_INFO ../src/mst/axi4_master_monitor.sv(210) @ 34465000: uvm_test_top.env.master_agent.mon [axi4_master_monitor] Write complete: ID=0x0 ADDR=0x25586807 RESP=AXI4_RESP_OKAY
# UVM_INFO ../src/env/axi4_scoreboard.sv(82) @ 34465000: uvm_test_top.env.scb [axi4_scoreboard] Master AXI4_WRITE received: ID=0x0 ADDR=0x25586807 LEN=0
# UVM_INFO ../src/slv/axi4_slave_monitor.sv(189) @ 34465000: uvm_test_top.env.slave_agent.mon [axi4_slave_monitor] Write response sent: ID=0x0 ADDR=0x25586807 RESP=AXI4_RESP_OKAY
# UVM_INFO ../src/env/axi4_scoreboard.sv(103) @ 34465000: uvm_test_top.env.scb [axi4_scoreboard] Slave AXI4_WRITE received: ID=0x0 ADDR=0x25586807 LEN=0
# UVM_INFO ../src/env/axi4_scoreboard.sv(154) @ 34465000: uvm_test_top.env.scb [axi4_scoreboard] [WRITE] MATCH #21: ID=0x0 ADDR=0x25586807 LEN=0
# UVM_INFO ../src/seq/axi4_unaligned_seq.sv(51) @ 34465000: uvm_test_top.env.master_agent.sqr@@unalign_seq [axi4_unaligned_seq] [21/40] Unaligned AXI4_WRITE: ADDR=0x25586807 SIZE=AXI4_SIZE_4B BURST=AXI4_BURST_FIXED (AlignmentOffset=3)
# UVM_INFO ../src/mst/axi4_master_driver.sv(55) @ 34465000: uvm_test_top.env.master_agent.drv [axi4_master_driver] Driving AXI4_WRITE  ID=0xc  ADDR=0xd64b8d89  LEN=117
# UVM_INFO ../src/mst/axi4_master_driver.sv(94) @ 34465000: uvm_test_top.env.master_agent.drv [axi4_master_driver] Write order: AW || W (parallel)
# UVM_INFO ../src/slv/axi4_slave_driver.sv(165) @ 34495000: uvm_test_top.env.slave_agent.drv [axi4_slave_driver] AW received: ID=0xc ADDR=0xd64b8d89 LEN=117 LOCK=AXI4_LOCK_NORMAL
# UVM_INFO ../src/slv/axi4_slave_monitor.sv(116) @ 34495000: uvm_test_top.env.slave_agent.mon [axi4_slave_monitor] AW received: ID=0xc ADDR=0xd64b8d89 LEN=117
# UVM_INFO ../src/mst/axi4_master_monitor.sv(124) @ 34495000: uvm_test_top.env.master_agent.mon [axi4_master_monitor] AW observed: ID=0xc ADDR=0xd64b8d89 LEN=117
# UVM_INFO ../src/mst/axi4_master_monitor.sv(184) @ 36825000: uvm_test_top.env.master_agent.mon [axi4_master_monitor] W data assembled: ID=0xc ADDR=0xd64b8d89 118 beats
# UVM_INFO ../src/slv/axi4_slave_monitor.sv(167) @ 36825000: uvm_test_top.env.slave_agent.mon [axi4_slave_monitor] W data assembled: ID=0xc ADDR=0xd64b8d89 118 beats
# UVM_INFO ../src/mst/axi4_master_driver.sv(197) @ 36855000: uvm_test_top.env.master_agent.drv [axi4_master_driver] Write response: AXI4_RESP_OKAY
# UVM_INFO ../src/slv/axi4_slave_driver.sv(261) @ 36855000: uvm_test_top.env.slave_agent.drv [axi4_slave_driver] Write complete: ID=0xc ADDR=0xd64b8d89 RESP=AXI4_RESP_OKAY  118 beats processed
# UVM_INFO ../src/slv/axi4_slave_monitor.sv(189) @ 36855000: uvm_test_top.env.slave_agent.mon [axi4_slave_monitor] Write response sent: ID=0xc ADDR=0xd64b8d89 RESP=AXI4_RESP_OKAY
# UVM_INFO ../src/env/axi4_scoreboard.sv(103) @ 36855000: uvm_test_top.env.scb [axi4_scoreboard] Slave AXI4_WRITE received: ID=0xc ADDR=0xd64b8d89 LEN=117
# UVM_INFO ../src/mst/axi4_master_monitor.sv(210) @ 36855000: uvm_test_top.env.master_agent.mon [axi4_master_monitor] Write complete: ID=0xc ADDR=0xd64b8d89 RESP=AXI4_RESP_OKAY
# UVM_INFO ../src/env/axi4_scoreboard.sv(82) @ 36855000: uvm_test_top.env.scb [axi4_scoreboard] Master AXI4_WRITE received: ID=0xc ADDR=0xd64b8d89 LEN=117
# UVM_INFO ../src/env/axi4_scoreboard.sv(154) @ 36855000: uvm_test_top.env.scb [axi4_scoreboard] [WRITE] MATCH #22: ID=0xc ADDR=0xd64b8d89 LEN=117
# UVM_INFO ../src/seq/axi4_unaligned_seq.sv(51) @ 36855000: uvm_test_top.env.master_agent.sqr@@unalign_seq [axi4_unaligned_seq] [22/40] Unaligned AXI4_WRITE: ADDR=0xd64b8d89 SIZE=AXI4_SIZE_2B BURST=AXI4_BURST_INCR (AlignmentOffset=1)
# UVM_INFO ../src/mst/axi4_master_driver.sv(55) @ 36855000: uvm_test_top.env.master_agent.drv [axi4_master_driver] Driving AXI4_WRITE  ID=0x7  ADDR=0x9ded26e3  LEN=5
# UVM_INFO ../src/mst/axi4_master_driver.sv(106) @ 36855000: uvm_test_top.env.master_agent.drv [axi4_master_driver] Write order: W -> AW (W first)
# UVM_INFO ../src/slv/axi4_slave_driver.sv(165) @ 36925000: uvm_test_top.env.slave_agent.drv [axi4_slave_driver] AW received: ID=0x7 ADDR=0x9ded26e3 LEN=5 LOCK=AXI4_LOCK_NORMAL
# UVM_INFO ../src/mst/axi4_master_monitor.sv(124) @ 36925000: uvm_test_top.env.master_agent.mon [axi4_master_monitor] AW observed: ID=0x7 ADDR=0x9ded26e3 LEN=5
# UVM_INFO ../src/slv/axi4_slave_monitor.sv(116) @ 36925000: uvm_test_top.env.slave_agent.mon [axi4_slave_monitor] AW received: ID=0x7 ADDR=0x9ded26e3 LEN=5
# UVM_INFO ../src/slv/axi4_slave_monitor.sv(167) @ 36975000: uvm_test_top.env.slave_agent.mon [axi4_slave_monitor] W data assembled: ID=0x7 ADDR=0x9ded26e3 6 beats
# UVM_INFO ../src/mst/axi4_master_monitor.sv(184) @ 36975000: uvm_test_top.env.master_agent.mon [axi4_master_monitor] W data assembled: ID=0x7 ADDR=0x9ded26e3 6 beats
# UVM_INFO ../src/mst/axi4_master_driver.sv(197) @ 37005000: uvm_test_top.env.master_agent.drv [axi4_master_driver] Write response: AXI4_RESP_OKAY
# UVM_INFO ../src/slv/axi4_slave_driver.sv(261) @ 37005000: uvm_test_top.env.slave_agent.drv [axi4_slave_driver] Write complete: ID=0x7 ADDR=0x9ded26e3 RESP=AXI4_RESP_OKAY  6 beats processed
# UVM_INFO ../src/mst/axi4_master_monitor.sv(210) @ 37005000: uvm_test_top.env.master_agent.mon [axi4_master_monitor] Write complete: ID=0x7 ADDR=0x9ded26e3 RESP=AXI4_RESP_OKAY
# UVM_INFO ../src/env/axi4_scoreboard.sv(82) @ 37005000: uvm_test_top.env.scb [axi4_scoreboard] Master AXI4_WRITE received: ID=0x7 ADDR=0x9ded26e3 LEN=5
# UVM_INFO ../src/slv/axi4_slave_monitor.sv(189) @ 37005000: uvm_test_top.env.slave_agent.mon [axi4_slave_monitor] Write response sent: ID=0x7 ADDR=0x9ded26e3 RESP=AXI4_RESP_OKAY
# UVM_INFO ../src/env/axi4_scoreboard.sv(103) @ 37005000: uvm_test_top.env.scb [axi4_scoreboard] Slave AXI4_WRITE received: ID=0x7 ADDR=0x9ded26e3 LEN=5
# UVM_INFO ../src/env/axi4_scoreboard.sv(154) @ 37005000: uvm_test_top.env.scb [axi4_scoreboard] [WRITE] MATCH #23: ID=0x7 ADDR=0x9ded26e3 LEN=5
# UVM_INFO ../src/seq/axi4_unaligned_seq.sv(51) @ 37005000: uvm_test_top.env.master_agent.sqr@@unalign_seq [axi4_unaligned_seq] [23/40] Unaligned AXI4_WRITE: ADDR=0x9ded26e3 SIZE=AXI4_SIZE_2B BURST=AXI4_BURST_FIXED (AlignmentOffset=1)
# UVM_INFO ../src/mst/axi4_master_driver.sv(55) @ 37005000: uvm_test_top.env.master_agent.drv [axi4_master_driver] Driving AXI4_READ  ID=0xb  ADDR=0x0788aec2  LEN=184
# UVM_INFO ../src/slv/axi4_slave_driver.sv(300) @ 37035000: uvm_test_top.env.slave_agent.drv [axi4_slave_driver] AR received: ID=0xb ADDR=0x0788aec2 LEN=184 LOCK=AXI4_LOCK_NORMAL
# UVM_INFO ../src/slv/axi4_slave_monitor.sv(224) @ 37035000: uvm_test_top.env.slave_agent.mon [axi4_slave_monitor] AR received: ID=0xb ADDR=0x0788aec2 LEN=184
# UVM_INFO ../src/mst/axi4_master_monitor.sv(246) @ 37035000: uvm_test_top.env.master_agent.mon [axi4_master_monitor] AR observed: ID=0xb ADDR=0x0788aec2 LEN=184
# UVM_INFO ../src/mst/axi4_master_driver.sv(254) @ 40735000: uvm_test_top.env.master_agent.drv [axi4_master_driver] Read complete: 185 beats received
# UVM_INFO ../src/slv/axi4_slave_driver.sv(349) @ 40735000: uvm_test_top.env.slave_agent.drv [axi4_slave_driver] Read complete: ID=0xb ADDR=0x0788aec2 RESP=AXI4_RESP_OKAY  185 beats sent
# UVM_INFO ../src/slv/axi4_slave_monitor.sv(287) @ 40735000: uvm_test_top.env.slave_agent.mon [axi4_slave_monitor] Read data sent: ID=0xb ADDR=0x0788aec2 185 beats
# UVM_INFO ../src/env/axi4_scoreboard.sv(103) @ 40735000: uvm_test_top.env.scb [axi4_scoreboard] Slave AXI4_READ received: ID=0xb ADDR=0x0788aec2 LEN=184
# UVM_INFO ../src/mst/axi4_master_monitor.sv(314) @ 40735000: uvm_test_top.env.master_agent.mon [axi4_master_monitor] Read complete: ID=0xb ADDR=0x0788aec2 185 beats
# UVM_INFO ../src/env/axi4_scoreboard.sv(82) @ 40735000: uvm_test_top.env.scb [axi4_scoreboard] Master AXI4_READ received: ID=0xb ADDR=0x0788aec2 LEN=184
# UVM_INFO ../src/env/axi4_scoreboard.sv(154) @ 40735000: uvm_test_top.env.scb [axi4_scoreboard] [READ] MATCH #24: ID=0xb ADDR=0x0788aec2 LEN=184
# UVM_INFO ../src/seq/axi4_unaligned_seq.sv(51) @ 40735000: uvm_test_top.env.master_agent.sqr@@unalign_seq [axi4_unaligned_seq] [24/40] Unaligned AXI4_READ: ADDR=0x0788aec2 SIZE=AXI4_SIZE_4B BURST=AXI4_BURST_INCR (AlignmentOffset=2)
# UVM_INFO ../src/mst/axi4_master_driver.sv(55) @ 40735000: uvm_test_top.env.master_agent.drv [axi4_master_driver] Driving AXI4_WRITE  ID=0x1  ADDR=0xd7336f4f  LEN=11
# UVM_INFO ../src/mst/axi4_master_driver.sv(106) @ 40735000: uvm_test_top.env.master_agent.drv [axi4_master_driver] Write order: W -> AW (W first)
# UVM_INFO ../src/slv/axi4_slave_driver.sv(165) @ 40795000: uvm_test_top.env.slave_agent.drv [axi4_slave_driver] AW received: ID=0x1 ADDR=0xd7336f4f LEN=11 LOCK=AXI4_LOCK_NORMAL
# UVM_INFO ../src/slv/axi4_slave_monitor.sv(116) @ 40795000: uvm_test_top.env.slave_agent.mon [axi4_slave_monitor] AW received: ID=0x1 ADDR=0xd7336f4f LEN=11
# UVM_INFO ../src/mst/axi4_master_monitor.sv(124) @ 40795000: uvm_test_top.env.master_agent.mon [axi4_master_monitor] AW observed: ID=0x1 ADDR=0xd7336f4f LEN=11
# UVM_INFO ../src/slv/axi4_slave_monitor.sv(167) @ 40975000: uvm_test_top.env.slave_agent.mon [axi4_slave_monitor] W data assembled: ID=0x1 ADDR=0xd7336f4f 12 beats
# UVM_INFO ../src/mst/axi4_master_monitor.sv(184) @ 40975000: uvm_test_top.env.master_agent.mon [axi4_master_monitor] W data assembled: ID=0x1 ADDR=0xd7336f4f 12 beats
# UVM_INFO ../src/mst/axi4_master_driver.sv(197) @ 41005000: uvm_test_top.env.master_agent.drv [axi4_master_driver] Write response: AXI4_RESP_OKAY
# UVM_INFO ../src/slv/axi4_slave_driver.sv(261) @ 41005000: uvm_test_top.env.slave_agent.drv [axi4_slave_driver] Write complete: ID=0x1 ADDR=0xd7336f4f RESP=AXI4_RESP_OKAY  12 beats processed
# UVM_INFO ../src/mst/axi4_master_monitor.sv(210) @ 41005000: uvm_test_top.env.master_agent.mon [axi4_master_monitor] Write complete: ID=0x1 ADDR=0xd7336f4f RESP=AXI4_RESP_OKAY
# UVM_INFO ../src/env/axi4_scoreboard.sv(82) @ 41005000: uvm_test_top.env.scb [axi4_scoreboard] Master AXI4_WRITE received: ID=0x1 ADDR=0xd7336f4f LEN=11
# UVM_INFO ../src/slv/axi4_slave_monitor.sv(189) @ 41005000: uvm_test_top.env.slave_agent.mon [axi4_slave_monitor] Write response sent: ID=0x1 ADDR=0xd7336f4f RESP=AXI4_RESP_OKAY
# UVM_INFO ../src/env/axi4_scoreboard.sv(103) @ 41005000: uvm_test_top.env.scb [axi4_scoreboard] Slave AXI4_WRITE received: ID=0x1 ADDR=0xd7336f4f LEN=11
# UVM_INFO ../src/env/axi4_scoreboard.sv(154) @ 41005000: uvm_test_top.env.scb [axi4_scoreboard] [WRITE] MATCH #25: ID=0x1 ADDR=0xd7336f4f LEN=11
# UVM_INFO ../src/seq/axi4_unaligned_seq.sv(51) @ 41005000: uvm_test_top.env.master_agent.sqr@@unalign_seq [axi4_unaligned_seq] [25/40] Unaligned AXI4_WRITE: ADDR=0xd7336f4f SIZE=AXI4_SIZE_4B BURST=AXI4_BURST_FIXED (AlignmentOffset=3)
# UVM_INFO ../src/mst/axi4_master_driver.sv(55) @ 41005000: uvm_test_top.env.master_agent.drv [axi4_master_driver] Driving AXI4_WRITE  ID=0x4  ADDR=0x46f19c5f  LEN=6
# UVM_INFO ../src/mst/axi4_master_driver.sv(106) @ 41005000: uvm_test_top.env.master_agent.drv [axi4_master_driver] Write order: W -> AW (W first)
# UVM_INFO ../src/slv/axi4_slave_driver.sv(165) @ 41065000: uvm_test_top.env.slave_agent.drv [axi4_slave_driver] AW received: ID=0x4 ADDR=0x46f19c5f LEN=6 LOCK=AXI4_LOCK_NORMAL
# UVM_INFO ../src/mst/axi4_master_monitor.sv(124) @ 41065000: uvm_test_top.env.master_agent.mon [axi4_master_monitor] AW observed: ID=0x4 ADDR=0x46f19c5f LEN=6
# UVM_INFO ../src/slv/axi4_slave_monitor.sv(116) @ 41065000: uvm_test_top.env.slave_agent.mon [axi4_slave_monitor] AW received: ID=0x4 ADDR=0x46f19c5f LEN=6
# UVM_INFO ../src/mst/axi4_master_monitor.sv(184) @ 41145000: uvm_test_top.env.master_agent.mon [axi4_master_monitor] W data assembled: ID=0x4 ADDR=0x46f19c5f 7 beats
# UVM_INFO ../src/slv/axi4_slave_monitor.sv(167) @ 41145000: uvm_test_top.env.slave_agent.mon [axi4_slave_monitor] W data assembled: ID=0x4 ADDR=0x46f19c5f 7 beats
# UVM_INFO ../src/mst/axi4_master_driver.sv(197) @ 41175000: uvm_test_top.env.master_agent.drv [axi4_master_driver] Write response: AXI4_RESP_OKAY
# UVM_INFO ../src/slv/axi4_slave_driver.sv(261) @ 41175000: uvm_test_top.env.slave_agent.drv [axi4_slave_driver] Write complete: ID=0x4 ADDR=0x46f19c5f RESP=AXI4_RESP_OKAY  7 beats processed
# UVM_INFO ../src/slv/axi4_slave_monitor.sv(189) @ 41175000: uvm_test_top.env.slave_agent.mon [axi4_slave_monitor] Write response sent: ID=0x4 ADDR=0x46f19c5f RESP=AXI4_RESP_OKAY
# UVM_INFO ../src/env/axi4_scoreboard.sv(103) @ 41175000: uvm_test_top.env.scb [axi4_scoreboard] Slave AXI4_WRITE received: ID=0x4 ADDR=0x46f19c5f LEN=6
# UVM_INFO ../src/mst/axi4_master_monitor.sv(210) @ 41175000: uvm_test_top.env.master_agent.mon [axi4_master_monitor] Write complete: ID=0x4 ADDR=0x46f19c5f RESP=AXI4_RESP_OKAY
# UVM_INFO ../src/env/axi4_scoreboard.sv(82) @ 41175000: uvm_test_top.env.scb [axi4_scoreboard] Master AXI4_WRITE received: ID=0x4 ADDR=0x46f19c5f LEN=6
# UVM_INFO ../src/env/axi4_scoreboard.sv(154) @ 41175000: uvm_test_top.env.scb [axi4_scoreboard] [WRITE] MATCH #26: ID=0x4 ADDR=0x46f19c5f LEN=6
# UVM_INFO ../src/seq/axi4_unaligned_seq.sv(51) @ 41175000: uvm_test_top.env.master_agent.sqr@@unalign_seq [axi4_unaligned_seq] [26/40] Unaligned AXI4_WRITE: ADDR=0x46f19c5f SIZE=AXI4_SIZE_2B BURST=AXI4_BURST_INCR (AlignmentOffset=1)
# UVM_INFO ../src/mst/axi4_master_driver.sv(55) @ 41175000: uvm_test_top.env.master_agent.drv [axi4_master_driver] Driving AXI4_READ  ID=0x8  ADDR=0x34c8b0e9  LEN=215
# UVM_INFO ../src/slv/axi4_slave_driver.sv(300) @ 41205000: uvm_test_top.env.slave_agent.drv [axi4_slave_driver] AR received: ID=0x8 ADDR=0x34c8b0e9 LEN=215 LOCK=AXI4_LOCK_EXCLUSIVE
# UVM_INFO ../src/mst/axi4_master_monitor.sv(246) @ 41205000: uvm_test_top.env.master_agent.mon [axi4_master_monitor] AR observed: ID=0x8 ADDR=0x34c8b0e9 LEN=215
# UVM_INFO ../src/slv/axi4_slave_monitor.sv(224) @ 41205000: uvm_test_top.env.slave_agent.mon [axi4_slave_monitor] AR received: ID=0x8 ADDR=0x34c8b0e9 LEN=215
# UVM_INFO ../src/mst/axi4_master_driver.sv(254) @ 45525000: uvm_test_top.env.master_agent.drv [axi4_master_driver] Read complete: 216 beats received
# UVM_INFO ../src/slv/axi4_slave_driver.sv(349) @ 45525000: uvm_test_top.env.slave_agent.drv [axi4_slave_driver] Read complete: ID=0x8 ADDR=0x34c8b0e9 RESP=AXI4_RESP_EXOKAY  216 beats sent
# UVM_INFO ../src/mst/axi4_master_monitor.sv(314) @ 45525000: uvm_test_top.env.master_agent.mon [axi4_master_monitor] Read complete: ID=0x8 ADDR=0x34c8b0e9 216 beats
# UVM_INFO ../src/env/axi4_scoreboard.sv(82) @ 45525000: uvm_test_top.env.scb [axi4_scoreboard] Master AXI4_READ received: ID=0x8 ADDR=0x34c8b0e9 LEN=215
# UVM_INFO ../src/slv/axi4_slave_monitor.sv(287) @ 45525000: uvm_test_top.env.slave_agent.mon [axi4_slave_monitor] Read data sent: ID=0x8 ADDR=0x34c8b0e9 216 beats
# UVM_INFO ../src/env/axi4_scoreboard.sv(103) @ 45525000: uvm_test_top.env.scb [axi4_scoreboard] Slave AXI4_READ received: ID=0x8 ADDR=0x34c8b0e9 LEN=215
# UVM_INFO ../src/env/axi4_scoreboard.sv(154) @ 45525000: uvm_test_top.env.scb [axi4_scoreboard] [READ] MATCH #27: ID=0x8 ADDR=0x34c8b0e9 LEN=215
# UVM_INFO ../src/seq/axi4_unaligned_seq.sv(51) @ 45525000: uvm_test_top.env.master_agent.sqr@@unalign_seq [axi4_unaligned_seq] [27/40] Unaligned AXI4_READ: ADDR=0x34c8b0e9 SIZE=AXI4_SIZE_4B BURST=AXI4_BURST_INCR (AlignmentOffset=1)
# UVM_INFO ../src/mst/axi4_master_driver.sv(55) @ 45525000: uvm_test_top.env.master_agent.drv [axi4_master_driver] Driving AXI4_READ  ID=0x4  ADDR=0xdd69f127  LEN=119
# UVM_INFO ../src/slv/axi4_slave_driver.sv(300) @ 45555000: uvm_test_top.env.slave_agent.drv [axi4_slave_driver] AR received: ID=0x4 ADDR=0xdd69f127 LEN=119 LOCK=AXI4_LOCK_NORMAL
# UVM_INFO ../src/slv/axi4_slave_monitor.sv(224) @ 45555000: uvm_test_top.env.slave_agent.mon [axi4_slave_monitor] AR received: ID=0x4 ADDR=0xdd69f127 LEN=119
# UVM_INFO ../src/mst/axi4_master_monitor.sv(246) @ 45555000: uvm_test_top.env.master_agent.mon [axi4_master_monitor] AR observed: ID=0x4 ADDR=0xdd69f127 LEN=119
# UVM_INFO ../src/mst/axi4_master_driver.sv(254) @ 47955000: uvm_test_top.env.master_agent.drv [axi4_master_driver] Read complete: 120 beats received
# UVM_INFO ../src/slv/axi4_slave_driver.sv(349) @ 47955000: uvm_test_top.env.slave_agent.drv [axi4_slave_driver] Read complete: ID=0x4 ADDR=0xdd69f127 RESP=AXI4_RESP_OKAY  120 beats sent
# UVM_INFO ../src/slv/axi4_slave_monitor.sv(287) @ 47955000: uvm_test_top.env.slave_agent.mon [axi4_slave_monitor] Read data sent: ID=0x4 ADDR=0xdd69f127 120 beats
# UVM_INFO ../src/env/axi4_scoreboard.sv(103) @ 47955000: uvm_test_top.env.scb [axi4_scoreboard] Slave AXI4_READ received: ID=0x4 ADDR=0xdd69f127 LEN=119
# UVM_INFO ../src/mst/axi4_master_monitor.sv(314) @ 47955000: uvm_test_top.env.master_agent.mon [axi4_master_monitor] Read complete: ID=0x4 ADDR=0xdd69f127 120 beats
# UVM_INFO ../src/env/axi4_scoreboard.sv(82) @ 47955000: uvm_test_top.env.scb [axi4_scoreboard] Master AXI4_READ received: ID=0x4 ADDR=0xdd69f127 LEN=119
# UVM_INFO ../src/env/axi4_scoreboard.sv(154) @ 47955000: uvm_test_top.env.scb [axi4_scoreboard] [READ] MATCH #28: ID=0x4 ADDR=0xdd69f127 LEN=119
# UVM_INFO ../src/seq/axi4_unaligned_seq.sv(51) @ 47955000: uvm_test_top.env.master_agent.sqr@@unalign_seq [axi4_unaligned_seq] [28/40] Unaligned AXI4_READ: ADDR=0xdd69f127 SIZE=AXI4_SIZE_2B BURST=AXI4_BURST_INCR (AlignmentOffset=1)
# UVM_INFO ../src/mst/axi4_master_driver.sv(55) @ 47955000: uvm_test_top.env.master_agent.drv [axi4_master_driver] Driving AXI4_WRITE  ID=0x4  ADDR=0x7c73b6ba  LEN=12
# UVM_INFO ../src/mst/axi4_master_driver.sv(101) @ 47955000: uvm_test_top.env.master_agent.drv [axi4_master_driver] Write order: AW -> W (sequential)
# UVM_INFO ../src/slv/axi4_slave_driver.sv(165) @ 47985000: uvm_test_top.env.slave_agent.drv [axi4_slave_driver] AW received: ID=0x4 ADDR=0x7c73b6ba LEN=12 LOCK=AXI4_LOCK_NORMAL
# UVM_INFO ../src/mst/axi4_master_monitor.sv(124) @ 47985000: uvm_test_top.env.master_agent.mon [axi4_master_monitor] AW observed: ID=0x4 ADDR=0x7c73b6ba LEN=12
# UVM_INFO ../src/slv/axi4_slave_monitor.sv(116) @ 47985000: uvm_test_top.env.slave_agent.mon [axi4_slave_monitor] AW received: ID=0x4 ADDR=0x7c73b6ba LEN=12
# UVM_INFO ../src/mst/axi4_master_monitor.sv(184) @ 48245000: uvm_test_top.env.master_agent.mon [axi4_master_monitor] W data assembled: ID=0x4 ADDR=0x7c73b6ba 13 beats
# UVM_INFO ../src/slv/axi4_slave_monitor.sv(167) @ 48245000: uvm_test_top.env.slave_agent.mon [axi4_slave_monitor] W data assembled: ID=0x4 ADDR=0x7c73b6ba 13 beats
# UVM_INFO ../src/mst/axi4_master_driver.sv(197) @ 48275000: uvm_test_top.env.master_agent.drv [axi4_master_driver] Write response: AXI4_RESP_OKAY
# UVM_INFO ../src/slv/axi4_slave_driver.sv(261) @ 48275000: uvm_test_top.env.slave_agent.drv [axi4_slave_driver] Write complete: ID=0x4 ADDR=0x7c73b6ba RESP=AXI4_RESP_OKAY  13 beats processed
# UVM_INFO ../src/slv/axi4_slave_monitor.sv(189) @ 48275000: uvm_test_top.env.slave_agent.mon [axi4_slave_monitor] Write response sent: ID=0x4 ADDR=0x7c73b6ba RESP=AXI4_RESP_OKAY
# UVM_INFO ../src/env/axi4_scoreboard.sv(103) @ 48275000: uvm_test_top.env.scb [axi4_scoreboard] Slave AXI4_WRITE received: ID=0x4 ADDR=0x7c73b6ba LEN=12
# UVM_INFO ../src/mst/axi4_master_monitor.sv(210) @ 48275000: uvm_test_top.env.master_agent.mon [axi4_master_monitor] Write complete: ID=0x4 ADDR=0x7c73b6ba RESP=AXI4_RESP_OKAY
# UVM_INFO ../src/env/axi4_scoreboard.sv(82) @ 48275000: uvm_test_top.env.scb [axi4_scoreboard] Master AXI4_WRITE received: ID=0x4 ADDR=0x7c73b6ba LEN=12
# UVM_INFO ../src/env/axi4_scoreboard.sv(154) @ 48275000: uvm_test_top.env.scb [axi4_scoreboard] [WRITE] MATCH #29: ID=0x4 ADDR=0x7c73b6ba LEN=12
# UVM_INFO ../src/seq/axi4_unaligned_seq.sv(51) @ 48275000: uvm_test_top.env.master_agent.sqr@@unalign_seq [axi4_unaligned_seq] [29/40] Unaligned AXI4_WRITE: ADDR=0x7c73b6ba SIZE=AXI4_SIZE_4B BURST=AXI4_BURST_FIXED (AlignmentOffset=2)
# UVM_INFO ../src/mst/axi4_master_driver.sv(55) @ 48275000: uvm_test_top.env.master_agent.drv [axi4_master_driver] Driving AXI4_WRITE  ID=0x3  ADDR=0x0ad87b19  LEN=226
# UVM_INFO ../src/mst/axi4_master_driver.sv(101) @ 48275000: uvm_test_top.env.master_agent.drv [axi4_master_driver] Write order: AW -> W (sequential)
# UVM_INFO ../src/slv/axi4_slave_driver.sv(165) @ 48305000: uvm_test_top.env.slave_agent.drv [axi4_slave_driver] AW received: ID=0x3 ADDR=0x0ad87b19 LEN=226 LOCK=AXI4_LOCK_EXCLUSIVE
# UVM_INFO ../src/mst/axi4_master_monitor.sv(124) @ 48305000: uvm_test_top.env.master_agent.mon [axi4_master_monitor] AW observed: ID=0x3 ADDR=0x0ad87b19 LEN=226
# UVM_INFO ../src/slv/axi4_slave_monitor.sv(116) @ 48305000: uvm_test_top.env.slave_agent.mon [axi4_slave_monitor] AW received: ID=0x3 ADDR=0x0ad87b19 LEN=226
# UVM_INFO ../src/mst/axi4_master_monitor.sv(184) @ 52845000: uvm_test_top.env.master_agent.mon [axi4_master_monitor] W data assembled: ID=0x3 ADDR=0x0ad87b19 227 beats
# UVM_INFO ../src/slv/axi4_slave_monitor.sv(167) @ 52845000: uvm_test_top.env.slave_agent.mon [axi4_slave_monitor] W data assembled: ID=0x3 ADDR=0x0ad87b19 227 beats
# UVM_INFO ../src/mst/axi4_master_driver.sv(197) @ 52875000: uvm_test_top.env.master_agent.drv [axi4_master_driver] Write response: AXI4_RESP_OKAY
# UVM_INFO ../src/slv/axi4_slave_driver.sv(261) @ 52875000: uvm_test_top.env.slave_agent.drv [axi4_slave_driver] Write complete: ID=0x3 ADDR=0x0ad87b19 RESP=AXI4_RESP_OKAY  227 beats processed
# UVM_INFO ../src/slv/axi4_slave_monitor.sv(189) @ 52875000: uvm_test_top.env.slave_agent.mon [axi4_slave_monitor] Write response sent: ID=0x3 ADDR=0x0ad87b19 RESP=AXI4_RESP_OKAY
# UVM_INFO ../src/env/axi4_scoreboard.sv(103) @ 52875000: uvm_test_top.env.scb [axi4_scoreboard] Slave AXI4_WRITE received: ID=0x3 ADDR=0x0ad87b19 LEN=226
# UVM_INFO ../src/mst/axi4_master_monitor.sv(210) @ 52875000: uvm_test_top.env.master_agent.mon [axi4_master_monitor] Write complete: ID=0x3 ADDR=0x0ad87b19 RESP=AXI4_RESP_OKAY
# UVM_INFO ../src/env/axi4_scoreboard.sv(82) @ 52875000: uvm_test_top.env.scb [axi4_scoreboard] Master AXI4_WRITE received: ID=0x3 ADDR=0x0ad87b19 LEN=226
# UVM_INFO ../src/env/axi4_scoreboard.sv(154) @ 52875000: uvm_test_top.env.scb [axi4_scoreboard] [WRITE] MATCH #30: ID=0x3 ADDR=0x0ad87b19 LEN=226
# UVM_INFO ../src/seq/axi4_unaligned_seq.sv(51) @ 52875000: uvm_test_top.env.master_agent.sqr@@unalign_seq [axi4_unaligned_seq] [30/40] Unaligned AXI4_WRITE: ADDR=0x0ad87b19 SIZE=AXI4_SIZE_4B BURST=AXI4_BURST_INCR (AlignmentOffset=1)
# UVM_INFO ../src/mst/axi4_master_driver.sv(55) @ 52875000: uvm_test_top.env.master_agent.drv [axi4_master_driver] Driving AXI4_READ  ID=0xf  ADDR=0xb6808ecb  LEN=52
# UVM_INFO ../src/slv/axi4_slave_driver.sv(300) @ 52905000: uvm_test_top.env.slave_agent.drv [axi4_slave_driver] AR received: ID=0xf ADDR=0xb6808ecb LEN=52 LOCK=AXI4_LOCK_EXCLUSIVE
# UVM_INFO ../src/mst/axi4_master_monitor.sv(246) @ 52905000: uvm_test_top.env.master_agent.mon [axi4_master_monitor] AR observed: ID=0xf ADDR=0xb6808ecb LEN=52
# UVM_INFO ../src/slv/axi4_slave_monitor.sv(224) @ 52905000: uvm_test_top.env.slave_agent.mon [axi4_slave_monitor] AR received: ID=0xf ADDR=0xb6808ecb LEN=52
# UVM_INFO ../src/mst/axi4_master_driver.sv(254) @ 53965000: uvm_test_top.env.master_agent.drv [axi4_master_driver] Read complete: 53 beats received
# UVM_INFO ../src/slv/axi4_slave_driver.sv(349) @ 53965000: uvm_test_top.env.slave_agent.drv [axi4_slave_driver] Read complete: ID=0xf ADDR=0xb6808ecb RESP=AXI4_RESP_EXOKAY  53 beats sent
# UVM_INFO ../src/mst/axi4_master_monitor.sv(314) @ 53965000: uvm_test_top.env.master_agent.mon [axi4_master_monitor] Read complete: ID=0xf ADDR=0xb6808ecb 53 beats
# UVM_INFO ../src/env/axi4_scoreboard.sv(82) @ 53965000: uvm_test_top.env.scb [axi4_scoreboard] Master AXI4_READ received: ID=0xf ADDR=0xb6808ecb LEN=52
# UVM_INFO ../src/slv/axi4_slave_monitor.sv(287) @ 53965000: uvm_test_top.env.slave_agent.mon [axi4_slave_monitor] Read data sent: ID=0xf ADDR=0xb6808ecb 53 beats
# UVM_INFO ../src/env/axi4_scoreboard.sv(103) @ 53965000: uvm_test_top.env.scb [axi4_scoreboard] Slave AXI4_READ received: ID=0xf ADDR=0xb6808ecb LEN=52
# UVM_INFO ../src/env/axi4_scoreboard.sv(154) @ 53965000: uvm_test_top.env.scb [axi4_scoreboard] [READ] MATCH #31: ID=0xf ADDR=0xb6808ecb LEN=52
# UVM_INFO ../src/seq/axi4_unaligned_seq.sv(51) @ 53965000: uvm_test_top.env.master_agent.sqr@@unalign_seq [axi4_unaligned_seq] [31/40] Unaligned AXI4_READ: ADDR=0xb6808ecb SIZE=AXI4_SIZE_4B BURST=AXI4_BURST_INCR (AlignmentOffset=3)
# UVM_INFO ../src/mst/axi4_master_driver.sv(55) @ 53965000: uvm_test_top.env.master_agent.drv [axi4_master_driver] Driving AXI4_WRITE  ID=0x7  ADDR=0x05caf1b7  LEN=108
# UVM_INFO ../src/mst/axi4_master_driver.sv(106) @ 53965000: uvm_test_top.env.master_agent.drv [axi4_master_driver] Write order: W -> AW (W first)
# UVM_INFO ../src/slv/axi4_slave_driver.sv(165) @ 54045000: uvm_test_top.env.slave_agent.drv [axi4_slave_driver] AW received: ID=0x7 ADDR=0x05caf1b7 LEN=108 LOCK=AXI4_LOCK_EXCLUSIVE
# UVM_INFO ../src/mst/axi4_master_monitor.sv(124) @ 54045000: uvm_test_top.env.master_agent.mon [axi4_master_monitor] AW observed: ID=0x7 ADDR=0x05caf1b7 LEN=108
# UVM_INFO ../src/slv/axi4_slave_monitor.sv(116) @ 54045000: uvm_test_top.env.slave_agent.mon [axi4_slave_monitor] AW received: ID=0x7 ADDR=0x05caf1b7 LEN=108
# UVM_INFO ../src/mst/axi4_master_monitor.sv(184) @ 56145000: uvm_test_top.env.master_agent.mon [axi4_master_monitor] W data assembled: ID=0x7 ADDR=0x05caf1b7 109 beats
# UVM_INFO ../src/slv/axi4_slave_monitor.sv(167) @ 56145000: uvm_test_top.env.slave_agent.mon [axi4_slave_monitor] W data assembled: ID=0x7 ADDR=0x05caf1b7 109 beats
# UVM_INFO ../src/mst/axi4_master_driver.sv(197) @ 56175000: uvm_test_top.env.master_agent.drv [axi4_master_driver] Write response: AXI4_RESP_OKAY
# UVM_INFO ../src/slv/axi4_slave_driver.sv(261) @ 56175000: uvm_test_top.env.slave_agent.drv [axi4_slave_driver] Write complete: ID=0x7 ADDR=0x05caf1b7 RESP=AXI4_RESP_OKAY  109 beats processed
# UVM_INFO ../src/slv/axi4_slave_monitor.sv(189) @ 56175000: uvm_test_top.env.slave_agent.mon [axi4_slave_monitor] Write response sent: ID=0x7 ADDR=0x05caf1b7 RESP=AXI4_RESP_OKAY
# UVM_INFO ../src/env/axi4_scoreboard.sv(103) @ 56175000: uvm_test_top.env.scb [axi4_scoreboard] Slave AXI4_WRITE received: ID=0x7 ADDR=0x05caf1b7 LEN=108
# UVM_INFO ../src/mst/axi4_master_monitor.sv(210) @ 56175000: uvm_test_top.env.master_agent.mon [axi4_master_monitor] Write complete: ID=0x7 ADDR=0x05caf1b7 RESP=AXI4_RESP_OKAY
# UVM_INFO ../src/env/axi4_scoreboard.sv(82) @ 56175000: uvm_test_top.env.scb [axi4_scoreboard] Master AXI4_WRITE received: ID=0x7 ADDR=0x05caf1b7 LEN=108
# UVM_INFO ../src/env/axi4_scoreboard.sv(154) @ 56175000: uvm_test_top.env.scb [axi4_scoreboard] [WRITE] MATCH #32: ID=0x7 ADDR=0x05caf1b7 LEN=108
# UVM_INFO ../src/seq/axi4_unaligned_seq.sv(51) @ 56175000: uvm_test_top.env.master_agent.sqr@@unalign_seq [axi4_unaligned_seq] [32/40] Unaligned AXI4_WRITE: ADDR=0x05caf1b7 SIZE=AXI4_SIZE_2B BURST=AXI4_BURST_INCR (AlignmentOffset=1)
# UVM_INFO ../src/mst/axi4_master_driver.sv(55) @ 56175000: uvm_test_top.env.master_agent.drv [axi4_master_driver] Driving AXI4_WRITE  ID=0x7  ADDR=0x6b4cc579  LEN=254
# UVM_INFO ../src/mst/axi4_master_driver.sv(94) @ 56175000: uvm_test_top.env.master_agent.drv [axi4_master_driver] Write order: AW || W (parallel)
# UVM_INFO ../src/slv/axi4_slave_driver.sv(165) @ 56205000: uvm_test_top.env.slave_agent.drv [axi4_slave_driver] AW received: ID=0x7 ADDR=0x6b4cc579 LEN=254 LOCK=AXI4_LOCK_EXCLUSIVE
# UVM_INFO ../src/mst/axi4_master_monitor.sv(124) @ 56205000: uvm_test_top.env.master_agent.mon [axi4_master_monitor] AW observed: ID=0x7 ADDR=0x6b4cc579 LEN=254
# UVM_INFO ../src/slv/axi4_slave_monitor.sv(116) @ 56205000: uvm_test_top.env.slave_agent.mon [axi4_slave_monitor] AW received: ID=0x7 ADDR=0x6b4cc579 LEN=254
# UVM_INFO ../src/slv/axi4_slave_monitor.sv(167) @ 61275000: uvm_test_top.env.slave_agent.mon [axi4_slave_monitor] W data assembled: ID=0x7 ADDR=0x6b4cc579 255 beats
# UVM_INFO ../src/mst/axi4_master_monitor.sv(184) @ 61275000: uvm_test_top.env.master_agent.mon [axi4_master_monitor] W data assembled: ID=0x7 ADDR=0x6b4cc579 255 beats
# UVM_INFO ../src/mst/axi4_master_driver.sv(197) @ 61305000: uvm_test_top.env.master_agent.drv [axi4_master_driver] Write response: AXI4_RESP_OKAY
# UVM_INFO ../src/slv/axi4_slave_driver.sv(261) @ 61305000: uvm_test_top.env.slave_agent.drv [axi4_slave_driver] Write complete: ID=0x7 ADDR=0x6b4cc579 RESP=AXI4_RESP_OKAY  255 beats processed
# UVM_INFO ../src/mst/axi4_master_monitor.sv(210) @ 61305000: uvm_test_top.env.master_agent.mon [axi4_master_monitor] Write complete: ID=0x7 ADDR=0x6b4cc579 RESP=AXI4_RESP_OKAY
# UVM_INFO ../src/env/axi4_scoreboard.sv(82) @ 61305000: uvm_test_top.env.scb [axi4_scoreboard] Master AXI4_WRITE received: ID=0x7 ADDR=0x6b4cc579 LEN=254
# UVM_INFO ../src/slv/axi4_slave_monitor.sv(189) @ 61305000: uvm_test_top.env.slave_agent.mon [axi4_slave_monitor] Write response sent: ID=0x7 ADDR=0x6b4cc579 RESP=AXI4_RESP_OKAY
# UVM_INFO ../src/env/axi4_scoreboard.sv(103) @ 61305000: uvm_test_top.env.scb [axi4_scoreboard] Slave AXI4_WRITE received: ID=0x7 ADDR=0x6b4cc579 LEN=254
# UVM_INFO ../src/env/axi4_scoreboard.sv(154) @ 61305000: uvm_test_top.env.scb [axi4_scoreboard] [WRITE] MATCH #33: ID=0x7 ADDR=0x6b4cc579 LEN=254
# UVM_INFO ../src/seq/axi4_unaligned_seq.sv(51) @ 61305000: uvm_test_top.env.master_agent.sqr@@unalign_seq [axi4_unaligned_seq] [33/40] Unaligned AXI4_WRITE: ADDR=0x6b4cc579 SIZE=AXI4_SIZE_2B BURST=AXI4_BURST_INCR (AlignmentOffset=1)
# UVM_INFO ../src/mst/axi4_master_driver.sv(55) @ 61305000: uvm_test_top.env.master_agent.drv [axi4_master_driver] Driving AXI4_WRITE  ID=0x3  ADDR=0x331c9897  LEN=219
# UVM_INFO ../src/mst/axi4_master_driver.sv(94) @ 61305000: uvm_test_top.env.master_agent.drv [axi4_master_driver] Write order: AW || W (parallel)
# UVM_INFO ../src/slv/axi4_slave_driver.sv(165) @ 61335000: uvm_test_top.env.slave_agent.drv [axi4_slave_driver] AW received: ID=0x3 ADDR=0x331c9897 LEN=219 LOCK=AXI4_LOCK_EXCLUSIVE
# UVM_INFO ../src/slv/axi4_slave_monitor.sv(116) @ 61335000: uvm_test_top.env.slave_agent.mon [axi4_slave_monitor] AW received: ID=0x3 ADDR=0x331c9897 LEN=219
# UVM_INFO ../src/mst/axi4_master_monitor.sv(124) @ 61335000: uvm_test_top.env.master_agent.mon [axi4_master_monitor] AW observed: ID=0x3 ADDR=0x331c9897 LEN=219
# UVM_INFO ../src/mst/axi4_master_monitor.sv(184) @ 65705000: uvm_test_top.env.master_agent.mon [axi4_master_monitor] W data assembled: ID=0x3 ADDR=0x331c9897 220 beats
# UVM_INFO ../src/slv/axi4_slave_monitor.sv(167) @ 65705000: uvm_test_top.env.slave_agent.mon [axi4_slave_monitor] W data assembled: ID=0x3 ADDR=0x331c9897 220 beats
# UVM_INFO ../src/mst/axi4_master_driver.sv(197) @ 65735000: uvm_test_top.env.master_agent.drv [axi4_master_driver] Write response: AXI4_RESP_OKAY
# UVM_INFO ../src/slv/axi4_slave_driver.sv(261) @ 65735000: uvm_test_top.env.slave_agent.drv [axi4_slave_driver] Write complete: ID=0x3 ADDR=0x331c9897 RESP=AXI4_RESP_OKAY  220 beats processed
# UVM_INFO ../src/slv/axi4_slave_monitor.sv(189) @ 65735000: uvm_test_top.env.slave_agent.mon [axi4_slave_monitor] Write response sent: ID=0x3 ADDR=0x331c9897 RESP=AXI4_RESP_OKAY
# UVM_INFO ../src/env/axi4_scoreboard.sv(103) @ 65735000: uvm_test_top.env.scb [axi4_scoreboard] Slave AXI4_WRITE received: ID=0x3 ADDR=0x331c9897 LEN=219
# UVM_INFO ../src/mst/axi4_master_monitor.sv(210) @ 65735000: uvm_test_top.env.master_agent.mon [axi4_master_monitor] Write complete: ID=0x3 ADDR=0x331c9897 RESP=AXI4_RESP_OKAY
# UVM_INFO ../src/env/axi4_scoreboard.sv(82) @ 65735000: uvm_test_top.env.scb [axi4_scoreboard] Master AXI4_WRITE received: ID=0x3 ADDR=0x331c9897 LEN=219
# UVM_INFO ../src/env/axi4_scoreboard.sv(154) @ 65735000: uvm_test_top.env.scb [axi4_scoreboard] [WRITE] MATCH #34: ID=0x3 ADDR=0x331c9897 LEN=219
# UVM_INFO ../src/seq/axi4_unaligned_seq.sv(51) @ 65735000: uvm_test_top.env.master_agent.sqr@@unalign_seq [axi4_unaligned_seq] [34/40] Unaligned AXI4_WRITE: ADDR=0x331c9897 SIZE=AXI4_SIZE_4B BURST=AXI4_BURST_INCR (AlignmentOffset=3)
# UVM_INFO ../src/mst/axi4_master_driver.sv(55) @ 65735000: uvm_test_top.env.master_agent.drv [axi4_master_driver] Driving AXI4_WRITE  ID=0x9  ADDR=0x5738f2d1  LEN=246
# UVM_INFO ../src/mst/axi4_master_driver.sv(101) @ 65735000: uvm_test_top.env.master_agent.drv [axi4_master_driver] Write order: AW -> W (sequential)
# UVM_INFO ../src/slv/axi4_slave_driver.sv(165) @ 65765000: uvm_test_top.env.slave_agent.drv [axi4_slave_driver] AW received: ID=0x9 ADDR=0x5738f2d1 LEN=246 LOCK=AXI4_LOCK_NORMAL
# UVM_INFO ../src/mst/axi4_master_monitor.sv(124) @ 65765000: uvm_test_top.env.master_agent.mon [axi4_master_monitor] AW observed: ID=0x9 ADDR=0x5738f2d1 LEN=246
# UVM_INFO ../src/slv/axi4_slave_monitor.sv(116) @ 65765000: uvm_test_top.env.slave_agent.mon [axi4_slave_monitor] AW received: ID=0x9 ADDR=0x5738f2d1 LEN=246
# UVM_INFO ../src/mst/axi4_master_monitor.sv(184) @ 70705000: uvm_test_top.env.master_agent.mon [axi4_master_monitor] W data assembled: ID=0x9 ADDR=0x5738f2d1 247 beats
# UVM_INFO ../src/slv/axi4_slave_monitor.sv(167) @ 70705000: uvm_test_top.env.slave_agent.mon [axi4_slave_monitor] W data assembled: ID=0x9 ADDR=0x5738f2d1 247 beats
# UVM_INFO ../src/mst/axi4_master_driver.sv(197) @ 70735000: uvm_test_top.env.master_agent.drv [axi4_master_driver] Write response: AXI4_RESP_OKAY
# UVM_INFO ../src/slv/axi4_slave_driver.sv(261) @ 70735000: uvm_test_top.env.slave_agent.drv [axi4_slave_driver] Write complete: ID=0x9 ADDR=0x5738f2d1 RESP=AXI4_RESP_OKAY  247 beats processed
# UVM_INFO ../src/slv/axi4_slave_monitor.sv(189) @ 70735000: uvm_test_top.env.slave_agent.mon [axi4_slave_monitor] Write response sent: ID=0x9 ADDR=0x5738f2d1 RESP=AXI4_RESP_OKAY
# UVM_INFO ../src/env/axi4_scoreboard.sv(103) @ 70735000: uvm_test_top.env.scb [axi4_scoreboard] Slave AXI4_WRITE received: ID=0x9 ADDR=0x5738f2d1 LEN=246
# UVM_INFO ../src/mst/axi4_master_monitor.sv(210) @ 70735000: uvm_test_top.env.master_agent.mon [axi4_master_monitor] Write complete: ID=0x9 ADDR=0x5738f2d1 RESP=AXI4_RESP_OKAY
# UVM_INFO ../src/env/axi4_scoreboard.sv(82) @ 70735000: uvm_test_top.env.scb [axi4_scoreboard] Master AXI4_WRITE received: ID=0x9 ADDR=0x5738f2d1 LEN=246
# UVM_INFO ../src/env/axi4_scoreboard.sv(154) @ 70735000: uvm_test_top.env.scb [axi4_scoreboard] [WRITE] MATCH #35: ID=0x9 ADDR=0x5738f2d1 LEN=246
# UVM_INFO ../src/seq/axi4_unaligned_seq.sv(51) @ 70735000: uvm_test_top.env.master_agent.sqr@@unalign_seq [axi4_unaligned_seq] [35/40] Unaligned AXI4_WRITE: ADDR=0x5738f2d1 SIZE=AXI4_SIZE_4B BURST=AXI4_BURST_INCR (AlignmentOffset=1)
# UVM_INFO ../src/mst/axi4_master_driver.sv(55) @ 70735000: uvm_test_top.env.master_agent.drv [axi4_master_driver] Driving AXI4_WRITE  ID=0x8  ADDR=0x0aade726  LEN=67
# UVM_INFO ../src/mst/axi4_master_driver.sv(106) @ 70735000: uvm_test_top.env.master_agent.drv [axi4_master_driver] Write order: W -> AW (W first)
# UVM_INFO ../src/slv/axi4_slave_driver.sv(165) @ 70815000: uvm_test_top.env.slave_agent.drv [axi4_slave_driver] AW received: ID=0x8 ADDR=0x0aade726 LEN=67 LOCK=AXI4_LOCK_EXCLUSIVE
# UVM_INFO ../src/slv/axi4_slave_monitor.sv(116) @ 70815000: uvm_test_top.env.slave_agent.mon [axi4_slave_monitor] AW received: ID=0x8 ADDR=0x0aade726 LEN=67
# UVM_INFO ../src/mst/axi4_master_monitor.sv(124) @ 70815000: uvm_test_top.env.master_agent.mon [axi4_master_monitor] AW observed: ID=0x8 ADDR=0x0aade726 LEN=67
# UVM_INFO ../src/slv/axi4_slave_monitor.sv(167) @ 72095000: uvm_test_top.env.slave_agent.mon [axi4_slave_monitor] W data assembled: ID=0x8 ADDR=0x0aade726 68 beats
# UVM_INFO ../src/mst/axi4_master_monitor.sv(184) @ 72095000: uvm_test_top.env.master_agent.mon [axi4_master_monitor] W data assembled: ID=0x8 ADDR=0x0aade726 68 beats
# UVM_INFO ../src/mst/axi4_master_driver.sv(197) @ 72125000: uvm_test_top.env.master_agent.drv [axi4_master_driver] Write response: AXI4_RESP_OKAY
# UVM_INFO ../src/slv/axi4_slave_driver.sv(261) @ 72125000: uvm_test_top.env.slave_agent.drv [axi4_slave_driver] Write complete: ID=0x8 ADDR=0x0aade726 RESP=AXI4_RESP_OKAY  68 beats processed
# UVM_INFO ../src/mst/axi4_master_monitor.sv(210) @ 72125000: uvm_test_top.env.master_agent.mon [axi4_master_monitor] Write complete: ID=0x8 ADDR=0x0aade726 RESP=AXI4_RESP_OKAY
# UVM_INFO ../src/env/axi4_scoreboard.sv(82) @ 72125000: uvm_test_top.env.scb [axi4_scoreboard] Master AXI4_WRITE received: ID=0x8 ADDR=0x0aade726 LEN=67
# UVM_INFO ../src/slv/axi4_slave_monitor.sv(189) @ 72125000: uvm_test_top.env.slave_agent.mon [axi4_slave_monitor] Write response sent: ID=0x8 ADDR=0x0aade726 RESP=AXI4_RESP_OKAY
# UVM_INFO ../src/env/axi4_scoreboard.sv(103) @ 72125000: uvm_test_top.env.scb [axi4_scoreboard] Slave AXI4_WRITE received: ID=0x8 ADDR=0x0aade726 LEN=67
# UVM_INFO ../src/env/axi4_scoreboard.sv(154) @ 72125000: uvm_test_top.env.scb [axi4_scoreboard] [WRITE] MATCH #36: ID=0x8 ADDR=0x0aade726 LEN=67
# UVM_INFO ../src/seq/axi4_unaligned_seq.sv(51) @ 72125000: uvm_test_top.env.master_agent.sqr@@unalign_seq [axi4_unaligned_seq] [36/40] Unaligned AXI4_WRITE: ADDR=0x0aade726 SIZE=AXI4_SIZE_4B BURST=AXI4_BURST_INCR (AlignmentOffset=2)
# UVM_INFO ../src/mst/axi4_master_driver.sv(55) @ 72125000: uvm_test_top.env.master_agent.drv [axi4_master_driver] Driving AXI4_WRITE  ID=0xe  ADDR=0x4329441d  LEN=159
# UVM_INFO ../src/mst/axi4_master_driver.sv(94) @ 72125000: uvm_test_top.env.master_agent.drv [axi4_master_driver] Write order: AW || W (parallel)
# UVM_INFO ../src/slv/axi4_slave_driver.sv(165) @ 72155000: uvm_test_top.env.slave_agent.drv [axi4_slave_driver] AW received: ID=0xe ADDR=0x4329441d LEN=159 LOCK=AXI4_LOCK_EXCLUSIVE
# UVM_INFO ../src/slv/axi4_slave_monitor.sv(116) @ 72155000: uvm_test_top.env.slave_agent.mon [axi4_slave_monitor] AW received: ID=0xe ADDR=0x4329441d LEN=159
# UVM_INFO ../src/mst/axi4_master_monitor.sv(124) @ 72155000: uvm_test_top.env.master_agent.mon [axi4_master_monitor] AW observed: ID=0xe ADDR=0x4329441d LEN=159
# UVM_INFO ../src/mst/axi4_master_monitor.sv(184) @ 75325000: uvm_test_top.env.master_agent.mon [axi4_master_monitor] W data assembled: ID=0xe ADDR=0x4329441d 160 beats
# UVM_INFO ../src/slv/axi4_slave_monitor.sv(167) @ 75325000: uvm_test_top.env.slave_agent.mon [axi4_slave_monitor] W data assembled: ID=0xe ADDR=0x4329441d 160 beats
# UVM_INFO ../src/mst/axi4_master_driver.sv(197) @ 75355000: uvm_test_top.env.master_agent.drv [axi4_master_driver] Write response: AXI4_RESP_OKAY
# UVM_INFO ../src/slv/axi4_slave_driver.sv(261) @ 75355000: uvm_test_top.env.slave_agent.drv [axi4_slave_driver] Write complete: ID=0xe ADDR=0x4329441d RESP=AXI4_RESP_OKAY  160 beats processed
# UVM_INFO ../src/slv/axi4_slave_monitor.sv(189) @ 75355000: uvm_test_top.env.slave_agent.mon [axi4_slave_monitor] Write response sent: ID=0xe ADDR=0x4329441d RESP=AXI4_RESP_OKAY
# UVM_INFO ../src/env/axi4_scoreboard.sv(103) @ 75355000: uvm_test_top.env.scb [axi4_scoreboard] Slave AXI4_WRITE received: ID=0xe ADDR=0x4329441d LEN=159
# UVM_INFO ../src/mst/axi4_master_monitor.sv(210) @ 75355000: uvm_test_top.env.master_agent.mon [axi4_master_monitor] Write complete: ID=0xe ADDR=0x4329441d RESP=AXI4_RESP_OKAY
# UVM_INFO ../src/env/axi4_scoreboard.sv(82) @ 75355000: uvm_test_top.env.scb [axi4_scoreboard] Master AXI4_WRITE received: ID=0xe ADDR=0x4329441d LEN=159
# UVM_INFO ../src/env/axi4_scoreboard.sv(154) @ 75355000: uvm_test_top.env.scb [axi4_scoreboard] [WRITE] MATCH #37: ID=0xe ADDR=0x4329441d LEN=159
# UVM_INFO ../src/seq/axi4_unaligned_seq.sv(51) @ 75355000: uvm_test_top.env.master_agent.sqr@@unalign_seq [axi4_unaligned_seq] [37/40] Unaligned AXI4_WRITE: ADDR=0x4329441d SIZE=AXI4_SIZE_2B BURST=AXI4_BURST_INCR (AlignmentOffset=1)
# UVM_INFO ../src/mst/axi4_master_driver.sv(55) @ 75355000: uvm_test_top.env.master_agent.drv [axi4_master_driver] Driving AXI4_WRITE  ID=0x3  ADDR=0x3032651b  LEN=200
# UVM_INFO ../src/mst/axi4_master_driver.sv(94) @ 75355000: uvm_test_top.env.master_agent.drv [axi4_master_driver] Write order: AW || W (parallel)
# UVM_INFO ../src/slv/axi4_slave_driver.sv(165) @ 75385000: uvm_test_top.env.slave_agent.drv [axi4_slave_driver] AW received: ID=0x3 ADDR=0x3032651b LEN=200 LOCK=AXI4_LOCK_NORMAL
# UVM_INFO ../src/mst/axi4_master_monitor.sv(124) @ 75385000: uvm_test_top.env.master_agent.mon [axi4_master_monitor] AW observed: ID=0x3 ADDR=0x3032651b LEN=200
# UVM_INFO ../src/slv/axi4_slave_monitor.sv(116) @ 75385000: uvm_test_top.env.slave_agent.mon [axi4_slave_monitor] AW received: ID=0x3 ADDR=0x3032651b LEN=200
# UVM_INFO ../src/slv/axi4_slave_monitor.sv(167) @ 79375000: uvm_test_top.env.slave_agent.mon [axi4_slave_monitor] W data assembled: ID=0x3 ADDR=0x3032651b 201 beats
# UVM_INFO ../src/mst/axi4_master_monitor.sv(184) @ 79375000: uvm_test_top.env.master_agent.mon [axi4_master_monitor] W data assembled: ID=0x3 ADDR=0x3032651b 201 beats
# UVM_INFO ../src/mst/axi4_master_driver.sv(197) @ 79405000: uvm_test_top.env.master_agent.drv [axi4_master_driver] Write response: AXI4_RESP_OKAY
# UVM_INFO ../src/slv/axi4_slave_driver.sv(261) @ 79405000: uvm_test_top.env.slave_agent.drv [axi4_slave_driver] Write complete: ID=0x3 ADDR=0x3032651b RESP=AXI4_RESP_OKAY  201 beats processed
# UVM_INFO ../src/mst/axi4_master_monitor.sv(210) @ 79405000: uvm_test_top.env.master_agent.mon [axi4_master_monitor] Write complete: ID=0x3 ADDR=0x3032651b RESP=AXI4_RESP_OKAY
# UVM_INFO ../src/env/axi4_scoreboard.sv(82) @ 79405000: uvm_test_top.env.scb [axi4_scoreboard] Master AXI4_WRITE received: ID=0x3 ADDR=0x3032651b LEN=200
# UVM_INFO ../src/slv/axi4_slave_monitor.sv(189) @ 79405000: uvm_test_top.env.slave_agent.mon [axi4_slave_monitor] Write response sent: ID=0x3 ADDR=0x3032651b RESP=AXI4_RESP_OKAY
# UVM_INFO ../src/env/axi4_scoreboard.sv(103) @ 79405000: uvm_test_top.env.scb [axi4_scoreboard] Slave AXI4_WRITE received: ID=0x3 ADDR=0x3032651b LEN=200
# UVM_INFO ../src/env/axi4_scoreboard.sv(154) @ 79405000: uvm_test_top.env.scb [axi4_scoreboard] [WRITE] MATCH #38: ID=0x3 ADDR=0x3032651b LEN=200
# UVM_INFO ../src/seq/axi4_unaligned_seq.sv(51) @ 79405000: uvm_test_top.env.master_agent.sqr@@unalign_seq [axi4_unaligned_seq] [38/40] Unaligned AXI4_WRITE: ADDR=0x3032651b SIZE=AXI4_SIZE_2B BURST=AXI4_BURST_INCR (AlignmentOffset=1)
# UVM_INFO ../src/mst/axi4_master_driver.sv(55) @ 79405000: uvm_test_top.env.master_agent.drv [axi4_master_driver] Driving AXI4_READ  ID=0x6  ADDR=0xd6accc17  LEN=27
# UVM_INFO ../src/slv/axi4_slave_driver.sv(300) @ 79435000: uvm_test_top.env.slave_agent.drv [axi4_slave_driver] AR received: ID=0x6 ADDR=0xd6accc17 LEN=27 LOCK=AXI4_LOCK_EXCLUSIVE
# UVM_INFO ../src/slv/axi4_slave_monitor.sv(224) @ 79435000: uvm_test_top.env.slave_agent.mon [axi4_slave_monitor] AR received: ID=0x6 ADDR=0xd6accc17 LEN=27
# UVM_INFO ../src/mst/axi4_master_monitor.sv(246) @ 79435000: uvm_test_top.env.master_agent.mon [axi4_master_monitor] AR observed: ID=0x6 ADDR=0xd6accc17 LEN=27
# UVM_INFO ../src/mst/axi4_master_driver.sv(254) @ 79995000: uvm_test_top.env.master_agent.drv [axi4_master_driver] Read complete: 28 beats received
# UVM_INFO ../src/slv/axi4_slave_driver.sv(349) @ 79995000: uvm_test_top.env.slave_agent.drv [axi4_slave_driver] Read complete: ID=0x6 ADDR=0xd6accc17 RESP=AXI4_RESP_EXOKAY  28 beats sent
# UVM_INFO ../src/slv/axi4_slave_monitor.sv(287) @ 79995000: uvm_test_top.env.slave_agent.mon [axi4_slave_monitor] Read data sent: ID=0x6 ADDR=0xd6accc17 28 beats
# UVM_INFO ../src/env/axi4_scoreboard.sv(103) @ 79995000: uvm_test_top.env.scb [axi4_scoreboard] Slave AXI4_READ received: ID=0x6 ADDR=0xd6accc17 LEN=27
# UVM_INFO ../src/mst/axi4_master_monitor.sv(314) @ 79995000: uvm_test_top.env.master_agent.mon [axi4_master_monitor] Read complete: ID=0x6 ADDR=0xd6accc17 28 beats
# UVM_INFO ../src/env/axi4_scoreboard.sv(82) @ 79995000: uvm_test_top.env.scb [axi4_scoreboard] Master AXI4_READ received: ID=0x6 ADDR=0xd6accc17 LEN=27
# UVM_INFO ../src/env/axi4_scoreboard.sv(154) @ 79995000: uvm_test_top.env.scb [axi4_scoreboard] [READ] MATCH #39: ID=0x6 ADDR=0xd6accc17 LEN=27
# UVM_INFO ../src/seq/axi4_unaligned_seq.sv(51) @ 79995000: uvm_test_top.env.master_agent.sqr@@unalign_seq [axi4_unaligned_seq] [39/40] Unaligned AXI4_READ: ADDR=0xd6accc17 SIZE=AXI4_SIZE_2B BURST=AXI4_BURST_INCR (AlignmentOffset=1)
# UVM_INFO ../src/mst/axi4_master_driver.sv(55) @ 79995000: uvm_test_top.env.master_agent.drv [axi4_master_driver] Driving AXI4_READ  ID=0x6  ADDR=0x3f7a822e  LEN=160
# UVM_INFO ../src/slv/axi4_slave_driver.sv(300) @ 80025000: uvm_test_top.env.slave_agent.drv [axi4_slave_driver] AR received: ID=0x6 ADDR=0x3f7a822e LEN=160 LOCK=AXI4_LOCK_EXCLUSIVE
# UVM_INFO ../src/mst/axi4_master_monitor.sv(246) @ 80025000: uvm_test_top.env.master_agent.mon [axi4_master_monitor] AR observed: ID=0x6 ADDR=0x3f7a822e LEN=160
# UVM_INFO ../src/slv/axi4_slave_monitor.sv(224) @ 80025000: uvm_test_top.env.slave_agent.mon [axi4_slave_monitor] AR received: ID=0x6 ADDR=0x3f7a822e LEN=160
