# vsim -c -coverage -sv_seed 34685994 "+UVM_TESTNAME=axi4_out_of_order_test" "+UVM_VERBOSITY=UVM_HIGH" "+DUMP_VCD" -l ./report/logs/axi4_out_of_order_test_run_4_seed_34685994.log -do "coverage save -onexit ./report/coverage/axi4_out_of_order_test_run_4_seed_34685994.ucdb; run -all; quit -f" opt_tb_top 
# Start time: 14:04:41 on Jun 11,2026
# //  Questa Sim-64
# //  Version 10.6b linux_x86_64 May 25 2017
# //
# //  Copyright 1991-2017 Mentor Graphics Corporation
# //  All Rights Reserved.
# //
# //  QuestaSim and its associated documentation contain trade
# //  secrets and commercial or financial information that are the property of
# //  Mentor Graphics Corporation and are privileged, confidential,
# //  and exempt from disclosure under the Freedom of Information Act,
# //  5 U.S.C. Section 552. Furthermore, this information
# //  is prohibited from disclosure under the Trade Secrets Act,
# //  18 U.S.C. Section 1905.
# //
# Loading sv_std.std
# Loading work.axi4_if(fast)
# Loading mtiUvm.uvm_pkg
# Loading work.axi4_pkg(fast)
# Loading work.axi4_test_pkg(fast)
# Loading work.tb_top(fast)
# Loading work.axi4_if(fast)
# Loading work.axi4_sva(fast)
# Loading mtiUvm.questa_uvm_pkg(fast)
# Loading /cadtools/mentor/Questa_10.6b/questasim/uvm-1.1d/linux_x86_64/uvm_dpi.so
# coverage save -onexit ./report/coverage/axi4_out_of_order_test_run_4_seed_34685994.ucdb
#  run -all
# ----------------------------------------------------------------
# UVM-1.1d
# (C) 2007-2013 Mentor Graphics Corporation
# (C) 2007-2013 Cadence Design Systems, Inc.
# (C) 2006-2013 Synopsys, Inc.
# (C) 2011-2013 Cypress Semiconductor Corp.
# ----------------------------------------------------------------
# 
#   ***********       IMPORTANT RELEASE NOTES         ************
# 
#   You are using a version of the UVM library that has been compiled
#   with `UVM_NO_DEPRECATED undefined.
#   See http://www.eda.org/svdb/view.php?id=3313 for more details.
# 
#   You are using a version of the UVM library that has been compiled
#   with `UVM_OBJECT_MUST_HAVE_CONSTRUCTOR undefined.
#   See http://www.eda.org/svdb/view.php?id=3770 for more details.
# 
#       (Specify +UVM_NO_RELNOTES to turn off this notice)
# 
# UVM_INFO verilog_src/questa_uvm_pkg-1.2/src/questa_uvm_pkg.sv(215) @ 0: reporter [Questa UVM] QUESTA_UVM-1.2.3
# UVM_INFO verilog_src/questa_uvm_pkg-1.2/src/questa_uvm_pkg.sv(217) @ 0: reporter [Questa UVM]  questa_uvm::init(+struct)
# UVM_INFO ../src/tb_top.sv(128) @ 0: reporter [TB_TOP] Virtual interface set in config_db
# UVM_INFO @ 0: reporter [RNTST] Running test axi4_out_of_order_test...
# UVM_INFO ../src/tb_top.sv(142) @ 0: reporter [TB_TOP] Waveform VCD dumping enabled (axi4_vip.vcd)
# UVM_INFO ../src/env/axi4_vip_env.sv(83) @ 0: uvm_test_top.env [axi4_vip_env] slave_vif not set - reusing master_vif (passthrough mode)
# UVM_INFO ../src/env/axi4_vip_env.sv(93) @ 0: uvm_test_top.env [axi4_vip_env] Scoreboard created
# UVM_INFO ../src/env/axi4_vip_env.sv(100) @ 0: uvm_test_top.env [axi4_vip_env] Coverage collectors created
# UVM_INFO ../src/mst/axi4_master_agent.sv(69) @ 0: uvm_test_top.env.master_agent [axi4_master_agent] ACTIVE mode - driver + sequencer created
# UVM_INFO ../src/slv/axi4_slave_agent.sv(82) @ 0: uvm_test_top.env.slave_agent [axi4_slave_agent] ACTIVE mode — ready_delay=[0:0] resp_delay=[0:0]
# UVM_INFO ../src/env/axi4_vip_env.sv(116) @ 0: uvm_test_top.env [axi4_vip_env] Scoreboard connected: master_mon.ap -> scb, slave_mon.ap -> scb
# UVM_INFO ../src/env/axi4_vip_env.sv(124) @ 0: uvm_test_top.env [axi4_vip_env] Coverage connected: master_mon.ap -> master_cov, slave_mon.ap -> slave_cov
# UVM_INFO @ 0: reporter [UVMTOP] UVM testbench topology:
# ---------------------------------------------------------------
# Name                       Type                     Size  Value
# ---------------------------------------------------------------
# uvm_test_top               axi4_out_of_order_test   -     @473 
#   env                      axi4_vip_env             -     @496 
#     master_agent           axi4_master_agent        -     @511 
#       drv                  axi4_master_driver       -     @575 
#         rsp_port           uvm_analysis_port        -     @590 
#         seq_item_port      uvm_seq_item_pull_port   -     @582 
#       mon                  axi4_master_monitor      -     @567 
#         ap                 uvm_analysis_port        -     @708 
#       sqr                  axi4_master_sequencer    -     @598 
#         rsp_export         uvm_analysis_export      -     @605 
#         seq_item_export    uvm_seq_item_pull_imp    -     @699 
#         arbitration_queue  array                    0     -    
#         lock_queue         array                    0     -    
#         num_last_reqs      integral                 32    'd1  
#         num_last_rsps      integral                 32    'd1  
#     master_cov             axi4_coverage            -     @532 
#       analysis_imp         uvm_analysis_imp         -     @539 
#     scb                    axi4_scoreboard          -     @525 
#       master_export        uvm_analysis_imp_master  -     @722 
#       slave_export         uvm_analysis_imp_slave   -     @730 
#     slave_agent            axi4_slave_agent         -     @518 
#       drv                  axi4_slave_driver        -     @760 
#         rsp_port           uvm_analysis_port        -     @775 
#         seq_item_port      uvm_seq_item_pull_port   -     @767 
#       mon                  axi4_slave_monitor       -     @743 
#         ap                 uvm_analysis_port        -     @899 
#       sqr                  axi4_slave_sequencer     -     @783 
#         rsp_export         uvm_analysis_export      -     @790 
#         seq_item_export    uvm_seq_item_pull_imp    -     @884 
#         arbitration_queue  array                    0     -    
#         lock_queue         array                    0     -    
#         num_last_reqs      integral                 32    'd1  
#         num_last_rsps      integral                 32    'd1  
#     slave_cov              axi4_coverage            -     @547 
#       analysis_imp         uvm_analysis_imp         -     @554 
# ---------------------------------------------------------------
# 
# UVM_INFO verilog_src/questa_uvm_pkg-1.2/src/questa_uvm_pkg.sv(277) @ 0: reporter [Questa UVM] End Of Elaboration
# UVM_INFO ../src/test/axi4_out_of_order_test.sv(66) @ 0: uvm_test_top [axi4_out_of_order_test] Starting Out-of-Order test with 15 writes, 15 reads, depth=4, r_reorder=1 (no-interleaving)
# UVM_INFO ../src/seq/axi4_out_of_order_seq.sv(45) @ 0: uvm_test_top.env.master_agent.sqr@@ooo_seq [axi4_out_of_order_seq] Starting Out-of-Order sequence (no-interleaving): writes=15, reads=15, depth=4
# UVM_INFO ../src/tb_top.sv(49) @ 95000: reporter [TOP_TB] Reset de-asserted
# UVM_INFO ../src/slv/axi4_slave_driver.sv(122) @ 95000: uvm_test_top.env.slave_agent.drv [axi4_slave_driver] Reset deasserted - slave driver active
# UVM_INFO ../src/mst/axi4_master_driver.sv(64) @ 95000: uvm_test_top.env.master_agent.drv [axi4_master_driver] Reset deasserted - master driver active
# UVM_INFO ../src/mst/axi4_master_monitor.sv(77) @ 95000: uvm_test_top.env.master_agent.mon [axi4_master_monitor] Reset deasserted - monitor active
# UVM_INFO ../src/slv/axi4_slave_monitor.sv(71) @ 95000: uvm_test_top.env.slave_agent.mon [axi4_slave_monitor] Reset deasserted - monitor active
# UVM_INFO ../src/seq/axi4_out_of_order_seq.sv(72) @ 95000: uvm_test_top.env.master_agent.sqr@@ooo_seq [axi4_out_of_order_seq] OOO Write [#3] started: ID=0x3 ADDR=0xbde29ed2 LEN=128
# UVM_INFO ../src/mst/axi4_master_driver.sv(73) @ 95000: uvm_test_top.env.master_agent.drv [axi4_master_driver] Driving AXI4_WRITE  ID=0x3  ADDR=0xbde29ed2  LEN=128
# UVM_INFO ../src/seq/axi4_out_of_order_seq.sv(72) @ 95000: uvm_test_top.env.master_agent.sqr@@ooo_seq [axi4_out_of_order_seq] OOO Write [#2] started: ID=0x2 ADDR=0xece873bb LEN=78
# UVM_INFO ../src/mst/axi4_master_driver.sv(73) @ 95000: uvm_test_top.env.master_agent.drv [axi4_master_driver] Driving AXI4_WRITE  ID=0x2  ADDR=0xece873bb  LEN=78
# UVM_INFO ../src/seq/axi4_out_of_order_seq.sv(72) @ 95000: uvm_test_top.env.master_agent.sqr@@ooo_seq [axi4_out_of_order_seq] OOO Write [#1] started: ID=0x1 ADDR=0x156d1f73 LEN=64
# UVM_INFO ../src/mst/axi4_master_driver.sv(73) @ 95000: uvm_test_top.env.master_agent.drv [axi4_master_driver] Driving AXI4_WRITE  ID=0x1  ADDR=0x156d1f73  LEN=64
# UVM_INFO ../src/seq/axi4_out_of_order_seq.sv(72) @ 95000: uvm_test_top.env.master_agent.sqr@@ooo_seq [axi4_out_of_order_seq] OOO Write [#0] started: ID=0x0 ADDR=0x9920ebca LEN=78
# UVM_INFO ../src/mst/axi4_master_driver.sv(73) @ 95000: uvm_test_top.env.master_agent.drv [axi4_master_driver] Driving AXI4_WRITE  ID=0x0  ADDR=0x9920ebca  LEN=78
# UVM_INFO ../src/seq/axi4_out_of_order_seq.sv(111) @ 95000: uvm_test_top.env.master_agent.sqr@@ooo_seq [axi4_out_of_order_seq] OOO Read [#3] started: ID=0x3 ADDR=0x21000ac7 LEN=143
# UVM_INFO ../src/mst/axi4_master_driver.sv(73) @ 95000: uvm_test_top.env.master_agent.drv [axi4_master_driver] Driving AXI4_READ  ID=0x3  ADDR=0x21000ac7  LEN=143
# UVM_INFO ../src/seq/axi4_out_of_order_seq.sv(111) @ 95000: uvm_test_top.env.master_agent.sqr@@ooo_seq [axi4_out_of_order_seq] OOO Read [#2] started: ID=0x2 ADDR=0x83caa67a LEN=126
# UVM_INFO ../src/mst/axi4_master_driver.sv(73) @ 95000: uvm_test_top.env.master_agent.drv [axi4_master_driver] Driving AXI4_READ  ID=0x2  ADDR=0x83caa67a  LEN=126
# UVM_INFO ../src/seq/axi4_out_of_order_seq.sv(111) @ 95000: uvm_test_top.env.master_agent.sqr@@ooo_seq [axi4_out_of_order_seq] OOO Read [#1] started: ID=0x1 ADDR=0xb6641a41 LEN=81
# UVM_INFO ../src/mst/axi4_master_driver.sv(73) @ 95000: uvm_test_top.env.master_agent.drv [axi4_master_driver] Driving AXI4_READ  ID=0x1  ADDR=0xb6641a41  LEN=81
# UVM_INFO ../src/seq/axi4_out_of_order_seq.sv(111) @ 95000: uvm_test_top.env.master_agent.sqr@@ooo_seq [axi4_out_of_order_seq] OOO Read [#0] started: ID=0x0 ADDR=0xa018847e LEN=0
# UVM_INFO ../src/mst/axi4_master_driver.sv(73) @ 95000: uvm_test_top.env.master_agent.drv [axi4_master_driver] Driving AXI4_READ  ID=0x0  ADDR=0xa018847e  LEN=0
# UVM_INFO ../src/slv/axi4_slave_driver.sv(358) @ 115000: uvm_test_top.env.slave_agent.drv [axi4_slave_driver] AR received: ID=0x3 ADDR=0x21000ac7 LEN=143 LOCK=AXI4_LOCK_EXCLUSIVE
# UVM_INFO ../src/slv/axi4_slave_driver.sv(212) @ 115000: uvm_test_top.env.slave_agent.drv [axi4_slave_driver] AW received: ID=0x3 ADDR=0xbde29ed2 LEN=128 LOCK=AXI4_LOCK_NORMAL
# UVM_INFO ../src/slv/axi4_slave_monitor.sv(224) @ 115000: uvm_test_top.env.slave_agent.mon [axi4_slave_monitor] AR received: ID=0x3 ADDR=0x21000ac7 LEN=143
# UVM_INFO ../src/slv/axi4_slave_monitor.sv(116) @ 115000: uvm_test_top.env.slave_agent.mon [axi4_slave_monitor] AW received: ID=0x3 ADDR=0xbde29ed2 LEN=128
# UVM_INFO ../src/mst/axi4_master_monitor.sv(246) @ 115000: uvm_test_top.env.master_agent.mon [axi4_master_monitor] AR observed: ID=0x3 ADDR=0x21000ac7 LEN=143
# UVM_INFO ../src/mst/axi4_master_monitor.sv(124) @ 115000: uvm_test_top.env.master_agent.mon [axi4_master_monitor] AW observed: ID=0x3 ADDR=0xbde29ed2 LEN=128
# UVM_INFO ../src/slv/axi4_slave_driver.sv(212) @ 145000: uvm_test_top.env.slave_agent.drv [axi4_slave_driver] AW received: ID=0x2 ADDR=0xece873bb LEN=78 LOCK=AXI4_LOCK_EXCLUSIVE
# UVM_INFO ../src/slv/axi4_slave_driver.sv(358) @ 145000: uvm_test_top.env.slave_agent.drv [axi4_slave_driver] AR received: ID=0x2 ADDR=0x83caa67a LEN=126 LOCK=AXI4_LOCK_EXCLUSIVE
# UVM_INFO ../src/mst/axi4_master_monitor.sv(124) @ 145000: uvm_test_top.env.master_agent.mon [axi4_master_monitor] AW observed: ID=0x2 ADDR=0xece873bb LEN=78
# UVM_INFO ../src/mst/axi4_master_monitor.sv(246) @ 145000: uvm_test_top.env.master_agent.mon [axi4_master_monitor] AR observed: ID=0x2 ADDR=0x83caa67a LEN=126
# UVM_INFO ../src/slv/axi4_slave_monitor.sv(116) @ 145000: uvm_test_top.env.slave_agent.mon [axi4_slave_monitor] AW received: ID=0x2 ADDR=0xece873bb LEN=78
# UVM_INFO ../src/slv/axi4_slave_monitor.sv(224) @ 145000: uvm_test_top.env.slave_agent.mon [axi4_slave_monitor] AR received: ID=0x2 ADDR=0x83caa67a LEN=126
# UVM_INFO ../src/slv/axi4_slave_driver.sv(358) @ 175000: uvm_test_top.env.slave_agent.drv [axi4_slave_driver] AR received: ID=0x1 ADDR=0xb6641a41 LEN=81 LOCK=AXI4_LOCK_EXCLUSIVE
# UVM_INFO ../src/slv/axi4_slave_driver.sv(212) @ 175000: uvm_test_top.env.slave_agent.drv [axi4_slave_driver] AW received: ID=0x1 ADDR=0x156d1f73 LEN=64 LOCK=AXI4_LOCK_NORMAL
# UVM_INFO ../src/slv/axi4_slave_monitor.sv(224) @ 175000: uvm_test_top.env.slave_agent.mon [axi4_slave_monitor] AR received: ID=0x1 ADDR=0xb6641a41 LEN=81
# UVM_INFO ../src/slv/axi4_slave_monitor.sv(116) @ 175000: uvm_test_top.env.slave_agent.mon [axi4_slave_monitor] AW received: ID=0x1 ADDR=0x156d1f73 LEN=64
# UVM_INFO ../src/mst/axi4_master_monitor.sv(246) @ 175000: uvm_test_top.env.master_agent.mon [axi4_master_monitor] AR observed: ID=0x1 ADDR=0xb6641a41 LEN=81
# UVM_INFO ../src/mst/axi4_master_monitor.sv(124) @ 175000: uvm_test_top.env.master_agent.mon [axi4_master_monitor] AW observed: ID=0x1 ADDR=0x156d1f73 LEN=64
# UVM_INFO ../src/slv/axi4_slave_driver.sv(358) @ 205000: uvm_test_top.env.slave_agent.drv [axi4_slave_driver] AR received: ID=0x0 ADDR=0xa018847e LEN=0 LOCK=AXI4_LOCK_NORMAL
# UVM_INFO ../src/mst/axi4_master_monitor.sv(246) @ 205000: uvm_test_top.env.master_agent.mon [axi4_master_monitor] AR observed: ID=0x0 ADDR=0xa018847e LEN=0
# UVM_INFO ../src/slv/axi4_slave_monitor.sv(224) @ 205000: uvm_test_top.env.slave_agent.mon [axi4_slave_monitor] AR received: ID=0x0 ADDR=0xa018847e LEN=0
# UVM_INFO ../src/mst/axi4_master_monitor.sv(184) @ 2665000: uvm_test_top.env.master_agent.mon [axi4_master_monitor] W data assembled: ID=0x3 ADDR=0xbde29ed2 129 beats
# UVM_INFO ../src/slv/axi4_slave_monitor.sv(167) @ 2665000: uvm_test_top.env.slave_agent.mon [axi4_slave_monitor] W data assembled: ID=0x3 ADDR=0xbde29ed2 129 beats
# UVM_INFO ../src/mst/axi4_master_driver.sv(289) @ 2695000: uvm_test_top.env.master_agent.drv [axi4_master_driver] Master driver received B response: ID=0x3 RESP=AXI4_RESP_OKAY
# UVM_INFO ../src/slv/axi4_slave_driver.sv(320) @ 2695000: uvm_test_top.env.slave_agent.drv [axi4_slave_driver] Write complete: ID=0x3 RESP=AXI4_RESP_OKAY
# UVM_INFO ../src/slv/axi4_slave_monitor.sv(189) @ 2695000: uvm_test_top.env.slave_agent.mon [axi4_slave_monitor] Write response sent: ID=0x3 ADDR=0xbde29ed2 RESP=AXI4_RESP_OKAY
# UVM_INFO ../src/env/axi4_scoreboard.sv(108) @ 2695000: uvm_test_top.env.scb [axi4_scoreboard] Slave AXI4_WRITE received: ID=0x3 ADDR=0xbde29ed2 LEN=128
# UVM_INFO ../src/mst/axi4_master_monitor.sv(210) @ 2695000: uvm_test_top.env.master_agent.mon [axi4_master_monitor] Write complete: ID=0x3 ADDR=0xbde29ed2 RESP=AXI4_RESP_OKAY
# UVM_INFO ../src/env/axi4_scoreboard.sv(87) @ 2695000: uvm_test_top.env.scb [axi4_scoreboard] Master AXI4_WRITE received: ID=0x3 ADDR=0xbde29ed2 LEN=128
# UVM_INFO ../src/env/axi4_scoreboard.sv(291) @ 2695000: uvm_test_top.env.scb [axi4_scoreboard] [WRITE] MATCH #1: ID=0x3 ADDR=0xbde29ed2 LEN=128
# UVM_INFO ../src/env/axi4_scoreboard.sv(219) @ 2695000: uvm_test_top.env.scb [axi4_scoreboard] [REF_MEM_WRITE] Addr=0xbde29ed0 Data=0x01
# UVM_INFO ../src/env/axi4_scoreboard.sv(219) @ 2695000: uvm_test_top.env.scb [axi4_scoreboard] [REF_MEM_WRITE] Addr=0xbde29ed1 Data=0x16
# UVM_INFO ../src/env/axi4_scoreboard.sv(219) @ 2695000: uvm_test_top.env.scb [axi4_scoreboard] [REF_MEM_WRITE] Addr=0xbde29ed2 Data=0xd9
# UVM_INFO ../src/env/axi4_scoreboard.sv(219) @ 2695000: uvm_test_top.env.scb [axi4_scoreboard] [REF_MEM_WRITE] Addr=0xbde29ed3 Data=0x1f
# UVM_INFO ../src/env/axi4_scoreboard.sv(219) @ 2695000: uvm_test_top.env.scb [axi4_scoreboard] [REF_MEM_WRITE] Addr=0xbde29ed4 Data=0x89
# UVM_INFO ../src/env/axi4_scoreboard.sv(219) @ 2695000: uvm_test_top.env.scb [axi4_scoreboard] [REF_MEM_WRITE] Addr=0xbde29ed6 Data=0x0b
# UVM_INFO ../src/env/axi4_scoreboard.sv(219) @ 2695000: uvm_test_top.env.scb [axi4_scoreboard] [REF_MEM_WRITE] Addr=0xbde29ed7 Data=0xf1
# UVM_INFO ../src/env/axi4_scoreboard.sv(219) @ 2695000: uvm_test_top.env.scb [axi4_scoreboard] [REF_MEM_WRITE] Addr=0xbde29ed5 Data=0x91
# UVM_INFO ../src/env/axi4_scoreboard.sv(219) @ 2695000: uvm_test_top.env.scb [axi4_scoreboard] [REF_MEM_WRITE] Addr=0xbde29ed6 Data=0x6b
# UVM_INFO ../src/env/axi4_scoreboard.sv(219) @ 2695000: uvm_test_top.env.scb [axi4_scoreboard] [REF_MEM_WRITE] Addr=0xbde29ed7 Data=0x1c
# UVM_INFO ../src/env/axi4_scoreboard.sv(219) @ 2695000: uvm_test_top.env.scb [axi4_scoreboard] [REF_MEM_WRITE] Addr=0xbde29ed8 Data=0x05
# UVM_INFO ../src/env/axi4_scoreboard.sv(219) @ 2695000: uvm_test_top.env.scb [axi4_scoreboard] [REF_MEM_WRITE] Addr=0xbde29ed9 Data=0x71
# UVM_INFO ../src/env/axi4_scoreboard.sv(219) @ 2695000: uvm_test_top.env.scb [axi4_scoreboard] [REF_MEM_WRITE] Addr=0xbde29edb Data=0xb3
# UVM_INFO ../src/env/axi4_scoreboard.sv(219) @ 2695000: uvm_test_top.env.scb [axi4_scoreboard] [REF_MEM_WRITE] Addr=0xbde29edd Data=0x25
# UVM_INFO ../src/env/axi4_scoreboard.sv(219) @ 2695000: uvm_test_top.env.scb [axi4_scoreboard] [REF_MEM_WRITE] Addr=0xbde29edf Data=0x68
# UVM_INFO ../src/env/axi4_scoreboard.sv(219) @ 2695000: uvm_test_top.env.scb [axi4_scoreboard] [REF_MEM_WRITE] Addr=0xbde29ee0 Data=0xf9
# UVM_INFO ../src/env/axi4_scoreboard.sv(219) @ 2695000: uvm_test_top.env.scb [axi4_scoreboard] [REF_MEM_WRITE] Addr=0xbde29ee1 Data=0x86
# UVM_INFO ../src/env/axi4_scoreboard.sv(219) @ 2695000: uvm_test_top.env.scb [axi4_scoreboard] [REF_MEM_WRITE] Addr=0xbde29ee2 Data=0x1d
# UVM_INFO ../src/env/axi4_scoreboard.sv(219) @ 2695000: uvm_test_top.env.scb [axi4_scoreboard] [REF_MEM_WRITE] Addr=0xbde29ee1 Data=0x71
# UVM_INFO ../src/env/axi4_scoreboard.sv(219) @ 2695000: uvm_test_top.env.scb [axi4_scoreboard] [REF_MEM_WRITE] Addr=0xbde29ee2 Data=0x42
# UVM_INFO ../src/env/axi4_scoreboard.sv(219) @ 2695000: uvm_test_top.env.scb [axi4_scoreboard] [REF_MEM_WRITE] Addr=0xbde29ee6 Data=0x90
# UVM_INFO ../src/env/axi4_scoreboard.sv(219) @ 2695000: uvm_test_top.env.scb [axi4_scoreboard] [REF_MEM_WRITE] Addr=0xbde29ee7 Data=0xfa
# UVM_INFO ../src/env/axi4_scoreboard.sv(219) @ 2695000: uvm_test_top.env.scb [axi4_scoreboard] [REF_MEM_WRITE] Addr=0xbde29ee4 Data=0x30
# UVM_INFO ../src/env/axi4_scoreboard.sv(219) @ 2695000: uvm_test_top.env.scb [axi4_scoreboard] [REF_MEM_WRITE] Addr=0xbde29ee5 Data=0x50
# UVM_INFO ../src/env/axi4_scoreboard.sv(219) @ 2695000: uvm_test_top.env.scb [axi4_scoreboard] [REF_MEM_WRITE] Addr=0xbde29ee6 Data=0xf8
# UVM_INFO ../src/env/axi4_scoreboard.sv(219) @ 2695000: uvm_test_top.env.scb [axi4_scoreboard] [REF_MEM_WRITE] Addr=0xbde29ee7 Data=0xb1
# UVM_INFO ../src/env/axi4_scoreboard.sv(219) @ 2695000: uvm_test_top.env.scb [axi4_scoreboard] [REF_MEM_WRITE] Addr=0xbde29ee8 Data=0xd9
# UVM_INFO ../src/env/axi4_scoreboard.sv(219) @ 2695000: uvm_test_top.env.scb [axi4_scoreboard] [REF_MEM_WRITE] Addr=0xbde29ee8 Data=0xa5
# UVM_INFO ../src/env/axi4_scoreboard.sv(219) @ 2695000: uvm_test_top.env.scb [axi4_scoreboard] [REF_MEM_WRITE] Addr=0xbde29ee9 Data=0x0a
# UVM_INFO ../src/env/axi4_scoreboard.sv(219) @ 2695000: uvm_test_top.env.scb [axi4_scoreboard] [REF_MEM_WRITE] Addr=0xbde29eea Data=0x92
# UVM_INFO ../src/env/axi4_scoreboard.sv(219) @ 2695000: uvm_test_top.env.scb [axi4_scoreboard] [REF_MEM_WRITE] Addr=0xbde29eeb Data=0x44
# UVM_INFO ../src/env/axi4_scoreboard.sv(219) @ 2695000: uvm_test_top.env.scb [axi4_scoreboard] [REF_MEM_WRITE] Addr=0xbde29eec Data=0x58
# UVM_INFO ../src/env/axi4_scoreboard.sv(219) @ 2695000: uvm_test_top.env.scb [axi4_scoreboard] [REF_MEM_WRITE] Addr=0xbde29eed Data=0x81
# UVM_INFO ../src/env/axi4_scoreboard.sv(219) @ 2695000: uvm_test_top.env.scb [axi4_scoreboard] [REF_MEM_WRITE] Addr=0xbde29eee Data=0xc5
# UVM_INFO ../src/env/axi4_scoreboard.sv(219) @ 2695000: uvm_test_top.env.scb [axi4_scoreboard] [REF_MEM_WRITE] Addr=0xbde29ef0 Data=0xc6
# UVM_INFO ../src/env/axi4_scoreboard.sv(219) @ 2695000: uvm_test_top.env.scb [axi4_scoreboard] [REF_MEM_WRITE] Addr=0xbde29ef2 Data=0xb6
# UVM_INFO ../src/env/axi4_scoreboard.sv(219) @ 2695000: uvm_test_top.env.scb [axi4_scoreboard] [REF_MEM_WRITE] Addr=0xbde29ef0 Data=0xd9
# UVM_INFO ../src/env/axi4_scoreboard.sv(219) @ 2695000: uvm_test_top.env.scb [axi4_scoreboard] [REF_MEM_WRITE] Addr=0xbde29ef2 Data=0x60
# UVM_INFO ../src/env/axi4_scoreboard.sv(219) @ 2695000: uvm_test_top.env.scb [axi4_scoreboard] [REF_MEM_WRITE] Addr=0xbde29ef4 Data=0xa5
# UVM_INFO ../src/env/axi4_scoreboard.sv(219) @ 2695000: uvm_test_top.env.scb [axi4_scoreboard] [REF_MEM_WRITE] Addr=0xbde29ef6 Data=0x0a
# UVM_INFO ../src/env/axi4_scoreboard.sv(219) @ 2695000: uvm_test_top.env.scb [axi4_scoreboard] [REF_MEM_WRITE] Addr=0xbde29ef7 Data=0x8e
# UVM_INFO ../src/env/axi4_scoreboard.sv(219) @ 2695000: uvm_test_top.env.scb [axi4_scoreboard] [REF_MEM_WRITE] Addr=0xbde29ef8 Data=0xc3
# UVM_INFO ../src/env/axi4_scoreboard.sv(219) @ 2695000: uvm_test_top.env.scb [axi4_scoreboard] [REF_MEM_WRITE] Addr=0xbde29ef9 Data=0x1d
# UVM_INFO ../src/env/axi4_scoreboard.sv(219) @ 2695000: uvm_test_top.env.scb [axi4_scoreboard] [REF_MEM_WRITE] Addr=0xbde29efa Data=0xaa
# UVM_INFO ../src/env/axi4_scoreboard.sv(219) @ 2695000: uvm_test_top.env.scb [axi4_scoreboard] [REF_MEM_WRITE] Addr=0xbde29efb Data=0xc6
# UVM_INFO ../src/env/axi4_scoreboard.sv(219) @ 2695000: uvm_test_top.env.scb [axi4_scoreboard] [REF_MEM_WRITE] Addr=0xbde29ef8 Data=0xb9
# UVM_INFO ../src/env/axi4_scoreboard.sv(219) @ 2695000: uvm_test_top.env.scb [axi4_scoreboard] [REF_MEM_WRITE] Addr=0xbde29ef9 Data=0x5c
# UVM_INFO ../src/env/axi4_scoreboard.sv(219) @ 2695000: uvm_test_top.env.scb [axi4_scoreboard] [REF_MEM_WRITE] Addr=0xbde29efb Data=0x1b
# UVM_INFO ../src/env/axi4_scoreboard.sv(219) @ 2695000: uvm_test_top.env.scb [axi4_scoreboard] [REF_MEM_WRITE] Addr=0xbde29efc Data=0x63
# UVM_INFO ../src/env/axi4_scoreboard.sv(219) @ 2695000: uvm_test_top.env.scb [axi4_scoreboard] [REF_MEM_WRITE] Addr=0xbde29efd Data=0xb8
# UVM_INFO ../src/env/axi4_scoreboard.sv(219) @ 2695000: uvm_test_top.env.scb [axi4_scoreboard] [REF_MEM_WRITE] Addr=0xbde29efe Data=0x24
# UVM_INFO ../src/env/axi4_scoreboard.sv(219) @ 2695000: uvm_test_top.env.scb [axi4_scoreboard] [REF_MEM_WRITE] Addr=0xbde29eff Data=0x16
# UVM_INFO ../src/env/axi4_scoreboard.sv(219) @ 2695000: uvm_test_top.env.scb [axi4_scoreboard] [REF_MEM_WRITE] Addr=0xbde29efd Data=0x75
# UVM_INFO ../src/env/axi4_scoreboard.sv(219) @ 2695000: uvm_test_top.env.scb [axi4_scoreboard] [REF_MEM_WRITE] Addr=0xbde29f01 Data=0x79
# UVM_INFO ../src/env/axi4_scoreboard.sv(219) @ 2695000: uvm_test_top.env.scb [axi4_scoreboard] [REF_MEM_WRITE] Addr=0xbde29f02 Data=0x6b
# UVM_INFO ../src/env/axi4_scoreboard.sv(219) @ 2695000: uvm_test_top.env.scb [axi4_scoreboard] [REF_MEM_WRITE] Addr=0xbde29f03 Data=0x43
# UVM_INFO ../src/env/axi4_scoreboard.sv(219) @ 2695000: uvm_test_top.env.scb [axi4_scoreboard] [REF_MEM_WRITE] Addr=0xbde29f00 Data=0xf0
# UVM_INFO ../src/env/axi4_scoreboard.sv(219) @ 2695000: uvm_test_top.env.scb [axi4_scoreboard] [REF_MEM_WRITE] Addr=0xbde29f01 Data=0x22
# UVM_INFO ../src/env/axi4_scoreboard.sv(219) @ 2695000: uvm_test_top.env.scb [axi4_scoreboard] [REF_MEM_WRITE] Addr=0xbde29f07 Data=0xf8
# UVM_INFO ../src/env/axi4_scoreboard.sv(219) @ 2695000: uvm_test_top.env.scb [axi4_scoreboard] [REF_MEM_WRITE] Addr=0xbde29f05 Data=0xdf
# UVM_INFO ../src/env/axi4_scoreboard.sv(219) @ 2695000: uvm_test_top.env.scb [axi4_scoreboard] [REF_MEM_WRITE] Addr=0xbde29f06 Data=0xbc
# UVM_INFO ../src/env/axi4_scoreboard.sv(219) @ 2695000: uvm_test_top.env.scb [axi4_scoreboard] [REF_MEM_WRITE] Addr=0xbde29f07 Data=0xd9
# UVM_INFO ../src/env/axi4_scoreboard.sv(219) @ 2695000: uvm_test_top.env.scb [axi4_scoreboard] [REF_MEM_WRITE] Addr=0xbde29f0a Data=0x15
# UVM_INFO ../src/env/axi4_scoreboard.sv(219) @ 2695000: uvm_test_top.env.scb [axi4_scoreboard] [REF_MEM_WRITE] Addr=0xbde29f0a Data=0xb3
# UVM_INFO ../src/env/axi4_scoreboard.sv(219) @ 2695000: uvm_test_top.env.scb [axi4_scoreboard] [REF_MEM_WRITE] Addr=0xbde29f0d Data=0xd5
# UVM_INFO ../src/env/axi4_scoreboard.sv(219) @ 2695000: uvm_test_top.env.scb [axi4_scoreboard] [REF_MEM_WRITE] Addr=0xbde29f0f Data=0x32
# UVM_INFO ../src/env/axi4_scoreboard.sv(219) @ 2695000: uvm_test_top.env.scb [axi4_scoreboard] [REF_MEM_WRITE] Addr=0xbde29f0e Data=0x6b
# UVM_INFO ../src/env/axi4_scoreboard.sv(219) @ 2695000: uvm_test_top.env.scb [axi4_scoreboard] [REF_MEM_WRITE] Addr=0xbde29f0f Data=0x70
# UVM_INFO ../src/env/axi4_scoreboard.sv(219) @ 2695000: uvm_test_top.env.scb [axi4_scoreboard] [REF_MEM_WRITE] Addr=0xbde29f10 Data=0x61
# UVM_INFO ../src/env/axi4_scoreboard.sv(219) @ 2695000: uvm_test_top.env.scb [axi4_scoreboard] [REF_MEM_WRITE] Addr=0xbde29f12 Data=0x37
# UVM_INFO ../src/env/axi4_scoreboard.sv(219) @ 2695000: uvm_test_top.env.scb [axi4_scoreboard] [REF_MEM_WRITE] Addr=0xbde29f13 Data=0xf8
# UVM_INFO ../src/env/axi4_scoreboard.sv(219) @ 2695000: uvm_test_top.env.scb [axi4_scoreboard] [REF_MEM_WRITE] Addr=0xbde29f10 Data=0xcf
# UVM_INFO ../src/env/axi4_scoreboard.sv(219) @ 2695000: uvm_test_top.env.scb [axi4_scoreboard] [REF_MEM_WRITE] Addr=0xbde29f11 Data=0x48
# UVM_INFO ../src/env/axi4_scoreboard.sv(219) @ 2695000: uvm_test_top.env.scb [axi4_scoreboard] [REF_MEM_WRITE] Addr=0xbde29f15 Data=0xa0
# UVM_INFO ../src/env/axi4_scoreboard.sv(219) @ 2695000: uvm_test_top.env.scb [axi4_scoreboard] [REF_MEM_WRITE] Addr=0xbde29f16 Data=0x0e
# UVM_INFO ../src/env/axi4_scoreboard.sv(219) @ 2695000: uvm_test_top.env.scb [axi4_scoreboard] [REF_MEM_WRITE] Addr=0xbde29f15 Data=0x56
# UVM_INFO ../src/env/axi4_scoreboard.sv(219) @ 2695000: uvm_test_top.env.scb [axi4_scoreboard] [REF_MEM_WRITE] Addr=0xbde29f16 Data=0x69
# UVM_INFO ../src/env/axi4_scoreboard.sv(219) @ 2695000: uvm_test_top.env.scb [axi4_scoreboard] [REF_MEM_WRITE] Addr=0xbde29f18 Data=0x0f
# UVM_INFO ../src/env/axi4_scoreboard.sv(219) @ 2695000: uvm_test_top.env.scb [axi4_scoreboard] [REF_MEM_WRITE] Addr=0xbde29f1b Data=0xaf
# UVM_INFO ../src/env/axi4_scoreboard.sv(219) @ 2695000: uvm_test_top.env.scb [axi4_scoreboard] [REF_MEM_WRITE] Addr=0xbde29f1c Data=0x3d
# UVM_INFO ../src/env/axi4_scoreboard.sv(219) @ 2695000: uvm_test_top.env.scb [axi4_scoreboard] [REF_MEM_WRITE] Addr=0xbde29f1d Data=0xec
# UVM_INFO ../src/env/axi4_scoreboard.sv(219) @ 2695000: uvm_test_top.env.scb [axi4_scoreboard] [REF_MEM_WRITE] Addr=0xbde29f1f Data=0xd2
# UVM_INFO ../src/env/axi4_scoreboard.sv(219) @ 2695000: uvm_test_top.env.scb [axi4_scoreboard] [REF_MEM_WRITE] Addr=0xbde29f1e Data=0x1b
# UVM_INFO ../src/env/axi4_scoreboard.sv(219) @ 2695000: uvm_test_top.env.scb [axi4_scoreboard] [REF_MEM_WRITE] Addr=0xbde29f20 Data=0x67
# UVM_INFO ../src/env/axi4_scoreboard.sv(219) @ 2695000: uvm_test_top.env.scb [axi4_scoreboard] [REF_MEM_WRITE] Addr=0xbde29f21 Data=0x9a
# UVM_INFO ../src/env/axi4_scoreboard.sv(219) @ 2695000: uvm_test_top.env.scb [axi4_scoreboard] [REF_MEM_WRITE] Addr=0xbde29f21 Data=0xdc
# UVM_INFO ../src/env/axi4_scoreboard.sv(219) @ 2695000: uvm_test_top.env.scb [axi4_scoreboard] [REF_MEM_WRITE] Addr=0xbde29f23 Data=0xe4
# UVM_INFO ../src/env/axi4_scoreboard.sv(219) @ 2695000: uvm_test_top.env.scb [axi4_scoreboard] [REF_MEM_WRITE] Addr=0xbde29f26 Data=0xef
# UVM_INFO ../src/env/axi4_scoreboard.sv(219) @ 2695000: uvm_test_top.env.scb [axi4_scoreboard] [REF_MEM_WRITE] Addr=0xbde29f27 Data=0x44
# UVM_INFO ../src/env/axi4_scoreboard.sv(219) @ 2695000: uvm_test_top.env.scb [axi4_scoreboard] [REF_MEM_WRITE] Addr=0xbde29f24 Data=0x6f
# UVM_INFO ../src/env/axi4_scoreboard.sv(219) @ 2695000: uvm_test_top.env.scb [axi4_scoreboard] [REF_MEM_WRITE] Addr=0xbde29f25 Data=0x95
# UVM_INFO ../src/env/axi4_scoreboard.sv(219) @ 2695000: uvm_test_top.env.scb [axi4_scoreboard] [REF_MEM_WRITE] Addr=0xbde29f26 Data=0x08
# UVM_INFO ../src/env/axi4_scoreboard.sv(219) @ 2695000: uvm_test_top.env.scb [axi4_scoreboard] [REF_MEM_WRITE] Addr=0xbde29f2b Data=0x50
# UVM_INFO ../src/env/axi4_scoreboard.sv(219) @ 2695000: uvm_test_top.env.scb [axi4_scoreboard] [REF_MEM_WRITE] Addr=0xbde29f28 Data=0xbd
# UVM_INFO ../src/env/axi4_scoreboard.sv(219) @ 2695000: uvm_test_top.env.scb [axi4_scoreboard] [REF_MEM_WRITE] Addr=0xbde29f2b Data=0x7c
# UVM_INFO ../src/env/axi4_scoreboard.sv(219) @ 2695000: uvm_test_top.env.scb [axi4_scoreboard] [REF_MEM_WRITE] Addr=0xbde29f2d Data=0x15
# UVM_INFO ../src/env/axi4_scoreboard.sv(219) @ 2695000: uvm_test_top.env.scb [axi4_scoreboard] [REF_MEM_WRITE] Addr=0xbde29f2e Data=0x6d
# UVM_INFO ../src/env/axi4_scoreboard.sv(219) @ 2695000: uvm_test_top.env.scb [axi4_scoreboard] [REF_MEM_WRITE] Addr=0xbde29f2f Data=0xb2
# UVM_INFO ../src/env/axi4_scoreboard.sv(219) @ 2695000: uvm_test_top.env.scb [axi4_scoreboard] [REF_MEM_WRITE] Addr=0xbde29f2c Data=0x6a
# UVM_INFO ../src/env/axi4_scoreboard.sv(219) @ 2695000: uvm_test_top.env.scb [axi4_scoreboard] [REF_MEM_WRITE] Addr=0xbde29f2e Data=0xae
# UVM_INFO ../src/env/axi4_scoreboard.sv(219) @ 2695000: uvm_test_top.env.scb [axi4_scoreboard] [REF_MEM_WRITE] Addr=0xbde29f30 Data=0xe2
# UVM_INFO ../src/env/axi4_scoreboard.sv(219) @ 2695000: uvm_test_top.env.scb [axi4_scoreboard] [REF_MEM_WRITE] Addr=0xbde29f31 Data=0x1a
# UVM_INFO ../src/env/axi4_scoreboard.sv(219) @ 2695000: uvm_test_top.env.scb [axi4_scoreboard] [REF_MEM_WRITE] Addr=0xbde29f32 Data=0xe4
# UVM_INFO ../src/env/axi4_scoreboard.sv(219) @ 2695000: uvm_test_top.env.scb [axi4_scoreboard] [REF_MEM_WRITE] Addr=0xbde29f33 Data=0xe8
# UVM_INFO ../src/env/axi4_scoreboard.sv(219) @ 2695000: uvm_test_top.env.scb [axi4_scoreboard] [REF_MEM_WRITE] Addr=0xbde29f31 Data=0xc6
# UVM_INFO ../src/env/axi4_scoreboard.sv(219) @ 2695000: uvm_test_top.env.scb [axi4_scoreboard] [REF_MEM_WRITE] Addr=0xbde29f32 Data=0xa1
# UVM_INFO ../src/env/axi4_scoreboard.sv(219) @ 2695000: uvm_test_top.env.scb [axi4_scoreboard] [REF_MEM_WRITE] Addr=0xbde29f33 Data=0xa8
# UVM_INFO ../src/env/axi4_scoreboard.sv(219) @ 2695000: uvm_test_top.env.scb [axi4_scoreboard] [REF_MEM_WRITE] Addr=0xbde29f37 Data=0xea
# UVM_INFO ../src/env/axi4_scoreboard.sv(219) @ 2695000: uvm_test_top.env.scb [axi4_scoreboard] [REF_MEM_WRITE] Addr=0xbde29f34 Data=0xf5
# UVM_INFO ../src/env/axi4_scoreboard.sv(219) @ 2695000: uvm_test_top.env.scb [axi4_scoreboard] [REF_MEM_WRITE] Addr=0xbde29f35 Data=0xdd
# UVM_INFO ../src/env/axi4_scoreboard.sv(219) @ 2695000: uvm_test_top.env.scb [axi4_scoreboard] [REF_MEM_WRITE] Addr=0xbde29f37 Data=0x30
# UVM_INFO ../src/env/axi4_scoreboard.sv(219) @ 2695000: uvm_test_top.env.scb [axi4_scoreboard] [REF_MEM_WRITE] Addr=0xbde29f38 Data=0xb1
# UVM_INFO ../src/env/axi4_scoreboard.sv(219) @ 2695000: uvm_test_top.env.scb [axi4_scoreboard] [REF_MEM_WRITE] Addr=0xbde29f39 Data=0x20
# UVM_INFO ../src/env/axi4_scoreboard.sv(219) @ 2695000: uvm_test_top.env.scb [axi4_scoreboard] [REF_MEM_WRITE] Addr=0xbde29f3a Data=0xd3
# UVM_INFO ../src/env/axi4_scoreboard.sv(219) @ 2695000: uvm_test_top.env.scb [axi4_scoreboard] [REF_MEM_WRITE] Addr=0xbde29f3e Data=0xda
# UVM_INFO ../src/env/axi4_scoreboard.sv(219) @ 2695000: uvm_test_top.env.scb [axi4_scoreboard] [REF_MEM_WRITE] Addr=0xbde29f3f Data=0x51
# UVM_INFO ../src/env/axi4_scoreboard.sv(219) @ 2695000: uvm_test_top.env.scb [axi4_scoreboard] [REF_MEM_WRITE] Addr=0xbde29f3d Data=0x2a
# UVM_INFO ../src/env/axi4_scoreboard.sv(219) @ 2695000: uvm_test_top.env.scb [axi4_scoreboard] [REF_MEM_WRITE] Addr=0xbde29f3e Data=0xf7
# UVM_INFO ../src/env/axi4_scoreboard.sv(219) @ 2695000: uvm_test_top.env.scb [axi4_scoreboard] [REF_MEM_WRITE] Addr=0xbde29f3f Data=0x84
# UVM_INFO ../src/env/axi4_scoreboard.sv(219) @ 2695000: uvm_test_top.env.scb [axi4_scoreboard] [REF_MEM_WRITE] Addr=0xbde29f41 Data=0x15
# UVM_INFO ../src/env/axi4_scoreboard.sv(219) @ 2695000: uvm_test_top.env.scb [axi4_scoreboard] [REF_MEM_WRITE] Addr=0xbde29f40 Data=0xbe
# UVM_INFO ../src/env/axi4_scoreboard.sv(219) @ 2695000: uvm_test_top.env.scb [axi4_scoreboard] [REF_MEM_WRITE] Addr=0xbde29f42 Data=0x66
# UVM_INFO ../src/env/axi4_scoreboard.sv(219) @ 2695000: uvm_test_top.env.scb [axi4_scoreboard] [REF_MEM_WRITE] Addr=0xbde29f45 Data=0x09
# UVM_INFO ../src/env/axi4_scoreboard.sv(219) @ 2695000: uvm_test_top.env.scb [axi4_scoreboard] [REF_MEM_WRITE] Addr=0xbde29f46 Data=0xe8
# UVM_INFO ../src/env/axi4_scoreboard.sv(219) @ 2695000: uvm_test_top.env.scb [axi4_scoreboard] [REF_MEM_WRITE] Addr=0xbde29f47 Data=0xb1
# UVM_INFO ../src/env/axi4_scoreboard.sv(219) @ 2695000: uvm_test_top.env.scb [axi4_scoreboard] [REF_MEM_WRITE] Addr=0xbde29f44 Data=0xd0
# UVM_INFO ../src/env/axi4_scoreboard.sv(219) @ 2695000: uvm_test_top.env.scb [axi4_scoreboard] [REF_MEM_WRITE] Addr=0xbde29f45 Data=0x28
# UVM_INFO ../src/env/axi4_scoreboard.sv(219) @ 2695000: uvm_test_top.env.scb [axi4_scoreboard] [REF_MEM_WRITE] Addr=0xbde29f49 Data=0x99
# UVM_INFO ../src/env/axi4_scoreboard.sv(219) @ 2695000: uvm_test_top.env.scb [axi4_scoreboard] [REF_MEM_WRITE] Addr=0xbde29f4a Data=0xfe
# UVM_INFO ../src/env/axi4_scoreboard.sv(219) @ 2695000: uvm_test_top.env.scb [axi4_scoreboard] [REF_MEM_WRITE] Addr=0xbde29f48 Data=0x17
# UVM_INFO ../src/env/axi4_scoreboard.sv(219) @ 2695000: uvm_test_top.env.scb [axi4_scoreboard] [REF_MEM_WRITE] Addr=0xbde29f49 Data=0xfe
# UVM_INFO ../src/env/axi4_scoreboard.sv(219) @ 2695000: uvm_test_top.env.scb [axi4_scoreboard] [REF_MEM_WRITE] Addr=0xbde29f4d Data=0x27
# UVM_INFO ../src/env/axi4_scoreboard.sv(219) @ 2695000: uvm_test_top.env.scb [axi4_scoreboard] [REF_MEM_WRITE] Addr=0xbde29f4e Data=0x8a
# UVM_INFO ../src/env/axi4_scoreboard.sv(219) @ 2695000: uvm_test_top.env.scb [axi4_scoreboard] [REF_MEM_WRITE] Addr=0xbde29f4f Data=0x87
# UVM_INFO ../src/env/axi4_scoreboard.sv(219) @ 2695000: uvm_test_top.env.scb [axi4_scoreboard] [REF_MEM_WRITE] Addr=0xbde29f4c Data=0xf5
# UVM_INFO ../src/env/axi4_scoreboard.sv(219) @ 2695000: uvm_test_top.env.scb [axi4_scoreboard] [REF_MEM_WRITE] Addr=0xbde29f52 Data=0xe8
# UVM_INFO ../src/env/axi4_scoreboard.sv(219) @ 2695000: uvm_test_top.env.scb [axi4_scoreboard] [REF_MEM_WRITE] Addr=0xbde29f50 Data=0xb8
# UVM_INFO ../src/env/axi4_scoreboard.sv(219) @ 2695000: uvm_test_top.env.scb [axi4_scoreboard] [REF_MEM_WRITE] Addr=0xbde29f53 Data=0x38
# UVM_INFO ../src/env/axi4_scoreboard.sv(219) @ 2695000: uvm_test_top.env.scb [axi4_scoreboard] [REF_MEM_WRITE] Addr=0xbde29f57 Data=0x36
# UVM_INFO ../src/env/axi4_scoreboard.sv(219) @ 2695000: uvm_test_top.env.scb [axi4_scoreboard] [REF_MEM_WRITE] Addr=0xbde29f54 Data=0xa4
# UVM_INFO ../src/env/axi4_scoreboard.sv(219) @ 2695000: uvm_test_top.env.scb [axi4_scoreboard] [REF_MEM_WRITE] Addr=0xbde29f56 Data=0x49
# UVM_INFO ../src/env/axi4_scoreboard.sv(219) @ 2695000: uvm_test_top.env.scb [axi4_scoreboard] [REF_MEM_WRITE] Addr=0xbde29f58 Data=0x41
# UVM_INFO ../src/env/axi4_scoreboard.sv(219) @ 2695000: uvm_test_top.env.scb [axi4_scoreboard] [REF_MEM_WRITE] Addr=0xbde29f5b Data=0x90
# UVM_INFO ../src/env/axi4_scoreboard.sv(219) @ 2695000: uvm_test_top.env.scb [axi4_scoreboard] [REF_MEM_WRITE] Addr=0xbde29f59 Data=0xcf
# UVM_INFO ../src/env/axi4_scoreboard.sv(219) @ 2695000: uvm_test_top.env.scb [axi4_scoreboard] [REF_MEM_WRITE] Addr=0xbde29f5a Data=0xd9
# UVM_INFO ../src/env/axi4_scoreboard.sv(219) @ 2695000: uvm_test_top.env.scb [axi4_scoreboard] [REF_MEM_WRITE] Addr=0xbde29f5d Data=0xf3
# UVM_INFO ../src/env/axi4_scoreboard.sv(219) @ 2695000: uvm_test_top.env.scb [axi4_scoreboard] [REF_MEM_WRITE] Addr=0xbde29f5e Data=0xdf
# UVM_INFO ../src/env/axi4_scoreboard.sv(219) @ 2695000: uvm_test_top.env.scb [axi4_scoreboard] [REF_MEM_WRITE] Addr=0xbde29f5c Data=0x7b
# UVM_INFO ../src/env/axi4_scoreboard.sv(219) @ 2695000: uvm_test_top.env.scb [axi4_scoreboard] [REF_MEM_WRITE] Addr=0xbde29f5d Data=0x93
# UVM_INFO ../src/env/axi4_scoreboard.sv(219) @ 2695000: uvm_test_top.env.scb [axi4_scoreboard] [REF_MEM_WRITE] Addr=0xbde29f5e Data=0x72
# UVM_INFO ../src/env/axi4_scoreboard.sv(219) @ 2695000: uvm_test_top.env.scb [axi4_scoreboard] [REF_MEM_WRITE] Addr=0xbde29f60 Data=0x5c
# UVM_INFO ../src/env/axi4_scoreboard.sv(219) @ 2695000: uvm_test_top.env.scb [axi4_scoreboard] [REF_MEM_WRITE] Addr=0xbde29f61 Data=0xba
# UVM_INFO ../src/env/axi4_scoreboard.sv(219) @ 2695000: uvm_test_top.env.scb [axi4_scoreboard] [REF_MEM_WRITE] Addr=0xbde29f63 Data=0x3e
# UVM_INFO ../src/env/axi4_scoreboard.sv(219) @ 2695000: uvm_test_top.env.scb [axi4_scoreboard] [REF_MEM_WRITE] Addr=0xbde29f61 Data=0xef
# UVM_INFO ../src/env/axi4_scoreboard.sv(219) @ 2695000: uvm_test_top.env.scb [axi4_scoreboard] [REF_MEM_WRITE] Addr=0xbde29f62 Data=0x9e
# UVM_INFO ../src/env/axi4_scoreboard.sv(219) @ 2695000: uvm_test_top.env.scb [axi4_scoreboard] [REF_MEM_WRITE] Addr=0xbde29f64 Data=0xf7
# UVM_INFO ../src/env/axi4_scoreboard.sv(219) @ 2695000: uvm_test_top.env.scb [axi4_scoreboard] [REF_MEM_WRITE] Addr=0xbde29f65 Data=0x8e
# UVM_INFO ../src/env/axi4_scoreboard.sv(219) @ 2695000: uvm_test_top.env.scb [axi4_scoreboard] [REF_MEM_WRITE] Addr=0xbde29f66 Data=0x43
# UVM_INFO ../src/env/axi4_scoreboard.sv(219) @ 2695000: uvm_test_top.env.scb [axi4_scoreboard] [REF_MEM_WRITE] Addr=0xbde29f67 Data=0xc7
# UVM_INFO ../src/env/axi4_scoreboard.sv(219) @ 2695000: uvm_test_top.env.scb [axi4_scoreboard] [REF_MEM_WRITE] Addr=0xbde29f64 Data=0x8b
# UVM_INFO ../src/env/axi4_scoreboard.sv(219) @ 2695000: uvm_test_top.env.scb [axi4_scoreboard] [REF_MEM_WRITE] Addr=0xbde29f66 Data=0x02
# UVM_INFO ../src/env/axi4_scoreboard.sv(219) @ 2695000: uvm_test_top.env.scb [axi4_scoreboard] [REF_MEM_WRITE] Addr=0xbde29f67 Data=0x2a
# UVM_INFO ../src/env/axi4_scoreboard.sv(219) @ 2695000: uvm_test_top.env.scb [axi4_scoreboard] [REF_MEM_WRITE] Addr=0xbde29f6b Data=0x05
# UVM_INFO ../src/env/axi4_scoreboard.sv(219) @ 2695000: uvm_test_top.env.scb [axi4_scoreboard] [REF_MEM_WRITE] Addr=0xbde29f69 Data=0xfa
# UVM_INFO ../src/env/axi4_scoreboard.sv(219) @ 2695000: uvm_test_top.env.scb [axi4_scoreboard] [REF_MEM_WRITE] Addr=0xbde29f6a Data=0x02
# UVM_INFO ../src/env/axi4_scoreboard.sv(219) @ 2695000: uvm_test_top.env.scb [axi4_scoreboard] [REF_MEM_WRITE] Addr=0xbde29f6b Data=0x9e
# UVM_INFO ../src/env/axi4_scoreboard.sv(219) @ 2695000: uvm_test_top.env.scb [axi4_scoreboard] [REF_MEM_WRITE] Addr=0xbde29f6c Data=0x6b
# UVM_INFO ../src/env/axi4_scoreboard.sv(219) @ 2695000: uvm_test_top.env.scb [axi4_scoreboard] [REF_MEM_WRITE] Addr=0xbde29f6d Data=0x7b
# UVM_INFO ../src/env/axi4_scoreboard.sv(219) @ 2695000: uvm_test_top.env.scb [axi4_scoreboard] [REF_MEM_WRITE] Addr=0xbde29f6d Data=0xca
# UVM_INFO ../src/env/axi4_scoreboard.sv(219) @ 2695000: uvm_test_top.env.scb [axi4_scoreboard] [REF_MEM_WRITE] Addr=0xbde29f6e Data=0xb3
# UVM_INFO ../src/env/axi4_scoreboard.sv(219) @ 2695000: uvm_test_top.env.scb [axi4_scoreboard] [REF_MEM_WRITE] Addr=0xbde29f73 Data=0xe8
# UVM_INFO ../src/env/axi4_scoreboard.sv(219) @ 2695000: uvm_test_top.env.scb [axi4_scoreboard] [REF_MEM_WRITE] Addr=0xbde29f74 Data=0x07
# UVM_INFO ../src/env/axi4_scoreboard.sv(219) @ 2695000: uvm_test_top.env.scb [axi4_scoreboard] [REF_MEM_WRITE] Addr=0xbde29f76 Data=0xdd
# UVM_INFO ../src/env/axi4_scoreboard.sv(219) @ 2695000: uvm_test_top.env.scb [axi4_scoreboard] [REF_MEM_WRITE] Addr=0xbde29f77 Data=0xc6
# UVM_INFO ../src/env/axi4_scoreboard.sv(219) @ 2695000: uvm_test_top.env.scb [axi4_scoreboard] [REF_MEM_WRITE] Addr=0xbde29f78 Data=0x46
# UVM_INFO ../src/env/axi4_scoreboard.sv(219) @ 2695000: uvm_test_top.env.scb [axi4_scoreboard] [REF_MEM_WRITE] Addr=0xbde29f79 Data=0x75
# UVM_INFO ../src/env/axi4_scoreboard.sv(219) @ 2695000: uvm_test_top.env.scb [axi4_scoreboard] [REF_MEM_WRITE] Addr=0xbde29f7b Data=0x80
# UVM_INFO ../src/env/axi4_scoreboard.sv(219) @ 2695000: uvm_test_top.env.scb [axi4_scoreboard] [REF_MEM_WRITE] Addr=0xbde29f7c Data=0x78
# UVM_INFO ../src/env/axi4_scoreboard.sv(219) @ 2695000: uvm_test_top.env.scb [axi4_scoreboard] [REF_MEM_WRITE] Addr=0xbde29f7d Data=0x83
# UVM_INFO ../src/env/axi4_scoreboard.sv(219) @ 2695000: uvm_test_top.env.scb [axi4_scoreboard] [REF_MEM_WRITE] Addr=0xbde29f7f Data=0x3d
# UVM_INFO ../src/env/axi4_scoreboard.sv(219) @ 2695000: uvm_test_top.env.scb [axi4_scoreboard] [REF_MEM_WRITE] Addr=0xbde29f80 Data=0x2d
# UVM_INFO ../src/env/axi4_scoreboard.sv(219) @ 2695000: uvm_test_top.env.scb [axi4_scoreboard] [REF_MEM_WRITE] Addr=0xbde29f80 Data=0x17
# UVM_INFO ../src/env/axi4_scoreboard.sv(219) @ 2695000: uvm_test_top.env.scb [axi4_scoreboard] [REF_MEM_WRITE] Addr=0xbde29f82 Data=0x8d
# UVM_INFO ../src/env/axi4_scoreboard.sv(219) @ 2695000: uvm_test_top.env.scb [axi4_scoreboard] [REF_MEM_WRITE] Addr=0xbde29f84 Data=0xc9
# UVM_INFO ../src/env/axi4_scoreboard.sv(219) @ 2695000: uvm_test_top.env.scb [axi4_scoreboard] [REF_MEM_WRITE] Addr=0xbde29f85 Data=0x58
# UVM_INFO ../src/env/axi4_scoreboard.sv(219) @ 2695000: uvm_test_top.env.scb [axi4_scoreboard] [REF_MEM_WRITE] Addr=0xbde29f86 Data=0x17
# UVM_INFO ../src/env/axi4_scoreboard.sv(219) @ 2695000: uvm_test_top.env.scb [axi4_scoreboard] [REF_MEM_WRITE] Addr=0xbde29f87 Data=0x5f
# UVM_INFO ../src/env/axi4_scoreboard.sv(219) @ 2695000: uvm_test_top.env.scb [axi4_scoreboard] [REF_MEM_WRITE] Addr=0xbde29f84 Data=0x43
# UVM_INFO ../src/env/axi4_scoreboard.sv(219) @ 2695000: uvm_test_top.env.scb [axi4_scoreboard] [REF_MEM_WRITE] Addr=0xbde29f87 Data=0xfd
# UVM_INFO ../src/env/axi4_scoreboard.sv(219) @ 2695000: uvm_test_top.env.scb [axi4_scoreboard] [REF_MEM_WRITE] Addr=0xbde29f88 Data=0xe1
# UVM_INFO ../src/env/axi4_scoreboard.sv(219) @ 2695000: uvm_test_top.env.scb [axi4_scoreboard] [REF_MEM_WRITE] Addr=0xbde29f8b Data=0x83
# UVM_INFO ../src/env/axi4_scoreboard.sv(219) @ 2695000: uvm_test_top.env.scb [axi4_scoreboard] [REF_MEM_WRITE] Addr=0xbde29f8e Data=0x41
# UVM_INFO ../src/env/axi4_scoreboard.sv(219) @ 2695000: uvm_test_top.env.scb [axi4_scoreboard] [REF_MEM_WRITE] Addr=0xbde29f8f Data=0x28
# UVM_INFO ../src/env/axi4_scoreboard.sv(219) @ 2695000: uvm_test_top.env.scb [axi4_scoreboard] [REF_MEM_WRITE] Addr=0xbde29f8c Data=0xea
# UVM_INFO ../src/env/axi4_scoreboard.sv(219) @ 2695000: uvm_test_top.env.scb [axi4_scoreboard] [REF_MEM_WRITE] Addr=0xbde29f8f Data=0x73
# UVM_INFO ../src/env/axi4_scoreboard.sv(219) @ 2695000: uvm_test_top.env.scb [axi4_scoreboard] [REF_MEM_WRITE] Addr=0xbde29f90 Data=0x80
# UVM_INFO ../src/env/axi4_scoreboard.sv(219) @ 2695000: uvm_test_top.env.scb [axi4_scoreboard] [REF_MEM_WRITE] Addr=0xbde29f91 Data=0x86
# UVM_INFO ../src/env/axi4_scoreboard.sv(219) @ 2695000: uvm_test_top.env.scb [axi4_scoreboard] [REF_MEM_WRITE] Addr=0xbde29f92 Data=0xae
# UVM_INFO ../src/env/axi4_scoreboard.sv(219) @ 2695000: uvm_test_top.env.scb [axi4_scoreboard] [REF_MEM_WRITE] Addr=0xbde29f91 Data=0x1d
# UVM_INFO ../src/env/axi4_scoreboard.sv(219) @ 2695000: uvm_test_top.env.scb [axi4_scoreboard] [REF_MEM_WRITE] Addr=0xbde29f96 Data=0x5d
# UVM_INFO ../src/env/axi4_scoreboard.sv(219) @ 2695000: uvm_test_top.env.scb [axi4_scoreboard] [REF_MEM_WRITE] Addr=0xbde29f94 Data=0xd0
# UVM_INFO ../src/env/axi4_scoreboard.sv(219) @ 2695000: uvm_test_top.env.scb [axi4_scoreboard] [REF_MEM_WRITE] Addr=0xbde29f97 Data=0x54
# UVM_INFO ../src/env/axi4_scoreboard.sv(219) @ 2695000: uvm_test_top.env.scb [axi4_scoreboard] [REF_MEM_WRITE] Addr=0xbde29f98 Data=0x7a
# UVM_INFO ../src/env/axi4_scoreboard.sv(219) @ 2695000: uvm_test_top.env.scb [axi4_scoreboard] [REF_MEM_WRITE] Addr=0xbde29f99 Data=0x03
# UVM_INFO ../src/env/axi4_scoreboard.sv(219) @ 2695000: uvm_test_top.env.scb [axi4_scoreboard] [REF_MEM_WRITE] Addr=0xbde29f9a Data=0xa4
# UVM_INFO ../src/env/axi4_scoreboard.sv(219) @ 2695000: uvm_test_top.env.scb [axi4_scoreboard] [REF_MEM_WRITE] Addr=0xbde29f98 Data=0x24
# UVM_INFO ../src/env/axi4_scoreboard.sv(219) @ 2695000: uvm_test_top.env.scb [axi4_scoreboard] [REF_MEM_WRITE] Addr=0xbde29f9a Data=0x9b
# UVM_INFO ../src/env/axi4_scoreboard.sv(219) @ 2695000: uvm_test_top.env.scb [axi4_scoreboard] [REF_MEM_WRITE] Addr=0xbde29f9d Data=0x9d
# UVM_INFO ../src/env/axi4_scoreboard.sv(219) @ 2695000: uvm_test_top.env.scb [axi4_scoreboard] [REF_MEM_WRITE] Addr=0xbde29f9f Data=0x70
# UVM_INFO ../src/env/axi4_scoreboard.sv(219) @ 2695000: uvm_test_top.env.scb [axi4_scoreboard] [REF_MEM_WRITE] Addr=0xbde29f9e Data=0x5a
# UVM_INFO ../src/env/axi4_scoreboard.sv(219) @ 2695000: uvm_test_top.env.scb [axi4_scoreboard] [REF_MEM_WRITE] Addr=0xbde29fa0 Data=0x61
# UVM_INFO ../src/env/axi4_scoreboard.sv(219) @ 2695000: uvm_test_top.env.scb [axi4_scoreboard] [REF_MEM_WRITE] Addr=0xbde29fa1 Data=0x84
# UVM_INFO ../src/env/axi4_scoreboard.sv(219) @ 2695000: uvm_test_top.env.scb [axi4_scoreboard] [REF_MEM_WRITE] Addr=0xbde29fa2 Data=0x96
# UVM_INFO ../src/env/axi4_scoreboard.sv(219) @ 2695000: uvm_test_top.env.scb [axi4_scoreboard] [REF_MEM_WRITE] Addr=0xbde29fa0 Data=0x1e
# UVM_INFO ../src/env/axi4_scoreboard.sv(219) @ 2695000: uvm_test_top.env.scb [axi4_scoreboard] [REF_MEM_WRITE] Addr=0xbde29fa1 Data=0xc9
# UVM_INFO ../src/env/axi4_scoreboard.sv(219) @ 2695000: uvm_test_top.env.scb [axi4_scoreboard] [REF_MEM_WRITE] Addr=0xbde29fa2 Data=0x35
# UVM_INFO ../src/env/axi4_scoreboard.sv(219) @ 2695000: uvm_test_top.env.scb [axi4_scoreboard] [REF_MEM_WRITE] Addr=0xbde29fa3 Data=0xdc
# UVM_INFO ../src/env/axi4_scoreboard.sv(219) @ 2695000: uvm_test_top.env.scb [axi4_scoreboard] [REF_MEM_WRITE] Addr=0xbde29fa5 Data=0xcc
# UVM_INFO ../src/env/axi4_scoreboard.sv(219) @ 2695000: uvm_test_top.env.scb [axi4_scoreboard] [REF_MEM_WRITE] Addr=0xbde29fa6 Data=0xe5
# UVM_INFO ../src/env/axi4_scoreboard.sv(219) @ 2695000: uvm_test_top.env.scb [axi4_scoreboard] [REF_MEM_WRITE] Addr=0xbde29fa4 Data=0x04
# UVM_INFO ../src/env/axi4_scoreboard.sv(219) @ 2695000: uvm_test_top.env.scb [axi4_scoreboard] [REF_MEM_WRITE] Addr=0xbde29fa5 Data=0x02
# UVM_INFO ../src/env/axi4_scoreboard.sv(219) @ 2695000: uvm_test_top.env.scb [axi4_scoreboard] [REF_MEM_WRITE] Addr=0xbde29fa7 Data=0x89
# UVM_INFO ../src/env/axi4_scoreboard.sv(219) @ 2695000: uvm_test_top.env.scb [axi4_scoreboard] [REF_MEM_WRITE] Addr=0xbde29fa8 Data=0xf1
# UVM_INFO ../src/env/axi4_scoreboard.sv(219) @ 2695000: uvm_test_top.env.scb [axi4_scoreboard] [REF_MEM_WRITE] Addr=0xbde29fa9 Data=0x4a
# UVM_INFO ../src/env/axi4_scoreboard.sv(219) @ 2695000: uvm_test_top.env.scb [axi4_scoreboard] [REF_MEM_WRITE] Addr=0xbde29fad Data=0xc8
# UVM_INFO ../src/env/axi4_scoreboard.sv(219) @ 2695000: uvm_test_top.env.scb [axi4_scoreboard] [REF_MEM_WRITE] Addr=0xbde29faf Data=0x26
# UVM_INFO ../src/env/axi4_scoreboard.sv(219) @ 2695000: uvm_test_top.env.scb [axi4_scoreboard] [REF_MEM_WRITE] Addr=0xbde29fb0 Data=0x7b
# UVM_INFO ../src/env/axi4_scoreboard.sv(219) @ 2695000: uvm_test_top.env.scb [axi4_scoreboard] [REF_MEM_WRITE] Addr=0xbde29fb2 Data=0xad
# UVM_INFO ../src/env/axi4_scoreboard.sv(219) @ 2695000: uvm_test_top.env.scb [axi4_scoreboard] [REF_MEM_WRITE] Addr=0xbde29fb2 Data=0x41
# UVM_INFO ../src/env/axi4_scoreboard.sv(219) @ 2695000: uvm_test_top.env.scb [axi4_scoreboard] [REF_MEM_WRITE] Addr=0xbde29fb4 Data=0x73
# UVM_INFO ../src/env/axi4_scoreboard.sv(219) @ 2695000: uvm_test_top.env.scb [axi4_scoreboard] [REF_MEM_WRITE] Addr=0xbde29fb5 Data=0x03
# UVM_INFO ../src/env/axi4_scoreboard.sv(219) @ 2695000: uvm_test_top.env.scb [axi4_scoreboard] [REF_MEM_WRITE] Addr=0xbde29fb7 Data=0x41
# UVM_INFO ../src/env/axi4_scoreboard.sv(219) @ 2695000: uvm_test_top.env.scb [axi4_scoreboard] [REF_MEM_WRITE] Addr=0xbde29fb4 Data=0x38
# UVM_INFO ../src/env/axi4_scoreboard.sv(219) @ 2695000: uvm_test_top.env.scb [axi4_scoreboard] [REF_MEM_WRITE] Addr=0xbde29fb5 Data=0x30
# UVM_INFO ../src/env/axi4_scoreboard.sv(219) @ 2695000: uvm_test_top.env.scb [axi4_scoreboard] [REF_MEM_WRITE] Addr=0xbde29fb6 Data=0x4b
# UVM_INFO ../src/env/axi4_scoreboard.sv(219) @ 2695000: uvm_test_top.env.scb [axi4_scoreboard] [REF_MEM_WRITE] Addr=0xbde29fb8 Data=0x19
# UVM_INFO ../src/env/axi4_scoreboard.sv(219) @ 2695000: uvm_test_top.env.scb [axi4_scoreboard] [REF_MEM_WRITE] Addr=0xbde29fb9 Data=0x1f
# UVM_INFO ../src/env/axi4_scoreboard.sv(219) @ 2695000: uvm_test_top.env.scb [axi4_scoreboard] [REF_MEM_WRITE] Addr=0xbde29fba Data=0x84
# UVM_INFO ../src/env/axi4_scoreboard.sv(219) @ 2695000: uvm_test_top.env.scb [axi4_scoreboard] [REF_MEM_WRITE] Addr=0xbde29fbc Data=0x4f
# UVM_INFO ../src/env/axi4_scoreboard.sv(219) @ 2695000: uvm_test_top.env.scb [axi4_scoreboard] [REF_MEM_WRITE] Addr=0xbde29fbf Data=0xb2
# UVM_INFO ../src/env/axi4_scoreboard.sv(219) @ 2695000: uvm_test_top.env.scb [axi4_scoreboard] [REF_MEM_WRITE] Addr=0xbde29fbc Data=0x9f
# UVM_INFO ../src/env/axi4_scoreboard.sv(219) @ 2695000: uvm_test_top.env.scb [axi4_scoreboard] [REF_MEM_WRITE] Addr=0xbde29fbf Data=0x61
# UVM_INFO ../src/env/axi4_scoreboard.sv(219) @ 2695000: uvm_test_top.env.scb [axi4_scoreboard] [REF_MEM_WRITE] Addr=0xbde29fc0 Data=0xf6
# UVM_INFO ../src/env/axi4_scoreboard.sv(219) @ 2695000: uvm_test_top.env.scb [axi4_scoreboard] [REF_MEM_WRITE] Addr=0xbde29fc3 Data=0xf2
# UVM_INFO ../src/env/axi4_scoreboard.sv(219) @ 2695000: uvm_test_top.env.scb [axi4_scoreboard] [REF_MEM_WRITE] Addr=0xbde29fc1 Data=0x7d
# UVM_INFO ../src/env/axi4_scoreboard.sv(219) @ 2695000: uvm_test_top.env.scb [axi4_scoreboard] [REF_MEM_WRITE] Addr=0xbde29fc2 Data=0x78
# UVM_INFO ../src/env/axi4_scoreboard.sv(219) @ 2695000: uvm_test_top.env.scb [axi4_scoreboard] [REF_MEM_WRITE] Addr=0xbde29fc3 Data=0x9d
# UVM_INFO ../src/env/axi4_scoreboard.sv(219) @ 2695000: uvm_test_top.env.scb [axi4_scoreboard] [REF_MEM_WRITE] Addr=0xbde29fc5 Data=0x5d
# UVM_INFO ../src/env/axi4_scoreboard.sv(219) @ 2695000: uvm_test_top.env.scb [axi4_scoreboard] [REF_MEM_WRITE] Addr=0xbde29fc6 Data=0xf0
# UVM_INFO ../src/env/axi4_scoreboard.sv(219) @ 2695000: uvm_test_top.env.scb [axi4_scoreboard] [REF_MEM_WRITE] Addr=0xbde29fc7 Data=0x6f
# UVM_INFO ../src/env/axi4_scoreboard.sv(219) @ 2695000: uvm_test_top.env.scb [axi4_scoreboard] [REF_MEM_WRITE] Addr=0xbde29fc5 Data=0xaa
# UVM_INFO ../src/env/axi4_scoreboard.sv(219) @ 2695000: uvm_test_top.env.scb [axi4_scoreboard] [REF_MEM_WRITE] Addr=0xbde29fc6 Data=0xab
# UVM_INFO ../src/env/axi4_scoreboard.sv(219) @ 2695000: uvm_test_top.env.scb [axi4_scoreboard] [REF_MEM_WRITE] Addr=0xbde29fc9 Data=0x2c
# UVM_INFO ../src/env/axi4_scoreboard.sv(219) @ 2695000: uvm_test_top.env.scb [axi4_scoreboard] [REF_MEM_WRITE] Addr=0xbde29fca Data=0x92
# UVM_INFO ../src/env/axi4_scoreboard.sv(219) @ 2695000: uvm_test_top.env.scb [axi4_scoreboard] [REF_MEM_WRITE] Addr=0xbde29fc8 Data=0x0e
# UVM_INFO ../src/env/axi4_scoreboard.sv(219) @ 2695000: uvm_test_top.env.scb [axi4_scoreboard] [REF_MEM_WRITE] Addr=0xbde29fc9 Data=0xdd
# UVM_INFO ../src/env/axi4_scoreboard.sv(219) @ 2695000: uvm_test_top.env.scb [axi4_scoreboard] [REF_MEM_WRITE] Addr=0xbde29fcb Data=0x12
# UVM_INFO ../src/env/axi4_scoreboard.sv(219) @ 2695000: uvm_test_top.env.scb [axi4_scoreboard] [REF_MEM_WRITE] Addr=0xbde29fcc Data=0xa7
# UVM_INFO ../src/env/axi4_scoreboard.sv(219) @ 2695000: uvm_test_top.env.scb [axi4_scoreboard] [REF_MEM_WRITE] Addr=0xbde29fcf Data=0x4e
# UVM_INFO ../src/env/axi4_scoreboard.sv(219) @ 2695000: uvm_test_top.env.scb [axi4_scoreboard] [REF_MEM_WRITE] Addr=0xbde29fcc Data=0xce
# UVM_INFO ../src/env/axi4_scoreboard.sv(219) @ 2695000: uvm_test_top.env.scb [axi4_scoreboard] [REF_MEM_WRITE] Addr=0xbde29fce Data=0x4e
# UVM_INFO ../src/env/axi4_scoreboard.sv(219) @ 2695000: uvm_test_top.env.scb [axi4_scoreboard] [REF_MEM_WRITE] Addr=0xbde29fcf Data=0x2e
# UVM_INFO ../src/env/axi4_scoreboard.sv(219) @ 2695000: uvm_test_top.env.scb [axi4_scoreboard] [REF_MEM_WRITE] Addr=0xbde29fd0 Data=0xc7
# UVM_INFO ../src/env/axi4_scoreboard.sv(219) @ 2695000: uvm_test_top.env.scb [axi4_scoreboard] [REF_MEM_WRITE] Addr=0xbde29fd2 Data=0xce
# UVM_INFO ../src/env/axi4_scoreboard.sv(219) @ 2695000: uvm_test_top.env.scb [axi4_scoreboard] [REF_MEM_WRITE] Addr=0xbde29fd3 Data=0x44
# UVM_INFO ../src/seq/axi4_out_of_order_seq.sv(82) @ 2695000: uvm_test_top.env.master_agent.sqr@@ooo_seq [axi4_out_of_order_seq] OOO Write [#3] complete: ID=0x3 RESP=AXI4_RESP_OKAY
# UVM_INFO ../src/seq/axi4_out_of_order_seq.sv(72) @ 2695000: uvm_test_top.env.master_agent.sqr@@ooo_seq [axi4_out_of_order_seq] OOO Write [#4] started: ID=0x4 ADDR=0xadbbc441 LEN=202
# UVM_INFO ../src/mst/axi4_master_driver.sv(73) @ 2695000: uvm_test_top.env.master_agent.drv [axi4_master_driver] Driving AXI4_WRITE  ID=0x4  ADDR=0xadbbc441  LEN=202
# UVM_INFO ../src/mst/axi4_master_driver.sv(348) @ 3025000: uvm_test_top.env.master_agent.drv [axi4_master_driver] Master driver received all R beats for ID=0x3
# UVM_INFO ../src/slv/axi4_slave_driver.sv(464) @ 3025000: uvm_test_top.env.slave_agent.drv [axi4_slave_driver] Read complete: ID=0x3 ADDR=0x21000ac7 RESP=AXI4_RESP_EXOKAY  144 beats sent
# UVM_INFO ../src/mst/axi4_master_monitor.sv(314) @ 3025000: uvm_test_top.env.master_agent.mon [axi4_master_monitor] Read complete: ID=0x3 ADDR=0x21000ac7 144 beats
# UVM_INFO ../src/env/axi4_scoreboard.sv(87) @ 3025000: uvm_test_top.env.scb [axi4_scoreboard] Master AXI4_READ received: ID=0x3 ADDR=0x21000ac7 LEN=143
# UVM_INFO ../src/slv/axi4_slave_monitor.sv(287) @ 3025000: uvm_test_top.env.slave_agent.mon [axi4_slave_monitor] Read data sent: ID=0x3 ADDR=0x21000ac7 144 beats
# UVM_INFO ../src/env/axi4_scoreboard.sv(108) @ 3025000: uvm_test_top.env.scb [axi4_scoreboard] Slave AXI4_READ received: ID=0x3 ADDR=0x21000ac7 LEN=143
# UVM_INFO ../src/env/axi4_scoreboard.sv(291) @ 3025000: uvm_test_top.env.scb [axi4_scoreboard] [READ] MATCH #2: ID=0x3 ADDR=0x21000ac7 LEN=143
# UVM_INFO ../src/seq/axi4_out_of_order_seq.sv(120) @ 3025000: uvm_test_top.env.master_agent.sqr@@ooo_seq [axi4_out_of_order_seq] OOO Read [#3] complete: ID=0x3
# UVM_INFO ../src/seq/axi4_out_of_order_seq.sv(111) @ 3025000: uvm_test_top.env.master_agent.sqr@@ooo_seq [axi4_out_of_order_seq] OOO Read [#4] started: ID=0x4 ADDR=0xe597a7f3 LEN=163
# UVM_INFO ../src/mst/axi4_master_driver.sv(73) @ 3025000: uvm_test_top.env.master_agent.drv [axi4_master_driver] Driving AXI4_READ  ID=0x4  ADDR=0xe597a7f3  LEN=163
# UVM_INFO ../src/slv/axi4_slave_driver.sv(358) @ 3055000: uvm_test_top.env.slave_agent.drv [axi4_slave_driver] AR received: ID=0x4 ADDR=0xe597a7f3 LEN=163 LOCK=AXI4_LOCK_NORMAL
# UVM_INFO ../src/slv/axi4_slave_monitor.sv(224) @ 3055000: uvm_test_top.env.slave_agent.mon [axi4_slave_monitor] AR received: ID=0x4 ADDR=0xe597a7f3 LEN=163
# UVM_INFO ../src/mst/axi4_master_monitor.sv(246) @ 3055000: uvm_test_top.env.master_agent.mon [axi4_master_monitor] AR observed: ID=0x4 ADDR=0xe597a7f3 LEN=163
# UVM_INFO ../src/mst/axi4_master_monitor.sv(184) @ 4245000: uvm_test_top.env.master_agent.mon [axi4_master_monitor] W data assembled: ID=0x2 ADDR=0xece873bb 79 beats
# UVM_INFO ../src/slv/axi4_slave_monitor.sv(167) @ 4245000: uvm_test_top.env.slave_agent.mon [axi4_slave_monitor] W data assembled: ID=0x2 ADDR=0xece873bb 79 beats
# UVM_INFO ../src/mst/axi4_master_driver.sv(289) @ 4275000: uvm_test_top.env.master_agent.drv [axi4_master_driver] Master driver received B response: ID=0x2 RESP=AXI4_RESP_SLVERR
# UVM_INFO ../src/slv/axi4_slave_driver.sv(320) @ 4275000: uvm_test_top.env.slave_agent.drv [axi4_slave_driver] Write complete: ID=0x2 RESP=AXI4_RESP_SLVERR
# UVM_INFO ../src/slv/axi4_slave_monitor.sv(189) @ 4275000: uvm_test_top.env.slave_agent.mon [axi4_slave_monitor] Write response sent: ID=0x2 ADDR=0xece873bb RESP=AXI4_RESP_SLVERR
# UVM_INFO ../src/env/axi4_scoreboard.sv(108) @ 4275000: uvm_test_top.env.scb [axi4_scoreboard] Slave AXI4_WRITE received: ID=0x2 ADDR=0xece873bb LEN=78
# UVM_INFO ../src/mst/axi4_master_monitor.sv(210) @ 4275000: uvm_test_top.env.master_agent.mon [axi4_master_monitor] Write complete: ID=0x2 ADDR=0xece873bb RESP=AXI4_RESP_SLVERR
# UVM_INFO ../src/env/axi4_scoreboard.sv(87) @ 4275000: uvm_test_top.env.scb [axi4_scoreboard] Master AXI4_WRITE received: ID=0x2 ADDR=0xece873bb LEN=78
# UVM_INFO ../src/env/axi4_scoreboard.sv(291) @ 4275000: uvm_test_top.env.scb [axi4_scoreboard] [WRITE] MATCH #3: ID=0x2 ADDR=0xece873bb LEN=78
# UVM_INFO ../src/env/axi4_scoreboard.sv(226) @ 4275000: uvm_test_top.env.scb [axi4_scoreboard] [REF_MEM_WRITE_IGNORED] Write ignored for ADDR=0xece873bb LOCK=AXI4_LOCK_EXCLUSIVE RESP=AXI4_RESP_SLVERR
# UVM_INFO ../src/seq/axi4_out_of_order_seq.sv(82) @ 4275000: uvm_test_top.env.master_agent.sqr@@ooo_seq [axi4_out_of_order_seq] OOO Write [#2] complete: ID=0x2 RESP=AXI4_RESP_SLVERR
# UVM_INFO ../src/seq/axi4_out_of_order_seq.sv(72) @ 4275000: uvm_test_top.env.master_agent.sqr@@ooo_seq [axi4_out_of_order_seq] OOO Write [#5] started: ID=0x5 ADDR=0x191be25b LEN=157
# UVM_INFO ../src/mst/axi4_master_driver.sv(73) @ 4275000: uvm_test_top.env.master_agent.drv [axi4_master_driver] Driving AXI4_WRITE  ID=0x5  ADDR=0x191be25b  LEN=157
# UVM_INFO ../src/mst/axi4_master_monitor.sv(184) @ 5545000: uvm_test_top.env.master_agent.mon [axi4_master_monitor] W data assembled: ID=0x1 ADDR=0x156d1f73 65 beats
# UVM_INFO ../src/slv/axi4_slave_monitor.sv(167) @ 5545000: uvm_test_top.env.slave_agent.mon [axi4_slave_monitor] W data assembled: ID=0x1 ADDR=0x156d1f73 65 beats
# UVM_INFO ../src/mst/axi4_master_driver.sv(348) @ 5565000: uvm_test_top.env.master_agent.drv [axi4_master_driver] Master driver received all R beats for ID=0x2
# UVM_INFO ../src/slv/axi4_slave_driver.sv(464) @ 5565000: uvm_test_top.env.slave_agent.drv [axi4_slave_driver] Read complete: ID=0x2 ADDR=0x83caa67a RESP=AXI4_RESP_EXOKAY  127 beats sent
# UVM_INFO ../src/mst/axi4_master_monitor.sv(314) @ 5565000: uvm_test_top.env.master_agent.mon [axi4_master_monitor] Read complete: ID=0x2 ADDR=0x83caa67a 127 beats
# UVM_INFO ../src/env/axi4_scoreboard.sv(87) @ 5565000: uvm_test_top.env.scb [axi4_scoreboard] Master AXI4_READ received: ID=0x2 ADDR=0x83caa67a LEN=126
# UVM_INFO ../src/slv/axi4_slave_monitor.sv(287) @ 5565000: uvm_test_top.env.slave_agent.mon [axi4_slave_monitor] Read data sent: ID=0x2 ADDR=0x83caa67a 127 beats
# UVM_INFO ../src/env/axi4_scoreboard.sv(108) @ 5565000: uvm_test_top.env.scb [axi4_scoreboard] Slave AXI4_READ received: ID=0x2 ADDR=0x83caa67a LEN=126
# UVM_INFO ../src/env/axi4_scoreboard.sv(291) @ 5565000: uvm_test_top.env.scb [axi4_scoreboard] [READ] MATCH #4: ID=0x2 ADDR=0x83caa67a LEN=126
# UVM_INFO ../src/seq/axi4_out_of_order_seq.sv(120) @ 5565000: uvm_test_top.env.master_agent.sqr@@ooo_seq [axi4_out_of_order_seq] OOO Read [#2] complete: ID=0x2
# UVM_INFO ../src/seq/axi4_out_of_order_seq.sv(111) @ 5565000: uvm_test_top.env.master_agent.sqr@@ooo_seq [axi4_out_of_order_seq] OOO Read [#5] started: ID=0x5 ADDR=0x07c9c3fb LEN=254
# UVM_INFO ../src/mst/axi4_master_driver.sv(73) @ 5565000: uvm_test_top.env.master_agent.drv [axi4_master_driver] Driving AXI4_READ  ID=0x5  ADDR=0x07c9c3fb  LEN=254
# UVM_INFO ../src/mst/axi4_master_driver.sv(289) @ 5575000: uvm_test_top.env.master_agent.drv [axi4_master_driver] Master driver received B response: ID=0x1 RESP=AXI4_RESP_OKAY
# UVM_INFO ../src/slv/axi4_slave_driver.sv(320) @ 5575000: uvm_test_top.env.slave_agent.drv [axi4_slave_driver] Write complete: ID=0x1 RESP=AXI4_RESP_OKAY
# UVM_INFO ../src/slv/axi4_slave_monitor.sv(189) @ 5575000: uvm_test_top.env.slave_agent.mon [axi4_slave_monitor] Write response sent: ID=0x1 ADDR=0x156d1f73 RESP=AXI4_RESP_OKAY
# UVM_INFO ../src/env/axi4_scoreboard.sv(108) @ 5575000: uvm_test_top.env.scb [axi4_scoreboard] Slave AXI4_WRITE received: ID=0x1 ADDR=0x156d1f73 LEN=64
# UVM_INFO ../src/mst/axi4_master_monitor.sv(210) @ 5575000: uvm_test_top.env.master_agent.mon [axi4_master_monitor] Write complete: ID=0x1 ADDR=0x156d1f73 RESP=AXI4_RESP_OKAY
# UVM_INFO ../src/env/axi4_scoreboard.sv(87) @ 5575000: uvm_test_top.env.scb [axi4_scoreboard] Master AXI4_WRITE received: ID=0x1 ADDR=0x156d1f73 LEN=64
# UVM_INFO ../src/env/axi4_scoreboard.sv(291) @ 5575000: uvm_test_top.env.scb [axi4_scoreboard] [WRITE] MATCH #5: ID=0x1 ADDR=0x156d1f73 LEN=64
# UVM_INFO ../src/env/axi4_scoreboard.sv(219) @ 5575000: uvm_test_top.env.scb [axi4_scoreboard] [REF_MEM_WRITE] Addr=0x156d1f71 Data=0x79
# UVM_INFO ../src/env/axi4_scoreboard.sv(219) @ 5575000: uvm_test_top.env.scb [axi4_scoreboard] [REF_MEM_WRITE] Addr=0x156d1f72 Data=0x2a
# UVM_INFO ../src/env/axi4_scoreboard.sv(219) @ 5575000: uvm_test_top.env.scb [axi4_scoreboard] [REF_MEM_WRITE] Addr=0x156d1f76 Data=0x8d
# UVM_INFO ../src/env/axi4_scoreboard.sv(219) @ 5575000: uvm_test_top.env.scb [axi4_scoreboard] [REF_MEM_WRITE] Addr=0x156d1f77 Data=0x9f
# UVM_INFO ../src/env/axi4_scoreboard.sv(219) @ 5575000: uvm_test_top.env.scb [axi4_scoreboard] [REF_MEM_WRITE] Addr=0x156d1f78 Data=0x0b
# UVM_INFO ../src/env/axi4_scoreboard.sv(219) @ 5575000: uvm_test_top.env.scb [axi4_scoreboard] [REF_MEM_WRITE] Addr=0x156d1f79 Data=0x2f
# UVM_INFO ../src/env/axi4_scoreboard.sv(219) @ 5575000: uvm_test_top.env.scb [axi4_scoreboard] [REF_MEM_WRITE] Addr=0x156d1f7a Data=0xe4
# UVM_INFO ../src/env/axi4_scoreboard.sv(219) @ 5575000: uvm_test_top.env.scb [axi4_scoreboard] [REF_MEM_WRITE] Addr=0x156d1f7e Data=0x48
# UVM_INFO ../src/env/axi4_scoreboard.sv(219) @ 5575000: uvm_test_top.env.scb [axi4_scoreboard] [REF_MEM_WRITE] Addr=0x156d1f7f Data=0x8b
# UVM_INFO ../src/env/axi4_scoreboard.sv(219) @ 5575000: uvm_test_top.env.scb [axi4_scoreboard] [REF_MEM_WRITE] Addr=0x156d1f83 Data=0xbf
# UVM_INFO ../src/env/axi4_scoreboard.sv(219) @ 5575000: uvm_test_top.env.scb [axi4_scoreboard] [REF_MEM_WRITE] Addr=0x156d1f84 Data=0x58
# UVM_INFO ../src/env/axi4_scoreboard.sv(219) @ 5575000: uvm_test_top.env.scb [axi4_scoreboard] [REF_MEM_WRITE] Addr=0x156d1f86 Data=0x69
# UVM_INFO ../src/env/axi4_scoreboard.sv(219) @ 5575000: uvm_test_top.env.scb [axi4_scoreboard] [REF_MEM_WRITE] Addr=0x156d1f87 Data=0x64
# UVM_INFO ../src/env/axi4_scoreboard.sv(219) @ 5575000: uvm_test_top.env.scb [axi4_scoreboard] [REF_MEM_WRITE] Addr=0x156d1f8a Data=0x0f
# UVM_INFO ../src/env/axi4_scoreboard.sv(219) @ 5575000: uvm_test_top.env.scb [axi4_scoreboard] [REF_MEM_WRITE] Addr=0x156d1f8c Data=0x43
# UVM_INFO ../src/env/axi4_scoreboard.sv(219) @ 5575000: uvm_test_top.env.scb [axi4_scoreboard] [REF_MEM_WRITE] Addr=0x156d1f90 Data=0xf4
# UVM_INFO ../src/env/axi4_scoreboard.sv(219) @ 5575000: uvm_test_top.env.scb [axi4_scoreboard] [REF_MEM_WRITE] Addr=0x156d1f91 Data=0x95
# UVM_INFO ../src/env/axi4_scoreboard.sv(219) @ 5575000: uvm_test_top.env.scb [axi4_scoreboard] [REF_MEM_WRITE] Addr=0x156d1f97 Data=0x13
# UVM_INFO ../src/env/axi4_scoreboard.sv(219) @ 5575000: uvm_test_top.env.scb [axi4_scoreboard] [REF_MEM_WRITE] Addr=0x156d1f98 Data=0xcc
# UVM_INFO ../src/env/axi4_scoreboard.sv(219) @ 5575000: uvm_test_top.env.scb [axi4_scoreboard] [REF_MEM_WRITE] Addr=0x156d1f99 Data=0xd0
# UVM_INFO ../src/env/axi4_scoreboard.sv(219) @ 5575000: uvm_test_top.env.scb [axi4_scoreboard] [REF_MEM_WRITE] Addr=0x156d1f9a Data=0xef
# UVM_INFO ../src/env/axi4_scoreboard.sv(219) @ 5575000: uvm_test_top.env.scb [axi4_scoreboard] [REF_MEM_WRITE] Addr=0x156d1f9b Data=0xc7
# UVM_INFO ../src/env/axi4_scoreboard.sv(219) @ 5575000: uvm_test_top.env.scb [axi4_scoreboard] [REF_MEM_WRITE] Addr=0x156d1f9e Data=0xcf
# UVM_INFO ../src/env/axi4_scoreboard.sv(219) @ 5575000: uvm_test_top.env.scb [axi4_scoreboard] [REF_MEM_WRITE] Addr=0x156d1fa0 Data=0x4e
# UVM_INFO ../src/env/axi4_scoreboard.sv(219) @ 5575000: uvm_test_top.env.scb [axi4_scoreboard] [REF_MEM_WRITE] Addr=0x156d1fa2 Data=0xa2
# UVM_INFO ../src/env/axi4_scoreboard.sv(219) @ 5575000: uvm_test_top.env.scb [axi4_scoreboard] [REF_MEM_WRITE] Addr=0x156d1fa3 Data=0x1f
# UVM_INFO ../src/env/axi4_scoreboard.sv(219) @ 5575000: uvm_test_top.env.scb [axi4_scoreboard] [REF_MEM_WRITE] Addr=0x156d1fa4 Data=0x15
# UVM_INFO ../src/env/axi4_scoreboard.sv(219) @ 5575000: uvm_test_top.env.scb [axi4_scoreboard] [REF_MEM_WRITE] Addr=0x156d1fa5 Data=0x2f
# UVM_INFO ../src/env/axi4_scoreboard.sv(219) @ 5575000: uvm_test_top.env.scb [axi4_scoreboard] [REF_MEM_WRITE] Addr=0x156d1fa6 Data=0xf9
# UVM_INFO ../src/env/axi4_scoreboard.sv(219) @ 5575000: uvm_test_top.env.scb [axi4_scoreboard] [REF_MEM_WRITE] Addr=0x156d1fa8 Data=0x04
# UVM_INFO ../src/env/axi4_scoreboard.sv(219) @ 5575000: uvm_test_top.env.scb [axi4_scoreboard] [REF_MEM_WRITE] Addr=0x156d1fa9 Data=0x53
# UVM_INFO ../src/env/axi4_scoreboard.sv(219) @ 5575000: uvm_test_top.env.scb [axi4_scoreboard] [REF_MEM_WRITE] Addr=0x156d1fab Data=0xa5
# UVM_INFO ../src/env/axi4_scoreboard.sv(219) @ 5575000: uvm_test_top.env.scb [axi4_scoreboard] [REF_MEM_WRITE] Addr=0x156d1fad Data=0x00
# UVM_INFO ../src/env/axi4_scoreboard.sv(219) @ 5575000: uvm_test_top.env.scb [axi4_scoreboard] [REF_MEM_WRITE] Addr=0x156d1fb1 Data=0xb9
# UVM_INFO ../src/env/axi4_scoreboard.sv(219) @ 5575000: uvm_test_top.env.scb [axi4_scoreboard] [REF_MEM_WRITE] Addr=0x156d1fb3 Data=0x4a
# UVM_INFO ../src/env/axi4_scoreboard.sv(219) @ 5575000: uvm_test_top.env.scb [axi4_scoreboard] [REF_MEM_WRITE] Addr=0x156d1fb6 Data=0x0b
# UVM_INFO ../src/env/axi4_scoreboard.sv(219) @ 5575000: uvm_test_top.env.scb [axi4_scoreboard] [REF_MEM_WRITE] Addr=0x156d1fb9 Data=0xff
# UVM_INFO ../src/env/axi4_scoreboard.sv(219) @ 5575000: uvm_test_top.env.scb [axi4_scoreboard] [REF_MEM_WRITE] Addr=0x156d1fbb Data=0xd2
# UVM_INFO ../src/env/axi4_scoreboard.sv(219) @ 5575000: uvm_test_top.env.scb [axi4_scoreboard] [REF_MEM_WRITE] Addr=0x156d1fc0 Data=0x53
# UVM_INFO ../src/env/axi4_scoreboard.sv(219) @ 5575000: uvm_test_top.env.scb [axi4_scoreboard] [REF_MEM_WRITE] Addr=0x156d1fc1 Data=0x04
# UVM_INFO ../src/env/axi4_scoreboard.sv(219) @ 5575000: uvm_test_top.env.scb [axi4_scoreboard] [REF_MEM_WRITE] Addr=0x156d1fc2 Data=0xf6
# UVM_INFO ../src/env/axi4_scoreboard.sv(219) @ 5575000: uvm_test_top.env.scb [axi4_scoreboard] [REF_MEM_WRITE] Addr=0x156d1fc3 Data=0x92
# UVM_INFO ../src/env/axi4_scoreboard.sv(219) @ 5575000: uvm_test_top.env.scb [axi4_scoreboard] [REF_MEM_WRITE] Addr=0x156d1fc4 Data=0x6d
# UVM_INFO ../src/env/axi4_scoreboard.sv(219) @ 5575000: uvm_test_top.env.scb [axi4_scoreboard] [REF_MEM_WRITE] Addr=0x156d1fc5 Data=0x53
# UVM_INFO ../src/env/axi4_scoreboard.sv(219) @ 5575000: uvm_test_top.env.scb [axi4_scoreboard] [REF_MEM_WRITE] Addr=0x156d1fca Data=0x45
# UVM_INFO ../src/env/axi4_scoreboard.sv(219) @ 5575000: uvm_test_top.env.scb [axi4_scoreboard] [REF_MEM_WRITE] Addr=0x156d1fcd Data=0x67
# UVM_INFO ../src/env/axi4_scoreboard.sv(219) @ 5575000: uvm_test_top.env.scb [axi4_scoreboard] [REF_MEM_WRITE] Addr=0x156d1fd0 Data=0x8c
# UVM_INFO ../src/env/axi4_scoreboard.sv(219) @ 5575000: uvm_test_top.env.scb [axi4_scoreboard] [REF_MEM_WRITE] Addr=0x156d1fd3 Data=0x36
# UVM_INFO ../src/env/axi4_scoreboard.sv(219) @ 5575000: uvm_test_top.env.scb [axi4_scoreboard] [REF_MEM_WRITE] Addr=0x156d1fd4 Data=0x69
# UVM_INFO ../src/env/axi4_scoreboard.sv(219) @ 5575000: uvm_test_top.env.scb [axi4_scoreboard] [REF_MEM_WRITE] Addr=0x156d1fd5 Data=0x20
# UVM_INFO ../src/env/axi4_scoreboard.sv(219) @ 5575000: uvm_test_top.env.scb [axi4_scoreboard] [REF_MEM_WRITE] Addr=0x156d1fd6 Data=0xa6
# UVM_INFO ../src/env/axi4_scoreboard.sv(219) @ 5575000: uvm_test_top.env.scb [axi4_scoreboard] [REF_MEM_WRITE] Addr=0x156d1fdd Data=0xa6
# UVM_INFO ../src/env/axi4_scoreboard.sv(219) @ 5575000: uvm_test_top.env.scb [axi4_scoreboard] [REF_MEM_WRITE] Addr=0x156d1fde Data=0xcf
# UVM_INFO ../src/env/axi4_scoreboard.sv(219) @ 5575000: uvm_test_top.env.scb [axi4_scoreboard] [REF_MEM_WRITE] Addr=0x156d1fe0 Data=0xe4
# UVM_INFO ../src/env/axi4_scoreboard.sv(219) @ 5575000: uvm_test_top.env.scb [axi4_scoreboard] [REF_MEM_WRITE] Addr=0x156d1fe2 Data=0x44
# UVM_INFO ../src/env/axi4_scoreboard.sv(219) @ 5575000: uvm_test_top.env.scb [axi4_scoreboard] [REF_MEM_WRITE] Addr=0x156d1fe5 Data=0xb7
# UVM_INFO ../src/env/axi4_scoreboard.sv(219) @ 5575000: uvm_test_top.env.scb [axi4_scoreboard] [REF_MEM_WRITE] Addr=0x156d1fe6 Data=0xb6
# UVM_INFO ../src/env/axi4_scoreboard.sv(219) @ 5575000: uvm_test_top.env.scb [axi4_scoreboard] [REF_MEM_WRITE] Addr=0x156d1fe8 Data=0xd4
# UVM_INFO ../src/env/axi4_scoreboard.sv(219) @ 5575000: uvm_test_top.env.scb [axi4_scoreboard] [REF_MEM_WRITE] Addr=0x156d1fe9 Data=0x28
# UVM_INFO ../src/env/axi4_scoreboard.sv(219) @ 5575000: uvm_test_top.env.scb [axi4_scoreboard] [REF_MEM_WRITE] Addr=0x156d1fea Data=0x07
# UVM_INFO ../src/env/axi4_scoreboard.sv(219) @ 5575000: uvm_test_top.env.scb [axi4_scoreboard] [REF_MEM_WRITE] Addr=0x156d1feb Data=0x08
# UVM_INFO ../src/env/axi4_scoreboard.sv(219) @ 5575000: uvm_test_top.env.scb [axi4_scoreboard] [REF_MEM_WRITE] Addr=0x156d1fec Data=0xf6
# UVM_INFO ../src/env/axi4_scoreboard.sv(219) @ 5575000: uvm_test_top.env.scb [axi4_scoreboard] [REF_MEM_WRITE] Addr=0x156d1fee Data=0x0b
# UVM_INFO ../src/env/axi4_scoreboard.sv(219) @ 5575000: uvm_test_top.env.scb [axi4_scoreboard] [REF_MEM_WRITE] Addr=0x156d1fef Data=0x3e
# UVM_INFO ../src/env/axi4_scoreboard.sv(219) @ 5575000: uvm_test_top.env.scb [axi4_scoreboard] [REF_MEM_WRITE] Addr=0x156d1ff3 Data=0x96
# UVM_INFO ../src/env/axi4_scoreboard.sv(219) @ 5575000: uvm_test_top.env.scb [axi4_scoreboard] [REF_MEM_WRITE] Addr=0x156d1ff5 Data=0x03
# UVM_INFO ../src/env/axi4_scoreboard.sv(219) @ 5575000: uvm_test_top.env.scb [axi4_scoreboard] [REF_MEM_WRITE] Addr=0x156d1ff6 Data=0xe6
# UVM_INFO ../src/env/axi4_scoreboard.sv(219) @ 5575000: uvm_test_top.env.scb [axi4_scoreboard] [REF_MEM_WRITE] Addr=0x156d1ff7 Data=0xaf
# UVM_INFO ../src/env/axi4_scoreboard.sv(219) @ 5575000: uvm_test_top.env.scb [axi4_scoreboard] [REF_MEM_WRITE] Addr=0x156d1ffa Data=0x9b
# UVM_INFO ../src/env/axi4_scoreboard.sv(219) @ 5575000: uvm_test_top.env.scb [axi4_scoreboard] [REF_MEM_WRITE] Addr=0x156d1ffb Data=0x29
# UVM_INFO ../src/env/axi4_scoreboard.sv(219) @ 5575000: uvm_test_top.env.scb [axi4_scoreboard] [REF_MEM_WRITE] Addr=0x156d1ffc Data=0x08
# UVM_INFO ../src/env/axi4_scoreboard.sv(219) @ 5575000: uvm_test_top.env.scb [axi4_scoreboard] [REF_MEM_WRITE] Addr=0x156d1ffe Data=0x1d
# UVM_INFO ../src/env/axi4_scoreboard.sv(219) @ 5575000: uvm_test_top.env.scb [axi4_scoreboard] [REF_MEM_WRITE] Addr=0x156d1fff Data=0xe2
# UVM_INFO ../src/env/axi4_scoreboard.sv(219) @ 5575000: uvm_test_top.env.scb [axi4_scoreboard] [REF_MEM_WRITE] Addr=0x156d2001 Data=0x01
# UVM_INFO ../src/env/axi4_scoreboard.sv(219) @ 5575000: uvm_test_top.env.scb [axi4_scoreboard] [REF_MEM_WRITE] Addr=0x156d2002 Data=0x9f
# UVM_INFO ../src/env/axi4_scoreboard.sv(219) @ 5575000: uvm_test_top.env.scb [axi4_scoreboard] [REF_MEM_WRITE] Addr=0x156d2003 Data=0x4b
# UVM_INFO ../src/env/axi4_scoreboard.sv(219) @ 5575000: uvm_test_top.env.scb [axi4_scoreboard] [REF_MEM_WRITE] Addr=0x156d2006 Data=0x85
# UVM_INFO ../src/env/axi4_scoreboard.sv(219) @ 5575000: uvm_test_top.env.scb [axi4_scoreboard] [REF_MEM_WRITE] Addr=0x156d2008 Data=0x86
# UVM_INFO ../src/env/axi4_scoreboard.sv(219) @ 5575000: uvm_test_top.env.scb [axi4_scoreboard] [REF_MEM_WRITE] Addr=0x156d2009 Data=0xad
# UVM_INFO ../src/env/axi4_scoreboard.sv(219) @ 5575000: uvm_test_top.env.scb [axi4_scoreboard] [REF_MEM_WRITE] Addr=0x156d200c Data=0xb5
# UVM_INFO ../src/env/axi4_scoreboard.sv(219) @ 5575000: uvm_test_top.env.scb [axi4_scoreboard] [REF_MEM_WRITE] Addr=0x156d200e Data=0xc5
# UVM_INFO ../src/env/axi4_scoreboard.sv(219) @ 5575000: uvm_test_top.env.scb [axi4_scoreboard] [REF_MEM_WRITE] Addr=0x156d2010 Data=0x07
# UVM_INFO ../src/env/axi4_scoreboard.sv(219) @ 5575000: uvm_test_top.env.scb [axi4_scoreboard] [REF_MEM_WRITE] Addr=0x156d2013 Data=0x59
# UVM_INFO ../src/env/axi4_scoreboard.sv(219) @ 5575000: uvm_test_top.env.scb [axi4_scoreboard] [REF_MEM_WRITE] Addr=0x156d2015 Data=0x2f
# UVM_INFO ../src/env/axi4_scoreboard.sv(219) @ 5575000: uvm_test_top.env.scb [axi4_scoreboard] [REF_MEM_WRITE] Addr=0x156d2016 Data=0x78
# UVM_INFO ../src/env/axi4_scoreboard.sv(219) @ 5575000: uvm_test_top.env.scb [axi4_scoreboard] [REF_MEM_WRITE] Addr=0x156d2017 Data=0x89
# UVM_INFO ../src/env/axi4_scoreboard.sv(219) @ 5575000: uvm_test_top.env.scb [axi4_scoreboard] [REF_MEM_WRITE] Addr=0x156d2019 Data=0x10
# UVM_INFO ../src/env/axi4_scoreboard.sv(219) @ 5575000: uvm_test_top.env.scb [axi4_scoreboard] [REF_MEM_WRITE] Addr=0x156d201d Data=0x60
# UVM_INFO ../src/env/axi4_scoreboard.sv(219) @ 5575000: uvm_test_top.env.scb [axi4_scoreboard] [REF_MEM_WRITE] Addr=0x156d2020 Data=0xbc
# UVM_INFO ../src/env/axi4_scoreboard.sv(219) @ 5575000: uvm_test_top.env.scb [axi4_scoreboard] [REF_MEM_WRITE] Addr=0x156d2022 Data=0x00
# UVM_INFO ../src/env/axi4_scoreboard.sv(219) @ 5575000: uvm_test_top.env.scb [axi4_scoreboard] [REF_MEM_WRITE] Addr=0x156d2023 Data=0x23
# UVM_INFO ../src/env/axi4_scoreboard.sv(219) @ 5575000: uvm_test_top.env.scb [axi4_scoreboard] [REF_MEM_WRITE] Addr=0x156d2026 Data=0xd0
# UVM_INFO ../src/env/axi4_scoreboard.sv(219) @ 5575000: uvm_test_top.env.scb [axi4_scoreboard] [REF_MEM_WRITE] Addr=0x156d202a Data=0x5d
# UVM_INFO ../src/env/axi4_scoreboard.sv(219) @ 5575000: uvm_test_top.env.scb [axi4_scoreboard] [REF_MEM_WRITE] Addr=0x156d202c Data=0x7e
# UVM_INFO ../src/env/axi4_scoreboard.sv(219) @ 5575000: uvm_test_top.env.scb [axi4_scoreboard] [REF_MEM_WRITE] Addr=0x156d202d Data=0x49
# UVM_INFO ../src/env/axi4_scoreboard.sv(219) @ 5575000: uvm_test_top.env.scb [axi4_scoreboard] [REF_MEM_WRITE] Addr=0x156d2030 Data=0x9e
# UVM_INFO ../src/env/axi4_scoreboard.sv(219) @ 5575000: uvm_test_top.env.scb [axi4_scoreboard] [REF_MEM_WRITE] Addr=0x156d2031 Data=0x94
# UVM_INFO ../src/env/axi4_scoreboard.sv(219) @ 5575000: uvm_test_top.env.scb [axi4_scoreboard] [REF_MEM_WRITE] Addr=0x156d2034 Data=0xed
# UVM_INFO ../src/env/axi4_scoreboard.sv(219) @ 5575000: uvm_test_top.env.scb [axi4_scoreboard] [REF_MEM_WRITE] Addr=0x156d2035 Data=0x7a
# UVM_INFO ../src/env/axi4_scoreboard.sv(219) @ 5575000: uvm_test_top.env.scb [axi4_scoreboard] [REF_MEM_WRITE] Addr=0x156d2036 Data=0x19
# UVM_INFO ../src/env/axi4_scoreboard.sv(219) @ 5575000: uvm_test_top.env.scb [axi4_scoreboard] [REF_MEM_WRITE] Addr=0x156d2039 Data=0x4f
# UVM_INFO ../src/env/axi4_scoreboard.sv(219) @ 5575000: uvm_test_top.env.scb [axi4_scoreboard] [REF_MEM_WRITE] Addr=0x156d203c Data=0x1a
# UVM_INFO ../src/env/axi4_scoreboard.sv(219) @ 5575000: uvm_test_top.env.scb [axi4_scoreboard] [REF_MEM_WRITE] Addr=0x156d203d Data=0x01
# UVM_INFO ../src/env/axi4_scoreboard.sv(219) @ 5575000: uvm_test_top.env.scb [axi4_scoreboard] [REF_MEM_WRITE] Addr=0x156d203e Data=0x05
# UVM_INFO ../src/env/axi4_scoreboard.sv(219) @ 5575000: uvm_test_top.env.scb [axi4_scoreboard] [REF_MEM_WRITE] Addr=0x156d2040 Data=0x11
# UVM_INFO ../src/env/axi4_scoreboard.sv(219) @ 5575000: uvm_test_top.env.scb [axi4_scoreboard] [REF_MEM_WRITE] Addr=0x156d2044 Data=0x84
# UVM_INFO ../src/env/axi4_scoreboard.sv(219) @ 5575000: uvm_test_top.env.scb [axi4_scoreboard] [REF_MEM_WRITE] Addr=0x156d2048 Data=0x76
# UVM_INFO ../src/env/axi4_scoreboard.sv(219) @ 5575000: uvm_test_top.env.scb [axi4_scoreboard] [REF_MEM_WRITE] Addr=0x156d2049 Data=0x6c
# UVM_INFO ../src/env/axi4_scoreboard.sv(219) @ 5575000: uvm_test_top.env.scb [axi4_scoreboard] [REF_MEM_WRITE] Addr=0x156d204c Data=0xe4
# UVM_INFO ../src/env/axi4_scoreboard.sv(219) @ 5575000: uvm_test_top.env.scb [axi4_scoreboard] [REF_MEM_WRITE] Addr=0x156d204d Data=0xab
# UVM_INFO ../src/env/axi4_scoreboard.sv(219) @ 5575000: uvm_test_top.env.scb [axi4_scoreboard] [REF_MEM_WRITE] Addr=0x156d204f Data=0xe7
# UVM_INFO ../src/env/axi4_scoreboard.sv(219) @ 5575000: uvm_test_top.env.scb [axi4_scoreboard] [REF_MEM_WRITE] Addr=0x156d2050 Data=0x6c
# UVM_INFO ../src/env/axi4_scoreboard.sv(219) @ 5575000: uvm_test_top.env.scb [axi4_scoreboard] [REF_MEM_WRITE] Addr=0x156d2051 Data=0x7c
# UVM_INFO ../src/env/axi4_scoreboard.sv(219) @ 5575000: uvm_test_top.env.scb [axi4_scoreboard] [REF_MEM_WRITE] Addr=0x156d2053 Data=0x08
# UVM_INFO ../src/env/axi4_scoreboard.sv(219) @ 5575000: uvm_test_top.env.scb [axi4_scoreboard] [REF_MEM_WRITE] Addr=0x156d2054 Data=0x9e
# UVM_INFO ../src/env/axi4_scoreboard.sv(219) @ 5575000: uvm_test_top.env.scb [axi4_scoreboard] [REF_MEM_WRITE] Addr=0x156d2057 Data=0x4a
# UVM_INFO ../src/env/axi4_scoreboard.sv(219) @ 5575000: uvm_test_top.env.scb [axi4_scoreboard] [REF_MEM_WRITE] Addr=0x156d2059 Data=0xae
# UVM_INFO ../src/env/axi4_scoreboard.sv(219) @ 5575000: uvm_test_top.env.scb [axi4_scoreboard] [REF_MEM_WRITE] Addr=0x156d205a Data=0xb5
# UVM_INFO ../src/env/axi4_scoreboard.sv(219) @ 5575000: uvm_test_top.env.scb [axi4_scoreboard] [REF_MEM_WRITE] Addr=0x156d2060 Data=0xc8
# UVM_INFO ../src/env/axi4_scoreboard.sv(219) @ 5575000: uvm_test_top.env.scb [axi4_scoreboard] [REF_MEM_WRITE] Addr=0x156d2062 Data=0xb9
# UVM_INFO ../src/env/axi4_scoreboard.sv(219) @ 5575000: uvm_test_top.env.scb [axi4_scoreboard] [REF_MEM_WRITE] Addr=0x156d2064 Data=0x9e
# UVM_INFO ../src/env/axi4_scoreboard.sv(219) @ 5575000: uvm_test_top.env.scb [axi4_scoreboard] [REF_MEM_WRITE] Addr=0x156d2065 Data=0x6c
# UVM_INFO ../src/env/axi4_scoreboard.sv(219) @ 5575000: uvm_test_top.env.scb [axi4_scoreboard] [REF_MEM_WRITE] Addr=0x156d2067 Data=0x92
# UVM_INFO ../src/env/axi4_scoreboard.sv(219) @ 5575000: uvm_test_top.env.scb [axi4_scoreboard] [REF_MEM_WRITE] Addr=0x156d2068 Data=0x66
# UVM_INFO ../src/env/axi4_scoreboard.sv(219) @ 5575000: uvm_test_top.env.scb [axi4_scoreboard] [REF_MEM_WRITE] Addr=0x156d206a Data=0xfd
# UVM_INFO ../src/env/axi4_scoreboard.sv(219) @ 5575000: uvm_test_top.env.scb [axi4_scoreboard] [REF_MEM_WRITE] Addr=0x156d206b Data=0x19
# UVM_INFO ../src/env/axi4_scoreboard.sv(219) @ 5575000: uvm_test_top.env.scb [axi4_scoreboard] [REF_MEM_WRITE] Addr=0x156d206c Data=0xea
# UVM_INFO ../src/env/axi4_scoreboard.sv(219) @ 5575000: uvm_test_top.env.scb [axi4_scoreboard] [REF_MEM_WRITE] Addr=0x156d206d Data=0x9b
# UVM_INFO ../src/env/axi4_scoreboard.sv(219) @ 5575000: uvm_test_top.env.scb [axi4_scoreboard] [REF_MEM_WRITE] Addr=0x156d206f Data=0x87
# UVM_INFO ../src/env/axi4_scoreboard.sv(219) @ 5575000: uvm_test_top.env.scb [axi4_scoreboard] [REF_MEM_WRITE] Addr=0x156d2070 Data=0x18
# UVM_INFO ../src/env/axi4_scoreboard.sv(219) @ 5575000: uvm_test_top.env.scb [axi4_scoreboard] [REF_MEM_WRITE] Addr=0x156d2071 Data=0xdc
# UVM_INFO ../src/env/axi4_scoreboard.sv(219) @ 5575000: uvm_test_top.env.scb [axi4_scoreboard] [REF_MEM_WRITE] Addr=0x156d2072 Data=0xf1
# UVM_INFO ../src/seq/axi4_out_of_order_seq.sv(82) @ 5575000: uvm_test_top.env.master_agent.sqr@@ooo_seq [axi4_out_of_order_seq] OOO Write [#1] complete: ID=0x1 RESP=AXI4_RESP_OKAY
# UVM_INFO ../src/seq/axi4_out_of_order_seq.sv(72) @ 5575000: uvm_test_top.env.master_agent.sqr@@ooo_seq [axi4_out_of_order_seq] OOO Write [#6] started: ID=0x6 ADDR=0xbd3830fe LEN=0
# UVM_INFO ../src/mst/axi4_master_driver.sv(73) @ 5575000: uvm_test_top.env.master_agent.drv [axi4_master_driver] Driving AXI4_WRITE  ID=0x6  ADDR=0xbd3830fe  LEN=0
# UVM_INFO ../src/slv/axi4_slave_driver.sv(358) @ 5595000: uvm_test_top.env.slave_agent.drv [axi4_slave_driver] AR received: ID=0x5 ADDR=0x07c9c3fb LEN=254 LOCK=AXI4_LOCK_NORMAL
# UVM_INFO ../src/slv/axi4_slave_monitor.sv(224) @ 5595000: uvm_test_top.env.slave_agent.mon [axi4_slave_monitor] AR received: ID=0x5 ADDR=0x07c9c3fb LEN=254
# UVM_INFO ../src/mst/axi4_master_monitor.sv(246) @ 5595000: uvm_test_top.env.master_agent.mon [axi4_master_monitor] AR observed: ID=0x5 ADDR=0x07c9c3fb LEN=254
# UVM_INFO ../src/slv/axi4_slave_driver.sv(212) @ 5605000: uvm_test_top.env.slave_agent.drv [axi4_slave_driver] AW received: ID=0x0 ADDR=0x9920ebca LEN=78 LOCK=AXI4_LOCK_EXCLUSIVE
# UVM_INFO ../src/mst/axi4_master_monitor.sv(124) @ 5605000: uvm_test_top.env.master_agent.mon [axi4_master_monitor] AW observed: ID=0x0 ADDR=0x9920ebca LEN=78
# UVM_INFO ../src/slv/axi4_slave_monitor.sv(116) @ 5605000: uvm_test_top.env.slave_agent.mon [axi4_slave_monitor] AW received: ID=0x0 ADDR=0x9920ebca LEN=78
# UVM_INFO ../src/slv/axi4_slave_driver.sv(212) @ 5635000: uvm_test_top.env.slave_agent.drv [axi4_slave_driver] AW received: ID=0x4 ADDR=0xadbbc441 LEN=202 LOCK=AXI4_LOCK_EXCLUSIVE
# UVM_INFO ../src/slv/axi4_slave_monitor.sv(116) @ 5635000: uvm_test_top.env.slave_agent.mon [axi4_slave_monitor] AW received: ID=0x4 ADDR=0xadbbc441 LEN=202
# UVM_INFO ../src/mst/axi4_master_monitor.sv(124) @ 5635000: uvm_test_top.env.master_agent.mon [axi4_master_monitor] AW observed: ID=0x4 ADDR=0xadbbc441 LEN=202
# UVM_INFO ../src/slv/axi4_slave_driver.sv(212) @ 5665000: uvm_test_top.env.slave_agent.drv [axi4_slave_driver] AW received: ID=0x5 ADDR=0x191be25b LEN=157 LOCK=AXI4_LOCK_EXCLUSIVE
# UVM_INFO ../src/mst/axi4_master_monitor.sv(124) @ 5665000: uvm_test_top.env.master_agent.mon [axi4_master_monitor] AW observed: ID=0x5 ADDR=0x191be25b LEN=157
# UVM_INFO ../src/slv/axi4_slave_monitor.sv(116) @ 5665000: uvm_test_top.env.slave_agent.mon [axi4_slave_monitor] AW received: ID=0x5 ADDR=0x191be25b LEN=157
# UVM_INFO ../src/slv/axi4_slave_driver.sv(212) @ 5695000: uvm_test_top.env.slave_agent.drv [axi4_slave_driver] AW received: ID=0x6 ADDR=0xbd3830fe LEN=0 LOCK=AXI4_LOCK_EXCLUSIVE
# UVM_INFO ../src/slv/axi4_slave_monitor.sv(116) @ 5695000: uvm_test_top.env.slave_agent.mon [axi4_slave_monitor] AW received: ID=0x6 ADDR=0xbd3830fe LEN=0
# UVM_INFO ../src/mst/axi4_master_monitor.sv(124) @ 5695000: uvm_test_top.env.master_agent.mon [axi4_master_monitor] AW observed: ID=0x6 ADDR=0xbd3830fe LEN=0
# UVM_INFO ../src/mst/axi4_master_monitor.sv(184) @ 7125000: uvm_test_top.env.master_agent.mon [axi4_master_monitor] W data assembled: ID=0x0 ADDR=0x9920ebca 79 beats
# UVM_INFO ../src/slv/axi4_slave_monitor.sv(167) @ 7125000: uvm_test_top.env.slave_agent.mon [axi4_slave_monitor] W data assembled: ID=0x0 ADDR=0x9920ebca 79 beats
# UVM_INFO ../src/mst/axi4_master_driver.sv(289) @ 7155000: uvm_test_top.env.master_agent.drv [axi4_master_driver] Master driver received B response: ID=0x0 RESP=AXI4_RESP_OKAY
# UVM_INFO ../src/slv/axi4_slave_driver.sv(320) @ 7155000: uvm_test_top.env.slave_agent.drv [axi4_slave_driver] Write complete: ID=0x0 RESP=AXI4_RESP_OKAY
# UVM_INFO ../src/slv/axi4_slave_monitor.sv(189) @ 7155000: uvm_test_top.env.slave_agent.mon [axi4_slave_monitor] Write response sent: ID=0x0 ADDR=0x9920ebca RESP=AXI4_RESP_OKAY
# UVM_INFO ../src/env/axi4_scoreboard.sv(108) @ 7155000: uvm_test_top.env.scb [axi4_scoreboard] Slave AXI4_WRITE received: ID=0x0 ADDR=0x9920ebca LEN=78
# UVM_INFO ../src/mst/axi4_master_monitor.sv(210) @ 7155000: uvm_test_top.env.master_agent.mon [axi4_master_monitor] Write complete: ID=0x0 ADDR=0x9920ebca RESP=AXI4_RESP_OKAY
# UVM_INFO ../src/env/axi4_scoreboard.sv(87) @ 7155000: uvm_test_top.env.scb [axi4_scoreboard] Master AXI4_WRITE received: ID=0x0 ADDR=0x9920ebca LEN=78
# UVM_INFO ../src/env/axi4_scoreboard.sv(291) @ 7155000: uvm_test_top.env.scb [axi4_scoreboard] [WRITE] MATCH #6: ID=0x0 ADDR=0x9920ebca LEN=78
# UVM_INFO ../src/env/axi4_scoreboard.sv(226) @ 7155000: uvm_test_top.env.scb [axi4_scoreboard] [REF_MEM_WRITE_IGNORED] Write ignored for ADDR=0x9920ebca LOCK=AXI4_LOCK_EXCLUSIVE RESP=AXI4_RESP_OKAY
# UVM_INFO ../src/seq/axi4_out_of_order_seq.sv(82) @ 7155000: uvm_test_top.env.master_agent.sqr@@ooo_seq [axi4_out_of_order_seq] OOO Write [#0] complete: ID=0x0 RESP=AXI4_RESP_OKAY
# UVM_INFO ../src/seq/axi4_out_of_order_seq.sv(72) @ 7155000: uvm_test_top.env.master_agent.sqr@@ooo_seq [axi4_out_of_order_seq] OOO Write [#7] started: ID=0x7 ADDR=0x7b591071 LEN=167
# UVM_INFO ../src/mst/axi4_master_driver.sv(73) @ 7155000: uvm_test_top.env.master_agent.drv [axi4_master_driver] Driving AXI4_WRITE  ID=0x7  ADDR=0x7b591071  LEN=167
# UVM_INFO ../src/mst/axi4_master_driver.sv(348) @ 7205000: uvm_test_top.env.master_agent.drv [axi4_master_driver] Master driver received all R beats for ID=0x1
# UVM_INFO ../src/slv/axi4_slave_driver.sv(464) @ 7205000: uvm_test_top.env.slave_agent.drv [axi4_slave_driver] Read complete: ID=0x1 ADDR=0xb6641a41 RESP=AXI4_RESP_EXOKAY  82 beats sent
# UVM_INFO ../src/mst/axi4_master_monitor.sv(314) @ 7205000: uvm_test_top.env.master_agent.mon [axi4_master_monitor] Read complete: ID=0x1 ADDR=0xb6641a41 82 beats
# UVM_INFO ../src/env/axi4_scoreboard.sv(87) @ 7205000: uvm_test_top.env.scb [axi4_scoreboard] Master AXI4_READ received: ID=0x1 ADDR=0xb6641a41 LEN=81
# UVM_INFO ../src/slv/axi4_slave_monitor.sv(287) @ 7205000: uvm_test_top.env.slave_agent.mon [axi4_slave_monitor] Read data sent: ID=0x1 ADDR=0xb6641a41 82 beats
# UVM_INFO ../src/env/axi4_scoreboard.sv(108) @ 7205000: uvm_test_top.env.scb [axi4_scoreboard] Slave AXI4_READ received: ID=0x1 ADDR=0xb6641a41 LEN=81
# UVM_INFO ../src/env/axi4_scoreboard.sv(291) @ 7205000: uvm_test_top.env.scb [axi4_scoreboard] [READ] MATCH #7: ID=0x1 ADDR=0xb6641a41 LEN=81
# UVM_INFO ../src/seq/axi4_out_of_order_seq.sv(120) @ 7205000: uvm_test_top.env.master_agent.sqr@@ooo_seq [axi4_out_of_order_seq] OOO Read [#1] complete: ID=0x1
# UVM_INFO ../src/seq/axi4_out_of_order_seq.sv(111) @ 7205000: uvm_test_top.env.master_agent.sqr@@ooo_seq [axi4_out_of_order_seq] OOO Read [#6] started: ID=0x6 ADDR=0x4bb2d9df LEN=74
# UVM_INFO ../src/mst/axi4_master_driver.sv(73) @ 7205000: uvm_test_top.env.master_agent.drv [axi4_master_driver] Driving AXI4_READ  ID=0x6  ADDR=0x4bb2d9df  LEN=74
# UVM_INFO ../src/mst/axi4_master_driver.sv(348) @ 7225000: uvm_test_top.env.master_agent.drv [axi4_master_driver] Master driver received all R beats for ID=0x0
# UVM_INFO ../src/slv/axi4_slave_driver.sv(464) @ 7225000: uvm_test_top.env.slave_agent.drv [axi4_slave_driver] Read complete: ID=0x0 ADDR=0xa018847e RESP=AXI4_RESP_OKAY  1 beats sent
# UVM_INFO ../src/mst/axi4_master_monitor.sv(314) @ 7225000: uvm_test_top.env.master_agent.mon [axi4_master_monitor] Read complete: ID=0x0 ADDR=0xa018847e 1 beats
# UVM_INFO ../src/env/axi4_scoreboard.sv(87) @ 7225000: uvm_test_top.env.scb [axi4_scoreboard] Master AXI4_READ received: ID=0x0 ADDR=0xa018847e LEN=0
# UVM_INFO ../src/slv/axi4_slave_monitor.sv(287) @ 7225000: uvm_test_top.env.slave_agent.mon [axi4_slave_monitor] Read data sent: ID=0x0 ADDR=0xa018847e 1 beats
# UVM_INFO ../src/env/axi4_scoreboard.sv(108) @ 7225000: uvm_test_top.env.scb [axi4_scoreboard] Slave AXI4_READ received: ID=0x0 ADDR=0xa018847e LEN=0
# UVM_INFO ../src/env/axi4_scoreboard.sv(291) @ 7225000: uvm_test_top.env.scb [axi4_scoreboard] [READ] MATCH #8: ID=0x0 ADDR=0xa018847e LEN=0
# UVM_INFO ../src/seq/axi4_out_of_order_seq.sv(120) @ 7225000: uvm_test_top.env.master_agent.sqr@@ooo_seq [axi4_out_of_order_seq] OOO Read [#0] complete: ID=0x0
# UVM_INFO ../src/seq/axi4_out_of_order_seq.sv(111) @ 7225000: uvm_test_top.env.master_agent.sqr@@ooo_seq [axi4_out_of_order_seq] OOO Read [#7] started: ID=0x7 ADDR=0xf3c3888c LEN=142
# UVM_INFO ../src/mst/axi4_master_driver.sv(73) @ 7225000: uvm_test_top.env.master_agent.drv [axi4_master_driver] Driving AXI4_READ  ID=0x7  ADDR=0xf3c3888c  LEN=142
# UVM_INFO ../src/slv/axi4_slave_driver.sv(358) @ 7235000: uvm_test_top.env.slave_agent.drv [axi4_slave_driver] AR received: ID=0x6 ADDR=0x4bb2d9df LEN=74 LOCK=AXI4_LOCK_EXCLUSIVE
# UVM_INFO ../src/slv/axi4_slave_monitor.sv(224) @ 7235000: uvm_test_top.env.slave_agent.mon [axi4_slave_monitor] AR received: ID=0x6 ADDR=0x4bb2d9df LEN=74
# UVM_INFO ../src/mst/axi4_master_monitor.sv(246) @ 7235000: uvm_test_top.env.master_agent.mon [axi4_master_monitor] AR observed: ID=0x6 ADDR=0x4bb2d9df LEN=74
# UVM_INFO ../src/slv/axi4_slave_driver.sv(358) @ 7265000: uvm_test_top.env.slave_agent.drv [axi4_slave_driver] AR received: ID=0x7 ADDR=0xf3c3888c LEN=142 LOCK=AXI4_LOCK_NORMAL
# UVM_INFO ../src/mst/axi4_master_monitor.sv(246) @ 7265000: uvm_test_top.env.master_agent.mon [axi4_master_monitor] AR observed: ID=0x7 ADDR=0xf3c3888c LEN=142
# UVM_INFO ../src/slv/axi4_slave_monitor.sv(224) @ 7265000: uvm_test_top.env.slave_agent.mon [axi4_slave_monitor] AR received: ID=0x7 ADDR=0xf3c3888c LEN=142
# UVM_INFO ../src/mst/axi4_master_driver.sv(348) @ 10505000: uvm_test_top.env.master_agent.drv [axi4_master_driver] Master driver received all R beats for ID=0x4
# UVM_INFO ../src/slv/axi4_slave_driver.sv(464) @ 10505000: uvm_test_top.env.slave_agent.drv [axi4_slave_driver] Read complete: ID=0x4 ADDR=0xe597a7f3 RESP=AXI4_RESP_SLVERR  164 beats sent
# UVM_INFO ../src/mst/axi4_master_monitor.sv(314) @ 10505000: uvm_test_top.env.master_agent.mon [axi4_master_monitor] Read complete: ID=0x4 ADDR=0xe597a7f3 164 beats
# UVM_INFO ../src/env/axi4_scoreboard.sv(87) @ 10505000: uvm_test_top.env.scb [axi4_scoreboard] Master AXI4_READ received: ID=0x4 ADDR=0xe597a7f3 LEN=163
# UVM_INFO ../src/slv/axi4_slave_monitor.sv(287) @ 10505000: uvm_test_top.env.slave_agent.mon [axi4_slave_monitor] Read data sent: ID=0x4 ADDR=0xe597a7f3 164 beats
# UVM_INFO ../src/env/axi4_scoreboard.sv(108) @ 10505000: uvm_test_top.env.scb [axi4_scoreboard] Slave AXI4_READ received: ID=0x4 ADDR=0xe597a7f3 LEN=163
# UVM_INFO ../src/env/axi4_scoreboard.sv(291) @ 10505000: uvm_test_top.env.scb [axi4_scoreboard] [READ] MATCH #9: ID=0x4 ADDR=0xe597a7f3 LEN=163
# UVM_INFO ../src/seq/axi4_out_of_order_seq.sv(120) @ 10505000: uvm_test_top.env.master_agent.sqr@@ooo_seq [axi4_out_of_order_seq] OOO Read [#4] complete: ID=0x4
# UVM_INFO ../src/seq/axi4_out_of_order_seq.sv(111) @ 10505000: uvm_test_top.env.master_agent.sqr@@ooo_seq [axi4_out_of_order_seq] OOO Read [#8] started: ID=0x8 ADDR=0x45856362 LEN=73
# UVM_INFO ../src/mst/axi4_master_driver.sv(73) @ 10505000: uvm_test_top.env.master_agent.drv [axi4_master_driver] Driving AXI4_READ  ID=0x8  ADDR=0x45856362  LEN=73
# UVM_INFO ../src/slv/axi4_slave_driver.sv(358) @ 10535000: uvm_test_top.env.slave_agent.drv [axi4_slave_driver] AR received: ID=0x8 ADDR=0x45856362 LEN=73 LOCK=AXI4_LOCK_EXCLUSIVE
# UVM_INFO ../src/slv/axi4_slave_monitor.sv(224) @ 10535000: uvm_test_top.env.slave_agent.mon [axi4_slave_monitor] AR received: ID=0x8 ADDR=0x45856362 LEN=73
# UVM_INFO ../src/mst/axi4_master_monitor.sv(246) @ 10535000: uvm_test_top.env.master_agent.mon [axi4_master_monitor] AR observed: ID=0x8 ADDR=0x45856362 LEN=73
# UVM_INFO ../src/mst/axi4_master_monitor.sv(184) @ 11185000: uvm_test_top.env.master_agent.mon [axi4_master_monitor] W data assembled: ID=0x4 ADDR=0xadbbc441 203 beats
# UVM_INFO ../src/slv/axi4_slave_monitor.sv(167) @ 11185000: uvm_test_top.env.slave_agent.mon [axi4_slave_monitor] W data assembled: ID=0x4 ADDR=0xadbbc441 203 beats
# UVM_INFO ../src/mst/axi4_master_driver.sv(289) @ 11215000: uvm_test_top.env.master_agent.drv [axi4_master_driver] Master driver received B response: ID=0x4 RESP=AXI4_RESP_OKAY
# UVM_INFO ../src/slv/axi4_slave_driver.sv(320) @ 11215000: uvm_test_top.env.slave_agent.drv [axi4_slave_driver] Write complete: ID=0x4 RESP=AXI4_RESP_OKAY
# UVM_INFO ../src/slv/axi4_slave_monitor.sv(189) @ 11215000: uvm_test_top.env.slave_agent.mon [axi4_slave_monitor] Write response sent: ID=0x4 ADDR=0xadbbc441 RESP=AXI4_RESP_OKAY
# UVM_INFO ../src/env/axi4_scoreboard.sv(108) @ 11215000: uvm_test_top.env.scb [axi4_scoreboard] Slave AXI4_WRITE received: ID=0x4 ADDR=0xadbbc441 LEN=202
# UVM_INFO ../src/mst/axi4_master_monitor.sv(210) @ 11215000: uvm_test_top.env.master_agent.mon [axi4_master_monitor] Write complete: ID=0x4 ADDR=0xadbbc441 RESP=AXI4_RESP_OKAY
# UVM_INFO ../src/env/axi4_scoreboard.sv(87) @ 11215000: uvm_test_top.env.scb [axi4_scoreboard] Master AXI4_WRITE received: ID=0x4 ADDR=0xadbbc441 LEN=202
# UVM_INFO ../src/env/axi4_scoreboard.sv(291) @ 11215000: uvm_test_top.env.scb [axi4_scoreboard] [WRITE] MATCH #10: ID=0x4 ADDR=0xadbbc441 LEN=202
# UVM_INFO ../src/env/axi4_scoreboard.sv(226) @ 11215000: uvm_test_top.env.scb [axi4_scoreboard] [REF_MEM_WRITE_IGNORED] Write ignored for ADDR=0xadbbc441 LOCK=AXI4_LOCK_EXCLUSIVE RESP=AXI4_RESP_OKAY
# UVM_INFO ../src/seq/axi4_out_of_order_seq.sv(82) @ 11215000: uvm_test_top.env.master_agent.sqr@@ooo_seq [axi4_out_of_order_seq] OOO Write [#4] complete: ID=0x4 RESP=AXI4_RESP_OKAY
# UVM_INFO ../src/seq/axi4_out_of_order_seq.sv(72) @ 11215000: uvm_test_top.env.master_agent.sqr@@ooo_seq [axi4_out_of_order_seq] OOO Write [#8] started: ID=0x8 ADDR=0xaff7c1ff LEN=13
# UVM_INFO ../src/mst/axi4_master_driver.sv(73) @ 11215000: uvm_test_top.env.master_agent.drv [axi4_master_driver] Driving AXI4_WRITE  ID=0x8  ADDR=0xaff7c1ff  LEN=13
# UVM_INFO ../src/mst/axi4_master_monitor.sv(184) @ 14345000: uvm_test_top.env.master_agent.mon [axi4_master_monitor] W data assembled: ID=0x5 ADDR=0x191be25b 158 beats
# UVM_INFO ../src/slv/axi4_slave_monitor.sv(167) @ 14345000: uvm_test_top.env.slave_agent.mon [axi4_slave_monitor] W data assembled: ID=0x5 ADDR=0x191be25b 158 beats
# UVM_INFO ../src/mst/axi4_master_monitor.sv(184) @ 14365000: uvm_test_top.env.master_agent.mon [axi4_master_monitor] W data assembled: ID=0x6 ADDR=0xbd3830fe 1 beats
# UVM_INFO ../src/slv/axi4_slave_monitor.sv(167) @ 14365000: uvm_test_top.env.slave_agent.mon [axi4_slave_monitor] W data assembled: ID=0x6 ADDR=0xbd3830fe 1 beats
# UVM_INFO ../src/mst/axi4_master_driver.sv(289) @ 14375000: uvm_test_top.env.master_agent.drv [axi4_master_driver] Master driver received B response: ID=0x5 RESP=AXI4_RESP_OKAY
# UVM_INFO ../src/slv/axi4_slave_driver.sv(320) @ 14375000: uvm_test_top.env.slave_agent.drv [axi4_slave_driver] Write complete: ID=0x5 RESP=AXI4_RESP_OKAY
# UVM_INFO ../src/slv/axi4_slave_monitor.sv(189) @ 14375000: uvm_test_top.env.slave_agent.mon [axi4_slave_monitor] Write response sent: ID=0x5 ADDR=0x191be25b RESP=AXI4_RESP_OKAY
# UVM_INFO ../src/env/axi4_scoreboard.sv(108) @ 14375000: uvm_test_top.env.scb [axi4_scoreboard] Slave AXI4_WRITE received: ID=0x5 ADDR=0x191be25b LEN=157
# UVM_INFO ../src/mst/axi4_master_monitor.sv(210) @ 14375000: uvm_test_top.env.master_agent.mon [axi4_master_monitor] Write complete: ID=0x5 ADDR=0x191be25b RESP=AXI4_RESP_OKAY
# UVM_INFO ../src/env/axi4_scoreboard.sv(87) @ 14375000: uvm_test_top.env.scb [axi4_scoreboard] Master AXI4_WRITE received: ID=0x5 ADDR=0x191be25b LEN=157
# UVM_INFO ../src/env/axi4_scoreboard.sv(291) @ 14375000: uvm_test_top.env.scb [axi4_scoreboard] [WRITE] MATCH #11: ID=0x5 ADDR=0x191be25b LEN=157
# UVM_INFO ../src/env/axi4_scoreboard.sv(226) @ 14375000: uvm_test_top.env.scb [axi4_scoreboard] [REF_MEM_WRITE_IGNORED] Write ignored for ADDR=0x191be25b LOCK=AXI4_LOCK_EXCLUSIVE RESP=AXI4_RESP_OKAY
# UVM_INFO ../src/seq/axi4_out_of_order_seq.sv(82) @ 14375000: uvm_test_top.env.master_agent.sqr@@ooo_seq [axi4_out_of_order_seq] OOO Write [#5] complete: ID=0x5 RESP=AXI4_RESP_OKAY
# UVM_INFO ../src/seq/axi4_out_of_order_seq.sv(72) @ 14375000: uvm_test_top.env.master_agent.sqr@@ooo_seq [axi4_out_of_order_seq] OOO Write [#9] started: ID=0x9 ADDR=0x5e94b1ea LEN=15
# UVM_INFO ../src/mst/axi4_master_driver.sv(73) @ 14375000: uvm_test_top.env.master_agent.drv [axi4_master_driver] Driving AXI4_WRITE  ID=0x9  ADDR=0x5e94b1ea  LEN=15
# UVM_INFO ../src/mst/axi4_master_driver.sv(289) @ 14395000: uvm_test_top.env.master_agent.drv [axi4_master_driver] Master driver received B response: ID=0x6 RESP=AXI4_RESP_OKAY
# UVM_INFO ../src/slv/axi4_slave_driver.sv(320) @ 14395000: uvm_test_top.env.slave_agent.drv [axi4_slave_driver] Write complete: ID=0x6 RESP=AXI4_RESP_OKAY
# UVM_INFO ../src/slv/axi4_slave_monitor.sv(189) @ 14395000: uvm_test_top.env.slave_agent.mon [axi4_slave_monitor] Write response sent: ID=0x6 ADDR=0xbd3830fe RESP=AXI4_RESP_OKAY
# UVM_INFO ../src/env/axi4_scoreboard.sv(108) @ 14395000: uvm_test_top.env.scb [axi4_scoreboard] Slave AXI4_WRITE received: ID=0x6 ADDR=0xbd3830fe LEN=0
# UVM_INFO ../src/mst/axi4_master_monitor.sv(210) @ 14395000: uvm_test_top.env.master_agent.mon [axi4_master_monitor] Write complete: ID=0x6 ADDR=0xbd3830fe RESP=AXI4_RESP_OKAY
# UVM_INFO ../src/env/axi4_scoreboard.sv(87) @ 14395000: uvm_test_top.env.scb [axi4_scoreboard] Master AXI4_WRITE received: ID=0x6 ADDR=0xbd3830fe LEN=0
# UVM_INFO ../src/env/axi4_scoreboard.sv(291) @ 14395000: uvm_test_top.env.scb [axi4_scoreboard] [WRITE] MATCH #12: ID=0x6 ADDR=0xbd3830fe LEN=0
# UVM_INFO ../src/env/axi4_scoreboard.sv(226) @ 14395000: uvm_test_top.env.scb [axi4_scoreboard] [REF_MEM_WRITE_IGNORED] Write ignored for ADDR=0xbd3830fe LOCK=AXI4_LOCK_EXCLUSIVE RESP=AXI4_RESP_OKAY
# UVM_INFO ../src/seq/axi4_out_of_order_seq.sv(82) @ 14395000: uvm_test_top.env.master_agent.sqr@@ooo_seq [axi4_out_of_order_seq] OOO Write [#6] complete: ID=0x6 RESP=AXI4_RESP_OKAY
# UVM_INFO ../src/seq/axi4_out_of_order_seq.sv(72) @ 14395000: uvm_test_top.env.master_agent.sqr@@ooo_seq [axi4_out_of_order_seq] OOO Write [#10] started: ID=0xa ADDR=0x1f1f46ba LEN=156
# UVM_INFO ../src/mst/axi4_master_driver.sv(73) @ 14395000: uvm_test_top.env.master_agent.drv [axi4_master_driver] Driving AXI4_WRITE  ID=0xa  ADDR=0x1f1f46ba  LEN=156
# UVM_INFO ../src/slv/axi4_slave_driver.sv(212) @ 14415000: uvm_test_top.env.slave_agent.drv [axi4_slave_driver] AW received: ID=0x7 ADDR=0x7b591071 LEN=167 LOCK=AXI4_LOCK_EXCLUSIVE
# UVM_INFO ../src/slv/axi4_slave_monitor.sv(116) @ 14415000: uvm_test_top.env.slave_agent.mon [axi4_slave_monitor] AW received: ID=0x7 ADDR=0x7b591071 LEN=167
# UVM_INFO ../src/mst/axi4_master_monitor.sv(124) @ 14415000: uvm_test_top.env.master_agent.mon [axi4_master_monitor] AW observed: ID=0x7 ADDR=0x7b591071 LEN=167
# UVM_INFO ../src/mst/axi4_master_driver.sv(348) @ 15605000: uvm_test_top.env.master_agent.drv [axi4_master_driver] Master driver received all R beats for ID=0x5
# UVM_INFO ../src/slv/axi4_slave_driver.sv(464) @ 15605000: uvm_test_top.env.slave_agent.drv [axi4_slave_driver] Read complete: ID=0x5 ADDR=0x07c9c3fb RESP=AXI4_RESP_OKAY  255 beats sent
# UVM_INFO ../src/mst/axi4_master_monitor.sv(314) @ 15605000: uvm_test_top.env.master_agent.mon [axi4_master_monitor] Read complete: ID=0x5 ADDR=0x07c9c3fb 255 beats
# UVM_INFO ../src/env/axi4_scoreboard.sv(87) @ 15605000: uvm_test_top.env.scb [axi4_scoreboard] Master AXI4_READ received: ID=0x5 ADDR=0x07c9c3fb LEN=254
# UVM_INFO ../src/slv/axi4_slave_monitor.sv(287) @ 15605000: uvm_test_top.env.slave_agent.mon [axi4_slave_monitor] Read data sent: ID=0x5 ADDR=0x07c9c3fb 255 beats
# UVM_INFO ../src/env/axi4_scoreboard.sv(108) @ 15605000: uvm_test_top.env.scb [axi4_scoreboard] Slave AXI4_READ received: ID=0x5 ADDR=0x07c9c3fb LEN=254
# UVM_INFO ../src/env/axi4_scoreboard.sv(291) @ 15605000: uvm_test_top.env.scb [axi4_scoreboard] [READ] MATCH #13: ID=0x5 ADDR=0x07c9c3fb LEN=254
# UVM_INFO ../src/seq/axi4_out_of_order_seq.sv(120) @ 15605000: uvm_test_top.env.master_agent.sqr@@ooo_seq [axi4_out_of_order_seq] OOO Read [#5] complete: ID=0x5
# UVM_INFO ../src/seq/axi4_out_of_order_seq.sv(111) @ 15605000: uvm_test_top.env.master_agent.sqr@@ooo_seq [axi4_out_of_order_seq] OOO Read [#9] started: ID=0x9 ADDR=0x01bf9648 LEN=1
# UVM_INFO ../src/mst/axi4_master_driver.sv(73) @ 15605000: uvm_test_top.env.master_agent.drv [axi4_master_driver] Driving AXI4_READ  ID=0x9  ADDR=0x01bf9648  LEN=1
# UVM_INFO ../src/slv/axi4_slave_driver.sv(358) @ 15635000: uvm_test_top.env.slave_agent.drv [axi4_slave_driver] AR received: ID=0x9 ADDR=0x01bf9648 LEN=1 LOCK=AXI4_LOCK_EXCLUSIVE
# UVM_INFO ../src/slv/axi4_slave_monitor.sv(224) @ 15635000: uvm_test_top.env.slave_agent.mon [axi4_slave_monitor] AR received: ID=0x9 ADDR=0x01bf9648 LEN=1
# UVM_INFO ../src/mst/axi4_master_monitor.sv(246) @ 15635000: uvm_test_top.env.master_agent.mon [axi4_master_monitor] AR observed: ID=0x9 ADDR=0x01bf9648 LEN=1
# UVM_INFO ../src/mst/axi4_master_driver.sv(348) @ 17105000: uvm_test_top.env.master_agent.drv [axi4_master_driver] Master driver received all R beats for ID=0x6
# UVM_INFO ../src/slv/axi4_slave_driver.sv(464) @ 17105000: uvm_test_top.env.slave_agent.drv [axi4_slave_driver] Read complete: ID=0x6 ADDR=0x4bb2d9df RESP=AXI4_RESP_EXOKAY  75 beats sent
# UVM_INFO ../src/mst/axi4_master_monitor.sv(314) @ 17105000: uvm_test_top.env.master_agent.mon [axi4_master_monitor] Read complete: ID=0x6 ADDR=0x4bb2d9df 75 beats
# UVM_INFO ../src/env/axi4_scoreboard.sv(87) @ 17105000: uvm_test_top.env.scb [axi4_scoreboard] Master AXI4_READ received: ID=0x6 ADDR=0x4bb2d9df LEN=74
# UVM_INFO ../src/slv/axi4_slave_monitor.sv(287) @ 17105000: uvm_test_top.env.slave_agent.mon [axi4_slave_monitor] Read data sent: ID=0x6 ADDR=0x4bb2d9df 75 beats
# UVM_INFO ../src/env/axi4_scoreboard.sv(108) @ 17105000: uvm_test_top.env.scb [axi4_scoreboard] Slave AXI4_READ received: ID=0x6 ADDR=0x4bb2d9df LEN=74
# UVM_INFO ../src/env/axi4_scoreboard.sv(291) @ 17105000: uvm_test_top.env.scb [axi4_scoreboard] [READ] MATCH #14: ID=0x6 ADDR=0x4bb2d9df LEN=74
