# vsim -c -coverage -sv_seed 84927192 "+UVM_TESTNAME=axi4_outstanding_test" "+UVM_VERBOSITY=UVM_HIGH" "+DUMP_VCD" -l ./report/logs/axi4_outstanding_test_run_1_seed_84927192.log -do "coverage save -onexit ./report/coverage/axi4_outstanding_test_run_1_seed_84927192.ucdb; run -all; quit -f" opt_tb_top 
# Start time: 11:23:44 on Jun 05,2026
# //  Questa Sim-64
# //  Version 10.6b linux_x86_64 May 25 2017
# //
# //  Copyright 1991-2017 Mentor Graphics Corporation
# //  All Rights Reserved.
# //
# //  QuestaSim and its associated documentation contain trade
# //  secrets and commercial or financial information that are the property of
# //  Mentor Graphics Corporation and are privileged, confidential,
# //  and exempt from disclosure under the Freedom of Information Act,
# //  5 U.S.C. Section 552. Furthermore, this information
# //  is prohibited from disclosure under the Trade Secrets Act,
# //  18 U.S.C. Section 1905.
# //
# Loading sv_std.std
# Loading work.axi4_if(fast)
# Loading mtiUvm.uvm_pkg
# Loading work.axi4_pkg(fast)
# Loading work.axi4_test_pkg(fast)
# Loading work.tb_top(fast)
# Loading work.axi4_if(fast)
# Loading work.axi4_sva(fast)
# Loading mtiUvm.questa_uvm_pkg(fast)
# Loading /cadtools/mentor/Questa_10.6b/questasim/uvm-1.1d/linux_x86_64/uvm_dpi.so
# coverage save -onexit ./report/coverage/axi4_outstanding_test_run_1_seed_84927192.ucdb
#  run -all
# ----------------------------------------------------------------
# UVM-1.1d
# (C) 2007-2013 Mentor Graphics Corporation
# (C) 2007-2013 Cadence Design Systems, Inc.
# (C) 2006-2013 Synopsys, Inc.
# (C) 2011-2013 Cypress Semiconductor Corp.
# ----------------------------------------------------------------
# 
#   ***********       IMPORTANT RELEASE NOTES         ************
# 
#   You are using a version of the UVM library that has been compiled
#   with `UVM_NO_DEPRECATED undefined.
#   See http://www.eda.org/svdb/view.php?id=3313 for more details.
# 
#   You are using a version of the UVM library that has been compiled
#   with `UVM_OBJECT_MUST_HAVE_CONSTRUCTOR undefined.
#   See http://www.eda.org/svdb/view.php?id=3770 for more details.
# 
#       (Specify +UVM_NO_RELNOTES to turn off this notice)
# 
# UVM_INFO verilog_src/questa_uvm_pkg-1.2/src/questa_uvm_pkg.sv(215) @ 0: reporter [Questa UVM] QUESTA_UVM-1.2.3
# UVM_INFO verilog_src/questa_uvm_pkg-1.2/src/questa_uvm_pkg.sv(217) @ 0: reporter [Questa UVM]  questa_uvm::init(+struct)
# UVM_INFO ../src/tb_top.sv(128) @ 0: reporter [TB_TOP] Virtual interface set in config_db
# UVM_INFO @ 0: reporter [RNTST] Running test axi4_outstanding_test...
# UVM_INFO ../src/tb_top.sv(142) @ 0: reporter [TB_TOP] Waveform VCD dumping enabled (axi4_vip.vcd)
# UVM_INFO ../src/env/axi4_vip_env.sv(83) @ 0: uvm_test_top.env [axi4_vip_env] slave_vif not set - reusing master_vif (passthrough mode)
# UVM_INFO ../src/env/axi4_vip_env.sv(93) @ 0: uvm_test_top.env [axi4_vip_env] Scoreboard created
# UVM_INFO ../src/env/axi4_vip_env.sv(100) @ 0: uvm_test_top.env [axi4_vip_env] Coverage collectors created
# UVM_INFO ../src/mst/axi4_master_agent.sv(69) @ 0: uvm_test_top.env.master_agent [axi4_master_agent] ACTIVE mode - driver + sequencer created
# UVM_INFO ../src/slv/axi4_slave_agent.sv(82) @ 0: uvm_test_top.env.slave_agent [axi4_slave_agent] ACTIVE mode — ready_delay=[0:0] resp_delay=[0:0]
# UVM_INFO ../src/env/axi4_vip_env.sv(116) @ 0: uvm_test_top.env [axi4_vip_env] Scoreboard connected: master_mon.ap -> scb, slave_mon.ap -> scb
# UVM_INFO ../src/env/axi4_vip_env.sv(124) @ 0: uvm_test_top.env [axi4_vip_env] Coverage connected: master_mon.ap -> master_cov, slave_mon.ap -> slave_cov
# UVM_INFO @ 0: reporter [UVMTOP] UVM testbench topology:
# ---------------------------------------------------------------
# Name                       Type                     Size  Value
# ---------------------------------------------------------------
# uvm_test_top               axi4_outstanding_test    -     @473 
#   env                      axi4_vip_env             -     @488 
#     master_agent           axi4_master_agent        -     @503 
#       drv                  axi4_master_driver       -     @567 
#         rsp_port           uvm_analysis_port        -     @582 
#         seq_item_port      uvm_seq_item_pull_port   -     @574 
#       mon                  axi4_master_monitor      -     @559 
#         ap                 uvm_analysis_port        -     @700 
#       sqr                  axi4_master_sequencer    -     @590 
#         rsp_export         uvm_analysis_export      -     @597 
#         seq_item_export    uvm_seq_item_pull_imp    -     @691 
#         arbitration_queue  array                    0     -    
#         lock_queue         array                    0     -    
#         num_last_reqs      integral                 32    'd1  
#         num_last_rsps      integral                 32    'd1  
#     master_cov             axi4_coverage            -     @524 
#       analysis_imp         uvm_analysis_imp         -     @531 
#     scb                    axi4_scoreboard          -     @517 
#       master_export        uvm_analysis_imp_master  -     @714 
#       slave_export         uvm_analysis_imp_slave   -     @722 
#     slave_agent            axi4_slave_agent         -     @510 
#       drv                  axi4_slave_driver        -     @753 
#         rsp_port           uvm_analysis_port        -     @768 
#         seq_item_port      uvm_seq_item_pull_port   -     @760 
#       mon                  axi4_slave_monitor       -     @735 
#         ap                 uvm_analysis_port        -     @890 
#       sqr                  axi4_slave_sequencer     -     @776 
#         rsp_export         uvm_analysis_export      -     @783 
#         seq_item_export    uvm_seq_item_pull_imp    -     @877 
#         arbitration_queue  array                    0     -    
#         lock_queue         array                    0     -    
#         num_last_reqs      integral                 32    'd1  
#         num_last_rsps      integral                 32    'd1  
#     slave_cov              axi4_coverage            -     @539 
#       analysis_imp         uvm_analysis_imp         -     @546 
# ---------------------------------------------------------------
# 
# UVM_INFO verilog_src/questa_uvm_pkg-1.2/src/questa_uvm_pkg.sv(277) @ 0: reporter [Questa UVM] End Of Elaboration
# UVM_INFO ../src/test/axi4_outstanding_test.sv(45) @ 0: uvm_test_top [axi4_outstanding_test] Starting outstanding test with 15 writes, 15 reads, depth=4
# UVM_INFO ../src/seq/axi4_outstanding_seq.sv(40) @ 0: uvm_test_top.env.master_agent.sqr@@outstanding_seq [axi4_outstanding_seq] Starting outstanding sequence: writes=15, reads=15, depth=4
# UVM_INFO ../src/tb_top.sv(49) @ 95000: reporter [TOP_TB] Reset de-asserted
# UVM_INFO ../src/slv/axi4_slave_driver.sv(70) @ 95000: uvm_test_top.env.slave_agent.drv [axi4_slave_driver] Reset deasserted - slave driver active
# UVM_INFO ../src/mst/axi4_master_driver.sv(46) @ 95000: uvm_test_top.env.master_agent.drv [axi4_master_driver] Reset deasserted - master driver active
# UVM_INFO ../src/mst/axi4_master_monitor.sv(77) @ 95000: uvm_test_top.env.master_agent.mon [axi4_master_monitor] Reset deasserted — monitor active
# UVM_INFO ../src/slv/axi4_slave_monitor.sv(71) @ 95000: uvm_test_top.env.slave_agent.mon [axi4_slave_monitor] Reset deasserted — monitor active
# UVM_INFO ../src/seq/axi4_outstanding_seq.sv(65) @ 95000: uvm_test_top.env.master_agent.sqr@@outstanding_seq [axi4_outstanding_seq] Outstanding Write [#3] started: ID=0xd ADDR=0xe02fe2e3 LEN=15
# UVM_INFO ../src/mst/axi4_master_driver.sv(55) @ 95000: uvm_test_top.env.master_agent.drv [axi4_master_driver] Driving AXI4_WRITE  ID=0xd  ADDR=0xe02fe2e3  LEN=15
# UVM_INFO ../src/mst/axi4_master_driver.sv(101) @ 95000: uvm_test_top.env.master_agent.drv [axi4_master_driver] Write order: AW -> W (sequential)
# UVM_INFO ../src/slv/axi4_slave_driver.sv(165) @ 115000: uvm_test_top.env.slave_agent.drv [axi4_slave_driver] AW received: ID=0xd ADDR=0xe02fe2e3 LEN=15 LOCK=AXI4_LOCK_NORMAL
# UVM_INFO ../src/slv/axi4_slave_monitor.sv(116) @ 115000: uvm_test_top.env.slave_agent.mon [axi4_slave_monitor] AW received: ID=0xd ADDR=0xe02fe2e3 LEN=15
# UVM_INFO ../src/mst/axi4_master_monitor.sv(124) @ 115000: uvm_test_top.env.master_agent.mon [axi4_master_monitor] AW observed: ID=0xd ADDR=0xe02fe2e3 LEN=15
# UVM_INFO ../src/slv/axi4_slave_monitor.sv(167) @ 435000: uvm_test_top.env.slave_agent.mon [axi4_slave_monitor] W data assembled: ID=0xd ADDR=0xe02fe2e3 16 beats
# UVM_INFO ../src/mst/axi4_master_monitor.sv(184) @ 435000: uvm_test_top.env.master_agent.mon [axi4_master_monitor] W data assembled: ID=0xd ADDR=0xe02fe2e3 16 beats
# UVM_INFO ../src/mst/axi4_master_driver.sv(197) @ 465000: uvm_test_top.env.master_agent.drv [axi4_master_driver] Write response: AXI4_RESP_SLVERR
# UVM_INFO ../src/slv/axi4_slave_driver.sv(261) @ 465000: uvm_test_top.env.slave_agent.drv [axi4_slave_driver] Write complete: ID=0xd ADDR=0xe02fe2e3 RESP=AXI4_RESP_SLVERR  16 beats processed
# UVM_INFO ../src/mst/axi4_master_monitor.sv(210) @ 465000: uvm_test_top.env.master_agent.mon [axi4_master_monitor] Write complete: ID=0xd ADDR=0xe02fe2e3 RESP=AXI4_RESP_SLVERR
# UVM_INFO ../src/env/axi4_scoreboard.sv(82) @ 465000: uvm_test_top.env.scb [axi4_scoreboard] Master AXI4_WRITE received: ID=0xd ADDR=0xe02fe2e3 LEN=15
# UVM_INFO ../src/slv/axi4_slave_monitor.sv(189) @ 465000: uvm_test_top.env.slave_agent.mon [axi4_slave_monitor] Write response sent: ID=0xd ADDR=0xe02fe2e3 RESP=AXI4_RESP_SLVERR
# UVM_INFO ../src/env/axi4_scoreboard.sv(103) @ 465000: uvm_test_top.env.scb [axi4_scoreboard] Slave AXI4_WRITE received: ID=0xd ADDR=0xe02fe2e3 LEN=15
# UVM_INFO ../src/env/axi4_scoreboard.sv(154) @ 465000: uvm_test_top.env.scb [axi4_scoreboard] [WRITE] MATCH #1: ID=0xd ADDR=0xe02fe2e3 LEN=15
# UVM_INFO ../src/seq/axi4_outstanding_seq.sv(71) @ 465000: uvm_test_top.env.master_agent.sqr@@outstanding_seq [axi4_outstanding_seq] Outstanding Write [#3] complete: ID=0xd
# UVM_INFO ../src/seq/axi4_outstanding_seq.sv(65) @ 465000: uvm_test_top.env.master_agent.sqr@@outstanding_seq [axi4_outstanding_seq] Outstanding Write [#2] started: ID=0x4 ADDR=0xd0239050 LEN=242
# UVM_INFO ../src/mst/axi4_master_driver.sv(55) @ 465000: uvm_test_top.env.master_agent.drv [axi4_master_driver] Driving AXI4_WRITE  ID=0x4  ADDR=0xd0239050  LEN=242
# UVM_INFO ../src/mst/axi4_master_driver.sv(94) @ 465000: uvm_test_top.env.master_agent.drv [axi4_master_driver] Write order: AW || W (parallel)
# UVM_INFO ../src/slv/axi4_slave_driver.sv(165) @ 495000: uvm_test_top.env.slave_agent.drv [axi4_slave_driver] AW received: ID=0x4 ADDR=0xd0239050 LEN=242 LOCK=AXI4_LOCK_EXCLUSIVE
# UVM_INFO ../src/slv/axi4_slave_monitor.sv(116) @ 495000: uvm_test_top.env.slave_agent.mon [axi4_slave_monitor] AW received: ID=0x4 ADDR=0xd0239050 LEN=242
# UVM_INFO ../src/mst/axi4_master_monitor.sv(124) @ 495000: uvm_test_top.env.master_agent.mon [axi4_master_monitor] AW observed: ID=0x4 ADDR=0xd0239050 LEN=242
# UVM_INFO ../src/mst/axi4_master_monitor.sv(184) @ 5325000: uvm_test_top.env.master_agent.mon [axi4_master_monitor] W data assembled: ID=0x4 ADDR=0xd0239050 243 beats
# UVM_INFO ../src/slv/axi4_slave_monitor.sv(167) @ 5325000: uvm_test_top.env.slave_agent.mon [axi4_slave_monitor] W data assembled: ID=0x4 ADDR=0xd0239050 243 beats
# UVM_INFO ../src/mst/axi4_master_driver.sv(197) @ 5355000: uvm_test_top.env.master_agent.drv [axi4_master_driver] Write response: AXI4_RESP_OKAY
# UVM_INFO ../src/slv/axi4_slave_driver.sv(261) @ 5355000: uvm_test_top.env.slave_agent.drv [axi4_slave_driver] Write complete: ID=0x4 ADDR=0xd0239050 RESP=AXI4_RESP_OKAY  243 beats processed
# UVM_INFO ../src/slv/axi4_slave_monitor.sv(189) @ 5355000: uvm_test_top.env.slave_agent.mon [axi4_slave_monitor] Write response sent: ID=0x4 ADDR=0xd0239050 RESP=AXI4_RESP_OKAY
# UVM_INFO ../src/env/axi4_scoreboard.sv(103) @ 5355000: uvm_test_top.env.scb [axi4_scoreboard] Slave AXI4_WRITE received: ID=0x4 ADDR=0xd0239050 LEN=242
# UVM_INFO ../src/mst/axi4_master_monitor.sv(210) @ 5355000: uvm_test_top.env.master_agent.mon [axi4_master_monitor] Write complete: ID=0x4 ADDR=0xd0239050 RESP=AXI4_RESP_OKAY
# UVM_INFO ../src/env/axi4_scoreboard.sv(82) @ 5355000: uvm_test_top.env.scb [axi4_scoreboard] Master AXI4_WRITE received: ID=0x4 ADDR=0xd0239050 LEN=242
# UVM_INFO ../src/env/axi4_scoreboard.sv(154) @ 5355000: uvm_test_top.env.scb [axi4_scoreboard] [WRITE] MATCH #2: ID=0x4 ADDR=0xd0239050 LEN=242
# UVM_INFO ../src/seq/axi4_outstanding_seq.sv(71) @ 5355000: uvm_test_top.env.master_agent.sqr@@outstanding_seq [axi4_outstanding_seq] Outstanding Write [#2] complete: ID=0x4
# UVM_INFO ../src/seq/axi4_outstanding_seq.sv(65) @ 5355000: uvm_test_top.env.master_agent.sqr@@outstanding_seq [axi4_outstanding_seq] Outstanding Write [#1] started: ID=0x2 ADDR=0x92bb1422 LEN=247
# UVM_INFO ../src/mst/axi4_master_driver.sv(55) @ 5355000: uvm_test_top.env.master_agent.drv [axi4_master_driver] Driving AXI4_WRITE  ID=0x2  ADDR=0x92bb1422  LEN=247
# UVM_INFO ../src/mst/axi4_master_driver.sv(94) @ 5355000: uvm_test_top.env.master_agent.drv [axi4_master_driver] Write order: AW || W (parallel)
# UVM_INFO ../src/slv/axi4_slave_driver.sv(165) @ 5385000: uvm_test_top.env.slave_agent.drv [axi4_slave_driver] AW received: ID=0x2 ADDR=0x92bb1422 LEN=247 LOCK=AXI4_LOCK_EXCLUSIVE
# UVM_INFO ../src/mst/axi4_master_monitor.sv(124) @ 5385000: uvm_test_top.env.master_agent.mon [axi4_master_monitor] AW observed: ID=0x2 ADDR=0x92bb1422 LEN=247
# UVM_INFO ../src/slv/axi4_slave_monitor.sv(116) @ 5385000: uvm_test_top.env.slave_agent.mon [axi4_slave_monitor] AW received: ID=0x2 ADDR=0x92bb1422 LEN=247
# UVM_INFO ../src/slv/axi4_slave_monitor.sv(167) @ 10315000: uvm_test_top.env.slave_agent.mon [axi4_slave_monitor] W data assembled: ID=0x2 ADDR=0x92bb1422 248 beats
# UVM_INFO ../src/mst/axi4_master_monitor.sv(184) @ 10315000: uvm_test_top.env.master_agent.mon [axi4_master_monitor] W data assembled: ID=0x2 ADDR=0x92bb1422 248 beats
# UVM_INFO ../src/mst/axi4_master_driver.sv(197) @ 10345000: uvm_test_top.env.master_agent.drv [axi4_master_driver] Write response: AXI4_RESP_OKAY
# UVM_INFO ../src/slv/axi4_slave_driver.sv(261) @ 10345000: uvm_test_top.env.slave_agent.drv [axi4_slave_driver] Write complete: ID=0x2 ADDR=0x92bb1422 RESP=AXI4_RESP_OKAY  248 beats processed
# UVM_INFO ../src/mst/axi4_master_monitor.sv(210) @ 10345000: uvm_test_top.env.master_agent.mon [axi4_master_monitor] Write complete: ID=0x2 ADDR=0x92bb1422 RESP=AXI4_RESP_OKAY
# UVM_INFO ../src/env/axi4_scoreboard.sv(82) @ 10345000: uvm_test_top.env.scb [axi4_scoreboard] Master AXI4_WRITE received: ID=0x2 ADDR=0x92bb1422 LEN=247
# UVM_INFO ../src/slv/axi4_slave_monitor.sv(189) @ 10345000: uvm_test_top.env.slave_agent.mon [axi4_slave_monitor] Write response sent: ID=0x2 ADDR=0x92bb1422 RESP=AXI4_RESP_OKAY
# UVM_INFO ../src/env/axi4_scoreboard.sv(103) @ 10345000: uvm_test_top.env.scb [axi4_scoreboard] Slave AXI4_WRITE received: ID=0x2 ADDR=0x92bb1422 LEN=247
# UVM_INFO ../src/env/axi4_scoreboard.sv(154) @ 10345000: uvm_test_top.env.scb [axi4_scoreboard] [WRITE] MATCH #3: ID=0x2 ADDR=0x92bb1422 LEN=247
# UVM_INFO ../src/seq/axi4_outstanding_seq.sv(71) @ 10345000: uvm_test_top.env.master_agent.sqr@@outstanding_seq [axi4_outstanding_seq] Outstanding Write [#1] complete: ID=0x2
# UVM_INFO ../src/seq/axi4_outstanding_seq.sv(65) @ 10345000: uvm_test_top.env.master_agent.sqr@@outstanding_seq [axi4_outstanding_seq] Outstanding Write [#0] started: ID=0x1 ADDR=0xdc53545f LEN=231
# UVM_INFO ../src/mst/axi4_master_driver.sv(55) @ 10345000: uvm_test_top.env.master_agent.drv [axi4_master_driver] Driving AXI4_WRITE  ID=0x1  ADDR=0xdc53545f  LEN=231
# UVM_INFO ../src/mst/axi4_master_driver.sv(94) @ 10345000: uvm_test_top.env.master_agent.drv [axi4_master_driver] Write order: AW || W (parallel)
# UVM_INFO ../src/slv/axi4_slave_driver.sv(165) @ 10375000: uvm_test_top.env.slave_agent.drv [axi4_slave_driver] AW received: ID=0x1 ADDR=0xdc53545f LEN=231 LOCK=AXI4_LOCK_NORMAL
# UVM_INFO ../src/slv/axi4_slave_monitor.sv(116) @ 10375000: uvm_test_top.env.slave_agent.mon [axi4_slave_monitor] AW received: ID=0x1 ADDR=0xdc53545f LEN=231
# UVM_INFO ../src/mst/axi4_master_monitor.sv(124) @ 10375000: uvm_test_top.env.master_agent.mon [axi4_master_monitor] AW observed: ID=0x1 ADDR=0xdc53545f LEN=231
# UVM_INFO ../src/mst/axi4_master_monitor.sv(184) @ 14985000: uvm_test_top.env.master_agent.mon [axi4_master_monitor] W data assembled: ID=0x1 ADDR=0xdc53545f 232 beats
# UVM_INFO ../src/slv/axi4_slave_monitor.sv(167) @ 14985000: uvm_test_top.env.slave_agent.mon [axi4_slave_monitor] W data assembled: ID=0x1 ADDR=0xdc53545f 232 beats
# UVM_INFO ../src/mst/axi4_master_driver.sv(197) @ 15015000: uvm_test_top.env.master_agent.drv [axi4_master_driver] Write response: AXI4_RESP_OKAY
# UVM_INFO ../src/slv/axi4_slave_driver.sv(261) @ 15015000: uvm_test_top.env.slave_agent.drv [axi4_slave_driver] Write complete: ID=0x1 ADDR=0xdc53545f RESP=AXI4_RESP_OKAY  232 beats processed
# UVM_INFO ../src/slv/axi4_slave_monitor.sv(189) @ 15015000: uvm_test_top.env.slave_agent.mon [axi4_slave_monitor] Write response sent: ID=0x1 ADDR=0xdc53545f RESP=AXI4_RESP_OKAY
# UVM_INFO ../src/env/axi4_scoreboard.sv(103) @ 15015000: uvm_test_top.env.scb [axi4_scoreboard] Slave AXI4_WRITE received: ID=0x1 ADDR=0xdc53545f LEN=231
# UVM_INFO ../src/mst/axi4_master_monitor.sv(210) @ 15015000: uvm_test_top.env.master_agent.mon [axi4_master_monitor] Write complete: ID=0x1 ADDR=0xdc53545f RESP=AXI4_RESP_OKAY
# UVM_INFO ../src/env/axi4_scoreboard.sv(82) @ 15015000: uvm_test_top.env.scb [axi4_scoreboard] Master AXI4_WRITE received: ID=0x1 ADDR=0xdc53545f LEN=231
# UVM_INFO ../src/env/axi4_scoreboard.sv(154) @ 15015000: uvm_test_top.env.scb [axi4_scoreboard] [WRITE] MATCH #4: ID=0x1 ADDR=0xdc53545f LEN=231
# UVM_INFO ../src/seq/axi4_outstanding_seq.sv(71) @ 15015000: uvm_test_top.env.master_agent.sqr@@outstanding_seq [axi4_outstanding_seq] Outstanding Write [#0] complete: ID=0x1
# UVM_INFO ../src/seq/axi4_outstanding_seq.sv(100) @ 15015000: uvm_test_top.env.master_agent.sqr@@outstanding_seq [axi4_outstanding_seq] Outstanding Read [#3] started: ID=0x2 ADDR=0x65158771 LEN=9
# UVM_INFO ../src/mst/axi4_master_driver.sv(55) @ 15015000: uvm_test_top.env.master_agent.drv [axi4_master_driver] Driving AXI4_READ  ID=0x2  ADDR=0x65158771  LEN=9
# UVM_INFO ../src/slv/axi4_slave_driver.sv(300) @ 15045000: uvm_test_top.env.slave_agent.drv [axi4_slave_driver] AR received: ID=0x2 ADDR=0x65158771 LEN=9 LOCK=AXI4_LOCK_NORMAL
# UVM_INFO ../src/mst/axi4_master_monitor.sv(246) @ 15045000: uvm_test_top.env.master_agent.mon [axi4_master_monitor] AR observed: ID=0x2 ADDR=0x65158771 LEN=9
# UVM_INFO ../src/slv/axi4_slave_monitor.sv(224) @ 15045000: uvm_test_top.env.slave_agent.mon [axi4_slave_monitor] AR received: ID=0x2 ADDR=0x65158771 LEN=9
# UVM_INFO ../src/mst/axi4_master_driver.sv(254) @ 15245000: uvm_test_top.env.master_agent.drv [axi4_master_driver] Read complete: 10 beats received
# UVM_INFO ../src/slv/axi4_slave_driver.sv(349) @ 15245000: uvm_test_top.env.slave_agent.drv [axi4_slave_driver] Read complete: ID=0x2 ADDR=0x65158771 RESP=AXI4_RESP_OKAY  10 beats sent
# UVM_INFO ../src/mst/axi4_master_monitor.sv(314) @ 15245000: uvm_test_top.env.master_agent.mon [axi4_master_monitor] Read complete: ID=0x2 ADDR=0x65158771 10 beats
# UVM_INFO ../src/env/axi4_scoreboard.sv(82) @ 15245000: uvm_test_top.env.scb [axi4_scoreboard] Master AXI4_READ received: ID=0x2 ADDR=0x65158771 LEN=9
# UVM_INFO ../src/slv/axi4_slave_monitor.sv(287) @ 15245000: uvm_test_top.env.slave_agent.mon [axi4_slave_monitor] Read data sent: ID=0x2 ADDR=0x65158771 10 beats
# UVM_INFO ../src/env/axi4_scoreboard.sv(103) @ 15245000: uvm_test_top.env.scb [axi4_scoreboard] Slave AXI4_READ received: ID=0x2 ADDR=0x65158771 LEN=9
# UVM_INFO ../src/env/axi4_scoreboard.sv(154) @ 15245000: uvm_test_top.env.scb [axi4_scoreboard] [READ] MATCH #5: ID=0x2 ADDR=0x65158771 LEN=9
# UVM_INFO ../src/seq/axi4_outstanding_seq.sv(106) @ 15245000: uvm_test_top.env.master_agent.sqr@@outstanding_seq [axi4_outstanding_seq] Outstanding Read [#3] complete: ID=0x2
# UVM_INFO ../src/seq/axi4_outstanding_seq.sv(100) @ 15245000: uvm_test_top.env.master_agent.sqr@@outstanding_seq [axi4_outstanding_seq] Outstanding Read [#2] started: ID=0x5 ADDR=0xb2fad964 LEN=105
# UVM_INFO ../src/mst/axi4_master_driver.sv(55) @ 15245000: uvm_test_top.env.master_agent.drv [axi4_master_driver] Driving AXI4_READ  ID=0x5  ADDR=0xb2fad964  LEN=105
# UVM_INFO ../src/slv/axi4_slave_driver.sv(300) @ 15275000: uvm_test_top.env.slave_agent.drv [axi4_slave_driver] AR received: ID=0x5 ADDR=0xb2fad964 LEN=105 LOCK=AXI4_LOCK_NORMAL
# UVM_INFO ../src/slv/axi4_slave_monitor.sv(224) @ 15275000: uvm_test_top.env.slave_agent.mon [axi4_slave_monitor] AR received: ID=0x5 ADDR=0xb2fad964 LEN=105
# UVM_INFO ../src/mst/axi4_master_monitor.sv(246) @ 15275000: uvm_test_top.env.master_agent.mon [axi4_master_monitor] AR observed: ID=0x5 ADDR=0xb2fad964 LEN=105
# UVM_INFO ../src/mst/axi4_master_driver.sv(254) @ 17395000: uvm_test_top.env.master_agent.drv [axi4_master_driver] Read complete: 106 beats received
# UVM_INFO ../src/slv/axi4_slave_driver.sv(349) @ 17395000: uvm_test_top.env.slave_agent.drv [axi4_slave_driver] Read complete: ID=0x5 ADDR=0xb2fad964 RESP=AXI4_RESP_OKAY  106 beats sent
# UVM_INFO ../src/slv/axi4_slave_monitor.sv(287) @ 17395000: uvm_test_top.env.slave_agent.mon [axi4_slave_monitor] Read data sent: ID=0x5 ADDR=0xb2fad964 106 beats
# UVM_INFO ../src/env/axi4_scoreboard.sv(103) @ 17395000: uvm_test_top.env.scb [axi4_scoreboard] Slave AXI4_READ received: ID=0x5 ADDR=0xb2fad964 LEN=105
# UVM_INFO ../src/mst/axi4_master_monitor.sv(314) @ 17395000: uvm_test_top.env.master_agent.mon [axi4_master_monitor] Read complete: ID=0x5 ADDR=0xb2fad964 106 beats
# UVM_INFO ../src/env/axi4_scoreboard.sv(82) @ 17395000: uvm_test_top.env.scb [axi4_scoreboard] Master AXI4_READ received: ID=0x5 ADDR=0xb2fad964 LEN=105
# UVM_INFO ../src/env/axi4_scoreboard.sv(154) @ 17395000: uvm_test_top.env.scb [axi4_scoreboard] [READ] MATCH #6: ID=0x5 ADDR=0xb2fad964 LEN=105
# UVM_INFO ../src/seq/axi4_outstanding_seq.sv(106) @ 17395000: uvm_test_top.env.master_agent.sqr@@outstanding_seq [axi4_outstanding_seq] Outstanding Read [#2] complete: ID=0x5
# UVM_INFO ../src/seq/axi4_outstanding_seq.sv(100) @ 17395000: uvm_test_top.env.master_agent.sqr@@outstanding_seq [axi4_outstanding_seq] Outstanding Read [#1] started: ID=0x2 ADDR=0x9d4c90dc LEN=126
# UVM_INFO ../src/mst/axi4_master_driver.sv(55) @ 17395000: uvm_test_top.env.master_agent.drv [axi4_master_driver] Driving AXI4_READ  ID=0x2  ADDR=0x9d4c90dc  LEN=126
# UVM_INFO ../src/slv/axi4_slave_driver.sv(300) @ 17425000: uvm_test_top.env.slave_agent.drv [axi4_slave_driver] AR received: ID=0x2 ADDR=0x9d4c90dc LEN=126 LOCK=AXI4_LOCK_NORMAL
# UVM_INFO ../src/mst/axi4_master_monitor.sv(246) @ 17425000: uvm_test_top.env.master_agent.mon [axi4_master_monitor] AR observed: ID=0x2 ADDR=0x9d4c90dc LEN=126
# UVM_INFO ../src/slv/axi4_slave_monitor.sv(224) @ 17425000: uvm_test_top.env.slave_agent.mon [axi4_slave_monitor] AR received: ID=0x2 ADDR=0x9d4c90dc LEN=126
# UVM_INFO ../src/mst/axi4_master_driver.sv(254) @ 19965000: uvm_test_top.env.master_agent.drv [axi4_master_driver] Read complete: 127 beats received
# UVM_INFO ../src/slv/axi4_slave_driver.sv(349) @ 19965000: uvm_test_top.env.slave_agent.drv [axi4_slave_driver] Read complete: ID=0x2 ADDR=0x9d4c90dc RESP=AXI4_RESP_OKAY  127 beats sent
# UVM_INFO ../src/mst/axi4_master_monitor.sv(314) @ 19965000: uvm_test_top.env.master_agent.mon [axi4_master_monitor] Read complete: ID=0x2 ADDR=0x9d4c90dc 127 beats
# UVM_INFO ../src/env/axi4_scoreboard.sv(82) @ 19965000: uvm_test_top.env.scb [axi4_scoreboard] Master AXI4_READ received: ID=0x2 ADDR=0x9d4c90dc LEN=126
# UVM_INFO ../src/slv/axi4_slave_monitor.sv(287) @ 19965000: uvm_test_top.env.slave_agent.mon [axi4_slave_monitor] Read data sent: ID=0x2 ADDR=0x9d4c90dc 127 beats
# UVM_INFO ../src/env/axi4_scoreboard.sv(103) @ 19965000: uvm_test_top.env.scb [axi4_scoreboard] Slave AXI4_READ received: ID=0x2 ADDR=0x9d4c90dc LEN=126
# UVM_INFO ../src/env/axi4_scoreboard.sv(154) @ 19965000: uvm_test_top.env.scb [axi4_scoreboard] [READ] MATCH #7: ID=0x2 ADDR=0x9d4c90dc LEN=126
# UVM_INFO ../src/seq/axi4_outstanding_seq.sv(106) @ 19965000: uvm_test_top.env.master_agent.sqr@@outstanding_seq [axi4_outstanding_seq] Outstanding Read [#1] complete: ID=0x2
# UVM_INFO ../src/seq/axi4_outstanding_seq.sv(100) @ 19965000: uvm_test_top.env.master_agent.sqr@@outstanding_seq [axi4_outstanding_seq] Outstanding Read [#0] started: ID=0xb ADDR=0x97d22120 LEN=0
# UVM_INFO ../src/mst/axi4_master_driver.sv(55) @ 19965000: uvm_test_top.env.master_agent.drv [axi4_master_driver] Driving AXI4_READ  ID=0xb  ADDR=0x97d22120  LEN=0
# UVM_INFO ../src/slv/axi4_slave_driver.sv(300) @ 19995000: uvm_test_top.env.slave_agent.drv [axi4_slave_driver] AR received: ID=0xb ADDR=0x97d22120 LEN=0 LOCK=AXI4_LOCK_EXCLUSIVE
# UVM_INFO ../src/slv/axi4_slave_monitor.sv(224) @ 19995000: uvm_test_top.env.slave_agent.mon [axi4_slave_monitor] AR received: ID=0xb ADDR=0x97d22120 LEN=0
# UVM_INFO ../src/mst/axi4_master_monitor.sv(246) @ 19995000: uvm_test_top.env.master_agent.mon [axi4_master_monitor] AR observed: ID=0xb ADDR=0x97d22120 LEN=0
# UVM_INFO ../src/mst/axi4_master_driver.sv(254) @ 20015000: uvm_test_top.env.master_agent.drv [axi4_master_driver] Read complete: 1 beats received
# UVM_INFO ../src/slv/axi4_slave_driver.sv(349) @ 20015000: uvm_test_top.env.slave_agent.drv [axi4_slave_driver] Read complete: ID=0xb ADDR=0x97d22120 RESP=AXI4_RESP_EXOKAY  1 beats sent
# UVM_INFO ../src/slv/axi4_slave_monitor.sv(287) @ 20015000: uvm_test_top.env.slave_agent.mon [axi4_slave_monitor] Read data sent: ID=0xb ADDR=0x97d22120 1 beats
# UVM_INFO ../src/env/axi4_scoreboard.sv(103) @ 20015000: uvm_test_top.env.scb [axi4_scoreboard] Slave AXI4_READ received: ID=0xb ADDR=0x97d22120 LEN=0
# UVM_INFO ../src/mst/axi4_master_monitor.sv(314) @ 20015000: uvm_test_top.env.master_agent.mon [axi4_master_monitor] Read complete: ID=0xb ADDR=0x97d22120 1 beats
# UVM_INFO ../src/env/axi4_scoreboard.sv(82) @ 20015000: uvm_test_top.env.scb [axi4_scoreboard] Master AXI4_READ received: ID=0xb ADDR=0x97d22120 LEN=0
# UVM_INFO ../src/env/axi4_scoreboard.sv(154) @ 20015000: uvm_test_top.env.scb [axi4_scoreboard] [READ] MATCH #8: ID=0xb ADDR=0x97d22120 LEN=0
# UVM_INFO ../src/seq/axi4_outstanding_seq.sv(106) @ 20015000: uvm_test_top.env.master_agent.sqr@@outstanding_seq [axi4_outstanding_seq] Outstanding Read [#0] complete: ID=0xb
# UVM_INFO ../src/seq/axi4_outstanding_seq.sv(65) @ 20015000: uvm_test_top.env.master_agent.sqr@@outstanding_seq [axi4_outstanding_seq] Outstanding Write [#4] started: ID=0xe ADDR=0xee245038 LEN=69
# UVM_INFO ../src/mst/axi4_master_driver.sv(55) @ 20015000: uvm_test_top.env.master_agent.drv [axi4_master_driver] Driving AXI4_WRITE  ID=0xe  ADDR=0xee245038  LEN=69
# UVM_INFO ../src/mst/axi4_master_driver.sv(101) @ 20015000: uvm_test_top.env.master_agent.drv [axi4_master_driver] Write order: AW -> W (sequential)
# UVM_INFO ../src/slv/axi4_slave_driver.sv(165) @ 20045000: uvm_test_top.env.slave_agent.drv [axi4_slave_driver] AW received: ID=0xe ADDR=0xee245038 LEN=69 LOCK=AXI4_LOCK_EXCLUSIVE
# UVM_INFO ../src/mst/axi4_master_monitor.sv(124) @ 20045000: uvm_test_top.env.master_agent.mon [axi4_master_monitor] AW observed: ID=0xe ADDR=0xee245038 LEN=69
# UVM_INFO ../src/slv/axi4_slave_monitor.sv(116) @ 20045000: uvm_test_top.env.slave_agent.mon [axi4_slave_monitor] AW received: ID=0xe ADDR=0xee245038 LEN=69
# UVM_INFO ../src/mst/axi4_master_monitor.sv(184) @ 21445000: uvm_test_top.env.master_agent.mon [axi4_master_monitor] W data assembled: ID=0xe ADDR=0xee245038 70 beats
# UVM_INFO ../src/slv/axi4_slave_monitor.sv(167) @ 21445000: uvm_test_top.env.slave_agent.mon [axi4_slave_monitor] W data assembled: ID=0xe ADDR=0xee245038 70 beats
# UVM_INFO ../src/mst/axi4_master_driver.sv(197) @ 21475000: uvm_test_top.env.master_agent.drv [axi4_master_driver] Write response: AXI4_RESP_SLVERR
# UVM_INFO ../src/slv/axi4_slave_driver.sv(261) @ 21475000: uvm_test_top.env.slave_agent.drv [axi4_slave_driver] Write complete: ID=0xe ADDR=0xee245038 RESP=AXI4_RESP_SLVERR  70 beats processed
# UVM_INFO ../src/slv/axi4_slave_monitor.sv(189) @ 21475000: uvm_test_top.env.slave_agent.mon [axi4_slave_monitor] Write response sent: ID=0xe ADDR=0xee245038 RESP=AXI4_RESP_SLVERR
# UVM_INFO ../src/env/axi4_scoreboard.sv(103) @ 21475000: uvm_test_top.env.scb [axi4_scoreboard] Slave AXI4_WRITE received: ID=0xe ADDR=0xee245038 LEN=69
# UVM_INFO ../src/mst/axi4_master_monitor.sv(210) @ 21475000: uvm_test_top.env.master_agent.mon [axi4_master_monitor] Write complete: ID=0xe ADDR=0xee245038 RESP=AXI4_RESP_SLVERR
# UVM_INFO ../src/env/axi4_scoreboard.sv(82) @ 21475000: uvm_test_top.env.scb [axi4_scoreboard] Master AXI4_WRITE received: ID=0xe ADDR=0xee245038 LEN=69
# UVM_INFO ../src/env/axi4_scoreboard.sv(154) @ 21475000: uvm_test_top.env.scb [axi4_scoreboard] [WRITE] MATCH #9: ID=0xe ADDR=0xee245038 LEN=69
# UVM_INFO ../src/seq/axi4_outstanding_seq.sv(71) @ 21475000: uvm_test_top.env.master_agent.sqr@@outstanding_seq [axi4_outstanding_seq] Outstanding Write [#4] complete: ID=0xe
# UVM_INFO ../src/seq/axi4_outstanding_seq.sv(65) @ 21475000: uvm_test_top.env.master_agent.sqr@@outstanding_seq [axi4_outstanding_seq] Outstanding Write [#5] started: ID=0x8 ADDR=0x25f27dbe LEN=253
# UVM_INFO ../src/mst/axi4_master_driver.sv(55) @ 21475000: uvm_test_top.env.master_agent.drv [axi4_master_driver] Driving AXI4_WRITE  ID=0x8  ADDR=0x25f27dbe  LEN=253
# UVM_INFO ../src/mst/axi4_master_driver.sv(94) @ 21475000: uvm_test_top.env.master_agent.drv [axi4_master_driver] Write order: AW || W (parallel)
# UVM_INFO ../src/slv/axi4_slave_driver.sv(165) @ 21505000: uvm_test_top.env.slave_agent.drv [axi4_slave_driver] AW received: ID=0x8 ADDR=0x25f27dbe LEN=253 LOCK=AXI4_LOCK_NORMAL
# UVM_INFO ../src/mst/axi4_master_monitor.sv(124) @ 21505000: uvm_test_top.env.master_agent.mon [axi4_master_monitor] AW observed: ID=0x8 ADDR=0x25f27dbe LEN=253
# UVM_INFO ../src/slv/axi4_slave_monitor.sv(116) @ 21505000: uvm_test_top.env.slave_agent.mon [axi4_slave_monitor] AW received: ID=0x8 ADDR=0x25f27dbe LEN=253
# UVM_INFO ../src/slv/axi4_slave_monitor.sv(167) @ 26555000: uvm_test_top.env.slave_agent.mon [axi4_slave_monitor] W data assembled: ID=0x8 ADDR=0x25f27dbe 254 beats
# UVM_INFO ../src/mst/axi4_master_monitor.sv(184) @ 26555000: uvm_test_top.env.master_agent.mon [axi4_master_monitor] W data assembled: ID=0x8 ADDR=0x25f27dbe 254 beats
# UVM_INFO ../src/mst/axi4_master_driver.sv(197) @ 26585000: uvm_test_top.env.master_agent.drv [axi4_master_driver] Write response: AXI4_RESP_OKAY
# UVM_INFO ../src/slv/axi4_slave_driver.sv(261) @ 26585000: uvm_test_top.env.slave_agent.drv [axi4_slave_driver] Write complete: ID=0x8 ADDR=0x25f27dbe RESP=AXI4_RESP_OKAY  254 beats processed
# UVM_INFO ../src/mst/axi4_master_monitor.sv(210) @ 26585000: uvm_test_top.env.master_agent.mon [axi4_master_monitor] Write complete: ID=0x8 ADDR=0x25f27dbe RESP=AXI4_RESP_OKAY
# UVM_INFO ../src/env/axi4_scoreboard.sv(82) @ 26585000: uvm_test_top.env.scb [axi4_scoreboard] Master AXI4_WRITE received: ID=0x8 ADDR=0x25f27dbe LEN=253
# UVM_INFO ../src/slv/axi4_slave_monitor.sv(189) @ 26585000: uvm_test_top.env.slave_agent.mon [axi4_slave_monitor] Write response sent: ID=0x8 ADDR=0x25f27dbe RESP=AXI4_RESP_OKAY
# UVM_INFO ../src/env/axi4_scoreboard.sv(103) @ 26585000: uvm_test_top.env.scb [axi4_scoreboard] Slave AXI4_WRITE received: ID=0x8 ADDR=0x25f27dbe LEN=253
# UVM_INFO ../src/env/axi4_scoreboard.sv(154) @ 26585000: uvm_test_top.env.scb [axi4_scoreboard] [WRITE] MATCH #10: ID=0x8 ADDR=0x25f27dbe LEN=253
# UVM_INFO ../src/seq/axi4_outstanding_seq.sv(71) @ 26585000: uvm_test_top.env.master_agent.sqr@@outstanding_seq [axi4_outstanding_seq] Outstanding Write [#5] complete: ID=0x8
# UVM_INFO ../src/seq/axi4_outstanding_seq.sv(65) @ 26585000: uvm_test_top.env.master_agent.sqr@@outstanding_seq [axi4_outstanding_seq] Outstanding Write [#6] started: ID=0x8 ADDR=0xfbebc25c LEN=39
# UVM_INFO ../src/mst/axi4_master_driver.sv(55) @ 26585000: uvm_test_top.env.master_agent.drv [axi4_master_driver] Driving AXI4_WRITE  ID=0x8  ADDR=0xfbebc25c  LEN=39
# UVM_INFO ../src/mst/axi4_master_driver.sv(94) @ 26585000: uvm_test_top.env.master_agent.drv [axi4_master_driver] Write order: AW || W (parallel)
# UVM_INFO ../src/slv/axi4_slave_driver.sv(165) @ 26615000: uvm_test_top.env.slave_agent.drv [axi4_slave_driver] AW received: ID=0x8 ADDR=0xfbebc25c LEN=39 LOCK=AXI4_LOCK_NORMAL
# UVM_INFO ../src/slv/axi4_slave_monitor.sv(116) @ 26615000: uvm_test_top.env.slave_agent.mon [axi4_slave_monitor] AW received: ID=0x8 ADDR=0xfbebc25c LEN=39
# UVM_INFO ../src/mst/axi4_master_monitor.sv(124) @ 26615000: uvm_test_top.env.master_agent.mon [axi4_master_monitor] AW observed: ID=0x8 ADDR=0xfbebc25c LEN=39
# UVM_INFO ../src/mst/axi4_master_monitor.sv(184) @ 27385000: uvm_test_top.env.master_agent.mon [axi4_master_monitor] W data assembled: ID=0x8 ADDR=0xfbebc25c 40 beats
# UVM_INFO ../src/slv/axi4_slave_monitor.sv(167) @ 27385000: uvm_test_top.env.slave_agent.mon [axi4_slave_monitor] W data assembled: ID=0x8 ADDR=0xfbebc25c 40 beats
# UVM_INFO ../src/mst/axi4_master_driver.sv(197) @ 27415000: uvm_test_top.env.master_agent.drv [axi4_master_driver] Write response: AXI4_RESP_DECERR
# UVM_INFO ../src/slv/axi4_slave_driver.sv(261) @ 27415000: uvm_test_top.env.slave_agent.drv [axi4_slave_driver] Write complete: ID=0x8 ADDR=0xfbebc25c RESP=AXI4_RESP_DECERR  40 beats processed
# UVM_INFO ../src/slv/axi4_slave_monitor.sv(189) @ 27415000: uvm_test_top.env.slave_agent.mon [axi4_slave_monitor] Write response sent: ID=0x8 ADDR=0xfbebc25c RESP=AXI4_RESP_DECERR
# UVM_INFO ../src/env/axi4_scoreboard.sv(103) @ 27415000: uvm_test_top.env.scb [axi4_scoreboard] Slave AXI4_WRITE received: ID=0x8 ADDR=0xfbebc25c LEN=39
# UVM_INFO ../src/mst/axi4_master_monitor.sv(210) @ 27415000: uvm_test_top.env.master_agent.mon [axi4_master_monitor] Write complete: ID=0x8 ADDR=0xfbebc25c RESP=AXI4_RESP_DECERR
# UVM_INFO ../src/env/axi4_scoreboard.sv(82) @ 27415000: uvm_test_top.env.scb [axi4_scoreboard] Master AXI4_WRITE received: ID=0x8 ADDR=0xfbebc25c LEN=39
# UVM_INFO ../src/env/axi4_scoreboard.sv(154) @ 27415000: uvm_test_top.env.scb [axi4_scoreboard] [WRITE] MATCH #11: ID=0x8 ADDR=0xfbebc25c LEN=39
# UVM_INFO ../src/seq/axi4_outstanding_seq.sv(71) @ 27415000: uvm_test_top.env.master_agent.sqr@@outstanding_seq [axi4_outstanding_seq] Outstanding Write [#6] complete: ID=0x8
# UVM_INFO ../src/seq/axi4_outstanding_seq.sv(65) @ 27415000: uvm_test_top.env.master_agent.sqr@@outstanding_seq [axi4_outstanding_seq] Outstanding Write [#7] started: ID=0x2 ADDR=0xd3c6c9fe LEN=15
# UVM_INFO ../src/mst/axi4_master_driver.sv(55) @ 27415000: uvm_test_top.env.master_agent.drv [axi4_master_driver] Driving AXI4_WRITE  ID=0x2  ADDR=0xd3c6c9fe  LEN=15
# UVM_INFO ../src/mst/axi4_master_driver.sv(106) @ 27415000: uvm_test_top.env.master_agent.drv [axi4_master_driver] Write order: W -> AW (W first)
# UVM_INFO ../src/slv/axi4_slave_driver.sv(165) @ 27465000: uvm_test_top.env.slave_agent.drv [axi4_slave_driver] AW received: ID=0x2 ADDR=0xd3c6c9fe LEN=15 LOCK=AXI4_LOCK_EXCLUSIVE
# UVM_INFO ../src/mst/axi4_master_monitor.sv(124) @ 27465000: uvm_test_top.env.master_agent.mon [axi4_master_monitor] AW observed: ID=0x2 ADDR=0xd3c6c9fe LEN=15
# UVM_INFO ../src/slv/axi4_slave_monitor.sv(116) @ 27465000: uvm_test_top.env.slave_agent.mon [axi4_slave_monitor] AW received: ID=0x2 ADDR=0xd3c6c9fe LEN=15
# UVM_INFO ../src/slv/axi4_slave_monitor.sv(167) @ 27735000: uvm_test_top.env.slave_agent.mon [axi4_slave_monitor] W data assembled: ID=0x2 ADDR=0xd3c6c9fe 16 beats
# UVM_INFO ../src/mst/axi4_master_monitor.sv(184) @ 27735000: uvm_test_top.env.master_agent.mon [axi4_master_monitor] W data assembled: ID=0x2 ADDR=0xd3c6c9fe 16 beats
# UVM_INFO ../src/mst/axi4_master_driver.sv(197) @ 27765000: uvm_test_top.env.master_agent.drv [axi4_master_driver] Write response: AXI4_RESP_OKAY
# UVM_INFO ../src/slv/axi4_slave_driver.sv(261) @ 27765000: uvm_test_top.env.slave_agent.drv [axi4_slave_driver] Write complete: ID=0x2 ADDR=0xd3c6c9fe RESP=AXI4_RESP_OKAY  16 beats processed
# UVM_INFO ../src/mst/axi4_master_monitor.sv(210) @ 27765000: uvm_test_top.env.master_agent.mon [axi4_master_monitor] Write complete: ID=0x2 ADDR=0xd3c6c9fe RESP=AXI4_RESP_OKAY
# UVM_INFO ../src/env/axi4_scoreboard.sv(82) @ 27765000: uvm_test_top.env.scb [axi4_scoreboard] Master AXI4_WRITE received: ID=0x2 ADDR=0xd3c6c9fe LEN=15
# UVM_INFO ../src/slv/axi4_slave_monitor.sv(189) @ 27765000: uvm_test_top.env.slave_agent.mon [axi4_slave_monitor] Write response sent: ID=0x2 ADDR=0xd3c6c9fe RESP=AXI4_RESP_OKAY
# UVM_INFO ../src/env/axi4_scoreboard.sv(103) @ 27765000: uvm_test_top.env.scb [axi4_scoreboard] Slave AXI4_WRITE received: ID=0x2 ADDR=0xd3c6c9fe LEN=15
# UVM_INFO ../src/env/axi4_scoreboard.sv(154) @ 27765000: uvm_test_top.env.scb [axi4_scoreboard] [WRITE] MATCH #12: ID=0x2 ADDR=0xd3c6c9fe LEN=15
# UVM_INFO ../src/seq/axi4_outstanding_seq.sv(71) @ 27765000: uvm_test_top.env.master_agent.sqr@@outstanding_seq [axi4_outstanding_seq] Outstanding Write [#7] complete: ID=0x2
# UVM_INFO ../src/seq/axi4_outstanding_seq.sv(100) @ 27765000: uvm_test_top.env.master_agent.sqr@@outstanding_seq [axi4_outstanding_seq] Outstanding Read [#4] started: ID=0x5 ADDR=0x83f5b121 LEN=84
# UVM_INFO ../src/mst/axi4_master_driver.sv(55) @ 27765000: uvm_test_top.env.master_agent.drv [axi4_master_driver] Driving AXI4_READ  ID=0x5  ADDR=0x83f5b121  LEN=84
# UVM_INFO ../src/slv/axi4_slave_driver.sv(300) @ 27795000: uvm_test_top.env.slave_agent.drv [axi4_slave_driver] AR received: ID=0x5 ADDR=0x83f5b121 LEN=84 LOCK=AXI4_LOCK_EXCLUSIVE
# UVM_INFO ../src/slv/axi4_slave_monitor.sv(224) @ 27795000: uvm_test_top.env.slave_agent.mon [axi4_slave_monitor] AR received: ID=0x5 ADDR=0x83f5b121 LEN=84
# UVM_INFO ../src/mst/axi4_master_monitor.sv(246) @ 27795000: uvm_test_top.env.master_agent.mon [axi4_master_monitor] AR observed: ID=0x5 ADDR=0x83f5b121 LEN=84
# UVM_INFO ../src/mst/axi4_master_driver.sv(254) @ 29495000: uvm_test_top.env.master_agent.drv [axi4_master_driver] Read complete: 85 beats received
# UVM_INFO ../src/slv/axi4_slave_driver.sv(349) @ 29495000: uvm_test_top.env.slave_agent.drv [axi4_slave_driver] Read complete: ID=0x5 ADDR=0x83f5b121 RESP=AXI4_RESP_EXOKAY  85 beats sent
# UVM_INFO ../src/slv/axi4_slave_monitor.sv(287) @ 29495000: uvm_test_top.env.slave_agent.mon [axi4_slave_monitor] Read data sent: ID=0x5 ADDR=0x83f5b121 85 beats
# UVM_INFO ../src/env/axi4_scoreboard.sv(103) @ 29495000: uvm_test_top.env.scb [axi4_scoreboard] Slave AXI4_READ received: ID=0x5 ADDR=0x83f5b121 LEN=84
# UVM_INFO ../src/mst/axi4_master_monitor.sv(314) @ 29495000: uvm_test_top.env.master_agent.mon [axi4_master_monitor] Read complete: ID=0x5 ADDR=0x83f5b121 85 beats
# UVM_INFO ../src/env/axi4_scoreboard.sv(82) @ 29495000: uvm_test_top.env.scb [axi4_scoreboard] Master AXI4_READ received: ID=0x5 ADDR=0x83f5b121 LEN=84
# UVM_INFO ../src/env/axi4_scoreboard.sv(154) @ 29495000: uvm_test_top.env.scb [axi4_scoreboard] [READ] MATCH #13: ID=0x5 ADDR=0x83f5b121 LEN=84
# UVM_INFO ../src/seq/axi4_outstanding_seq.sv(106) @ 29495000: uvm_test_top.env.master_agent.sqr@@outstanding_seq [axi4_outstanding_seq] Outstanding Read [#4] complete: ID=0x5
# UVM_INFO ../src/seq/axi4_outstanding_seq.sv(100) @ 29495000: uvm_test_top.env.master_agent.sqr@@outstanding_seq [axi4_outstanding_seq] Outstanding Read [#5] started: ID=0x5 ADDR=0x4ecccb1b LEN=3
# UVM_INFO ../src/mst/axi4_master_driver.sv(55) @ 29495000: uvm_test_top.env.master_agent.drv [axi4_master_driver] Driving AXI4_READ  ID=0x5  ADDR=0x4ecccb1b  LEN=3
# UVM_INFO ../src/slv/axi4_slave_driver.sv(300) @ 29525000: uvm_test_top.env.slave_agent.drv [axi4_slave_driver] AR received: ID=0x5 ADDR=0x4ecccb1b LEN=3 LOCK=AXI4_LOCK_NORMAL
# UVM_INFO ../src/mst/axi4_master_monitor.sv(246) @ 29525000: uvm_test_top.env.master_agent.mon [axi4_master_monitor] AR observed: ID=0x5 ADDR=0x4ecccb1b LEN=3
# UVM_INFO ../src/slv/axi4_slave_monitor.sv(224) @ 29525000: uvm_test_top.env.slave_agent.mon [axi4_slave_monitor] AR received: ID=0x5 ADDR=0x4ecccb1b LEN=3
# UVM_INFO ../src/mst/axi4_master_driver.sv(254) @ 29605000: uvm_test_top.env.master_agent.drv [axi4_master_driver] Read complete: 4 beats received
# UVM_INFO ../src/slv/axi4_slave_driver.sv(349) @ 29605000: uvm_test_top.env.slave_agent.drv [axi4_slave_driver] Read complete: ID=0x5 ADDR=0x4ecccb1b RESP=AXI4_RESP_OKAY  4 beats sent
# UVM_INFO ../src/mst/axi4_master_monitor.sv(314) @ 29605000: uvm_test_top.env.master_agent.mon [axi4_master_monitor] Read complete: ID=0x5 ADDR=0x4ecccb1b 4 beats
# UVM_INFO ../src/env/axi4_scoreboard.sv(82) @ 29605000: uvm_test_top.env.scb [axi4_scoreboard] Master AXI4_READ received: ID=0x5 ADDR=0x4ecccb1b LEN=3
# UVM_INFO ../src/slv/axi4_slave_monitor.sv(287) @ 29605000: uvm_test_top.env.slave_agent.mon [axi4_slave_monitor] Read data sent: ID=0x5 ADDR=0x4ecccb1b 4 beats
# UVM_INFO ../src/env/axi4_scoreboard.sv(103) @ 29605000: uvm_test_top.env.scb [axi4_scoreboard] Slave AXI4_READ received: ID=0x5 ADDR=0x4ecccb1b LEN=3
# UVM_INFO ../src/env/axi4_scoreboard.sv(154) @ 29605000: uvm_test_top.env.scb [axi4_scoreboard] [READ] MATCH #14: ID=0x5 ADDR=0x4ecccb1b LEN=3
# UVM_INFO ../src/seq/axi4_outstanding_seq.sv(106) @ 29605000: uvm_test_top.env.master_agent.sqr@@outstanding_seq [axi4_outstanding_seq] Outstanding Read [#5] complete: ID=0x5
# UVM_INFO ../src/seq/axi4_outstanding_seq.sv(100) @ 29605000: uvm_test_top.env.master_agent.sqr@@outstanding_seq [axi4_outstanding_seq] Outstanding Read [#6] started: ID=0x6 ADDR=0xcb748de8 LEN=2
# UVM_INFO ../src/mst/axi4_master_driver.sv(55) @ 29605000: uvm_test_top.env.master_agent.drv [axi4_master_driver] Driving AXI4_READ  ID=0x6  ADDR=0xcb748de8  LEN=2
# UVM_INFO ../src/slv/axi4_slave_driver.sv(300) @ 29635000: uvm_test_top.env.slave_agent.drv [axi4_slave_driver] AR received: ID=0x6 ADDR=0xcb748de8 LEN=2 LOCK=AXI4_LOCK_EXCLUSIVE
# UVM_INFO ../src/slv/axi4_slave_monitor.sv(224) @ 29635000: uvm_test_top.env.slave_agent.mon [axi4_slave_monitor] AR received: ID=0x6 ADDR=0xcb748de8 LEN=2
# UVM_INFO ../src/mst/axi4_master_monitor.sv(246) @ 29635000: uvm_test_top.env.master_agent.mon [axi4_master_monitor] AR observed: ID=0x6 ADDR=0xcb748de8 LEN=2
# UVM_INFO ../src/mst/axi4_master_driver.sv(254) @ 29695000: uvm_test_top.env.master_agent.drv [axi4_master_driver] Read complete: 3 beats received
# UVM_INFO ../src/slv/axi4_slave_driver.sv(349) @ 29695000: uvm_test_top.env.slave_agent.drv [axi4_slave_driver] Read complete: ID=0x6 ADDR=0xcb748de8 RESP=AXI4_RESP_EXOKAY  3 beats sent
# UVM_INFO ../src/slv/axi4_slave_monitor.sv(287) @ 29695000: uvm_test_top.env.slave_agent.mon [axi4_slave_monitor] Read data sent: ID=0x6 ADDR=0xcb748de8 3 beats
# UVM_INFO ../src/env/axi4_scoreboard.sv(103) @ 29695000: uvm_test_top.env.scb [axi4_scoreboard] Slave AXI4_READ received: ID=0x6 ADDR=0xcb748de8 LEN=2
# UVM_INFO ../src/mst/axi4_master_monitor.sv(314) @ 29695000: uvm_test_top.env.master_agent.mon [axi4_master_monitor] Read complete: ID=0x6 ADDR=0xcb748de8 3 beats
# UVM_INFO ../src/env/axi4_scoreboard.sv(82) @ 29695000: uvm_test_top.env.scb [axi4_scoreboard] Master AXI4_READ received: ID=0x6 ADDR=0xcb748de8 LEN=2
# UVM_INFO ../src/env/axi4_scoreboard.sv(154) @ 29695000: uvm_test_top.env.scb [axi4_scoreboard] [READ] MATCH #15: ID=0x6 ADDR=0xcb748de8 LEN=2
# UVM_INFO ../src/seq/axi4_outstanding_seq.sv(106) @ 29695000: uvm_test_top.env.master_agent.sqr@@outstanding_seq [axi4_outstanding_seq] Outstanding Read [#6] complete: ID=0x6
# UVM_INFO ../src/seq/axi4_outstanding_seq.sv(100) @ 29695000: uvm_test_top.env.master_agent.sqr@@outstanding_seq [axi4_outstanding_seq] Outstanding Read [#7] started: ID=0x5 ADDR=0xca3b2cf0 LEN=18
# UVM_INFO ../src/mst/axi4_master_driver.sv(55) @ 29695000: uvm_test_top.env.master_agent.drv [axi4_master_driver] Driving AXI4_READ  ID=0x5  ADDR=0xca3b2cf0  LEN=18
# UVM_INFO ../src/slv/axi4_slave_driver.sv(300) @ 29725000: uvm_test_top.env.slave_agent.drv [axi4_slave_driver] AR received: ID=0x5 ADDR=0xca3b2cf0 LEN=18 LOCK=AXI4_LOCK_EXCLUSIVE
# UVM_INFO ../src/mst/axi4_master_monitor.sv(246) @ 29725000: uvm_test_top.env.master_agent.mon [axi4_master_monitor] AR observed: ID=0x5 ADDR=0xca3b2cf0 LEN=18
# UVM_INFO ../src/slv/axi4_slave_monitor.sv(224) @ 29725000: uvm_test_top.env.slave_agent.mon [axi4_slave_monitor] AR received: ID=0x5 ADDR=0xca3b2cf0 LEN=18
# UVM_INFO ../src/mst/axi4_master_driver.sv(254) @ 30105000: uvm_test_top.env.master_agent.drv [axi4_master_driver] Read complete: 19 beats received
# UVM_INFO ../src/slv/axi4_slave_driver.sv(349) @ 30105000: uvm_test_top.env.slave_agent.drv [axi4_slave_driver] Read complete: ID=0x5 ADDR=0xca3b2cf0 RESP=AXI4_RESP_EXOKAY  19 beats sent
# UVM_INFO ../src/mst/axi4_master_monitor.sv(314) @ 30105000: uvm_test_top.env.master_agent.mon [axi4_master_monitor] Read complete: ID=0x5 ADDR=0xca3b2cf0 19 beats
# UVM_INFO ../src/env/axi4_scoreboard.sv(82) @ 30105000: uvm_test_top.env.scb [axi4_scoreboard] Master AXI4_READ received: ID=0x5 ADDR=0xca3b2cf0 LEN=18
# UVM_INFO ../src/slv/axi4_slave_monitor.sv(287) @ 30105000: uvm_test_top.env.slave_agent.mon [axi4_slave_monitor] Read data sent: ID=0x5 ADDR=0xca3b2cf0 19 beats
# UVM_INFO ../src/env/axi4_scoreboard.sv(103) @ 30105000: uvm_test_top.env.scb [axi4_scoreboard] Slave AXI4_READ received: ID=0x5 ADDR=0xca3b2cf0 LEN=18
# UVM_INFO ../src/env/axi4_scoreboard.sv(154) @ 30105000: uvm_test_top.env.scb [axi4_scoreboard] [READ] MATCH #16: ID=0x5 ADDR=0xca3b2cf0 LEN=18
# UVM_INFO ../src/seq/axi4_outstanding_seq.sv(106) @ 30105000: uvm_test_top.env.master_agent.sqr@@outstanding_seq [axi4_outstanding_seq] Outstanding Read [#7] complete: ID=0x5
# UVM_INFO ../src/seq/axi4_outstanding_seq.sv(65) @ 30105000: uvm_test_top.env.master_agent.sqr@@outstanding_seq [axi4_outstanding_seq] Outstanding Write [#8] started: ID=0x1 ADDR=0xb4c64f92 LEN=215
# UVM_INFO ../src/mst/axi4_master_driver.sv(55) @ 30105000: uvm_test_top.env.master_agent.drv [axi4_master_driver] Driving AXI4_WRITE  ID=0x1  ADDR=0xb4c64f92  LEN=215
# UVM_INFO ../src/mst/axi4_master_driver.sv(94) @ 30105000: uvm_test_top.env.master_agent.drv [axi4_master_driver] Write order: AW || W (parallel)
# UVM_INFO ../src/slv/axi4_slave_driver.sv(165) @ 30135000: uvm_test_top.env.slave_agent.drv [axi4_slave_driver] AW received: ID=0x1 ADDR=0xb4c64f92 LEN=215 LOCK=AXI4_LOCK_EXCLUSIVE
# UVM_INFO ../src/slv/axi4_slave_monitor.sv(116) @ 30135000: uvm_test_top.env.slave_agent.mon [axi4_slave_monitor] AW received: ID=0x1 ADDR=0xb4c64f92 LEN=215
# UVM_INFO ../src/mst/axi4_master_monitor.sv(124) @ 30135000: uvm_test_top.env.master_agent.mon [axi4_master_monitor] AW observed: ID=0x1 ADDR=0xb4c64f92 LEN=215
# UVM_INFO ../src/mst/axi4_master_monitor.sv(184) @ 34425000: uvm_test_top.env.master_agent.mon [axi4_master_monitor] W data assembled: ID=0x1 ADDR=0xb4c64f92 216 beats
# UVM_INFO ../src/slv/axi4_slave_monitor.sv(167) @ 34425000: uvm_test_top.env.slave_agent.mon [axi4_slave_monitor] W data assembled: ID=0x1 ADDR=0xb4c64f92 216 beats
# UVM_INFO ../src/mst/axi4_master_driver.sv(197) @ 34455000: uvm_test_top.env.master_agent.drv [axi4_master_driver] Write response: AXI4_RESP_OKAY
# UVM_INFO ../src/slv/axi4_slave_driver.sv(261) @ 34455000: uvm_test_top.env.slave_agent.drv [axi4_slave_driver] Write complete: ID=0x1 ADDR=0xb4c64f92 RESP=AXI4_RESP_OKAY  216 beats processed
# UVM_INFO ../src/slv/axi4_slave_monitor.sv(189) @ 34455000: uvm_test_top.env.slave_agent.mon [axi4_slave_monitor] Write response sent: ID=0x1 ADDR=0xb4c64f92 RESP=AXI4_RESP_OKAY
# UVM_INFO ../src/env/axi4_scoreboard.sv(103) @ 34455000: uvm_test_top.env.scb [axi4_scoreboard] Slave AXI4_WRITE received: ID=0x1 ADDR=0xb4c64f92 LEN=215
# UVM_INFO ../src/mst/axi4_master_monitor.sv(210) @ 34455000: uvm_test_top.env.master_agent.mon [axi4_master_monitor] Write complete: ID=0x1 ADDR=0xb4c64f92 RESP=AXI4_RESP_OKAY
# UVM_INFO ../src/env/axi4_scoreboard.sv(82) @ 34455000: uvm_test_top.env.scb [axi4_scoreboard] Master AXI4_WRITE received: ID=0x1 ADDR=0xb4c64f92 LEN=215
# UVM_INFO ../src/env/axi4_scoreboard.sv(154) @ 34455000: uvm_test_top.env.scb [axi4_scoreboard] [WRITE] MATCH #17: ID=0x1 ADDR=0xb4c64f92 LEN=215
# UVM_INFO ../src/seq/axi4_outstanding_seq.sv(71) @ 34455000: uvm_test_top.env.master_agent.sqr@@outstanding_seq [axi4_outstanding_seq] Outstanding Write [#8] complete: ID=0x1
# UVM_INFO ../src/seq/axi4_outstanding_seq.sv(65) @ 34455000: uvm_test_top.env.master_agent.sqr@@outstanding_seq [axi4_outstanding_seq] Outstanding Write [#9] started: ID=0xb ADDR=0x9f3e7fd3 LEN=67
# UVM_INFO ../src/mst/axi4_master_driver.sv(55) @ 34455000: uvm_test_top.env.master_agent.drv [axi4_master_driver] Driving AXI4_WRITE  ID=0xb  ADDR=0x9f3e7fd3  LEN=67
# UVM_INFO ../src/mst/axi4_master_driver.sv(94) @ 34455000: uvm_test_top.env.master_agent.drv [axi4_master_driver] Write order: AW || W (parallel)
# UVM_INFO ../src/slv/axi4_slave_driver.sv(165) @ 34485000: uvm_test_top.env.slave_agent.drv [axi4_slave_driver] AW received: ID=0xb ADDR=0x9f3e7fd3 LEN=67 LOCK=AXI4_LOCK_EXCLUSIVE
# UVM_INFO ../src/mst/axi4_master_monitor.sv(124) @ 34485000: uvm_test_top.env.master_agent.mon [axi4_master_monitor] AW observed: ID=0xb ADDR=0x9f3e7fd3 LEN=67
# UVM_INFO ../src/slv/axi4_slave_monitor.sv(116) @ 34485000: uvm_test_top.env.slave_agent.mon [axi4_slave_monitor] AW received: ID=0xb ADDR=0x9f3e7fd3 LEN=67
# UVM_INFO ../src/slv/axi4_slave_monitor.sv(167) @ 35815000: uvm_test_top.env.slave_agent.mon [axi4_slave_monitor] W data assembled: ID=0xb ADDR=0x9f3e7fd3 68 beats
# UVM_INFO ../src/mst/axi4_master_monitor.sv(184) @ 35815000: uvm_test_top.env.master_agent.mon [axi4_master_monitor] W data assembled: ID=0xb ADDR=0x9f3e7fd3 68 beats
# UVM_INFO ../src/mst/axi4_master_driver.sv(197) @ 35845000: uvm_test_top.env.master_agent.drv [axi4_master_driver] Write response: AXI4_RESP_OKAY
# UVM_INFO ../src/slv/axi4_slave_driver.sv(261) @ 35845000: uvm_test_top.env.slave_agent.drv [axi4_slave_driver] Write complete: ID=0xb ADDR=0x9f3e7fd3 RESP=AXI4_RESP_OKAY  68 beats processed
# UVM_INFO ../src/mst/axi4_master_monitor.sv(210) @ 35845000: uvm_test_top.env.master_agent.mon [axi4_master_monitor] Write complete: ID=0xb ADDR=0x9f3e7fd3 RESP=AXI4_RESP_OKAY
# UVM_INFO ../src/env/axi4_scoreboard.sv(82) @ 35845000: uvm_test_top.env.scb [axi4_scoreboard] Master AXI4_WRITE received: ID=0xb ADDR=0x9f3e7fd3 LEN=67
# UVM_INFO ../src/slv/axi4_slave_monitor.sv(189) @ 35845000: uvm_test_top.env.slave_agent.mon [axi4_slave_monitor] Write response sent: ID=0xb ADDR=0x9f3e7fd3 RESP=AXI4_RESP_OKAY
# UVM_INFO ../src/env/axi4_scoreboard.sv(103) @ 35845000: uvm_test_top.env.scb [axi4_scoreboard] Slave AXI4_WRITE received: ID=0xb ADDR=0x9f3e7fd3 LEN=67
# UVM_INFO ../src/env/axi4_scoreboard.sv(154) @ 35845000: uvm_test_top.env.scb [axi4_scoreboard] [WRITE] MATCH #18: ID=0xb ADDR=0x9f3e7fd3 LEN=67
# UVM_INFO ../src/seq/axi4_outstanding_seq.sv(71) @ 35845000: uvm_test_top.env.master_agent.sqr@@outstanding_seq [axi4_outstanding_seq] Outstanding Write [#9] complete: ID=0xb
# UVM_INFO ../src/seq/axi4_outstanding_seq.sv(65) @ 35845000: uvm_test_top.env.master_agent.sqr@@outstanding_seq [axi4_outstanding_seq] Outstanding Write [#10] started: ID=0x1 ADDR=0x5ff8ac1b LEN=110
# UVM_INFO ../src/mst/axi4_master_driver.sv(55) @ 35845000: uvm_test_top.env.master_agent.drv [axi4_master_driver] Driving AXI4_WRITE  ID=0x1  ADDR=0x5ff8ac1b  LEN=110
# UVM_INFO ../src/mst/axi4_master_driver.sv(94) @ 35845000: uvm_test_top.env.master_agent.drv [axi4_master_driver] Write order: AW || W (parallel)
# UVM_INFO ../src/slv/axi4_slave_driver.sv(165) @ 35875000: uvm_test_top.env.slave_agent.drv [axi4_slave_driver] AW received: ID=0x1 ADDR=0x5ff8ac1b LEN=110 LOCK=AXI4_LOCK_NORMAL
# UVM_INFO ../src/slv/axi4_slave_monitor.sv(116) @ 35875000: uvm_test_top.env.slave_agent.mon [axi4_slave_monitor] AW received: ID=0x1 ADDR=0x5ff8ac1b LEN=110
# UVM_INFO ../src/mst/axi4_master_monitor.sv(124) @ 35875000: uvm_test_top.env.master_agent.mon [axi4_master_monitor] AW observed: ID=0x1 ADDR=0x5ff8ac1b LEN=110
# UVM_INFO ../src/mst/axi4_master_monitor.sv(184) @ 38065000: uvm_test_top.env.master_agent.mon [axi4_master_monitor] W data assembled: ID=0x1 ADDR=0x5ff8ac1b 111 beats
# UVM_INFO ../src/slv/axi4_slave_monitor.sv(167) @ 38065000: uvm_test_top.env.slave_agent.mon [axi4_slave_monitor] W data assembled: ID=0x1 ADDR=0x5ff8ac1b 111 beats
# UVM_INFO ../src/mst/axi4_master_driver.sv(197) @ 38095000: uvm_test_top.env.master_agent.drv [axi4_master_driver] Write response: AXI4_RESP_OKAY
# UVM_INFO ../src/slv/axi4_slave_driver.sv(261) @ 38095000: uvm_test_top.env.slave_agent.drv [axi4_slave_driver] Write complete: ID=0x1 ADDR=0x5ff8ac1b RESP=AXI4_RESP_OKAY  111 beats processed
# UVM_INFO ../src/slv/axi4_slave_monitor.sv(189) @ 38095000: uvm_test_top.env.slave_agent.mon [axi4_slave_monitor] Write response sent: ID=0x1 ADDR=0x5ff8ac1b RESP=AXI4_RESP_OKAY
# UVM_INFO ../src/env/axi4_scoreboard.sv(103) @ 38095000: uvm_test_top.env.scb [axi4_scoreboard] Slave AXI4_WRITE received: ID=0x1 ADDR=0x5ff8ac1b LEN=110
# UVM_INFO ../src/mst/axi4_master_monitor.sv(210) @ 38095000: uvm_test_top.env.master_agent.mon [axi4_master_monitor] Write complete: ID=0x1 ADDR=0x5ff8ac1b RESP=AXI4_RESP_OKAY
# UVM_INFO ../src/env/axi4_scoreboard.sv(82) @ 38095000: uvm_test_top.env.scb [axi4_scoreboard] Master AXI4_WRITE received: ID=0x1 ADDR=0x5ff8ac1b LEN=110
# UVM_INFO ../src/env/axi4_scoreboard.sv(154) @ 38095000: uvm_test_top.env.scb [axi4_scoreboard] [WRITE] MATCH #19: ID=0x1 ADDR=0x5ff8ac1b LEN=110
# UVM_INFO ../src/seq/axi4_outstanding_seq.sv(71) @ 38095000: uvm_test_top.env.master_agent.sqr@@outstanding_seq [axi4_outstanding_seq] Outstanding Write [#10] complete: ID=0x1
# UVM_INFO ../src/seq/axi4_outstanding_seq.sv(65) @ 38095000: uvm_test_top.env.master_agent.sqr@@outstanding_seq [axi4_outstanding_seq] Outstanding Write [#11] started: ID=0x6 ADDR=0x9ca74dc5 LEN=43
# UVM_INFO ../src/mst/axi4_master_driver.sv(55) @ 38095000: uvm_test_top.env.master_agent.drv [axi4_master_driver] Driving AXI4_WRITE  ID=0x6  ADDR=0x9ca74dc5  LEN=43
# UVM_INFO ../src/mst/axi4_master_driver.sv(101) @ 38095000: uvm_test_top.env.master_agent.drv [axi4_master_driver] Write order: AW -> W (sequential)
# UVM_INFO ../src/slv/axi4_slave_driver.sv(165) @ 38125000: uvm_test_top.env.slave_agent.drv [axi4_slave_driver] AW received: ID=0x6 ADDR=0x9ca74dc5 LEN=43 LOCK=AXI4_LOCK_EXCLUSIVE
# UVM_INFO ../src/mst/axi4_master_monitor.sv(124) @ 38125000: uvm_test_top.env.master_agent.mon [axi4_master_monitor] AW observed: ID=0x6 ADDR=0x9ca74dc5 LEN=43
# UVM_INFO ../src/slv/axi4_slave_monitor.sv(116) @ 38125000: uvm_test_top.env.slave_agent.mon [axi4_slave_monitor] AW received: ID=0x6 ADDR=0x9ca74dc5 LEN=43
# UVM_INFO ../src/mst/axi4_master_monitor.sv(184) @ 39005000: uvm_test_top.env.master_agent.mon [axi4_master_monitor] W data assembled: ID=0x6 ADDR=0x9ca74dc5 44 beats
# UVM_INFO ../src/slv/axi4_slave_monitor.sv(167) @ 39005000: uvm_test_top.env.slave_agent.mon [axi4_slave_monitor] W data assembled: ID=0x6 ADDR=0x9ca74dc5 44 beats
# UVM_INFO ../src/mst/axi4_master_driver.sv(197) @ 39035000: uvm_test_top.env.master_agent.drv [axi4_master_driver] Write response: AXI4_RESP_OKAY
# UVM_INFO ../src/slv/axi4_slave_driver.sv(261) @ 39035000: uvm_test_top.env.slave_agent.drv [axi4_slave_driver] Write complete: ID=0x6 ADDR=0x9ca74dc5 RESP=AXI4_RESP_OKAY  44 beats processed
# UVM_INFO ../src/slv/axi4_slave_monitor.sv(189) @ 39035000: uvm_test_top.env.slave_agent.mon [axi4_slave_monitor] Write response sent: ID=0x6 ADDR=0x9ca74dc5 RESP=AXI4_RESP_OKAY
# UVM_INFO ../src/env/axi4_scoreboard.sv(103) @ 39035000: uvm_test_top.env.scb [axi4_scoreboard] Slave AXI4_WRITE received: ID=0x6 ADDR=0x9ca74dc5 LEN=43
# UVM_INFO ../src/mst/axi4_master_monitor.sv(210) @ 39035000: uvm_test_top.env.master_agent.mon [axi4_master_monitor] Write complete: ID=0x6 ADDR=0x9ca74dc5 RESP=AXI4_RESP_OKAY
# UVM_INFO ../src/env/axi4_scoreboard.sv(82) @ 39035000: uvm_test_top.env.scb [axi4_scoreboard] Master AXI4_WRITE received: ID=0x6 ADDR=0x9ca74dc5 LEN=43
# UVM_INFO ../src/env/axi4_scoreboard.sv(154) @ 39035000: uvm_test_top.env.scb [axi4_scoreboard] [WRITE] MATCH #20: ID=0x6 ADDR=0x9ca74dc5 LEN=43
# UVM_INFO ../src/seq/axi4_outstanding_seq.sv(71) @ 39035000: uvm_test_top.env.master_agent.sqr@@outstanding_seq [axi4_outstanding_seq] Outstanding Write [#11] complete: ID=0x6
# UVM_INFO ../src/seq/axi4_outstanding_seq.sv(100) @ 39035000: uvm_test_top.env.master_agent.sqr@@outstanding_seq [axi4_outstanding_seq] Outstanding Read [#8] started: ID=0x3 ADDR=0x0ab5b651 LEN=17
# UVM_INFO ../src/mst/axi4_master_driver.sv(55) @ 39035000: uvm_test_top.env.master_agent.drv [axi4_master_driver] Driving AXI4_READ  ID=0x3  ADDR=0x0ab5b651  LEN=17
# UVM_INFO ../src/slv/axi4_slave_driver.sv(300) @ 39065000: uvm_test_top.env.slave_agent.drv [axi4_slave_driver] AR received: ID=0x3 ADDR=0x0ab5b651 LEN=17 LOCK=AXI4_LOCK_NORMAL
# UVM_INFO ../src/mst/axi4_master_monitor.sv(246) @ 39065000: uvm_test_top.env.master_agent.mon [axi4_master_monitor] AR observed: ID=0x3 ADDR=0x0ab5b651 LEN=17
# UVM_INFO ../src/slv/axi4_slave_monitor.sv(224) @ 39065000: uvm_test_top.env.slave_agent.mon [axi4_slave_monitor] AR received: ID=0x3 ADDR=0x0ab5b651 LEN=17
# UVM_INFO ../src/mst/axi4_master_driver.sv(254) @ 39425000: uvm_test_top.env.master_agent.drv [axi4_master_driver] Read complete: 18 beats received
# UVM_INFO ../src/slv/axi4_slave_driver.sv(349) @ 39425000: uvm_test_top.env.slave_agent.drv [axi4_slave_driver] Read complete: ID=0x3 ADDR=0x0ab5b651 RESP=AXI4_RESP_OKAY  18 beats sent
# UVM_INFO ../src/mst/axi4_master_monitor.sv(314) @ 39425000: uvm_test_top.env.master_agent.mon [axi4_master_monitor] Read complete: ID=0x3 ADDR=0x0ab5b651 18 beats
# UVM_INFO ../src/env/axi4_scoreboard.sv(82) @ 39425000: uvm_test_top.env.scb [axi4_scoreboard] Master AXI4_READ received: ID=0x3 ADDR=0x0ab5b651 LEN=17
# UVM_INFO ../src/slv/axi4_slave_monitor.sv(287) @ 39425000: uvm_test_top.env.slave_agent.mon [axi4_slave_monitor] Read data sent: ID=0x3 ADDR=0x0ab5b651 18 beats
# UVM_INFO ../src/env/axi4_scoreboard.sv(103) @ 39425000: uvm_test_top.env.scb [axi4_scoreboard] Slave AXI4_READ received: ID=0x3 ADDR=0x0ab5b651 LEN=17
# UVM_INFO ../src/env/axi4_scoreboard.sv(154) @ 39425000: uvm_test_top.env.scb [axi4_scoreboard] [READ] MATCH #21: ID=0x3 ADDR=0x0ab5b651 LEN=17
# UVM_INFO ../src/seq/axi4_outstanding_seq.sv(106) @ 39425000: uvm_test_top.env.master_agent.sqr@@outstanding_seq [axi4_outstanding_seq] Outstanding Read [#8] complete: ID=0x3
# UVM_INFO ../src/seq/axi4_outstanding_seq.sv(100) @ 39425000: uvm_test_top.env.master_agent.sqr@@outstanding_seq [axi4_outstanding_seq] Outstanding Read [#9] started: ID=0x6 ADDR=0xc38b0308 LEN=86
# UVM_INFO ../src/mst/axi4_master_driver.sv(55) @ 39425000: uvm_test_top.env.master_agent.drv [axi4_master_driver] Driving AXI4_READ  ID=0x6  ADDR=0xc38b0308  LEN=86
# UVM_INFO ../src/slv/axi4_slave_driver.sv(300) @ 39455000: uvm_test_top.env.slave_agent.drv [axi4_slave_driver] AR received: ID=0x6 ADDR=0xc38b0308 LEN=86 LOCK=AXI4_LOCK_NORMAL
# UVM_INFO ../src/slv/axi4_slave_monitor.sv(224) @ 39455000: uvm_test_top.env.slave_agent.mon [axi4_slave_monitor] AR received: ID=0x6 ADDR=0xc38b0308 LEN=86
# UVM_INFO ../src/mst/axi4_master_monitor.sv(246) @ 39455000: uvm_test_top.env.master_agent.mon [axi4_master_monitor] AR observed: ID=0x6 ADDR=0xc38b0308 LEN=86
# UVM_INFO ../src/mst/axi4_master_driver.sv(254) @ 41195000: uvm_test_top.env.master_agent.drv [axi4_master_driver] Read complete: 87 beats received
# UVM_INFO ../src/slv/axi4_slave_driver.sv(349) @ 41195000: uvm_test_top.env.slave_agent.drv [axi4_slave_driver] Read complete: ID=0x6 ADDR=0xc38b0308 RESP=AXI4_RESP_OKAY  87 beats sent
# UVM_INFO ../src/slv/axi4_slave_monitor.sv(287) @ 41195000: uvm_test_top.env.slave_agent.mon [axi4_slave_monitor] Read data sent: ID=0x6 ADDR=0xc38b0308 87 beats
# UVM_INFO ../src/env/axi4_scoreboard.sv(103) @ 41195000: uvm_test_top.env.scb [axi4_scoreboard] Slave AXI4_READ received: ID=0x6 ADDR=0xc38b0308 LEN=86
# UVM_INFO ../src/mst/axi4_master_monitor.sv(314) @ 41195000: uvm_test_top.env.master_agent.mon [axi4_master_monitor] Read complete: ID=0x6 ADDR=0xc38b0308 87 beats
# UVM_INFO ../src/env/axi4_scoreboard.sv(82) @ 41195000: uvm_test_top.env.scb [axi4_scoreboard] Master AXI4_READ received: ID=0x6 ADDR=0xc38b0308 LEN=86
# UVM_INFO ../src/env/axi4_scoreboard.sv(154) @ 41195000: uvm_test_top.env.scb [axi4_scoreboard] [READ] MATCH #22: ID=0x6 ADDR=0xc38b0308 LEN=86
# UVM_INFO ../src/seq/axi4_outstanding_seq.sv(106) @ 41195000: uvm_test_top.env.master_agent.sqr@@outstanding_seq [axi4_outstanding_seq] Outstanding Read [#9] complete: ID=0x6
# UVM_INFO ../src/seq/axi4_outstanding_seq.sv(100) @ 41195000: uvm_test_top.env.master_agent.sqr@@outstanding_seq [axi4_outstanding_seq] Outstanding Read [#10] started: ID=0x9 ADDR=0xab268ee1 LEN=117
# UVM_INFO ../src/mst/axi4_master_driver.sv(55) @ 41195000: uvm_test_top.env.master_agent.drv [axi4_master_driver] Driving AXI4_READ  ID=0x9  ADDR=0xab268ee1  LEN=117
# UVM_INFO ../src/slv/axi4_slave_driver.sv(300) @ 41225000: uvm_test_top.env.slave_agent.drv [axi4_slave_driver] AR received: ID=0x9 ADDR=0xab268ee1 LEN=117 LOCK=AXI4_LOCK_EXCLUSIVE
# UVM_INFO ../src/mst/axi4_master_monitor.sv(246) @ 41225000: uvm_test_top.env.master_agent.mon [axi4_master_monitor] AR observed: ID=0x9 ADDR=0xab268ee1 LEN=117
# UVM_INFO ../src/slv/axi4_slave_monitor.sv(224) @ 41225000: uvm_test_top.env.slave_agent.mon [axi4_slave_monitor] AR received: ID=0x9 ADDR=0xab268ee1 LEN=117
# UVM_INFO ../src/mst/axi4_master_driver.sv(254) @ 43585000: uvm_test_top.env.master_agent.drv [axi4_master_driver] Read complete: 118 beats received
# UVM_INFO ../src/slv/axi4_slave_driver.sv(349) @ 43585000: uvm_test_top.env.slave_agent.drv [axi4_slave_driver] Read complete: ID=0x9 ADDR=0xab268ee1 RESP=AXI4_RESP_EXOKAY  118 beats sent
# UVM_INFO ../src/mst/axi4_master_monitor.sv(314) @ 43585000: uvm_test_top.env.master_agent.mon [axi4_master_monitor] Read complete: ID=0x9 ADDR=0xab268ee1 118 beats
# UVM_INFO ../src/env/axi4_scoreboard.sv(82) @ 43585000: uvm_test_top.env.scb [axi4_scoreboard] Master AXI4_READ received: ID=0x9 ADDR=0xab268ee1 LEN=117
# UVM_INFO ../src/slv/axi4_slave_monitor.sv(287) @ 43585000: uvm_test_top.env.slave_agent.mon [axi4_slave_monitor] Read data sent: ID=0x9 ADDR=0xab268ee1 118 beats
# UVM_INFO ../src/env/axi4_scoreboard.sv(103) @ 43585000: uvm_test_top.env.scb [axi4_scoreboard] Slave AXI4_READ received: ID=0x9 ADDR=0xab268ee1 LEN=117
# UVM_INFO ../src/env/axi4_scoreboard.sv(154) @ 43585000: uvm_test_top.env.scb [axi4_scoreboard] [READ] MATCH #23: ID=0x9 ADDR=0xab268ee1 LEN=117
# UVM_INFO ../src/seq/axi4_outstanding_seq.sv(106) @ 43585000: uvm_test_top.env.master_agent.sqr@@outstanding_seq [axi4_outstanding_seq] Outstanding Read [#10] complete: ID=0x9
# UVM_INFO ../src/seq/axi4_outstanding_seq.sv(100) @ 43585000: uvm_test_top.env.master_agent.sqr@@outstanding_seq [axi4_outstanding_seq] Outstanding Read [#11] started: ID=0x2 ADDR=0x2e82ec66 LEN=1
# UVM_INFO ../src/mst/axi4_master_driver.sv(55) @ 43585000: uvm_test_top.env.master_agent.drv [axi4_master_driver] Driving AXI4_READ  ID=0x2  ADDR=0x2e82ec66  LEN=1
# UVM_INFO ../src/slv/axi4_slave_driver.sv(300) @ 43615000: uvm_test_top.env.slave_agent.drv [axi4_slave_driver] AR received: ID=0x2 ADDR=0x2e82ec66 LEN=1 LOCK=AXI4_LOCK_NORMAL
# UVM_INFO ../src/slv/axi4_slave_monitor.sv(224) @ 43615000: uvm_test_top.env.slave_agent.mon [axi4_slave_monitor] AR received: ID=0x2 ADDR=0x2e82ec66 LEN=1
# UVM_INFO ../src/mst/axi4_master_monitor.sv(246) @ 43615000: uvm_test_top.env.master_agent.mon [axi4_master_monitor] AR observed: ID=0x2 ADDR=0x2e82ec66 LEN=1
# UVM_INFO ../src/mst/axi4_master_driver.sv(254) @ 43655000: uvm_test_top.env.master_agent.drv [axi4_master_driver] Read complete: 2 beats received
# UVM_INFO ../src/slv/axi4_slave_driver.sv(349) @ 43655000: uvm_test_top.env.slave_agent.drv [axi4_slave_driver] Read complete: ID=0x2 ADDR=0x2e82ec66 RESP=AXI4_RESP_OKAY  2 beats sent
# UVM_INFO ../src/slv/axi4_slave_monitor.sv(287) @ 43655000: uvm_test_top.env.slave_agent.mon [axi4_slave_monitor] Read data sent: ID=0x2 ADDR=0x2e82ec66 2 beats
# UVM_INFO ../src/env/axi4_scoreboard.sv(103) @ 43655000: uvm_test_top.env.scb [axi4_scoreboard] Slave AXI4_READ received: ID=0x2 ADDR=0x2e82ec66 LEN=1
# UVM_INFO ../src/mst/axi4_master_monitor.sv(314) @ 43655000: uvm_test_top.env.master_agent.mon [axi4_master_monitor] Read complete: ID=0x2 ADDR=0x2e82ec66 2 beats
# UVM_INFO ../src/env/axi4_scoreboard.sv(82) @ 43655000: uvm_test_top.env.scb [axi4_scoreboard] Master AXI4_READ received: ID=0x2 ADDR=0x2e82ec66 LEN=1
# UVM_INFO ../src/env/axi4_scoreboard.sv(154) @ 43655000: uvm_test_top.env.scb [axi4_scoreboard] [READ] MATCH #24: ID=0x2 ADDR=0x2e82ec66 LEN=1
# UVM_INFO ../src/seq/axi4_outstanding_seq.sv(106) @ 43655000: uvm_test_top.env.master_agent.sqr@@outstanding_seq [axi4_outstanding_seq] Outstanding Read [#11] complete: ID=0x2
# UVM_INFO ../src/seq/axi4_outstanding_seq.sv(65) @ 43655000: uvm_test_top.env.master_agent.sqr@@outstanding_seq [axi4_outstanding_seq] Outstanding Write [#12] started: ID=0x3 ADDR=0x732dcc78 LEN=90
# UVM_INFO ../src/mst/axi4_master_driver.sv(55) @ 43655000: uvm_test_top.env.master_agent.drv [axi4_master_driver] Driving AXI4_WRITE  ID=0x3  ADDR=0x732dcc78  LEN=90
# UVM_INFO ../src/mst/axi4_master_driver.sv(106) @ 43655000: uvm_test_top.env.master_agent.drv [axi4_master_driver] Write order: W -> AW (W first)
# UVM_INFO ../src/slv/axi4_slave_driver.sv(165) @ 43735000: uvm_test_top.env.slave_agent.drv [axi4_slave_driver] AW received: ID=0x3 ADDR=0x732dcc78 LEN=90 LOCK=AXI4_LOCK_NORMAL
# UVM_INFO ../src/slv/axi4_slave_monitor.sv(116) @ 43735000: uvm_test_top.env.slave_agent.mon [axi4_slave_monitor] AW received: ID=0x3 ADDR=0x732dcc78 LEN=90
# UVM_INFO ../src/mst/axi4_master_monitor.sv(124) @ 43735000: uvm_test_top.env.master_agent.mon [axi4_master_monitor] AW observed: ID=0x3 ADDR=0x732dcc78 LEN=90
# UVM_INFO ../src/slv/axi4_slave_monitor.sv(167) @ 45475000: uvm_test_top.env.slave_agent.mon [axi4_slave_monitor] W data assembled: ID=0x3 ADDR=0x732dcc78 91 beats
# UVM_INFO ../src/mst/axi4_master_monitor.sv(184) @ 45475000: uvm_test_top.env.master_agent.mon [axi4_master_monitor] W data assembled: ID=0x3 ADDR=0x732dcc78 91 beats
# UVM_INFO ../src/mst/axi4_master_driver.sv(197) @ 45505000: uvm_test_top.env.master_agent.drv [axi4_master_driver] Write response: AXI4_RESP_OKAY
# UVM_INFO ../src/slv/axi4_slave_driver.sv(261) @ 45505000: uvm_test_top.env.slave_agent.drv [axi4_slave_driver] Write complete: ID=0x3 ADDR=0x732dcc78 RESP=AXI4_RESP_OKAY  91 beats processed
# UVM_INFO ../src/mst/axi4_master_monitor.sv(210) @ 45505000: uvm_test_top.env.master_agent.mon [axi4_master_monitor] Write complete: ID=0x3 ADDR=0x732dcc78 RESP=AXI4_RESP_OKAY
# UVM_INFO ../src/env/axi4_scoreboard.sv(82) @ 45505000: uvm_test_top.env.scb [axi4_scoreboard] Master AXI4_WRITE received: ID=0x3 ADDR=0x732dcc78 LEN=90
# UVM_INFO ../src/slv/axi4_slave_monitor.sv(189) @ 45505000: uvm_test_top.env.slave_agent.mon [axi4_slave_monitor] Write response sent: ID=0x3 ADDR=0x732dcc78 RESP=AXI4_RESP_OKAY
# UVM_INFO ../src/env/axi4_scoreboard.sv(103) @ 45505000: uvm_test_top.env.scb [axi4_scoreboard] Slave AXI4_WRITE received: ID=0x3 ADDR=0x732dcc78 LEN=90
# UVM_INFO ../src/env/axi4_scoreboard.sv(154) @ 45505000: uvm_test_top.env.scb [axi4_scoreboard] [WRITE] MATCH #25: ID=0x3 ADDR=0x732dcc78 LEN=90
# UVM_INFO ../src/seq/axi4_outstanding_seq.sv(71) @ 45505000: uvm_test_top.env.master_agent.sqr@@outstanding_seq [axi4_outstanding_seq] Outstanding Write [#12] complete: ID=0x3
# UVM_INFO ../src/seq/axi4_outstanding_seq.sv(65) @ 45505000: uvm_test_top.env.master_agent.sqr@@outstanding_seq [axi4_outstanding_seq] Outstanding Write [#13] started: ID=0x0 ADDR=0x89b0ef09 LEN=13
# UVM_INFO ../src/mst/axi4_master_driver.sv(55) @ 45505000: uvm_test_top.env.master_agent.drv [axi4_master_driver] Driving AXI4_WRITE  ID=0x0  ADDR=0x89b0ef09  LEN=13
# UVM_INFO ../src/mst/axi4_master_driver.sv(94) @ 45505000: uvm_test_top.env.master_agent.drv [axi4_master_driver] Write order: AW || W (parallel)
# UVM_INFO ../src/slv/axi4_slave_driver.sv(165) @ 45535000: uvm_test_top.env.slave_agent.drv [axi4_slave_driver] AW received: ID=0x0 ADDR=0x89b0ef09 LEN=13 LOCK=AXI4_LOCK_EXCLUSIVE
# UVM_INFO ../src/slv/axi4_slave_monitor.sv(116) @ 45535000: uvm_test_top.env.slave_agent.mon [axi4_slave_monitor] AW received: ID=0x0 ADDR=0x89b0ef09 LEN=13
# UVM_INFO ../src/mst/axi4_master_monitor.sv(124) @ 45535000: uvm_test_top.env.master_agent.mon [axi4_master_monitor] AW observed: ID=0x0 ADDR=0x89b0ef09 LEN=13
# UVM_INFO ../src/mst/axi4_master_monitor.sv(184) @ 45785000: uvm_test_top.env.master_agent.mon [axi4_master_monitor] W data assembled: ID=0x0 ADDR=0x89b0ef09 14 beats
# UVM_INFO ../src/slv/axi4_slave_monitor.sv(167) @ 45785000: uvm_test_top.env.slave_agent.mon [axi4_slave_monitor] W data assembled: ID=0x0 ADDR=0x89b0ef09 14 beats
# UVM_INFO ../src/mst/axi4_master_driver.sv(197) @ 45815000: uvm_test_top.env.master_agent.drv [axi4_master_driver] Write response: AXI4_RESP_OKAY
# UVM_INFO ../src/slv/axi4_slave_driver.sv(261) @ 45815000: uvm_test_top.env.slave_agent.drv [axi4_slave_driver] Write complete: ID=0x0 ADDR=0x89b0ef09 RESP=AXI4_RESP_OKAY  14 beats processed
# UVM_INFO ../src/slv/axi4_slave_monitor.sv(189) @ 45815000: uvm_test_top.env.slave_agent.mon [axi4_slave_monitor] Write response sent: ID=0x0 ADDR=0x89b0ef09 RESP=AXI4_RESP_OKAY
# UVM_INFO ../src/env/axi4_scoreboard.sv(103) @ 45815000: uvm_test_top.env.scb [axi4_scoreboard] Slave AXI4_WRITE received: ID=0x0 ADDR=0x89b0ef09 LEN=13
# UVM_INFO ../src/mst/axi4_master_monitor.sv(210) @ 45815000: uvm_test_top.env.master_agent.mon [axi4_master_monitor] Write complete: ID=0x0 ADDR=0x89b0ef09 RESP=AXI4_RESP_OKAY
# UVM_INFO ../src/env/axi4_scoreboard.sv(82) @ 45815000: uvm_test_top.env.scb [axi4_scoreboard] Master AXI4_WRITE received: ID=0x0 ADDR=0x89b0ef09 LEN=13
# UVM_INFO ../src/env/axi4_scoreboard.sv(154) @ 45815000: uvm_test_top.env.scb [axi4_scoreboard] [WRITE] MATCH #26: ID=0x0 ADDR=0x89b0ef09 LEN=13
# UVM_INFO ../src/seq/axi4_outstanding_seq.sv(71) @ 45815000: uvm_test_top.env.master_agent.sqr@@outstanding_seq [axi4_outstanding_seq] Outstanding Write [#13] complete: ID=0x0
# UVM_INFO ../src/seq/axi4_outstanding_seq.sv(65) @ 45815000: uvm_test_top.env.master_agent.sqr@@outstanding_seq [axi4_outstanding_seq] Outstanding Write [#14] started: ID=0x4 ADDR=0x89b31402 LEN=39
# UVM_INFO ../src/mst/axi4_master_driver.sv(55) @ 45815000: uvm_test_top.env.master_agent.drv [axi4_master_driver] Driving AXI4_WRITE  ID=0x4  ADDR=0x89b31402  LEN=39
# UVM_INFO ../src/mst/axi4_master_driver.sv(94) @ 45815000: uvm_test_top.env.master_agent.drv [axi4_master_driver] Write order: AW || W (parallel)
# UVM_INFO ../src/slv/axi4_slave_driver.sv(165) @ 45845000: uvm_test_top.env.slave_agent.drv [axi4_slave_driver] AW received: ID=0x4 ADDR=0x89b31402 LEN=39 LOCK=AXI4_LOCK_NORMAL
# UVM_INFO ../src/mst/axi4_master_monitor.sv(124) @ 45845000: uvm_test_top.env.master_agent.mon [axi4_master_monitor] AW observed: ID=0x4 ADDR=0x89b31402 LEN=39
# UVM_INFO ../src/slv/axi4_slave_monitor.sv(116) @ 45845000: uvm_test_top.env.slave_agent.mon [axi4_slave_monitor] AW received: ID=0x4 ADDR=0x89b31402 LEN=39
# UVM_INFO ../src/slv/axi4_slave_monitor.sv(167) @ 46615000: uvm_test_top.env.slave_agent.mon [axi4_slave_monitor] W data assembled: ID=0x4 ADDR=0x89b31402 40 beats
# UVM_INFO ../src/mst/axi4_master_monitor.sv(184) @ 46615000: uvm_test_top.env.master_agent.mon [axi4_master_monitor] W data assembled: ID=0x4 ADDR=0x89b31402 40 beats
# UVM_INFO ../src/mst/axi4_master_driver.sv(197) @ 46645000: uvm_test_top.env.master_agent.drv [axi4_master_driver] Write response: AXI4_RESP_OKAY
# UVM_INFO ../src/slv/axi4_slave_driver.sv(261) @ 46645000: uvm_test_top.env.slave_agent.drv [axi4_slave_driver] Write complete: ID=0x4 ADDR=0x89b31402 RESP=AXI4_RESP_OKAY  40 beats processed
# UVM_INFO ../src/mst/axi4_master_monitor.sv(210) @ 46645000: uvm_test_top.env.master_agent.mon [axi4_master_monitor] Write complete: ID=0x4 ADDR=0x89b31402 RESP=AXI4_RESP_OKAY
# UVM_INFO ../src/env/axi4_scoreboard.sv(82) @ 46645000: uvm_test_top.env.scb [axi4_scoreboard] Master AXI4_WRITE received: ID=0x4 ADDR=0x89b31402 LEN=39
# UVM_INFO ../src/slv/axi4_slave_monitor.sv(189) @ 46645000: uvm_test_top.env.slave_agent.mon [axi4_slave_monitor] Write response sent: ID=0x4 ADDR=0x89b31402 RESP=AXI4_RESP_OKAY
# UVM_INFO ../src/env/axi4_scoreboard.sv(103) @ 46645000: uvm_test_top.env.scb [axi4_scoreboard] Slave AXI4_WRITE received: ID=0x4 ADDR=0x89b31402 LEN=39
# UVM_INFO ../src/env/axi4_scoreboard.sv(154) @ 46645000: uvm_test_top.env.scb [axi4_scoreboard] [WRITE] MATCH #27: ID=0x4 ADDR=0x89b31402 LEN=39
# UVM_INFO ../src/seq/axi4_outstanding_seq.sv(71) @ 46645000: uvm_test_top.env.master_agent.sqr@@outstanding_seq [axi4_outstanding_seq] Outstanding Write [#14] complete: ID=0x4
# UVM_INFO ../src/seq/axi4_outstanding_seq.sv(78) @ 46645000: uvm_test_top.env.master_agent.sqr@@outstanding_seq [axi4_outstanding_seq] All outstanding write transactions finished
# UVM_INFO ../src/seq/axi4_outstanding_seq.sv(100) @ 46645000: uvm_test_top.env.master_agent.sqr@@outstanding_seq [axi4_outstanding_seq] Outstanding Read [#12] started: ID=0x7 ADDR=0x489f5845 LEN=2
# UVM_INFO ../src/mst/axi4_master_driver.sv(55) @ 46645000: uvm_test_top.env.master_agent.drv [axi4_master_driver] Driving AXI4_READ  ID=0x7  ADDR=0x489f5845  LEN=2
# UVM_INFO ../src/slv/axi4_slave_driver.sv(300) @ 46675000: uvm_test_top.env.slave_agent.drv [axi4_slave_driver] AR received: ID=0x7 ADDR=0x489f5845 LEN=2 LOCK=AXI4_LOCK_NORMAL
# UVM_INFO ../src/slv/axi4_slave_monitor.sv(224) @ 46675000: uvm_test_top.env.slave_agent.mon [axi4_slave_monitor] AR received: ID=0x7 ADDR=0x489f5845 LEN=2
# UVM_INFO ../src/mst/axi4_master_monitor.sv(246) @ 46675000: uvm_test_top.env.master_agent.mon [axi4_master_monitor] AR observed: ID=0x7 ADDR=0x489f5845 LEN=2
# UVM_INFO ../src/mst/axi4_master_driver.sv(254) @ 46735000: uvm_test_top.env.master_agent.drv [axi4_master_driver] Read complete: 3 beats received
# UVM_INFO ../src/slv/axi4_slave_driver.sv(349) @ 46735000: uvm_test_top.env.slave_agent.drv [axi4_slave_driver] Read complete: ID=0x7 ADDR=0x489f5845 RESP=AXI4_RESP_OKAY  3 beats sent
# UVM_INFO ../src/slv/axi4_slave_monitor.sv(287) @ 46735000: uvm_test_top.env.slave_agent.mon [axi4_slave_monitor] Read data sent: ID=0x7 ADDR=0x489f5845 3 beats
# UVM_INFO ../src/env/axi4_scoreboard.sv(103) @ 46735000: uvm_test_top.env.scb [axi4_scoreboard] Slave AXI4_READ received: ID=0x7 ADDR=0x489f5845 LEN=2
# UVM_INFO ../src/mst/axi4_master_monitor.sv(314) @ 46735000: uvm_test_top.env.master_agent.mon [axi4_master_monitor] Read complete: ID=0x7 ADDR=0x489f5845 3 beats
# UVM_INFO ../src/env/axi4_scoreboard.sv(82) @ 46735000: uvm_test_top.env.scb [axi4_scoreboard] Master AXI4_READ received: ID=0x7 ADDR=0x489f5845 LEN=2
# UVM_INFO ../src/env/axi4_scoreboard.sv(154) @ 46735000: uvm_test_top.env.scb [axi4_scoreboard] [READ] MATCH #28: ID=0x7 ADDR=0x489f5845 LEN=2
# UVM_INFO ../src/seq/axi4_outstanding_seq.sv(106) @ 46735000: uvm_test_top.env.master_agent.sqr@@outstanding_seq [axi4_outstanding_seq] Outstanding Read [#12] complete: ID=0x7
# UVM_INFO ../src/seq/axi4_outstanding_seq.sv(100) @ 46735000: uvm_test_top.env.master_agent.sqr@@outstanding_seq [axi4_outstanding_seq] Outstanding Read [#13] started: ID=0x8 ADDR=0x0aba1c59 LEN=12
# UVM_INFO ../src/mst/axi4_master_driver.sv(55) @ 46735000: uvm_test_top.env.master_agent.drv [axi4_master_driver] Driving AXI4_READ  ID=0x8  ADDR=0x0aba1c59  LEN=12
# UVM_INFO ../src/slv/axi4_slave_driver.sv(300) @ 46765000: uvm_test_top.env.slave_agent.drv [axi4_slave_driver] AR received: ID=0x8 ADDR=0x0aba1c59 LEN=12 LOCK=AXI4_LOCK_NORMAL
# UVM_INFO ../src/mst/axi4_master_monitor.sv(246) @ 46765000: uvm_test_top.env.master_agent.mon [axi4_master_monitor] AR observed: ID=0x8 ADDR=0x0aba1c59 LEN=12
# UVM_INFO ../src/slv/axi4_slave_monitor.sv(224) @ 46765000: uvm_test_top.env.slave_agent.mon [axi4_slave_monitor] AR received: ID=0x8 ADDR=0x0aba1c59 LEN=12
# UVM_INFO ../src/mst/axi4_master_driver.sv(254) @ 47025000: uvm_test_top.env.master_agent.drv [axi4_master_driver] Read complete: 13 beats received
# UVM_INFO ../src/slv/axi4_slave_driver.sv(349) @ 47025000: uvm_test_top.env.slave_agent.drv [axi4_slave_driver] Read complete: ID=0x8 ADDR=0x0aba1c59 RESP=AXI4_RESP_OKAY  13 beats sent
# UVM_INFO ../src/mst/axi4_master_monitor.sv(314) @ 47025000: uvm_test_top.env.master_agent.mon [axi4_master_monitor] Read complete: ID=0x8 ADDR=0x0aba1c59 13 beats
# UVM_INFO ../src/env/axi4_scoreboard.sv(82) @ 47025000: uvm_test_top.env.scb [axi4_scoreboard] Master AXI4_READ received: ID=0x8 ADDR=0x0aba1c59 LEN=12
# UVM_INFO ../src/slv/axi4_slave_monitor.sv(287) @ 47025000: uvm_test_top.env.slave_agent.mon [axi4_slave_monitor] Read data sent: ID=0x8 ADDR=0x0aba1c59 13 beats
# UVM_INFO ../src/env/axi4_scoreboard.sv(103) @ 47025000: uvm_test_top.env.scb [axi4_scoreboard] Slave AXI4_READ received: ID=0x8 ADDR=0x0aba1c59 LEN=12
# UVM_INFO ../src/env/axi4_scoreboard.sv(154) @ 47025000: uvm_test_top.env.scb [axi4_scoreboard] [READ] MATCH #29: ID=0x8 ADDR=0x0aba1c59 LEN=12
# UVM_INFO ../src/seq/axi4_outstanding_seq.sv(106) @ 47025000: uvm_test_top.env.master_agent.sqr@@outstanding_seq [axi4_outstanding_seq] Outstanding Read [#13] complete: ID=0x8
# UVM_INFO ../src/seq/axi4_outstanding_seq.sv(100) @ 47025000: uvm_test_top.env.master_agent.sqr@@outstanding_seq [axi4_outstanding_seq] Outstanding Read [#14] started: ID=0x6 ADDR=0x237eb7b6 LEN=78
# UVM_INFO ../src/mst/axi4_master_driver.sv(55) @ 47025000: uvm_test_top.env.master_agent.drv [axi4_master_driver] Driving AXI4_READ  ID=0x6  ADDR=0x237eb7b6  LEN=78
# UVM_INFO ../src/slv/axi4_slave_driver.sv(300) @ 47055000: uvm_test_top.env.slave_agent.drv [axi4_slave_driver] AR received: ID=0x6 ADDR=0x237eb7b6 LEN=78 LOCK=AXI4_LOCK_NORMAL
# UVM_INFO ../src/slv/axi4_slave_monitor.sv(224) @ 47055000: uvm_test_top.env.slave_agent.mon [axi4_slave_monitor] AR received: ID=0x6 ADDR=0x237eb7b6 LEN=78
# UVM_INFO ../src/mst/axi4_master_monitor.sv(246) @ 47055000: uvm_test_top.env.master_agent.mon [axi4_master_monitor] AR observed: ID=0x6 ADDR=0x237eb7b6 LEN=78
# UVM_INFO ../src/mst/axi4_master_driver.sv(254) @ 48635000: uvm_test_top.env.master_agent.drv [axi4_master_driver] Read complete: 79 beats received
# UVM_INFO ../src/slv/axi4_slave_driver.sv(349) @ 48635000: uvm_test_top.env.slave_agent.drv [axi4_slave_driver] Read complete: ID=0x6 ADDR=0x237eb7b6 RESP=AXI4_RESP_OKAY  79 beats sent
# UVM_INFO ../src/slv/axi4_slave_monitor.sv(287) @ 48635000: uvm_test_top.env.slave_agent.mon [axi4_slave_monitor] Read data sent: ID=0x6 ADDR=0x237eb7b6 79 beats
# UVM_INFO ../src/env/axi4_scoreboard.sv(103) @ 48635000: uvm_test_top.env.scb [axi4_scoreboard] Slave AXI4_READ received: ID=0x6 ADDR=0x237eb7b6 LEN=78
# UVM_INFO ../src/mst/axi4_master_monitor.sv(314) @ 48635000: uvm_test_top.env.master_agent.mon [axi4_master_monitor] Read complete: ID=0x6 ADDR=0x237eb7b6 79 beats
# UVM_INFO ../src/env/axi4_scoreboard.sv(82) @ 48635000: uvm_test_top.env.scb [axi4_scoreboard] Master AXI4_READ received: ID=0x6 ADDR=0x237eb7b6 LEN=78
# UVM_INFO ../src/env/axi4_scoreboard.sv(154) @ 48635000: uvm_test_top.env.scb [axi4_scoreboard] [READ] MATCH #30: ID=0x6 ADDR=0x237eb7b6 LEN=78
# UVM_INFO ../src/seq/axi4_outstanding_seq.sv(106) @ 48635000: uvm_test_top.env.master_agent.sqr@@outstanding_seq [axi4_outstanding_seq] Outstanding Read [#14] complete: ID=0x6
# UVM_INFO ../src/seq/axi4_outstanding_seq.sv(113) @ 48635000: uvm_test_top.env.master_agent.sqr@@outstanding_seq [axi4_outstanding_seq] All outstanding read transactions finished
# UVM_INFO ../src/seq/axi4_outstanding_seq.sv(117) @ 48635000: uvm_test_top.env.master_agent.sqr@@outstanding_seq [axi4_outstanding_seq] Outstanding sequence complete
# UVM_INFO ../src/test/axi4_outstanding_test.sv(59) @ 49635000: uvm_test_top [axi4_outstanding_test] Outstanding test completed successfully
# UVM_INFO verilog_src/uvm-1.1d/src/base/uvm_objection.svh(1268) @ 49635000: reporter [TEST_DONE] 'run' phase is ready to proceed to the 'extract' phase
# UVM_INFO ../src/env/axi4_scoreboard.sv(218) @ 49635000: uvm_test_top.env.scb [axi4_scoreboard] 
# ========================================
#          SCOREBOARD SUMMARY
# ========================================
#   Master transactions : 30
#   Slave transactions  : 30
#   Matches             : 30
#   Mismatches          : 0
#   Unmatched master WR : 0
#   Unmatched master RD : 0
#   Unmatched slave  WR : 0
#   Unmatched slave  RD : 0
# ========================================
#   RESULT : PASS
# ========================================
# UVM_INFO ../src/test/axi4_base_test.sv(91) @ 49635000: uvm_test_top [axi4_outstanding_test] 
# === TEST PASSED ===
# 
# 
# --- UVM Report Summary ---
# 
# ** Report counts by severity
# UVM_INFO :  463
# UVM_WARNING :    0
# UVM_ERROR :    0
# UVM_FATAL :    0
# ** Report counts by id
# [Questa UVM]     3
# [RNTST]     1
# [TB_TOP]     2
# [TEST_DONE]     1
# [TOP_TB]     1
# [UVMTOP]     1
# [axi4_master_agent]     1
# [axi4_master_driver]    76
# [axi4_master_monitor]    76
# [axi4_outstanding_seq]    64
# [axi4_outstanding_test]     3
# [axi4_scoreboard]    91
# [axi4_slave_agent]     1
# [axi4_slave_driver]    61
# [axi4_slave_monitor]    76
# [axi4_vip_env]     5
# ** Note: $finish    : /cadtools/mentor/Questa_10.6b/questasim/linux_x86_64/../verilog_src/uvm-1.1d/src/base/uvm_root.svh(430)
#    Time: 49635 ns  Iteration: 55  Instance: /tb_top
# Saving coverage database on exit...
# End time: 11:24:26 on Jun 05,2026, Elapsed time: 0:00:42
# Errors: 0, Warnings: 0
