# vsim -c -coverage -sv_seed 54817361 "+UVM_TESTNAME=axi4_strobe_test" "+UVM_VERBOSITY=UVM_HIGH" "+DUMP_VCD" -l ./report/logs/axi4_strobe_test_run_4_seed_54817361.log -do "coverage save -onexit ./report/coverage/axi4_strobe_test_run_4_seed_54817361.ucdb; run -all; quit -f" opt_tb_top 
# Start time: 13:05:27 on Jun 11,2026
# //  Questa Sim-64
# //  Version 10.6b linux_x86_64 May 25 2017
# //
# //  Copyright 1991-2017 Mentor Graphics Corporation
# //  All Rights Reserved.
# //
# //  QuestaSim and its associated documentation contain trade
# //  secrets and commercial or financial information that are the property of
# //  Mentor Graphics Corporation and are privileged, confidential,
# //  and exempt from disclosure under the Freedom of Information Act,
# //  5 U.S.C. Section 552. Furthermore, this information
# //  is prohibited from disclosure under the Trade Secrets Act,
# //  18 U.S.C. Section 1905.
# //
# Loading sv_std.std
# Loading work.axi4_if(fast)
# Loading mtiUvm.uvm_pkg
# Loading work.axi4_pkg(fast)
# Loading work.axi4_test_pkg(fast)
# Loading work.tb_top(fast)
# Loading work.axi4_if(fast)
# Loading work.axi4_sva(fast)
# Loading mtiUvm.questa_uvm_pkg(fast)
# Loading /cadtools/mentor/Questa_10.6b/questasim/uvm-1.1d/linux_x86_64/uvm_dpi.so
# coverage save -onexit ./report/coverage/axi4_strobe_test_run_4_seed_54817361.ucdb
#  run -all
# ----------------------------------------------------------------
# UVM-1.1d
# (C) 2007-2013 Mentor Graphics Corporation
# (C) 2007-2013 Cadence Design Systems, Inc.
# (C) 2006-2013 Synopsys, Inc.
# (C) 2011-2013 Cypress Semiconductor Corp.
# ----------------------------------------------------------------
# 
#   ***********       IMPORTANT RELEASE NOTES         ************
# 
#   You are using a version of the UVM library that has been compiled
#   with `UVM_NO_DEPRECATED undefined.
#   See http://www.eda.org/svdb/view.php?id=3313 for more details.
# 
#   You are using a version of the UVM library that has been compiled
#   with `UVM_OBJECT_MUST_HAVE_CONSTRUCTOR undefined.
#   See http://www.eda.org/svdb/view.php?id=3770 for more details.
# 
#       (Specify +UVM_NO_RELNOTES to turn off this notice)
# 
# UVM_INFO verilog_src/questa_uvm_pkg-1.2/src/questa_uvm_pkg.sv(215) @ 0: reporter [Questa UVM] QUESTA_UVM-1.2.3
# UVM_INFO verilog_src/questa_uvm_pkg-1.2/src/questa_uvm_pkg.sv(217) @ 0: reporter [Questa UVM]  questa_uvm::init(+struct)
# UVM_INFO ../src/tb_top.sv(128) @ 0: reporter [TB_TOP] Virtual interface set in config_db
# UVM_INFO @ 0: reporter [RNTST] Running test axi4_strobe_test...
# UVM_INFO ../src/tb_top.sv(142) @ 0: reporter [TB_TOP] Waveform VCD dumping enabled (axi4_vip.vcd)
# UVM_INFO ../src/env/axi4_vip_env.sv(83) @ 0: uvm_test_top.env [axi4_vip_env] slave_vif not set - reusing master_vif (passthrough mode)
# UVM_INFO ../src/env/axi4_vip_env.sv(93) @ 0: uvm_test_top.env [axi4_vip_env] Scoreboard created
# UVM_INFO ../src/env/axi4_vip_env.sv(100) @ 0: uvm_test_top.env [axi4_vip_env] Coverage collectors created
# UVM_INFO ../src/mst/axi4_master_agent.sv(69) @ 0: uvm_test_top.env.master_agent [axi4_master_agent] ACTIVE mode - driver + sequencer created
# UVM_INFO ../src/slv/axi4_slave_agent.sv(82) @ 0: uvm_test_top.env.slave_agent [axi4_slave_agent] ACTIVE mode — ready_delay=[0:0] resp_delay=[0:0]
# UVM_INFO ../src/env/axi4_vip_env.sv(116) @ 0: uvm_test_top.env [axi4_vip_env] Scoreboard connected: master_mon.ap -> scb, slave_mon.ap -> scb
# UVM_INFO ../src/env/axi4_vip_env.sv(124) @ 0: uvm_test_top.env [axi4_vip_env] Coverage connected: master_mon.ap -> master_cov, slave_mon.ap -> slave_cov
# UVM_INFO @ 0: reporter [UVMTOP] UVM testbench topology:
# ---------------------------------------------------------------
# Name                       Type                     Size  Value
# ---------------------------------------------------------------
# uvm_test_top               axi4_strobe_test         -     @473 
#   env                      axi4_vip_env             -     @488 
#     master_agent           axi4_master_agent        -     @503 
#       drv                  axi4_master_driver       -     @567 
#         rsp_port           uvm_analysis_port        -     @582 
#         seq_item_port      uvm_seq_item_pull_port   -     @574 
#       mon                  axi4_master_monitor      -     @559 
#         ap                 uvm_analysis_port        -     @700 
#       sqr                  axi4_master_sequencer    -     @590 
#         rsp_export         uvm_analysis_export      -     @597 
#         seq_item_export    uvm_seq_item_pull_imp    -     @691 
#         arbitration_queue  array                    0     -    
#         lock_queue         array                    0     -    
#         num_last_reqs      integral                 32    'd1  
#         num_last_rsps      integral                 32    'd1  
#     master_cov             axi4_coverage            -     @524 
#       analysis_imp         uvm_analysis_imp         -     @531 
#     scb                    axi4_scoreboard          -     @517 
#       master_export        uvm_analysis_imp_master  -     @714 
#       slave_export         uvm_analysis_imp_slave   -     @722 
#     slave_agent            axi4_slave_agent         -     @510 
#       drv                  axi4_slave_driver        -     @753 
#         rsp_port           uvm_analysis_port        -     @768 
#         seq_item_port      uvm_seq_item_pull_port   -     @760 
#       mon                  axi4_slave_monitor       -     @735 
#         ap                 uvm_analysis_port        -     @892 
#       sqr                  axi4_slave_sequencer     -     @776 
#         rsp_export         uvm_analysis_export      -     @783 
#         seq_item_export    uvm_seq_item_pull_imp    -     @877 
#         arbitration_queue  array                    0     -    
#         lock_queue         array                    0     -    
#         num_last_reqs      integral                 32    'd1  
#         num_last_rsps      integral                 32    'd1  
#     slave_cov              axi4_coverage            -     @539 
#       analysis_imp         uvm_analysis_imp         -     @546 
# ---------------------------------------------------------------
# 
# UVM_INFO verilog_src/questa_uvm_pkg-1.2/src/questa_uvm_pkg.sv(277) @ 0: reporter [Questa UVM] End Of Elaboration
# UVM_INFO ../src/test/axi4_strobe_test.sv(24) @ 0: uvm_test_top [axi4_strobe_test] Starting write strobe patterns test
# UVM_INFO ../src/seq/axi4_strobe_pattern_seq.sv(25) @ 0: uvm_test_top.env.master_agent.sqr@@strb_seq [axi4_strobe_pattern_seq] Starting write strobe pattern sequence
# UVM_INFO ../src/tb_top.sv(49) @ 95000: reporter [TOP_TB] Reset de-asserted
# UVM_INFO ../src/slv/axi4_slave_driver.sv(122) @ 95000: uvm_test_top.env.slave_agent.drv [axi4_slave_driver] Reset deasserted - slave driver active
# UVM_INFO ../src/mst/axi4_master_driver.sv(64) @ 95000: uvm_test_top.env.master_agent.drv [axi4_master_driver] Reset deasserted - master driver active
# UVM_INFO ../src/mst/axi4_master_monitor.sv(77) @ 95000: uvm_test_top.env.master_agent.mon [axi4_master_monitor] Reset deasserted - monitor active
# UVM_INFO ../src/slv/axi4_slave_monitor.sv(71) @ 95000: uvm_test_top.env.slave_agent.mon [axi4_slave_monitor] Reset deasserted - monitor active
# UVM_INFO ../src/mst/axi4_master_driver.sv(73) @ 95000: uvm_test_top.env.master_agent.drv [axi4_master_driver] Driving AXI4_WRITE  ID=0xd  ADDR=0x85594ab7  LEN=3
# UVM_INFO ../src/seq/axi4_strobe_pattern_seq.sv(40) @ 95000: uvm_test_top.env.master_agent.sqr@@strb_seq [axi4_strobe_pattern_seq] Sent Write with all-bytes strobe (4'b1111)
# UVM_INFO ../src/mst/axi4_master_driver.sv(73) @ 95000: uvm_test_top.env.master_agent.drv [axi4_master_driver] Driving AXI4_WRITE  ID=0xb  ADDR=0x9afcb5b0  LEN=3
# UVM_INFO ../src/seq/axi4_strobe_pattern_seq.sv(55) @ 95000: uvm_test_top.env.master_agent.sqr@@strb_seq [axi4_strobe_pattern_seq] Sent Write with zero-bytes strobe (4'b0000)
# UVM_INFO ../src/mst/axi4_master_driver.sv(73) @ 95000: uvm_test_top.env.master_agent.drv [axi4_master_driver] Driving AXI4_WRITE  ID=0xc  ADDR=0x8b76058b  LEN=0
# UVM_INFO ../src/seq/axi4_strobe_pattern_seq.sv(81) @ 95000: uvm_test_top.env.master_agent.sqr@@strb_seq [axi4_strobe_pattern_seq] Sent Write with partial strobe (4'b0001)
# UVM_INFO ../src/mst/axi4_master_driver.sv(73) @ 95000: uvm_test_top.env.master_agent.drv [axi4_master_driver] Driving AXI4_WRITE  ID=0x6  ADDR=0x9c5d8317  LEN=0
# UVM_INFO ../src/seq/axi4_strobe_pattern_seq.sv(81) @ 95000: uvm_test_top.env.master_agent.sqr@@strb_seq [axi4_strobe_pattern_seq] Sent Write with partial strobe (4'b0010)
# UVM_INFO ../src/mst/axi4_master_driver.sv(73) @ 95000: uvm_test_top.env.master_agent.drv [axi4_master_driver] Driving AXI4_WRITE  ID=0x0  ADDR=0x121a69ba  LEN=0
# UVM_INFO ../src/seq/axi4_strobe_pattern_seq.sv(81) @ 95000: uvm_test_top.env.master_agent.sqr@@strb_seq [axi4_strobe_pattern_seq] Sent Write with partial strobe (4'b0100)
# UVM_INFO ../src/mst/axi4_master_driver.sv(73) @ 95000: uvm_test_top.env.master_agent.drv [axi4_master_driver] Driving AXI4_WRITE  ID=0xf  ADDR=0x91a4e412  LEN=0
# UVM_INFO ../src/seq/axi4_strobe_pattern_seq.sv(81) @ 95000: uvm_test_top.env.master_agent.sqr@@strb_seq [axi4_strobe_pattern_seq] Sent Write with partial strobe (4'b1000)
# UVM_INFO ../src/mst/axi4_master_driver.sv(73) @ 95000: uvm_test_top.env.master_agent.drv [axi4_master_driver] Driving AXI4_WRITE  ID=0x5  ADDR=0x7f11ef28  LEN=0
# UVM_INFO ../src/seq/axi4_strobe_pattern_seq.sv(81) @ 95000: uvm_test_top.env.master_agent.sqr@@strb_seq [axi4_strobe_pattern_seq] Sent Write with partial strobe (4'b0011)
# UVM_INFO ../src/mst/axi4_master_driver.sv(73) @ 95000: uvm_test_top.env.master_agent.drv [axi4_master_driver] Driving AXI4_WRITE  ID=0xe  ADDR=0x598c4a31  LEN=0
# UVM_INFO ../src/seq/axi4_strobe_pattern_seq.sv(81) @ 95000: uvm_test_top.env.master_agent.sqr@@strb_seq [axi4_strobe_pattern_seq] Sent Write with partial strobe (4'b1100)
# UVM_INFO ../src/seq/axi4_strobe_pattern_seq.sv(84) @ 95000: uvm_test_top.env.master_agent.sqr@@strb_seq [axi4_strobe_pattern_seq] Write strobe pattern sequence complete
# UVM_INFO ../src/slv/axi4_slave_driver.sv(212) @ 115000: uvm_test_top.env.slave_agent.drv [axi4_slave_driver] AW received: ID=0xd ADDR=0x85594ab7 LEN=3 LOCK=AXI4_LOCK_NORMAL
# UVM_INFO ../src/slv/axi4_slave_monitor.sv(116) @ 115000: uvm_test_top.env.slave_agent.mon [axi4_slave_monitor] AW received: ID=0xd ADDR=0x85594ab7 LEN=3
# UVM_INFO ../src/mst/axi4_master_monitor.sv(124) @ 115000: uvm_test_top.env.master_agent.mon [axi4_master_monitor] AW observed: ID=0xd ADDR=0x85594ab7 LEN=3
# UVM_INFO ../src/slv/axi4_slave_monitor.sv(167) @ 195000: uvm_test_top.env.slave_agent.mon [axi4_slave_monitor] W data assembled: ID=0xd ADDR=0x85594ab7 4 beats
# UVM_INFO ../src/mst/axi4_master_monitor.sv(184) @ 195000: uvm_test_top.env.master_agent.mon [axi4_master_monitor] W data assembled: ID=0xd ADDR=0x85594ab7 4 beats
# UVM_INFO ../src/mst/axi4_master_driver.sv(289) @ 225000: uvm_test_top.env.master_agent.drv [axi4_master_driver] Master driver received B response: ID=0xd RESP=AXI4_RESP_OKAY
# UVM_INFO ../src/slv/axi4_slave_driver.sv(320) @ 225000: uvm_test_top.env.slave_agent.drv [axi4_slave_driver] Write complete: ID=0xd RESP=AXI4_RESP_OKAY
# UVM_INFO ../src/mst/axi4_master_monitor.sv(210) @ 225000: uvm_test_top.env.master_agent.mon [axi4_master_monitor] Write complete: ID=0xd ADDR=0x85594ab7 RESP=AXI4_RESP_OKAY
# UVM_INFO ../src/env/axi4_scoreboard.sv(87) @ 225000: uvm_test_top.env.scb [axi4_scoreboard] Master AXI4_WRITE received: ID=0xd ADDR=0x85594ab7 LEN=3
# UVM_INFO ../src/slv/axi4_slave_monitor.sv(189) @ 225000: uvm_test_top.env.slave_agent.mon [axi4_slave_monitor] Write response sent: ID=0xd ADDR=0x85594ab7 RESP=AXI4_RESP_OKAY
# UVM_INFO ../src/env/axi4_scoreboard.sv(108) @ 225000: uvm_test_top.env.scb [axi4_scoreboard] Slave AXI4_WRITE received: ID=0xd ADDR=0x85594ab7 LEN=3
# UVM_INFO ../src/env/axi4_scoreboard.sv(291) @ 225000: uvm_test_top.env.scb [axi4_scoreboard] [WRITE] MATCH #1: ID=0xd ADDR=0x85594ab7 LEN=3
# UVM_INFO ../src/env/axi4_scoreboard.sv(219) @ 225000: uvm_test_top.env.scb [axi4_scoreboard] [REF_MEM_WRITE] Addr=0x85594ab4 Data=0xd5
# UVM_INFO ../src/env/axi4_scoreboard.sv(219) @ 225000: uvm_test_top.env.scb [axi4_scoreboard] [REF_MEM_WRITE] Addr=0x85594ab5 Data=0xd8
# UVM_INFO ../src/env/axi4_scoreboard.sv(219) @ 225000: uvm_test_top.env.scb [axi4_scoreboard] [REF_MEM_WRITE] Addr=0x85594ab6 Data=0xe7
# UVM_INFO ../src/env/axi4_scoreboard.sv(219) @ 225000: uvm_test_top.env.scb [axi4_scoreboard] [REF_MEM_WRITE] Addr=0x85594ab7 Data=0x17
# UVM_INFO ../src/env/axi4_scoreboard.sv(219) @ 225000: uvm_test_top.env.scb [axi4_scoreboard] [REF_MEM_WRITE] Addr=0x85594ab8 Data=0x74
# UVM_INFO ../src/env/axi4_scoreboard.sv(219) @ 225000: uvm_test_top.env.scb [axi4_scoreboard] [REF_MEM_WRITE] Addr=0x85594ab9 Data=0x67
# UVM_INFO ../src/env/axi4_scoreboard.sv(219) @ 225000: uvm_test_top.env.scb [axi4_scoreboard] [REF_MEM_WRITE] Addr=0x85594aba Data=0xa7
# UVM_INFO ../src/env/axi4_scoreboard.sv(219) @ 225000: uvm_test_top.env.scb [axi4_scoreboard] [REF_MEM_WRITE] Addr=0x85594abb Data=0xf5
# UVM_INFO ../src/env/axi4_scoreboard.sv(219) @ 225000: uvm_test_top.env.scb [axi4_scoreboard] [REF_MEM_WRITE] Addr=0x85594abc Data=0x84
# UVM_INFO ../src/env/axi4_scoreboard.sv(219) @ 225000: uvm_test_top.env.scb [axi4_scoreboard] [REF_MEM_WRITE] Addr=0x85594abd Data=0x3c
# UVM_INFO ../src/env/axi4_scoreboard.sv(219) @ 225000: uvm_test_top.env.scb [axi4_scoreboard] [REF_MEM_WRITE] Addr=0x85594abe Data=0x48
# UVM_INFO ../src/env/axi4_scoreboard.sv(219) @ 225000: uvm_test_top.env.scb [axi4_scoreboard] [REF_MEM_WRITE] Addr=0x85594abf Data=0xb6
# UVM_INFO ../src/env/axi4_scoreboard.sv(219) @ 225000: uvm_test_top.env.scb [axi4_scoreboard] [REF_MEM_WRITE] Addr=0x85594ac0 Data=0xf7
# UVM_INFO ../src/env/axi4_scoreboard.sv(219) @ 225000: uvm_test_top.env.scb [axi4_scoreboard] [REF_MEM_WRITE] Addr=0x85594ac1 Data=0x8c
# UVM_INFO ../src/env/axi4_scoreboard.sv(219) @ 225000: uvm_test_top.env.scb [axi4_scoreboard] [REF_MEM_WRITE] Addr=0x85594ac2 Data=0xc5
# UVM_INFO ../src/env/axi4_scoreboard.sv(219) @ 225000: uvm_test_top.env.scb [axi4_scoreboard] [REF_MEM_WRITE] Addr=0x85594ac3 Data=0x6c
# UVM_INFO ../src/slv/axi4_slave_driver.sv(212) @ 265000: uvm_test_top.env.slave_agent.drv [axi4_slave_driver] AW received: ID=0xb ADDR=0x9afcb5b0 LEN=3 LOCK=AXI4_LOCK_NORMAL
# UVM_INFO ../src/mst/axi4_master_monitor.sv(124) @ 265000: uvm_test_top.env.master_agent.mon [axi4_master_monitor] AW observed: ID=0xb ADDR=0x9afcb5b0 LEN=3
# UVM_INFO ../src/slv/axi4_slave_monitor.sv(116) @ 265000: uvm_test_top.env.slave_agent.mon [axi4_slave_monitor] AW received: ID=0xb ADDR=0x9afcb5b0 LEN=3
# UVM_INFO ../src/slv/axi4_slave_monitor.sv(167) @ 275000: uvm_test_top.env.slave_agent.mon [axi4_slave_monitor] W data assembled: ID=0xb ADDR=0x9afcb5b0 4 beats
# UVM_INFO ../src/mst/axi4_master_monitor.sv(184) @ 275000: uvm_test_top.env.master_agent.mon [axi4_master_monitor] W data assembled: ID=0xb ADDR=0x9afcb5b0 4 beats
# UVM_INFO ../src/mst/axi4_master_driver.sv(289) @ 305000: uvm_test_top.env.master_agent.drv [axi4_master_driver] Master driver received B response: ID=0xb RESP=AXI4_RESP_OKAY
# UVM_INFO ../src/slv/axi4_slave_driver.sv(320) @ 305000: uvm_test_top.env.slave_agent.drv [axi4_slave_driver] Write complete: ID=0xb RESP=AXI4_RESP_OKAY
# UVM_INFO ../src/mst/axi4_master_monitor.sv(210) @ 305000: uvm_test_top.env.master_agent.mon [axi4_master_monitor] Write complete: ID=0xb ADDR=0x9afcb5b0 RESP=AXI4_RESP_OKAY
# UVM_INFO ../src/env/axi4_scoreboard.sv(87) @ 305000: uvm_test_top.env.scb [axi4_scoreboard] Master AXI4_WRITE received: ID=0xb ADDR=0x9afcb5b0 LEN=3
# UVM_INFO ../src/slv/axi4_slave_monitor.sv(189) @ 305000: uvm_test_top.env.slave_agent.mon [axi4_slave_monitor] Write response sent: ID=0xb ADDR=0x9afcb5b0 RESP=AXI4_RESP_OKAY
# UVM_INFO ../src/env/axi4_scoreboard.sv(108) @ 305000: uvm_test_top.env.scb [axi4_scoreboard] Slave AXI4_WRITE received: ID=0xb ADDR=0x9afcb5b0 LEN=3
# UVM_INFO ../src/env/axi4_scoreboard.sv(291) @ 305000: uvm_test_top.env.scb [axi4_scoreboard] [WRITE] MATCH #2: ID=0xb ADDR=0x9afcb5b0 LEN=3
# UVM_INFO ../src/slv/axi4_slave_driver.sv(212) @ 345000: uvm_test_top.env.slave_agent.drv [axi4_slave_driver] AW received: ID=0xc ADDR=0x8b76058b LEN=0 LOCK=AXI4_LOCK_NORMAL
# UVM_INFO ../src/mst/axi4_master_monitor.sv(124) @ 345000: uvm_test_top.env.master_agent.mon [axi4_master_monitor] AW observed: ID=0xc ADDR=0x8b76058b LEN=0
# UVM_INFO ../src/slv/axi4_slave_monitor.sv(116) @ 345000: uvm_test_top.env.slave_agent.mon [axi4_slave_monitor] AW received: ID=0xc ADDR=0x8b76058b LEN=0
# UVM_INFO ../src/mst/axi4_master_monitor.sv(184) @ 345000: uvm_test_top.env.master_agent.mon [axi4_master_monitor] W data assembled: ID=0xc ADDR=0x8b76058b 1 beats
# UVM_INFO ../src/slv/axi4_slave_monitor.sv(167) @ 345000: uvm_test_top.env.slave_agent.mon [axi4_slave_monitor] W data assembled: ID=0xc ADDR=0x8b76058b 1 beats
# UVM_INFO ../src/mst/axi4_master_driver.sv(289) @ 365000: uvm_test_top.env.master_agent.drv [axi4_master_driver] Master driver received B response: ID=0xc RESP=AXI4_RESP_OKAY
# UVM_INFO ../src/slv/axi4_slave_driver.sv(320) @ 365000: uvm_test_top.env.slave_agent.drv [axi4_slave_driver] Write complete: ID=0xc RESP=AXI4_RESP_OKAY
# UVM_INFO ../src/mst/axi4_master_monitor.sv(210) @ 365000: uvm_test_top.env.master_agent.mon [axi4_master_monitor] Write complete: ID=0xc ADDR=0x8b76058b RESP=AXI4_RESP_OKAY
# UVM_INFO ../src/env/axi4_scoreboard.sv(87) @ 365000: uvm_test_top.env.scb [axi4_scoreboard] Master AXI4_WRITE received: ID=0xc ADDR=0x8b76058b LEN=0
# UVM_INFO ../src/slv/axi4_slave_monitor.sv(189) @ 365000: uvm_test_top.env.slave_agent.mon [axi4_slave_monitor] Write response sent: ID=0xc ADDR=0x8b76058b RESP=AXI4_RESP_OKAY
# UVM_INFO ../src/env/axi4_scoreboard.sv(108) @ 365000: uvm_test_top.env.scb [axi4_scoreboard] Slave AXI4_WRITE received: ID=0xc ADDR=0x8b76058b LEN=0
# UVM_INFO ../src/env/axi4_scoreboard.sv(291) @ 365000: uvm_test_top.env.scb [axi4_scoreboard] [WRITE] MATCH #3: ID=0xc ADDR=0x8b76058b LEN=0
# UVM_INFO ../src/env/axi4_scoreboard.sv(219) @ 365000: uvm_test_top.env.scb [axi4_scoreboard] [REF_MEM_WRITE] Addr=0x8b760588 Data=0xa9
# UVM_INFO ../src/slv/axi4_slave_driver.sv(212) @ 375000: uvm_test_top.env.slave_agent.drv [axi4_slave_driver] AW received: ID=0x6 ADDR=0x9c5d8317 LEN=0 LOCK=AXI4_LOCK_NORMAL
# UVM_INFO ../src/slv/axi4_slave_monitor.sv(116) @ 375000: uvm_test_top.env.slave_agent.mon [axi4_slave_monitor] AW received: ID=0x6 ADDR=0x9c5d8317 LEN=0
# UVM_INFO ../src/mst/axi4_master_monitor.sv(124) @ 375000: uvm_test_top.env.master_agent.mon [axi4_master_monitor] AW observed: ID=0x6 ADDR=0x9c5d8317 LEN=0
# UVM_INFO ../src/slv/axi4_slave_monitor.sv(167) @ 375000: uvm_test_top.env.slave_agent.mon [axi4_slave_monitor] W data assembled: ID=0x6 ADDR=0x9c5d8317 1 beats
# UVM_INFO ../src/mst/axi4_master_monitor.sv(184) @ 375000: uvm_test_top.env.master_agent.mon [axi4_master_monitor] W data assembled: ID=0x6 ADDR=0x9c5d8317 1 beats
# UVM_INFO ../src/mst/axi4_master_driver.sv(289) @ 395000: uvm_test_top.env.master_agent.drv [axi4_master_driver] Master driver received B response: ID=0x6 RESP=AXI4_RESP_OKAY
# UVM_INFO ../src/slv/axi4_slave_driver.sv(320) @ 395000: uvm_test_top.env.slave_agent.drv [axi4_slave_driver] Write complete: ID=0x6 RESP=AXI4_RESP_OKAY
# UVM_INFO ../src/slv/axi4_slave_monitor.sv(189) @ 395000: uvm_test_top.env.slave_agent.mon [axi4_slave_monitor] Write response sent: ID=0x6 ADDR=0x9c5d8317 RESP=AXI4_RESP_OKAY
# UVM_INFO ../src/env/axi4_scoreboard.sv(108) @ 395000: uvm_test_top.env.scb [axi4_scoreboard] Slave AXI4_WRITE received: ID=0x6 ADDR=0x9c5d8317 LEN=0
# UVM_INFO ../src/mst/axi4_master_monitor.sv(210) @ 395000: uvm_test_top.env.master_agent.mon [axi4_master_monitor] Write complete: ID=0x6 ADDR=0x9c5d8317 RESP=AXI4_RESP_OKAY
# UVM_INFO ../src/env/axi4_scoreboard.sv(87) @ 395000: uvm_test_top.env.scb [axi4_scoreboard] Master AXI4_WRITE received: ID=0x6 ADDR=0x9c5d8317 LEN=0
# UVM_INFO ../src/env/axi4_scoreboard.sv(291) @ 395000: uvm_test_top.env.scb [axi4_scoreboard] [WRITE] MATCH #4: ID=0x6 ADDR=0x9c5d8317 LEN=0
# UVM_INFO ../src/env/axi4_scoreboard.sv(219) @ 395000: uvm_test_top.env.scb [axi4_scoreboard] [REF_MEM_WRITE] Addr=0x9c5d8315 Data=0x78
# UVM_INFO ../src/slv/axi4_slave_driver.sv(212) @ 405000: uvm_test_top.env.slave_agent.drv [axi4_slave_driver] AW received: ID=0x0 ADDR=0x121a69ba LEN=0 LOCK=AXI4_LOCK_NORMAL
# UVM_INFO ../src/mst/axi4_master_monitor.sv(124) @ 405000: uvm_test_top.env.master_agent.mon [axi4_master_monitor] AW observed: ID=0x0 ADDR=0x121a69ba LEN=0
# UVM_INFO ../src/slv/axi4_slave_monitor.sv(116) @ 405000: uvm_test_top.env.slave_agent.mon [axi4_slave_monitor] AW received: ID=0x0 ADDR=0x121a69ba LEN=0
# UVM_INFO ../src/mst/axi4_master_monitor.sv(184) @ 425000: uvm_test_top.env.master_agent.mon [axi4_master_monitor] W data assembled: ID=0x0 ADDR=0x121a69ba 1 beats
# UVM_INFO ../src/slv/axi4_slave_monitor.sv(167) @ 425000: uvm_test_top.env.slave_agent.mon [axi4_slave_monitor] W data assembled: ID=0x0 ADDR=0x121a69ba 1 beats
# UVM_INFO ../src/mst/axi4_master_driver.sv(289) @ 455000: uvm_test_top.env.master_agent.drv [axi4_master_driver] Master driver received B response: ID=0x0 RESP=AXI4_RESP_OKAY
# UVM_INFO ../src/slv/axi4_slave_driver.sv(320) @ 455000: uvm_test_top.env.slave_agent.drv [axi4_slave_driver] Write complete: ID=0x0 RESP=AXI4_RESP_OKAY
# UVM_INFO ../src/slv/axi4_slave_monitor.sv(189) @ 455000: uvm_test_top.env.slave_agent.mon [axi4_slave_monitor] Write response sent: ID=0x0 ADDR=0x121a69ba RESP=AXI4_RESP_OKAY
# UVM_INFO ../src/env/axi4_scoreboard.sv(108) @ 455000: uvm_test_top.env.scb [axi4_scoreboard] Slave AXI4_WRITE received: ID=0x0 ADDR=0x121a69ba LEN=0
# UVM_INFO ../src/mst/axi4_master_monitor.sv(210) @ 455000: uvm_test_top.env.master_agent.mon [axi4_master_monitor] Write complete: ID=0x0 ADDR=0x121a69ba RESP=AXI4_RESP_OKAY
# UVM_INFO ../src/env/axi4_scoreboard.sv(87) @ 455000: uvm_test_top.env.scb [axi4_scoreboard] Master AXI4_WRITE received: ID=0x0 ADDR=0x121a69ba LEN=0
# UVM_INFO ../src/env/axi4_scoreboard.sv(291) @ 455000: uvm_test_top.env.scb [axi4_scoreboard] [WRITE] MATCH #5: ID=0x0 ADDR=0x121a69ba LEN=0
# UVM_INFO ../src/env/axi4_scoreboard.sv(219) @ 455000: uvm_test_top.env.scb [axi4_scoreboard] [REF_MEM_WRITE] Addr=0x121a69ba Data=0xad
# UVM_INFO ../src/slv/axi4_slave_driver.sv(212) @ 475000: uvm_test_top.env.slave_agent.drv [axi4_slave_driver] AW received: ID=0xf ADDR=0x91a4e412 LEN=0 LOCK=AXI4_LOCK_EXCLUSIVE
# UVM_INFO ../src/slv/axi4_slave_monitor.sv(116) @ 475000: uvm_test_top.env.slave_agent.mon [axi4_slave_monitor] AW received: ID=0xf ADDR=0x91a4e412 LEN=0
# UVM_INFO ../src/mst/axi4_master_monitor.sv(124) @ 475000: uvm_test_top.env.master_agent.mon [axi4_master_monitor] AW observed: ID=0xf ADDR=0x91a4e412 LEN=0
# UVM_INFO ../src/slv/axi4_slave_monitor.sv(167) @ 475000: uvm_test_top.env.slave_agent.mon [axi4_slave_monitor] W data assembled: ID=0xf ADDR=0x91a4e412 1 beats
# UVM_INFO ../src/mst/axi4_master_monitor.sv(184) @ 475000: uvm_test_top.env.master_agent.mon [axi4_master_monitor] W data assembled: ID=0xf ADDR=0x91a4e412 1 beats
# UVM_INFO ../src/mst/axi4_master_driver.sv(289) @ 495000: uvm_test_top.env.master_agent.drv [axi4_master_driver] Master driver received B response: ID=0xf RESP=AXI4_RESP_OKAY
# UVM_INFO ../src/slv/axi4_slave_driver.sv(320) @ 495000: uvm_test_top.env.slave_agent.drv [axi4_slave_driver] Write complete: ID=0xf RESP=AXI4_RESP_OKAY
# UVM_INFO ../src/slv/axi4_slave_monitor.sv(189) @ 495000: uvm_test_top.env.slave_agent.mon [axi4_slave_monitor] Write response sent: ID=0xf ADDR=0x91a4e412 RESP=AXI4_RESP_OKAY
# UVM_INFO ../src/env/axi4_scoreboard.sv(108) @ 495000: uvm_test_top.env.scb [axi4_scoreboard] Slave AXI4_WRITE received: ID=0xf ADDR=0x91a4e412 LEN=0
# UVM_INFO ../src/mst/axi4_master_monitor.sv(210) @ 495000: uvm_test_top.env.master_agent.mon [axi4_master_monitor] Write complete: ID=0xf ADDR=0x91a4e412 RESP=AXI4_RESP_OKAY
# UVM_INFO ../src/env/axi4_scoreboard.sv(87) @ 495000: uvm_test_top.env.scb [axi4_scoreboard] Master AXI4_WRITE received: ID=0xf ADDR=0x91a4e412 LEN=0
# UVM_INFO ../src/env/axi4_scoreboard.sv(291) @ 495000: uvm_test_top.env.scb [axi4_scoreboard] [WRITE] MATCH #6: ID=0xf ADDR=0x91a4e412 LEN=0
# UVM_INFO ../src/env/axi4_scoreboard.sv(226) @ 495000: uvm_test_top.env.scb [axi4_scoreboard] [REF_MEM_WRITE_IGNORED] Write ignored for ADDR=0x91a4e412 LOCK=AXI4_LOCK_EXCLUSIVE RESP=AXI4_RESP_OKAY
# UVM_INFO ../src/slv/axi4_slave_driver.sv(212) @ 505000: uvm_test_top.env.slave_agent.drv [axi4_slave_driver] AW received: ID=0x5 ADDR=0x7f11ef28 LEN=0 LOCK=AXI4_LOCK_EXCLUSIVE
# UVM_INFO ../src/mst/axi4_master_monitor.sv(124) @ 505000: uvm_test_top.env.master_agent.mon [axi4_master_monitor] AW observed: ID=0x5 ADDR=0x7f11ef28 LEN=0
# UVM_INFO ../src/slv/axi4_slave_monitor.sv(116) @ 505000: uvm_test_top.env.slave_agent.mon [axi4_slave_monitor] AW received: ID=0x5 ADDR=0x7f11ef28 LEN=0
# UVM_INFO ../src/mst/axi4_master_monitor.sv(184) @ 525000: uvm_test_top.env.master_agent.mon [axi4_master_monitor] W data assembled: ID=0x5 ADDR=0x7f11ef28 1 beats
# UVM_INFO ../src/slv/axi4_slave_monitor.sv(167) @ 525000: uvm_test_top.env.slave_agent.mon [axi4_slave_monitor] W data assembled: ID=0x5 ADDR=0x7f11ef28 1 beats
# UVM_INFO ../src/slv/axi4_slave_driver.sv(212) @ 535000: uvm_test_top.env.slave_agent.drv [axi4_slave_driver] AW received: ID=0xe ADDR=0x598c4a31 LEN=0 LOCK=AXI4_LOCK_NORMAL
# UVM_INFO ../src/slv/axi4_slave_monitor.sv(116) @ 535000: uvm_test_top.env.slave_agent.mon [axi4_slave_monitor] AW received: ID=0xe ADDR=0x598c4a31 LEN=0
# UVM_INFO ../src/mst/axi4_master_monitor.sv(124) @ 535000: uvm_test_top.env.master_agent.mon [axi4_master_monitor] AW observed: ID=0xe ADDR=0x598c4a31 LEN=0
# UVM_INFO ../src/mst/axi4_master_monitor.sv(184) @ 545000: uvm_test_top.env.master_agent.mon [axi4_master_monitor] W data assembled: ID=0xe ADDR=0x598c4a31 1 beats
# UVM_INFO ../src/slv/axi4_slave_monitor.sv(167) @ 545000: uvm_test_top.env.slave_agent.mon [axi4_slave_monitor] W data assembled: ID=0xe ADDR=0x598c4a31 1 beats
# UVM_INFO ../src/mst/axi4_master_driver.sv(289) @ 555000: uvm_test_top.env.master_agent.drv [axi4_master_driver] Master driver received B response: ID=0x5 RESP=AXI4_RESP_OKAY
# UVM_INFO ../src/slv/axi4_slave_driver.sv(320) @ 555000: uvm_test_top.env.slave_agent.drv [axi4_slave_driver] Write complete: ID=0x5 RESP=AXI4_RESP_OKAY
# UVM_INFO ../src/slv/axi4_slave_monitor.sv(189) @ 555000: uvm_test_top.env.slave_agent.mon [axi4_slave_monitor] Write response sent: ID=0x5 ADDR=0x7f11ef28 RESP=AXI4_RESP_OKAY
# UVM_INFO ../src/env/axi4_scoreboard.sv(108) @ 555000: uvm_test_top.env.scb [axi4_scoreboard] Slave AXI4_WRITE received: ID=0x5 ADDR=0x7f11ef28 LEN=0
# UVM_INFO ../src/mst/axi4_master_monitor.sv(210) @ 555000: uvm_test_top.env.master_agent.mon [axi4_master_monitor] Write complete: ID=0x5 ADDR=0x7f11ef28 RESP=AXI4_RESP_OKAY
# UVM_INFO ../src/env/axi4_scoreboard.sv(87) @ 555000: uvm_test_top.env.scb [axi4_scoreboard] Master AXI4_WRITE received: ID=0x5 ADDR=0x7f11ef28 LEN=0
# UVM_INFO ../src/env/axi4_scoreboard.sv(291) @ 555000: uvm_test_top.env.scb [axi4_scoreboard] [WRITE] MATCH #7: ID=0x5 ADDR=0x7f11ef28 LEN=0
# UVM_INFO ../src/env/axi4_scoreboard.sv(226) @ 555000: uvm_test_top.env.scb [axi4_scoreboard] [REF_MEM_WRITE_IGNORED] Write ignored for ADDR=0x7f11ef28 LOCK=AXI4_LOCK_EXCLUSIVE RESP=AXI4_RESP_OKAY
# UVM_INFO ../src/mst/axi4_master_driver.sv(289) @ 575000: uvm_test_top.env.master_agent.drv [axi4_master_driver] Master driver received B response: ID=0xe RESP=AXI4_RESP_OKAY
# UVM_INFO ../src/slv/axi4_slave_driver.sv(320) @ 575000: uvm_test_top.env.slave_agent.drv [axi4_slave_driver] Write complete: ID=0xe RESP=AXI4_RESP_OKAY
# UVM_INFO ../src/slv/axi4_slave_monitor.sv(189) @ 575000: uvm_test_top.env.slave_agent.mon [axi4_slave_monitor] Write response sent: ID=0xe ADDR=0x598c4a31 RESP=AXI4_RESP_OKAY
# UVM_INFO ../src/env/axi4_scoreboard.sv(108) @ 575000: uvm_test_top.env.scb [axi4_scoreboard] Slave AXI4_WRITE received: ID=0xe ADDR=0x598c4a31 LEN=0
# UVM_INFO ../src/mst/axi4_master_monitor.sv(210) @ 575000: uvm_test_top.env.master_agent.mon [axi4_master_monitor] Write complete: ID=0xe ADDR=0x598c4a31 RESP=AXI4_RESP_OKAY
# UVM_INFO ../src/env/axi4_scoreboard.sv(87) @ 575000: uvm_test_top.env.scb [axi4_scoreboard] Master AXI4_WRITE received: ID=0xe ADDR=0x598c4a31 LEN=0
# UVM_INFO ../src/env/axi4_scoreboard.sv(291) @ 575000: uvm_test_top.env.scb [axi4_scoreboard] [WRITE] MATCH #8: ID=0xe ADDR=0x598c4a31 LEN=0
# UVM_INFO ../src/env/axi4_scoreboard.sv(219) @ 575000: uvm_test_top.env.scb [axi4_scoreboard] [REF_MEM_WRITE] Addr=0x598c4a32 Data=0x09
# UVM_INFO ../src/env/axi4_scoreboard.sv(219) @ 575000: uvm_test_top.env.scb [axi4_scoreboard] [REF_MEM_WRITE] Addr=0x598c4a33 Data=0x84
# UVM_INFO ../src/test/axi4_strobe_test.sv(32) @ 1095000: uvm_test_top [axi4_strobe_test] Write strobe patterns test complete
# UVM_INFO verilog_src/uvm-1.1d/src/base/uvm_objection.svh(1268) @ 1095000: reporter [TEST_DONE] 'run' phase is ready to proceed to the 'extract' phase
# UVM_INFO ../src/env/axi4_scoreboard.sv(360) @ 1095000: uvm_test_top.env.scb [axi4_scoreboard] 
# ========================================
#          SCOREBOARD SUMMARY
# ========================================
#   Master transactions : 8
#   Slave transactions  : 8
#   Matches             : 8
#   Mismatches          : 0
#   Unmatched master WR : 0
#   Unmatched master RD : 0
#   Unmatched slave  WR : 0
#   Unmatched slave  RD : 0
# ========================================
#   RESULT : PASS
# ========================================
# UVM_INFO ../src/test/axi4_base_test.sv(91) @ 1095000: uvm_test_top [axi4_strobe_test] 
# === TEST PASSED ===
# 
# 
# --- UVM Report Summary ---
# 
# ** Report counts by severity
# UVM_INFO :  161
# UVM_WARNING :    0
# UVM_ERROR :    0
# UVM_FATAL :    0
# ** Report counts by id
# [Questa UVM]     3
# [RNTST]     1
# [TB_TOP]     2
# [TEST_DONE]     1
# [TOP_TB]     1
# [UVMTOP]     1
# [axi4_master_agent]     1
# [axi4_master_driver]    17
# [axi4_master_monitor]    25
# [axi4_scoreboard]    48
# [axi4_slave_agent]     1
# [axi4_slave_driver]    17
# [axi4_slave_monitor]    25
# [axi4_strobe_pattern_seq]    10
# [axi4_strobe_test]     3
# [axi4_vip_env]     5
# ** Note: $finish    : /cadtools/mentor/Questa_10.6b/questasim/linux_x86_64/../verilog_src/uvm-1.1d/src/base/uvm_root.svh(430)
#    Time: 1095 ns  Iteration: 55  Instance: /tb_top
# Saving coverage database on exit...
# End time: 13:06:09 on Jun 11,2026, Elapsed time: 0:00:42
# Errors: 0, Warnings: 0
