# vsim -c -coverage -sv_seed 87294936 "+UVM_TESTNAME=axi4_cache_prot_test" "+UVM_VERBOSITY=UVM_HIGH" "+DUMP_VCD" -l ./report/logs/axi4_cache_prot_test_run_2_seed_87294936.log -do "coverage save -onexit ./report/coverage/axi4_cache_prot_test_run_2_seed_87294936.ucdb; run -all; quit -f" opt_tb_top 
# Start time: 13:03:40 on Jun 11,2026
# //  Questa Sim-64
# //  Version 10.6b linux_x86_64 May 25 2017
# //
# //  Copyright 1991-2017 Mentor Graphics Corporation
# //  All Rights Reserved.
# //
# //  QuestaSim and its associated documentation contain trade
# //  secrets and commercial or financial information that are the property of
# //  Mentor Graphics Corporation and are privileged, confidential,
# //  and exempt from disclosure under the Freedom of Information Act,
# //  5 U.S.C. Section 552. Furthermore, this information
# //  is prohibited from disclosure under the Trade Secrets Act,
# //  18 U.S.C. Section 1905.
# //
# Loading sv_std.std
# Loading work.axi4_if(fast)
# Loading mtiUvm.uvm_pkg
# Loading work.axi4_pkg(fast)
# Loading work.axi4_test_pkg(fast)
# Loading work.tb_top(fast)
# Loading work.axi4_if(fast)
# Loading work.axi4_sva(fast)
# Loading mtiUvm.questa_uvm_pkg(fast)
# Loading /cadtools/mentor/Questa_10.6b/questasim/uvm-1.1d/linux_x86_64/uvm_dpi.so
# coverage save -onexit ./report/coverage/axi4_cache_prot_test_run_2_seed_87294936.ucdb
#  run -all
# ----------------------------------------------------------------
# UVM-1.1d
# (C) 2007-2013 Mentor Graphics Corporation
# (C) 2007-2013 Cadence Design Systems, Inc.
# (C) 2006-2013 Synopsys, Inc.
# (C) 2011-2013 Cypress Semiconductor Corp.
# ----------------------------------------------------------------
# 
#   ***********       IMPORTANT RELEASE NOTES         ************
# 
#   You are using a version of the UVM library that has been compiled
#   with `UVM_NO_DEPRECATED undefined.
#   See http://www.eda.org/svdb/view.php?id=3313 for more details.
# 
#   You are using a version of the UVM library that has been compiled
#   with `UVM_OBJECT_MUST_HAVE_CONSTRUCTOR undefined.
#   See http://www.eda.org/svdb/view.php?id=3770 for more details.
# 
#       (Specify +UVM_NO_RELNOTES to turn off this notice)
# 
# UVM_INFO verilog_src/questa_uvm_pkg-1.2/src/questa_uvm_pkg.sv(215) @ 0: reporter [Questa UVM] QUESTA_UVM-1.2.3
# UVM_INFO verilog_src/questa_uvm_pkg-1.2/src/questa_uvm_pkg.sv(217) @ 0: reporter [Questa UVM]  questa_uvm::init(+struct)
# UVM_INFO ../src/tb_top.sv(128) @ 0: reporter [TB_TOP] Virtual interface set in config_db
# UVM_INFO @ 0: reporter [RNTST] Running test axi4_cache_prot_test...
# UVM_INFO ../src/tb_top.sv(142) @ 0: reporter [TB_TOP] Waveform VCD dumping enabled (axi4_vip.vcd)
# UVM_INFO ../src/env/axi4_vip_env.sv(83) @ 0: uvm_test_top.env [axi4_vip_env] slave_vif not set - reusing master_vif (passthrough mode)
# UVM_INFO ../src/env/axi4_vip_env.sv(93) @ 0: uvm_test_top.env [axi4_vip_env] Scoreboard created
# UVM_INFO ../src/env/axi4_vip_env.sv(100) @ 0: uvm_test_top.env [axi4_vip_env] Coverage collectors created
# UVM_INFO ../src/mst/axi4_master_agent.sv(69) @ 0: uvm_test_top.env.master_agent [axi4_master_agent] ACTIVE mode - driver + sequencer created
# UVM_INFO ../src/slv/axi4_slave_agent.sv(82) @ 0: uvm_test_top.env.slave_agent [axi4_slave_agent] ACTIVE mode — ready_delay=[0:0] resp_delay=[0:0]
# UVM_INFO ../src/env/axi4_vip_env.sv(116) @ 0: uvm_test_top.env [axi4_vip_env] Scoreboard connected: master_mon.ap -> scb, slave_mon.ap -> scb
# UVM_INFO ../src/env/axi4_vip_env.sv(124) @ 0: uvm_test_top.env [axi4_vip_env] Coverage connected: master_mon.ap -> master_cov, slave_mon.ap -> slave_cov
# UVM_INFO @ 0: reporter [UVMTOP] UVM testbench topology:
# ---------------------------------------------------------------
# Name                       Type                     Size  Value
# ---------------------------------------------------------------
# uvm_test_top               axi4_cache_prot_test     -     @473 
#   env                      axi4_vip_env             -     @488 
#     master_agent           axi4_master_agent        -     @503 
#       drv                  axi4_master_driver       -     @567 
#         rsp_port           uvm_analysis_port        -     @582 
#         seq_item_port      uvm_seq_item_pull_port   -     @574 
#       mon                  axi4_master_monitor      -     @559 
#         ap                 uvm_analysis_port        -     @700 
#       sqr                  axi4_master_sequencer    -     @590 
#         rsp_export         uvm_analysis_export      -     @597 
#         seq_item_export    uvm_seq_item_pull_imp    -     @691 
#         arbitration_queue  array                    0     -    
#         lock_queue         array                    0     -    
#         num_last_reqs      integral                 32    'd1  
#         num_last_rsps      integral                 32    'd1  
#     master_cov             axi4_coverage            -     @524 
#       analysis_imp         uvm_analysis_imp         -     @531 
#     scb                    axi4_scoreboard          -     @517 
#       master_export        uvm_analysis_imp_master  -     @714 
#       slave_export         uvm_analysis_imp_slave   -     @722 
#     slave_agent            axi4_slave_agent         -     @510 
#       drv                  axi4_slave_driver        -     @753 
#         rsp_port           uvm_analysis_port        -     @768 
#         seq_item_port      uvm_seq_item_pull_port   -     @760 
#       mon                  axi4_slave_monitor       -     @735 
#         ap                 uvm_analysis_port        -     @892 
#       sqr                  axi4_slave_sequencer     -     @776 
#         rsp_export         uvm_analysis_export      -     @783 
#         seq_item_export    uvm_seq_item_pull_imp    -     @877 
#         arbitration_queue  array                    0     -    
#         lock_queue         array                    0     -    
#         num_last_reqs      integral                 32    'd1  
#         num_last_rsps      integral                 32    'd1  
#     slave_cov              axi4_coverage            -     @539 
#       analysis_imp         uvm_analysis_imp         -     @546 
# ---------------------------------------------------------------
# 
# UVM_INFO verilog_src/questa_uvm_pkg-1.2/src/questa_uvm_pkg.sv(277) @ 0: reporter [Questa UVM] End Of Elaboration
# UVM_INFO ../src/test/axi4_cache_prot_test.sv(24) @ 0: uvm_test_top [axi4_cache_prot_test] Starting cache and protection attributes sweep test
# UVM_INFO ../src/seq/axi4_cache_prot_seq.sv(22) @ 0: uvm_test_top.env.master_agent.sqr@@cp_seq [axi4_cache_prot_seq] Starting cache and prot attribute sweep sequence
# UVM_INFO ../src/tb_top.sv(49) @ 95000: reporter [TOP_TB] Reset de-asserted
# UVM_INFO ../src/slv/axi4_slave_driver.sv(122) @ 95000: uvm_test_top.env.slave_agent.drv [axi4_slave_driver] Reset deasserted - slave driver active
# UVM_INFO ../src/mst/axi4_master_driver.sv(64) @ 95000: uvm_test_top.env.master_agent.drv [axi4_master_driver] Reset deasserted - master driver active
# UVM_INFO ../src/mst/axi4_master_monitor.sv(77) @ 95000: uvm_test_top.env.master_agent.mon [axi4_master_monitor] Reset deasserted - monitor active
# UVM_INFO ../src/slv/axi4_slave_monitor.sv(71) @ 95000: uvm_test_top.env.slave_agent.mon [axi4_slave_monitor] Reset deasserted - monitor active
# UVM_INFO ../src/mst/axi4_master_driver.sv(73) @ 95000: uvm_test_top.env.master_agent.drv [axi4_master_driver] Driving AXI4_WRITE  ID=0xe  ADDR=0x2d111fbf  LEN=3
# UVM_INFO ../src/mst/axi4_master_driver.sv(73) @ 95000: uvm_test_top.env.master_agent.drv [axi4_master_driver] Driving AXI4_READ  ID=0xc  ADDR=0x7c798c7c  LEN=13
# UVM_INFO ../src/seq/axi4_cache_prot_seq.sv(57) @ 95000: uvm_test_top.env.master_agent.sqr@@cp_seq [axi4_cache_prot_seq] [1/16] Swept CACHE=0b0000 PROT=0b000 (Write & Read)
# UVM_INFO ../src/mst/axi4_master_driver.sv(73) @ 95000: uvm_test_top.env.master_agent.drv [axi4_master_driver] Driving AXI4_WRITE  ID=0x0  ADDR=0xb915be26  LEN=15
# UVM_INFO ../src/mst/axi4_master_driver.sv(73) @ 95000: uvm_test_top.env.master_agent.drv [axi4_master_driver] Driving AXI4_READ  ID=0x4  ADDR=0x8ce45319  LEN=15
# UVM_INFO ../src/seq/axi4_cache_prot_seq.sv(57) @ 95000: uvm_test_top.env.master_agent.sqr@@cp_seq [axi4_cache_prot_seq] [2/16] Swept CACHE=0b0001 PROT=0b001 (Write & Read)
# UVM_INFO ../src/mst/axi4_master_driver.sv(73) @ 95000: uvm_test_top.env.master_agent.drv [axi4_master_driver] Driving AXI4_WRITE  ID=0xf  ADDR=0x95cd08bf  LEN=226
# UVM_INFO ../src/mst/axi4_master_driver.sv(73) @ 95000: uvm_test_top.env.master_agent.drv [axi4_master_driver] Driving AXI4_READ  ID=0xc  ADDR=0xb610cb56  LEN=199
# UVM_INFO ../src/seq/axi4_cache_prot_seq.sv(57) @ 95000: uvm_test_top.env.master_agent.sqr@@cp_seq [axi4_cache_prot_seq] [3/16] Swept CACHE=0b0010 PROT=0b010 (Write & Read)
# UVM_INFO ../src/mst/axi4_master_driver.sv(73) @ 95000: uvm_test_top.env.master_agent.drv [axi4_master_driver] Driving AXI4_WRITE  ID=0x4  ADDR=0x58517b4d  LEN=87
# UVM_INFO ../src/mst/axi4_master_driver.sv(73) @ 95000: uvm_test_top.env.master_agent.drv [axi4_master_driver] Driving AXI4_READ  ID=0xa  ADDR=0xa79fdeb1  LEN=118
# UVM_INFO ../src/seq/axi4_cache_prot_seq.sv(57) @ 95000: uvm_test_top.env.master_agent.sqr@@cp_seq [axi4_cache_prot_seq] [4/16] Swept CACHE=0b0011 PROT=0b011 (Write & Read)
# UVM_INFO ../src/mst/axi4_master_driver.sv(73) @ 95000: uvm_test_top.env.master_agent.drv [axi4_master_driver] Driving AXI4_WRITE  ID=0x2  ADDR=0x17986ced  LEN=92
# UVM_INFO ../src/mst/axi4_master_driver.sv(73) @ 95000: uvm_test_top.env.master_agent.drv [axi4_master_driver] Driving AXI4_READ  ID=0x2  ADDR=0x4a77f0cc  LEN=99
# UVM_INFO ../src/seq/axi4_cache_prot_seq.sv(57) @ 95000: uvm_test_top.env.master_agent.sqr@@cp_seq [axi4_cache_prot_seq] [5/16] Swept CACHE=0b0100 PROT=0b100 (Write & Read)
# UVM_INFO ../src/mst/axi4_master_driver.sv(73) @ 95000: uvm_test_top.env.master_agent.drv [axi4_master_driver] Driving AXI4_WRITE  ID=0xa  ADDR=0x49bc3942  LEN=167
# UVM_INFO ../src/mst/axi4_master_driver.sv(73) @ 95000: uvm_test_top.env.master_agent.drv [axi4_master_driver] Driving AXI4_READ  ID=0x9  ADDR=0x58b850bd  LEN=250
# UVM_INFO ../src/seq/axi4_cache_prot_seq.sv(57) @ 95000: uvm_test_top.env.master_agent.sqr@@cp_seq [axi4_cache_prot_seq] [6/16] Swept CACHE=0b0101 PROT=0b101 (Write & Read)
# UVM_INFO ../src/mst/axi4_master_driver.sv(73) @ 95000: uvm_test_top.env.master_agent.drv [axi4_master_driver] Driving AXI4_WRITE  ID=0xd  ADDR=0xad1ad865  LEN=20
# UVM_INFO ../src/mst/axi4_master_driver.sv(73) @ 95000: uvm_test_top.env.master_agent.drv [axi4_master_driver] Driving AXI4_READ  ID=0xa  ADDR=0x9df547c4  LEN=56
# UVM_INFO ../src/seq/axi4_cache_prot_seq.sv(57) @ 95000: uvm_test_top.env.master_agent.sqr@@cp_seq [axi4_cache_prot_seq] [7/16] Swept CACHE=0b0110 PROT=0b110 (Write & Read)
# UVM_INFO ../src/mst/axi4_master_driver.sv(73) @ 95000: uvm_test_top.env.master_agent.drv [axi4_master_driver] Driving AXI4_WRITE  ID=0x5  ADDR=0x0f88ccab  LEN=112
# UVM_INFO ../src/mst/axi4_master_driver.sv(73) @ 95000: uvm_test_top.env.master_agent.drv [axi4_master_driver] Driving AXI4_READ  ID=0x7  ADDR=0x590921b1  LEN=116
# UVM_INFO ../src/seq/axi4_cache_prot_seq.sv(57) @ 95000: uvm_test_top.env.master_agent.sqr@@cp_seq [axi4_cache_prot_seq] [8/16] Swept CACHE=0b0111 PROT=0b111 (Write & Read)
# UVM_INFO ../src/mst/axi4_master_driver.sv(73) @ 95000: uvm_test_top.env.master_agent.drv [axi4_master_driver] Driving AXI4_WRITE  ID=0x3  ADDR=0xb594224e  LEN=138
# UVM_INFO ../src/mst/axi4_master_driver.sv(73) @ 95000: uvm_test_top.env.master_agent.drv [axi4_master_driver] Driving AXI4_READ  ID=0x5  ADDR=0xddc410ee  LEN=2
# UVM_INFO ../src/seq/axi4_cache_prot_seq.sv(57) @ 95000: uvm_test_top.env.master_agent.sqr@@cp_seq [axi4_cache_prot_seq] [9/16] Swept CACHE=0b1000 PROT=0b000 (Write & Read)
# UVM_INFO ../src/mst/axi4_master_driver.sv(73) @ 95000: uvm_test_top.env.master_agent.drv [axi4_master_driver] Driving AXI4_WRITE  ID=0x1  ADDR=0x6f5dc037  LEN=174
# UVM_INFO ../src/mst/axi4_master_driver.sv(73) @ 95000: uvm_test_top.env.master_agent.drv [axi4_master_driver] Driving AXI4_READ  ID=0x5  ADDR=0xbbca6fc2  LEN=57
# UVM_INFO ../src/seq/axi4_cache_prot_seq.sv(57) @ 95000: uvm_test_top.env.master_agent.sqr@@cp_seq [axi4_cache_prot_seq] [10/16] Swept CACHE=0b1001 PROT=0b001 (Write & Read)
# UVM_INFO ../src/mst/axi4_master_driver.sv(73) @ 95000: uvm_test_top.env.master_agent.drv [axi4_master_driver] Driving AXI4_WRITE  ID=0xd  ADDR=0x8f8dcd2c  LEN=15
# UVM_INFO ../src/mst/axi4_master_driver.sv(73) @ 95000: uvm_test_top.env.master_agent.drv [axi4_master_driver] Driving AXI4_READ  ID=0xf  ADDR=0x288af013  LEN=32
# UVM_INFO ../src/seq/axi4_cache_prot_seq.sv(57) @ 95000: uvm_test_top.env.master_agent.sqr@@cp_seq [axi4_cache_prot_seq] [11/16] Swept CACHE=0b1010 PROT=0b010 (Write & Read)
# UVM_INFO ../src/mst/axi4_master_driver.sv(73) @ 95000: uvm_test_top.env.master_agent.drv [axi4_master_driver] Driving AXI4_WRITE  ID=0x4  ADDR=0xa428edd6  LEN=192
# UVM_INFO ../src/mst/axi4_master_driver.sv(73) @ 95000: uvm_test_top.env.master_agent.drv [axi4_master_driver] Driving AXI4_READ  ID=0x2  ADDR=0xc7fb6ade  LEN=107
# UVM_INFO ../src/seq/axi4_cache_prot_seq.sv(57) @ 95000: uvm_test_top.env.master_agent.sqr@@cp_seq [axi4_cache_prot_seq] [12/16] Swept CACHE=0b1011 PROT=0b011 (Write & Read)
# UVM_INFO ../src/mst/axi4_master_driver.sv(73) @ 95000: uvm_test_top.env.master_agent.drv [axi4_master_driver] Driving AXI4_WRITE  ID=0x3  ADDR=0x044d6f56  LEN=15
# UVM_INFO ../src/mst/axi4_master_driver.sv(73) @ 95000: uvm_test_top.env.master_agent.drv [axi4_master_driver] Driving AXI4_READ  ID=0x7  ADDR=0x9dc41b78  LEN=227
# UVM_INFO ../src/seq/axi4_cache_prot_seq.sv(57) @ 95000: uvm_test_top.env.master_agent.sqr@@cp_seq [axi4_cache_prot_seq] [13/16] Swept CACHE=0b1100 PROT=0b100 (Write & Read)
# UVM_INFO ../src/mst/axi4_master_driver.sv(73) @ 95000: uvm_test_top.env.master_agent.drv [axi4_master_driver] Driving AXI4_WRITE  ID=0x8  ADDR=0x93075ce4  LEN=125
# UVM_INFO ../src/mst/axi4_master_driver.sv(73) @ 95000: uvm_test_top.env.master_agent.drv [axi4_master_driver] Driving AXI4_READ  ID=0x4  ADDR=0x19db2658  LEN=7
# UVM_INFO ../src/seq/axi4_cache_prot_seq.sv(57) @ 95000: uvm_test_top.env.master_agent.sqr@@cp_seq [axi4_cache_prot_seq] [14/16] Swept CACHE=0b1101 PROT=0b101 (Write & Read)
# UVM_INFO ../src/mst/axi4_master_driver.sv(73) @ 95000: uvm_test_top.env.master_agent.drv [axi4_master_driver] Driving AXI4_WRITE  ID=0xd  ADDR=0x8528dfb5  LEN=110
# UVM_INFO ../src/mst/axi4_master_driver.sv(73) @ 95000: uvm_test_top.env.master_agent.drv [axi4_master_driver] Driving AXI4_READ  ID=0x1  ADDR=0x545ef31d  LEN=15
# UVM_INFO ../src/seq/axi4_cache_prot_seq.sv(57) @ 95000: uvm_test_top.env.master_agent.sqr@@cp_seq [axi4_cache_prot_seq] [15/16] Swept CACHE=0b1110 PROT=0b110 (Write & Read)
# UVM_INFO ../src/mst/axi4_master_driver.sv(73) @ 95000: uvm_test_top.env.master_agent.drv [axi4_master_driver] Driving AXI4_WRITE  ID=0xe  ADDR=0x95f1ff65  LEN=8
# UVM_INFO ../src/mst/axi4_master_driver.sv(73) @ 95000: uvm_test_top.env.master_agent.drv [axi4_master_driver] Driving AXI4_READ  ID=0xf  ADDR=0xdc146c57  LEN=196
# UVM_INFO ../src/seq/axi4_cache_prot_seq.sv(57) @ 95000: uvm_test_top.env.master_agent.sqr@@cp_seq [axi4_cache_prot_seq] [16/16] Swept CACHE=0b1111 PROT=0b111 (Write & Read)
# UVM_INFO ../src/seq/axi4_cache_prot_seq.sv(60) @ 95000: uvm_test_top.env.master_agent.sqr@@cp_seq [axi4_cache_prot_seq] Cache and prot attribute sweep sequence complete
# UVM_INFO ../src/slv/axi4_slave_driver.sv(358) @ 115000: uvm_test_top.env.slave_agent.drv [axi4_slave_driver] AR received: ID=0xc ADDR=0x7c798c7c LEN=13 LOCK=AXI4_LOCK_NORMAL
# UVM_INFO ../src/slv/axi4_slave_monitor.sv(224) @ 115000: uvm_test_top.env.slave_agent.mon [axi4_slave_monitor] AR received: ID=0xc ADDR=0x7c798c7c LEN=13
# UVM_INFO ../src/mst/axi4_master_monitor.sv(246) @ 115000: uvm_test_top.env.master_agent.mon [axi4_master_monitor] AR observed: ID=0xc ADDR=0x7c798c7c LEN=13
# UVM_INFO ../src/slv/axi4_slave_driver.sv(358) @ 145000: uvm_test_top.env.slave_agent.drv [axi4_slave_driver] AR received: ID=0x4 ADDR=0x8ce45319 LEN=15 LOCK=AXI4_LOCK_EXCLUSIVE
# UVM_INFO ../src/mst/axi4_master_monitor.sv(246) @ 145000: uvm_test_top.env.master_agent.mon [axi4_master_monitor] AR observed: ID=0x4 ADDR=0x8ce45319 LEN=15
# UVM_INFO ../src/slv/axi4_slave_monitor.sv(224) @ 145000: uvm_test_top.env.slave_agent.mon [axi4_slave_monitor] AR received: ID=0x4 ADDR=0x8ce45319 LEN=15
# UVM_INFO ../src/slv/axi4_slave_driver.sv(212) @ 155000: uvm_test_top.env.slave_agent.drv [axi4_slave_driver] AW received: ID=0xe ADDR=0x2d111fbf LEN=3 LOCK=AXI4_LOCK_NORMAL
# UVM_INFO ../src/slv/axi4_slave_monitor.sv(116) @ 155000: uvm_test_top.env.slave_agent.mon [axi4_slave_monitor] AW received: ID=0xe ADDR=0x2d111fbf LEN=3
# UVM_INFO ../src/mst/axi4_master_monitor.sv(124) @ 155000: uvm_test_top.env.master_agent.mon [axi4_master_monitor] AW observed: ID=0xe ADDR=0x2d111fbf LEN=3
# UVM_INFO ../src/mst/axi4_master_monitor.sv(184) @ 165000: uvm_test_top.env.master_agent.mon [axi4_master_monitor] W data assembled: ID=0xe ADDR=0x2d111fbf 4 beats
# UVM_INFO ../src/slv/axi4_slave_monitor.sv(167) @ 165000: uvm_test_top.env.slave_agent.mon [axi4_slave_monitor] W data assembled: ID=0xe ADDR=0x2d111fbf 4 beats
# UVM_INFO ../src/slv/axi4_slave_driver.sv(358) @ 175000: uvm_test_top.env.slave_agent.drv [axi4_slave_driver] AR received: ID=0xc ADDR=0xb610cb56 LEN=199 LOCK=AXI4_LOCK_EXCLUSIVE
# UVM_INFO ../src/slv/axi4_slave_monitor.sv(224) @ 175000: uvm_test_top.env.slave_agent.mon [axi4_slave_monitor] AR received: ID=0xc ADDR=0xb610cb56 LEN=199
# UVM_INFO ../src/mst/axi4_master_monitor.sv(246) @ 175000: uvm_test_top.env.master_agent.mon [axi4_master_monitor] AR observed: ID=0xc ADDR=0xb610cb56 LEN=199
# UVM_INFO ../src/slv/axi4_slave_driver.sv(212) @ 185000: uvm_test_top.env.slave_agent.drv [axi4_slave_driver] AW received: ID=0x0 ADDR=0xb915be26 LEN=15 LOCK=AXI4_LOCK_EXCLUSIVE
# UVM_INFO ../src/mst/axi4_master_monitor.sv(124) @ 185000: uvm_test_top.env.master_agent.mon [axi4_master_monitor] AW observed: ID=0x0 ADDR=0xb915be26 LEN=15
# UVM_INFO ../src/slv/axi4_slave_monitor.sv(116) @ 185000: uvm_test_top.env.slave_agent.mon [axi4_slave_monitor] AW received: ID=0x0 ADDR=0xb915be26 LEN=15
# UVM_INFO ../src/mst/axi4_master_driver.sv(289) @ 195000: uvm_test_top.env.master_agent.drv [axi4_master_driver] Master driver received B response: ID=0xe RESP=AXI4_RESP_OKAY
# UVM_INFO ../src/slv/axi4_slave_driver.sv(320) @ 195000: uvm_test_top.env.slave_agent.drv [axi4_slave_driver] Write complete: ID=0xe RESP=AXI4_RESP_OKAY
# UVM_INFO ../src/slv/axi4_slave_monitor.sv(189) @ 195000: uvm_test_top.env.slave_agent.mon [axi4_slave_monitor] Write response sent: ID=0xe ADDR=0x2d111fbf RESP=AXI4_RESP_OKAY
# UVM_INFO ../src/env/axi4_scoreboard.sv(108) @ 195000: uvm_test_top.env.scb [axi4_scoreboard] Slave AXI4_WRITE received: ID=0xe ADDR=0x2d111fbf LEN=3
# UVM_INFO ../src/mst/axi4_master_monitor.sv(210) @ 195000: uvm_test_top.env.master_agent.mon [axi4_master_monitor] Write complete: ID=0xe ADDR=0x2d111fbf RESP=AXI4_RESP_OKAY
# UVM_INFO ../src/env/axi4_scoreboard.sv(87) @ 195000: uvm_test_top.env.scb [axi4_scoreboard] Master AXI4_WRITE received: ID=0xe ADDR=0x2d111fbf LEN=3
# UVM_INFO ../src/env/axi4_scoreboard.sv(291) @ 195000: uvm_test_top.env.scb [axi4_scoreboard] [WRITE] MATCH #1: ID=0xe ADDR=0x2d111fbf LEN=3
# UVM_INFO ../src/env/axi4_scoreboard.sv(219) @ 195000: uvm_test_top.env.scb [axi4_scoreboard] [REF_MEM_WRITE] Addr=0x2d111fbc Data=0xc7
# UVM_INFO ../src/env/axi4_scoreboard.sv(219) @ 195000: uvm_test_top.env.scb [axi4_scoreboard] [REF_MEM_WRITE] Addr=0x2d111fbe Data=0xd0
# UVM_INFO ../src/env/axi4_scoreboard.sv(219) @ 195000: uvm_test_top.env.scb [axi4_scoreboard] [REF_MEM_WRITE] Addr=0x2d111fbf Data=0x6e
# UVM_INFO ../src/env/axi4_scoreboard.sv(219) @ 195000: uvm_test_top.env.scb [axi4_scoreboard] [REF_MEM_WRITE] Addr=0x2d111fbe Data=0x84
# UVM_INFO ../src/env/axi4_scoreboard.sv(219) @ 195000: uvm_test_top.env.scb [axi4_scoreboard] [REF_MEM_WRITE] Addr=0x2d111fbf Data=0x7c
# UVM_INFO ../src/slv/axi4_slave_driver.sv(358) @ 205000: uvm_test_top.env.slave_agent.drv [axi4_slave_driver] AR received: ID=0xa ADDR=0xa79fdeb1 LEN=118 LOCK=AXI4_LOCK_NORMAL
# UVM_INFO ../src/mst/axi4_master_monitor.sv(246) @ 205000: uvm_test_top.env.master_agent.mon [axi4_master_monitor] AR observed: ID=0xa ADDR=0xa79fdeb1 LEN=118
# UVM_INFO ../src/slv/axi4_slave_monitor.sv(224) @ 205000: uvm_test_top.env.slave_agent.mon [axi4_slave_monitor] AR received: ID=0xa ADDR=0xa79fdeb1 LEN=118
# UVM_INFO ../src/slv/axi4_slave_driver.sv(358) @ 235000: uvm_test_top.env.slave_agent.drv [axi4_slave_driver] AR received: ID=0x2 ADDR=0x4a77f0cc LEN=99 LOCK=AXI4_LOCK_EXCLUSIVE
# UVM_INFO ../src/slv/axi4_slave_monitor.sv(224) @ 235000: uvm_test_top.env.slave_agent.mon [axi4_slave_monitor] AR received: ID=0x2 ADDR=0x4a77f0cc LEN=99
# UVM_INFO ../src/mst/axi4_master_monitor.sv(246) @ 235000: uvm_test_top.env.master_agent.mon [axi4_master_monitor] AR observed: ID=0x2 ADDR=0x4a77f0cc LEN=99
# UVM_INFO ../src/slv/axi4_slave_driver.sv(358) @ 265000: uvm_test_top.env.slave_agent.drv [axi4_slave_driver] AR received: ID=0x9 ADDR=0x58b850bd LEN=250 LOCK=AXI4_LOCK_NORMAL
# UVM_INFO ../src/mst/axi4_master_monitor.sv(246) @ 265000: uvm_test_top.env.master_agent.mon [axi4_master_monitor] AR observed: ID=0x9 ADDR=0x58b850bd LEN=250
# UVM_INFO ../src/slv/axi4_slave_monitor.sv(224) @ 265000: uvm_test_top.env.slave_agent.mon [axi4_slave_monitor] AR received: ID=0x9 ADDR=0x58b850bd LEN=250
# UVM_INFO ../src/slv/axi4_slave_driver.sv(358) @ 295000: uvm_test_top.env.slave_agent.drv [axi4_slave_driver] AR received: ID=0xa ADDR=0x9df547c4 LEN=56 LOCK=AXI4_LOCK_EXCLUSIVE
# UVM_INFO ../src/slv/axi4_slave_monitor.sv(224) @ 295000: uvm_test_top.env.slave_agent.mon [axi4_slave_monitor] AR received: ID=0xa ADDR=0x9df547c4 LEN=56
# UVM_INFO ../src/mst/axi4_master_monitor.sv(246) @ 295000: uvm_test_top.env.master_agent.mon [axi4_master_monitor] AR observed: ID=0xa ADDR=0x9df547c4 LEN=56
# UVM_INFO ../src/slv/axi4_slave_driver.sv(358) @ 325000: uvm_test_top.env.slave_agent.drv [axi4_slave_driver] AR received: ID=0x7 ADDR=0x590921b1 LEN=116 LOCK=AXI4_LOCK_EXCLUSIVE
# UVM_INFO ../src/mst/axi4_master_monitor.sv(246) @ 325000: uvm_test_top.env.master_agent.mon [axi4_master_monitor] AR observed: ID=0x7 ADDR=0x590921b1 LEN=116
# UVM_INFO ../src/slv/axi4_slave_monitor.sv(224) @ 325000: uvm_test_top.env.slave_agent.mon [axi4_slave_monitor] AR received: ID=0x7 ADDR=0x590921b1 LEN=116
# UVM_INFO ../src/slv/axi4_slave_driver.sv(358) @ 355000: uvm_test_top.env.slave_agent.drv [axi4_slave_driver] AR received: ID=0x5 ADDR=0xddc410ee LEN=2 LOCK=AXI4_LOCK_NORMAL
# UVM_INFO ../src/slv/axi4_slave_monitor.sv(224) @ 355000: uvm_test_top.env.slave_agent.mon [axi4_slave_monitor] AR received: ID=0x5 ADDR=0xddc410ee LEN=2
# UVM_INFO ../src/mst/axi4_master_monitor.sv(246) @ 355000: uvm_test_top.env.master_agent.mon [axi4_master_monitor] AR observed: ID=0x5 ADDR=0xddc410ee LEN=2
# UVM_INFO ../src/slv/axi4_slave_driver.sv(358) @ 385000: uvm_test_top.env.slave_agent.drv [axi4_slave_driver] AR received: ID=0x5 ADDR=0xbbca6fc2 LEN=57 LOCK=AXI4_LOCK_EXCLUSIVE
# UVM_INFO ../src/mst/axi4_master_monitor.sv(246) @ 385000: uvm_test_top.env.master_agent.mon [axi4_master_monitor] AR observed: ID=0x5 ADDR=0xbbca6fc2 LEN=57
# UVM_INFO ../src/slv/axi4_slave_monitor.sv(224) @ 385000: uvm_test_top.env.slave_agent.mon [axi4_slave_monitor] AR received: ID=0x5 ADDR=0xbbca6fc2 LEN=57
# UVM_INFO ../src/mst/axi4_master_driver.sv(348) @ 395000: uvm_test_top.env.master_agent.drv [axi4_master_driver] Master driver received all R beats for ID=0xc
# UVM_INFO ../src/slv/axi4_slave_driver.sv(464) @ 395000: uvm_test_top.env.slave_agent.drv [axi4_slave_driver] Read complete: ID=0xc ADDR=0x7c798c7c RESP=AXI4_RESP_OKAY  14 beats sent
# UVM_INFO ../src/slv/axi4_slave_monitor.sv(287) @ 395000: uvm_test_top.env.slave_agent.mon [axi4_slave_monitor] Read data sent: ID=0xc ADDR=0x7c798c7c 14 beats
# UVM_INFO ../src/env/axi4_scoreboard.sv(108) @ 395000: uvm_test_top.env.scb [axi4_scoreboard] Slave AXI4_READ received: ID=0xc ADDR=0x7c798c7c LEN=13
# UVM_INFO ../src/mst/axi4_master_monitor.sv(314) @ 395000: uvm_test_top.env.master_agent.mon [axi4_master_monitor] Read complete: ID=0xc ADDR=0x7c798c7c 14 beats
# UVM_INFO ../src/env/axi4_scoreboard.sv(87) @ 395000: uvm_test_top.env.scb [axi4_scoreboard] Master AXI4_READ received: ID=0xc ADDR=0x7c798c7c LEN=13
# UVM_INFO ../src/env/axi4_scoreboard.sv(291) @ 395000: uvm_test_top.env.scb [axi4_scoreboard] [READ] MATCH #2: ID=0xc ADDR=0x7c798c7c LEN=13
# UVM_INFO ../src/slv/axi4_slave_driver.sv(358) @ 415000: uvm_test_top.env.slave_agent.drv [axi4_slave_driver] AR received: ID=0xf ADDR=0x288af013 LEN=32 LOCK=AXI4_LOCK_EXCLUSIVE
# UVM_INFO ../src/slv/axi4_slave_monitor.sv(224) @ 415000: uvm_test_top.env.slave_agent.mon [axi4_slave_monitor] AR received: ID=0xf ADDR=0x288af013 LEN=32
# UVM_INFO ../src/mst/axi4_master_monitor.sv(246) @ 415000: uvm_test_top.env.master_agent.mon [axi4_master_monitor] AR observed: ID=0xf ADDR=0x288af013 LEN=32
# UVM_INFO ../src/slv/axi4_slave_driver.sv(358) @ 445000: uvm_test_top.env.slave_agent.drv [axi4_slave_driver] AR received: ID=0x2 ADDR=0xc7fb6ade LEN=107 LOCK=AXI4_LOCK_NORMAL
# UVM_INFO ../src/mst/axi4_master_monitor.sv(246) @ 445000: uvm_test_top.env.master_agent.mon [axi4_master_monitor] AR observed: ID=0x2 ADDR=0xc7fb6ade LEN=107
# UVM_INFO ../src/slv/axi4_slave_monitor.sv(224) @ 445000: uvm_test_top.env.slave_agent.mon [axi4_slave_monitor] AR received: ID=0x2 ADDR=0xc7fb6ade LEN=107
# UVM_INFO ../src/slv/axi4_slave_driver.sv(358) @ 475000: uvm_test_top.env.slave_agent.drv [axi4_slave_driver] AR received: ID=0x7 ADDR=0x9dc41b78 LEN=227 LOCK=AXI4_LOCK_NORMAL
# UVM_INFO ../src/slv/axi4_slave_monitor.sv(224) @ 475000: uvm_test_top.env.slave_agent.mon [axi4_slave_monitor] AR received: ID=0x7 ADDR=0x9dc41b78 LEN=227
# UVM_INFO ../src/mst/axi4_master_monitor.sv(246) @ 475000: uvm_test_top.env.master_agent.mon [axi4_master_monitor] AR observed: ID=0x7 ADDR=0x9dc41b78 LEN=227
# UVM_INFO ../src/slv/axi4_slave_driver.sv(358) @ 505000: uvm_test_top.env.slave_agent.drv [axi4_slave_driver] AR received: ID=0x4 ADDR=0x19db2658 LEN=7 LOCK=AXI4_LOCK_EXCLUSIVE
# UVM_INFO ../src/mst/axi4_master_monitor.sv(246) @ 505000: uvm_test_top.env.master_agent.mon [axi4_master_monitor] AR observed: ID=0x4 ADDR=0x19db2658 LEN=7
# UVM_INFO ../src/slv/axi4_slave_monitor.sv(224) @ 505000: uvm_test_top.env.slave_agent.mon [axi4_slave_monitor] AR received: ID=0x4 ADDR=0x19db2658 LEN=7
# UVM_INFO ../src/mst/axi4_master_monitor.sv(184) @ 505000: uvm_test_top.env.master_agent.mon [axi4_master_monitor] W data assembled: ID=0x0 ADDR=0xb915be26 16 beats
# UVM_INFO ../src/slv/axi4_slave_monitor.sv(167) @ 505000: uvm_test_top.env.slave_agent.mon [axi4_slave_monitor] W data assembled: ID=0x0 ADDR=0xb915be26 16 beats
# UVM_INFO ../src/mst/axi4_master_driver.sv(289) @ 535000: uvm_test_top.env.master_agent.drv [axi4_master_driver] Master driver received B response: ID=0x0 RESP=AXI4_RESP_OKAY
# UVM_INFO ../src/slv/axi4_slave_driver.sv(358) @ 535000: uvm_test_top.env.slave_agent.drv [axi4_slave_driver] AR received: ID=0x1 ADDR=0x545ef31d LEN=15 LOCK=AXI4_LOCK_EXCLUSIVE
# UVM_INFO ../src/slv/axi4_slave_driver.sv(320) @ 535000: uvm_test_top.env.slave_agent.drv [axi4_slave_driver] Write complete: ID=0x0 RESP=AXI4_RESP_OKAY
# UVM_INFO ../src/slv/axi4_slave_monitor.sv(224) @ 535000: uvm_test_top.env.slave_agent.mon [axi4_slave_monitor] AR received: ID=0x1 ADDR=0x545ef31d LEN=15
# UVM_INFO ../src/slv/axi4_slave_monitor.sv(189) @ 535000: uvm_test_top.env.slave_agent.mon [axi4_slave_monitor] Write response sent: ID=0x0 ADDR=0xb915be26 RESP=AXI4_RESP_OKAY
# UVM_INFO ../src/env/axi4_scoreboard.sv(108) @ 535000: uvm_test_top.env.scb [axi4_scoreboard] Slave AXI4_WRITE received: ID=0x0 ADDR=0xb915be26 LEN=15
# UVM_INFO ../src/mst/axi4_master_monitor.sv(246) @ 535000: uvm_test_top.env.master_agent.mon [axi4_master_monitor] AR observed: ID=0x1 ADDR=0x545ef31d LEN=15
# UVM_INFO ../src/mst/axi4_master_monitor.sv(210) @ 535000: uvm_test_top.env.master_agent.mon [axi4_master_monitor] Write complete: ID=0x0 ADDR=0xb915be26 RESP=AXI4_RESP_OKAY
# UVM_INFO ../src/env/axi4_scoreboard.sv(87) @ 535000: uvm_test_top.env.scb [axi4_scoreboard] Master AXI4_WRITE received: ID=0x0 ADDR=0xb915be26 LEN=15
# UVM_INFO ../src/env/axi4_scoreboard.sv(291) @ 535000: uvm_test_top.env.scb [axi4_scoreboard] [WRITE] MATCH #3: ID=0x0 ADDR=0xb915be26 LEN=15
# UVM_INFO ../src/env/axi4_scoreboard.sv(226) @ 535000: uvm_test_top.env.scb [axi4_scoreboard] [REF_MEM_WRITE_IGNORED] Write ignored for ADDR=0xb915be26 LOCK=AXI4_LOCK_EXCLUSIVE RESP=AXI4_RESP_OKAY
# UVM_INFO ../src/slv/axi4_slave_driver.sv(358) @ 565000: uvm_test_top.env.slave_agent.drv [axi4_slave_driver] AR received: ID=0xf ADDR=0xdc146c57 LEN=196 LOCK=AXI4_LOCK_EXCLUSIVE
# UVM_INFO ../src/mst/axi4_master_monitor.sv(246) @ 565000: uvm_test_top.env.master_agent.mon [axi4_master_monitor] AR observed: ID=0xf ADDR=0xdc146c57 LEN=196
# UVM_INFO ../src/slv/axi4_slave_monitor.sv(224) @ 565000: uvm_test_top.env.slave_agent.mon [axi4_slave_monitor] AR received: ID=0xf ADDR=0xdc146c57 LEN=196
# UVM_INFO ../src/slv/axi4_slave_driver.sv(212) @ 585000: uvm_test_top.env.slave_agent.drv [axi4_slave_driver] AW received: ID=0xf ADDR=0x95cd08bf LEN=226 LOCK=AXI4_LOCK_NORMAL
# UVM_INFO ../src/mst/axi4_master_monitor.sv(124) @ 585000: uvm_test_top.env.master_agent.mon [axi4_master_monitor] AW observed: ID=0xf ADDR=0x95cd08bf LEN=226
# UVM_INFO ../src/slv/axi4_slave_monitor.sv(116) @ 585000: uvm_test_top.env.slave_agent.mon [axi4_slave_monitor] AW received: ID=0xf ADDR=0x95cd08bf LEN=226
# UVM_INFO ../src/mst/axi4_master_driver.sv(348) @ 715000: uvm_test_top.env.master_agent.drv [axi4_master_driver] Master driver received all R beats for ID=0x4
# UVM_INFO ../src/slv/axi4_slave_driver.sv(464) @ 715000: uvm_test_top.env.slave_agent.drv [axi4_slave_driver] Read complete: ID=0x4 ADDR=0x8ce45319 RESP=AXI4_RESP_EXOKAY  16 beats sent
# UVM_INFO ../src/slv/axi4_slave_monitor.sv(287) @ 715000: uvm_test_top.env.slave_agent.mon [axi4_slave_monitor] Read data sent: ID=0x4 ADDR=0x8ce45319 16 beats
# UVM_INFO ../src/env/axi4_scoreboard.sv(108) @ 715000: uvm_test_top.env.scb [axi4_scoreboard] Slave AXI4_READ received: ID=0x4 ADDR=0x8ce45319 LEN=15
# UVM_INFO ../src/mst/axi4_master_monitor.sv(314) @ 715000: uvm_test_top.env.master_agent.mon [axi4_master_monitor] Read complete: ID=0x4 ADDR=0x8ce45319 16 beats
# UVM_INFO ../src/env/axi4_scoreboard.sv(87) @ 715000: uvm_test_top.env.scb [axi4_scoreboard] Master AXI4_READ received: ID=0x4 ADDR=0x8ce45319 LEN=15
# UVM_INFO ../src/env/axi4_scoreboard.sv(291) @ 715000: uvm_test_top.env.scb [axi4_scoreboard] [READ] MATCH #4: ID=0x4 ADDR=0x8ce45319 LEN=15
# UVM_INFO ../src/test/axi4_cache_prot_test.sv(32) @ 1095000: uvm_test_top [axi4_cache_prot_test] Cache and protection sweep test complete
# UVM_INFO ../src/mst/axi4_master_driver.sv(348) @ 3095000: uvm_test_top.env.master_agent.drv [axi4_master_driver] Master driver received all R beats for ID=0xa
# UVM_INFO ../src/slv/axi4_slave_driver.sv(464) @ 3095000: uvm_test_top.env.slave_agent.drv [axi4_slave_driver] Read complete: ID=0xa ADDR=0xa79fdeb1 RESP=AXI4_RESP_OKAY  119 beats sent
# UVM_INFO ../src/slv/axi4_slave_monitor.sv(287) @ 3095000: uvm_test_top.env.slave_agent.mon [axi4_slave_monitor] Read data sent: ID=0xa ADDR=0xa79fdeb1 119 beats
# UVM_INFO ../src/env/axi4_scoreboard.sv(108) @ 3095000: uvm_test_top.env.scb [axi4_scoreboard] Slave AXI4_READ received: ID=0xa ADDR=0xa79fdeb1 LEN=118
# UVM_INFO ../src/mst/axi4_master_monitor.sv(314) @ 3095000: uvm_test_top.env.master_agent.mon [axi4_master_monitor] Read complete: ID=0xa ADDR=0xa79fdeb1 119 beats
# UVM_INFO ../src/env/axi4_scoreboard.sv(87) @ 3095000: uvm_test_top.env.scb [axi4_scoreboard] Master AXI4_READ received: ID=0xa ADDR=0xa79fdeb1 LEN=118
# UVM_INFO ../src/env/axi4_scoreboard.sv(291) @ 3095000: uvm_test_top.env.scb [axi4_scoreboard] [READ] MATCH #5: ID=0xa ADDR=0xa79fdeb1 LEN=118
# UVM_INFO ../src/mst/axi4_master_monitor.sv(184) @ 5045000: uvm_test_top.env.master_agent.mon [axi4_master_monitor] W data assembled: ID=0xf ADDR=0x95cd08bf 227 beats
# UVM_INFO ../src/slv/axi4_slave_monitor.sv(167) @ 5045000: uvm_test_top.env.slave_agent.mon [axi4_slave_monitor] W data assembled: ID=0xf ADDR=0x95cd08bf 227 beats
# UVM_INFO ../src/mst/axi4_master_driver.sv(289) @ 5075000: uvm_test_top.env.master_agent.drv [axi4_master_driver] Master driver received B response: ID=0xf RESP=AXI4_RESP_OKAY
# UVM_INFO ../src/slv/axi4_slave_driver.sv(320) @ 5075000: uvm_test_top.env.slave_agent.drv [axi4_slave_driver] Write complete: ID=0xf RESP=AXI4_RESP_OKAY
# UVM_INFO ../src/slv/axi4_slave_monitor.sv(189) @ 5075000: uvm_test_top.env.slave_agent.mon [axi4_slave_monitor] Write response sent: ID=0xf ADDR=0x95cd08bf RESP=AXI4_RESP_OKAY
# UVM_INFO ../src/env/axi4_scoreboard.sv(108) @ 5075000: uvm_test_top.env.scb [axi4_scoreboard] Slave AXI4_WRITE received: ID=0xf ADDR=0x95cd08bf LEN=226
# UVM_INFO ../src/mst/axi4_master_monitor.sv(210) @ 5075000: uvm_test_top.env.master_agent.mon [axi4_master_monitor] Write complete: ID=0xf ADDR=0x95cd08bf RESP=AXI4_RESP_OKAY
# UVM_INFO ../src/env/axi4_scoreboard.sv(87) @ 5075000: uvm_test_top.env.scb [axi4_scoreboard] Master AXI4_WRITE received: ID=0xf ADDR=0x95cd08bf LEN=226
# UVM_INFO ../src/env/axi4_scoreboard.sv(291) @ 5075000: uvm_test_top.env.scb [axi4_scoreboard] [WRITE] MATCH #6: ID=0xf ADDR=0x95cd08bf LEN=226
# UVM_INFO ../src/env/axi4_scoreboard.sv(219) @ 5075000: uvm_test_top.env.scb [axi4_scoreboard] [REF_MEM_WRITE] Addr=0x95cd08bc Data=0x5f
# UVM_INFO ../src/env/axi4_scoreboard.sv(219) @ 5075000: uvm_test_top.env.scb [axi4_scoreboard] [REF_MEM_WRITE] Addr=0x95cd08be Data=0xe1
# UVM_INFO ../src/env/axi4_scoreboard.sv(219) @ 5075000: uvm_test_top.env.scb [axi4_scoreboard] [REF_MEM_WRITE] Addr=0x95cd08bf Data=0xad
# UVM_INFO ../src/env/axi4_scoreboard.sv(219) @ 5075000: uvm_test_top.env.scb [axi4_scoreboard] [REF_MEM_WRITE] Addr=0x95cd08c1 Data=0xbd
# UVM_INFO ../src/env/axi4_scoreboard.sv(219) @ 5075000: uvm_test_top.env.scb [axi4_scoreboard] [REF_MEM_WRITE] Addr=0x95cd08c2 Data=0x0c
# UVM_INFO ../src/env/axi4_scoreboard.sv(219) @ 5075000: uvm_test_top.env.scb [axi4_scoreboard] [REF_MEM_WRITE] Addr=0x95cd08c3 Data=0x08
# UVM_INFO ../src/env/axi4_scoreboard.sv(219) @ 5075000: uvm_test_top.env.scb [axi4_scoreboard] [REF_MEM_WRITE] Addr=0x95cd08c8 Data=0x5e
# UVM_INFO ../src/env/axi4_scoreboard.sv(219) @ 5075000: uvm_test_top.env.scb [axi4_scoreboard] [REF_MEM_WRITE] Addr=0x95cd08c9 Data=0x5c
# UVM_INFO ../src/env/axi4_scoreboard.sv(219) @ 5075000: uvm_test_top.env.scb [axi4_scoreboard] [REF_MEM_WRITE] Addr=0x95cd08ca Data=0x2e
# UVM_INFO ../src/env/axi4_scoreboard.sv(219) @ 5075000: uvm_test_top.env.scb [axi4_scoreboard] [REF_MEM_WRITE] Addr=0x95cd08cb Data=0xed
# UVM_INFO ../src/env/axi4_scoreboard.sv(219) @ 5075000: uvm_test_top.env.scb [axi4_scoreboard] [REF_MEM_WRITE] Addr=0x95cd08cc Data=0xb6
# UVM_INFO ../src/env/axi4_scoreboard.sv(219) @ 5075000: uvm_test_top.env.scb [axi4_scoreboard] [REF_MEM_WRITE] Addr=0x95cd08cf Data=0x12
# UVM_INFO ../src/env/axi4_scoreboard.sv(219) @ 5075000: uvm_test_top.env.scb [axi4_scoreboard] [REF_MEM_WRITE] Addr=0x95cd08d2 Data=0x96
# UVM_INFO ../src/env/axi4_scoreboard.sv(219) @ 5075000: uvm_test_top.env.scb [axi4_scoreboard] [REF_MEM_WRITE] Addr=0x95cd08d4 Data=0x9a
# UVM_INFO ../src/env/axi4_scoreboard.sv(219) @ 5075000: uvm_test_top.env.scb [axi4_scoreboard] [REF_MEM_WRITE] Addr=0x95cd08d7 Data=0x34
# UVM_INFO ../src/env/axi4_scoreboard.sv(219) @ 5075000: uvm_test_top.env.scb [axi4_scoreboard] [REF_MEM_WRITE] Addr=0x95cd08d8 Data=0x74
# UVM_INFO ../src/env/axi4_scoreboard.sv(219) @ 5075000: uvm_test_top.env.scb [axi4_scoreboard] [REF_MEM_WRITE] Addr=0x95cd08d9 Data=0xed
# UVM_INFO ../src/env/axi4_scoreboard.sv(219) @ 5075000: uvm_test_top.env.scb [axi4_scoreboard] [REF_MEM_WRITE] Addr=0x95cd08dc Data=0xf6
# UVM_INFO ../src/env/axi4_scoreboard.sv(219) @ 5075000: uvm_test_top.env.scb [axi4_scoreboard] [REF_MEM_WRITE] Addr=0x95cd08dd Data=0xe6
# UVM_INFO ../src/env/axi4_scoreboard.sv(219) @ 5075000: uvm_test_top.env.scb [axi4_scoreboard] [REF_MEM_WRITE] Addr=0x95cd08de Data=0x58
# UVM_INFO ../src/env/axi4_scoreboard.sv(219) @ 5075000: uvm_test_top.env.scb [axi4_scoreboard] [REF_MEM_WRITE] Addr=0x95cd08df Data=0x4f
# UVM_INFO ../src/env/axi4_scoreboard.sv(219) @ 5075000: uvm_test_top.env.scb [axi4_scoreboard] [REF_MEM_WRITE] Addr=0x95cd08e1 Data=0x00
# UVM_INFO ../src/env/axi4_scoreboard.sv(219) @ 5075000: uvm_test_top.env.scb [axi4_scoreboard] [REF_MEM_WRITE] Addr=0x95cd08e2 Data=0x12
# UVM_INFO ../src/env/axi4_scoreboard.sv(219) @ 5075000: uvm_test_top.env.scb [axi4_scoreboard] [REF_MEM_WRITE] Addr=0x95cd08e6 Data=0xff
# UVM_INFO ../src/env/axi4_scoreboard.sv(219) @ 5075000: uvm_test_top.env.scb [axi4_scoreboard] [REF_MEM_WRITE] Addr=0x95cd08e7 Data=0x4f
# UVM_INFO ../src/env/axi4_scoreboard.sv(219) @ 5075000: uvm_test_top.env.scb [axi4_scoreboard] [REF_MEM_WRITE] Addr=0x95cd08e9 Data=0xce
# UVM_INFO ../src/env/axi4_scoreboard.sv(219) @ 5075000: uvm_test_top.env.scb [axi4_scoreboard] [REF_MEM_WRITE] Addr=0x95cd08ea Data=0x60
# UVM_INFO ../src/env/axi4_scoreboard.sv(219) @ 5075000: uvm_test_top.env.scb [axi4_scoreboard] [REF_MEM_WRITE] Addr=0x95cd08eb Data=0xef
# UVM_INFO ../src/env/axi4_scoreboard.sv(219) @ 5075000: uvm_test_top.env.scb [axi4_scoreboard] [REF_MEM_WRITE] Addr=0x95cd08f2 Data=0xc6
# UVM_INFO ../src/env/axi4_scoreboard.sv(219) @ 5075000: uvm_test_top.env.scb [axi4_scoreboard] [REF_MEM_WRITE] Addr=0x95cd08f4 Data=0xd6
# UVM_INFO ../src/env/axi4_scoreboard.sv(219) @ 5075000: uvm_test_top.env.scb [axi4_scoreboard] [REF_MEM_WRITE] Addr=0x95cd08f6 Data=0x52
# UVM_INFO ../src/env/axi4_scoreboard.sv(219) @ 5075000: uvm_test_top.env.scb [axi4_scoreboard] [REF_MEM_WRITE] Addr=0x95cd08fa Data=0xd3
# UVM_INFO ../src/env/axi4_scoreboard.sv(219) @ 5075000: uvm_test_top.env.scb [axi4_scoreboard] [REF_MEM_WRITE] Addr=0x95cd08fb Data=0x97
# UVM_INFO ../src/env/axi4_scoreboard.sv(219) @ 5075000: uvm_test_top.env.scb [axi4_scoreboard] [REF_MEM_WRITE] Addr=0x95cd08fd Data=0x00
# UVM_INFO ../src/env/axi4_scoreboard.sv(219) @ 5075000: uvm_test_top.env.scb [axi4_scoreboard] [REF_MEM_WRITE] Addr=0x95cd08ff Data=0x34
# UVM_INFO ../src/env/axi4_scoreboard.sv(219) @ 5075000: uvm_test_top.env.scb [axi4_scoreboard] [REF_MEM_WRITE] Addr=0x95cd0903 Data=0xe2
# UVM_INFO ../src/env/axi4_scoreboard.sv(219) @ 5075000: uvm_test_top.env.scb [axi4_scoreboard] [REF_MEM_WRITE] Addr=0x95cd0906 Data=0x98
# UVM_INFO ../src/env/axi4_scoreboard.sv(219) @ 5075000: uvm_test_top.env.scb [axi4_scoreboard] [REF_MEM_WRITE] Addr=0x95cd0907 Data=0x19
# UVM_INFO ../src/env/axi4_scoreboard.sv(219) @ 5075000: uvm_test_top.env.scb [axi4_scoreboard] [REF_MEM_WRITE] Addr=0x95cd0908 Data=0x17
# UVM_INFO ../src/env/axi4_scoreboard.sv(219) @ 5075000: uvm_test_top.env.scb [axi4_scoreboard] [REF_MEM_WRITE] Addr=0x95cd090b Data=0x9b
# UVM_INFO ../src/env/axi4_scoreboard.sv(219) @ 5075000: uvm_test_top.env.scb [axi4_scoreboard] [REF_MEM_WRITE] Addr=0x95cd090c Data=0x30
# UVM_INFO ../src/env/axi4_scoreboard.sv(219) @ 5075000: uvm_test_top.env.scb [axi4_scoreboard] [REF_MEM_WRITE] Addr=0x95cd090f Data=0x15
# UVM_INFO ../src/env/axi4_scoreboard.sv(219) @ 5075000: uvm_test_top.env.scb [axi4_scoreboard] [REF_MEM_WRITE] Addr=0x95cd0918 Data=0xa0
# UVM_INFO ../src/env/axi4_scoreboard.sv(219) @ 5075000: uvm_test_top.env.scb [axi4_scoreboard] [REF_MEM_WRITE] Addr=0x95cd091b Data=0xf4
# UVM_INFO ../src/env/axi4_scoreboard.sv(219) @ 5075000: uvm_test_top.env.scb [axi4_scoreboard] [REF_MEM_WRITE] Addr=0x95cd091d Data=0x6c
# UVM_INFO ../src/env/axi4_scoreboard.sv(219) @ 5075000: uvm_test_top.env.scb [axi4_scoreboard] [REF_MEM_WRITE] Addr=0x95cd0920 Data=0x3e
# UVM_INFO ../src/env/axi4_scoreboard.sv(219) @ 5075000: uvm_test_top.env.scb [axi4_scoreboard] [REF_MEM_WRITE] Addr=0x95cd0921 Data=0x86
# UVM_INFO ../src/env/axi4_scoreboard.sv(219) @ 5075000: uvm_test_top.env.scb [axi4_scoreboard] [REF_MEM_WRITE] Addr=0x95cd0922 Data=0xf9
# UVM_INFO ../src/env/axi4_scoreboard.sv(219) @ 5075000: uvm_test_top.env.scb [axi4_scoreboard] [REF_MEM_WRITE] Addr=0x95cd0926 Data=0x6a
# UVM_INFO ../src/env/axi4_scoreboard.sv(219) @ 5075000: uvm_test_top.env.scb [axi4_scoreboard] [REF_MEM_WRITE] Addr=0x95cd0927 Data=0x0d
# UVM_INFO ../src/env/axi4_scoreboard.sv(219) @ 5075000: uvm_test_top.env.scb [axi4_scoreboard] [REF_MEM_WRITE] Addr=0x95cd0928 Data=0x8a
# UVM_INFO ../src/env/axi4_scoreboard.sv(219) @ 5075000: uvm_test_top.env.scb [axi4_scoreboard] [REF_MEM_WRITE] Addr=0x95cd092b Data=0xad
# UVM_INFO ../src/env/axi4_scoreboard.sv(219) @ 5075000: uvm_test_top.env.scb [axi4_scoreboard] [REF_MEM_WRITE] Addr=0x95cd092e Data=0xb3
# UVM_INFO ../src/env/axi4_scoreboard.sv(219) @ 5075000: uvm_test_top.env.scb [axi4_scoreboard] [REF_MEM_WRITE] Addr=0x95cd092f Data=0x47
# UVM_INFO ../src/env/axi4_scoreboard.sv(219) @ 5075000: uvm_test_top.env.scb [axi4_scoreboard] [REF_MEM_WRITE] Addr=0x95cd0930 Data=0xc8
# UVM_INFO ../src/env/axi4_scoreboard.sv(219) @ 5075000: uvm_test_top.env.scb [axi4_scoreboard] [REF_MEM_WRITE] Addr=0x95cd0931 Data=0xe6
# UVM_INFO ../src/env/axi4_scoreboard.sv(219) @ 5075000: uvm_test_top.env.scb [axi4_scoreboard] [REF_MEM_WRITE] Addr=0x95cd0935 Data=0xbc
# UVM_INFO ../src/env/axi4_scoreboard.sv(219) @ 5075000: uvm_test_top.env.scb [axi4_scoreboard] [REF_MEM_WRITE] Addr=0x95cd0937 Data=0xf3
# UVM_INFO ../src/env/axi4_scoreboard.sv(219) @ 5075000: uvm_test_top.env.scb [axi4_scoreboard] [REF_MEM_WRITE] Addr=0x95cd0938 Data=0xa3
# UVM_INFO ../src/env/axi4_scoreboard.sv(219) @ 5075000: uvm_test_top.env.scb [axi4_scoreboard] [REF_MEM_WRITE] Addr=0x95cd0939 Data=0x2f
# UVM_INFO ../src/env/axi4_scoreboard.sv(219) @ 5075000: uvm_test_top.env.scb [axi4_scoreboard] [REF_MEM_WRITE] Addr=0x95cd093c Data=0xb0
# UVM_INFO ../src/env/axi4_scoreboard.sv(219) @ 5075000: uvm_test_top.env.scb [axi4_scoreboard] [REF_MEM_WRITE] Addr=0x95cd0942 Data=0x11
# UVM_INFO ../src/env/axi4_scoreboard.sv(219) @ 5075000: uvm_test_top.env.scb [axi4_scoreboard] [REF_MEM_WRITE] Addr=0x95cd0943 Data=0x96
# UVM_INFO ../src/env/axi4_scoreboard.sv(219) @ 5075000: uvm_test_top.env.scb [axi4_scoreboard] [REF_MEM_WRITE] Addr=0x95cd0944 Data=0x61
# UVM_INFO ../src/env/axi4_scoreboard.sv(219) @ 5075000: uvm_test_top.env.scb [axi4_scoreboard] [REF_MEM_WRITE] Addr=0x95cd094c Data=0x19
# UVM_INFO ../src/env/axi4_scoreboard.sv(219) @ 5075000: uvm_test_top.env.scb [axi4_scoreboard] [REF_MEM_WRITE] Addr=0x95cd094d Data=0x42
# UVM_INFO ../src/env/axi4_scoreboard.sv(219) @ 5075000: uvm_test_top.env.scb [axi4_scoreboard] [REF_MEM_WRITE] Addr=0x95cd0950 Data=0x03
# UVM_INFO ../src/env/axi4_scoreboard.sv(219) @ 5075000: uvm_test_top.env.scb [axi4_scoreboard] [REF_MEM_WRITE] Addr=0x95cd0951 Data=0x9c
# UVM_INFO ../src/env/axi4_scoreboard.sv(219) @ 5075000: uvm_test_top.env.scb [axi4_scoreboard] [REF_MEM_WRITE] Addr=0x95cd0952 Data=0x6e
# UVM_INFO ../src/env/axi4_scoreboard.sv(219) @ 5075000: uvm_test_top.env.scb [axi4_scoreboard] [REF_MEM_WRITE] Addr=0x95cd0954 Data=0x0c
# UVM_INFO ../src/env/axi4_scoreboard.sv(219) @ 5075000: uvm_test_top.env.scb [axi4_scoreboard] [REF_MEM_WRITE] Addr=0x95cd0956 Data=0x3e
# UVM_INFO ../src/env/axi4_scoreboard.sv(219) @ 5075000: uvm_test_top.env.scb [axi4_scoreboard] [REF_MEM_WRITE] Addr=0x95cd0958 Data=0xf6
# UVM_INFO ../src/env/axi4_scoreboard.sv(219) @ 5075000: uvm_test_top.env.scb [axi4_scoreboard] [REF_MEM_WRITE] Addr=0x95cd095a Data=0xdf
# UVM_INFO ../src/env/axi4_scoreboard.sv(219) @ 5075000: uvm_test_top.env.scb [axi4_scoreboard] [REF_MEM_WRITE] Addr=0x95cd095c Data=0xbd
# UVM_INFO ../src/env/axi4_scoreboard.sv(219) @ 5075000: uvm_test_top.env.scb [axi4_scoreboard] [REF_MEM_WRITE] Addr=0x95cd0960 Data=0xe6
# UVM_INFO ../src/env/axi4_scoreboard.sv(219) @ 5075000: uvm_test_top.env.scb [axi4_scoreboard] [REF_MEM_WRITE] Addr=0x95cd0963 Data=0xf2
# UVM_INFO ../src/env/axi4_scoreboard.sv(219) @ 5075000: uvm_test_top.env.scb [axi4_scoreboard] [REF_MEM_WRITE] Addr=0x95cd0964 Data=0x02
# UVM_INFO ../src/env/axi4_scoreboard.sv(219) @ 5075000: uvm_test_top.env.scb [axi4_scoreboard] [REF_MEM_WRITE] Addr=0x95cd0966 Data=0x20
# UVM_INFO ../src/env/axi4_scoreboard.sv(219) @ 5075000: uvm_test_top.env.scb [axi4_scoreboard] [REF_MEM_WRITE] Addr=0x95cd0968 Data=0x83
# UVM_INFO ../src/env/axi4_scoreboard.sv(219) @ 5075000: uvm_test_top.env.scb [axi4_scoreboard] [REF_MEM_WRITE] Addr=0x95cd096a Data=0x22
# UVM_INFO ../src/env/axi4_scoreboard.sv(219) @ 5075000: uvm_test_top.env.scb [axi4_scoreboard] [REF_MEM_WRITE] Addr=0x95cd096c Data=0x51
# UVM_INFO ../src/env/axi4_scoreboard.sv(219) @ 5075000: uvm_test_top.env.scb [axi4_scoreboard] [REF_MEM_WRITE] Addr=0x95cd0976 Data=0x42
# UVM_INFO ../src/env/axi4_scoreboard.sv(219) @ 5075000: uvm_test_top.env.scb [axi4_scoreboard] [REF_MEM_WRITE] Addr=0x95cd0977 Data=0x9b
# UVM_INFO ../src/env/axi4_scoreboard.sv(219) @ 5075000: uvm_test_top.env.scb [axi4_scoreboard] [REF_MEM_WRITE] Addr=0x95cd0978 Data=0x07
# UVM_INFO ../src/env/axi4_scoreboard.sv(219) @ 5075000: uvm_test_top.env.scb [axi4_scoreboard] [REF_MEM_WRITE] Addr=0x95cd0979 Data=0xd9
# UVM_INFO ../src/env/axi4_scoreboard.sv(219) @ 5075000: uvm_test_top.env.scb [axi4_scoreboard] [REF_MEM_WRITE] Addr=0x95cd097c Data=0xbc
# UVM_INFO ../src/env/axi4_scoreboard.sv(219) @ 5075000: uvm_test_top.env.scb [axi4_scoreboard] [REF_MEM_WRITE] Addr=0x95cd097d Data=0xa6
# UVM_INFO ../src/env/axi4_scoreboard.sv(219) @ 5075000: uvm_test_top.env.scb [axi4_scoreboard] [REF_MEM_WRITE] Addr=0x95cd097e Data=0x4d
# UVM_INFO ../src/env/axi4_scoreboard.sv(219) @ 5075000: uvm_test_top.env.scb [axi4_scoreboard] [REF_MEM_WRITE] Addr=0x95cd097f Data=0xb1
# UVM_INFO ../src/env/axi4_scoreboard.sv(219) @ 5075000: uvm_test_top.env.scb [axi4_scoreboard] [REF_MEM_WRITE] Addr=0x95cd0980 Data=0x09
# UVM_INFO ../src/env/axi4_scoreboard.sv(219) @ 5075000: uvm_test_top.env.scb [axi4_scoreboard] [REF_MEM_WRITE] Addr=0x95cd0984 Data=0x9c
# UVM_INFO ../src/env/axi4_scoreboard.sv(219) @ 5075000: uvm_test_top.env.scb [axi4_scoreboard] [REF_MEM_WRITE] Addr=0x95cd0987 Data=0xd4
# UVM_INFO ../src/env/axi4_scoreboard.sv(219) @ 5075000: uvm_test_top.env.scb [axi4_scoreboard] [REF_MEM_WRITE] Addr=0x95cd098c Data=0xf0
# UVM_INFO ../src/env/axi4_scoreboard.sv(219) @ 5075000: uvm_test_top.env.scb [axi4_scoreboard] [REF_MEM_WRITE] Addr=0x95cd098d Data=0x03
# UVM_INFO ../src/env/axi4_scoreboard.sv(219) @ 5075000: uvm_test_top.env.scb [axi4_scoreboard] [REF_MEM_WRITE] Addr=0x95cd098e Data=0x48
# UVM_INFO ../src/env/axi4_scoreboard.sv(219) @ 5075000: uvm_test_top.env.scb [axi4_scoreboard] [REF_MEM_WRITE] Addr=0x95cd098f Data=0x96
# UVM_INFO ../src/env/axi4_scoreboard.sv(219) @ 5075000: uvm_test_top.env.scb [axi4_scoreboard] [REF_MEM_WRITE] Addr=0x95cd0991 Data=0x8d
# UVM_INFO ../src/env/axi4_scoreboard.sv(219) @ 5075000: uvm_test_top.env.scb [axi4_scoreboard] [REF_MEM_WRITE] Addr=0x95cd0994 Data=0xe3
# UVM_INFO ../src/env/axi4_scoreboard.sv(219) @ 5075000: uvm_test_top.env.scb [axi4_scoreboard] [REF_MEM_WRITE] Addr=0x95cd0998 Data=0x64
# UVM_INFO ../src/env/axi4_scoreboard.sv(219) @ 5075000: uvm_test_top.env.scb [axi4_scoreboard] [REF_MEM_WRITE] Addr=0x95cd0999 Data=0xc4
# UVM_INFO ../src/env/axi4_scoreboard.sv(219) @ 5075000: uvm_test_top.env.scb [axi4_scoreboard] [REF_MEM_WRITE] Addr=0x95cd099a Data=0x40
# UVM_INFO ../src/env/axi4_scoreboard.sv(219) @ 5075000: uvm_test_top.env.scb [axi4_scoreboard] [REF_MEM_WRITE] Addr=0x95cd099b Data=0x22
# UVM_INFO ../src/env/axi4_scoreboard.sv(219) @ 5075000: uvm_test_top.env.scb [axi4_scoreboard] [REF_MEM_WRITE] Addr=0x95cd099e Data=0xf7
# UVM_INFO ../src/env/axi4_scoreboard.sv(219) @ 5075000: uvm_test_top.env.scb [axi4_scoreboard] [REF_MEM_WRITE] Addr=0x95cd09a0 Data=0x4e
# UVM_INFO ../src/env/axi4_scoreboard.sv(219) @ 5075000: uvm_test_top.env.scb [axi4_scoreboard] [REF_MEM_WRITE] Addr=0x95cd09a2 Data=0x68
# UVM_INFO ../src/env/axi4_scoreboard.sv(219) @ 5075000: uvm_test_top.env.scb [axi4_scoreboard] [REF_MEM_WRITE] Addr=0x95cd09a3 Data=0xc9
# UVM_INFO ../src/env/axi4_scoreboard.sv(219) @ 5075000: uvm_test_top.env.scb [axi4_scoreboard] [REF_MEM_WRITE] Addr=0x95cd09a6 Data=0xe2
# UVM_INFO ../src/env/axi4_scoreboard.sv(219) @ 5075000: uvm_test_top.env.scb [axi4_scoreboard] [REF_MEM_WRITE] Addr=0x95cd09a8 Data=0xd0
# UVM_INFO ../src/env/axi4_scoreboard.sv(219) @ 5075000: uvm_test_top.env.scb [axi4_scoreboard] [REF_MEM_WRITE] Addr=0x95cd09a9 Data=0xbe
# UVM_INFO ../src/env/axi4_scoreboard.sv(219) @ 5075000: uvm_test_top.env.scb [axi4_scoreboard] [REF_MEM_WRITE] Addr=0x95cd09aa Data=0x22
# UVM_INFO ../src/env/axi4_scoreboard.sv(219) @ 5075000: uvm_test_top.env.scb [axi4_scoreboard] [REF_MEM_WRITE] Addr=0x95cd09ab Data=0xce
# UVM_INFO ../src/env/axi4_scoreboard.sv(219) @ 5075000: uvm_test_top.env.scb [axi4_scoreboard] [REF_MEM_WRITE] Addr=0x95cd09ac Data=0x59
# UVM_INFO ../src/env/axi4_scoreboard.sv(219) @ 5075000: uvm_test_top.env.scb [axi4_scoreboard] [REF_MEM_WRITE] Addr=0x95cd09b1 Data=0x96
# UVM_INFO ../src/env/axi4_scoreboard.sv(219) @ 5075000: uvm_test_top.env.scb [axi4_scoreboard] [REF_MEM_WRITE] Addr=0x95cd09b2 Data=0x44
# UVM_INFO ../src/env/axi4_scoreboard.sv(219) @ 5075000: uvm_test_top.env.scb [axi4_scoreboard] [REF_MEM_WRITE] Addr=0x95cd09b3 Data=0x55
# UVM_INFO ../src/env/axi4_scoreboard.sv(219) @ 5075000: uvm_test_top.env.scb [axi4_scoreboard] [REF_MEM_WRITE] Addr=0x95cd09b4 Data=0x7f
# UVM_INFO ../src/env/axi4_scoreboard.sv(219) @ 5075000: uvm_test_top.env.scb [axi4_scoreboard] [REF_MEM_WRITE] Addr=0x95cd09b5 Data=0x32
# UVM_INFO ../src/env/axi4_scoreboard.sv(219) @ 5075000: uvm_test_top.env.scb [axi4_scoreboard] [REF_MEM_WRITE] Addr=0x95cd09b6 Data=0xf0
# UVM_INFO ../src/env/axi4_scoreboard.sv(219) @ 5075000: uvm_test_top.env.scb [axi4_scoreboard] [REF_MEM_WRITE] Addr=0x95cd09b7 Data=0xaf
# UVM_INFO ../src/env/axi4_scoreboard.sv(219) @ 5075000: uvm_test_top.env.scb [axi4_scoreboard] [REF_MEM_WRITE] Addr=0x95cd09b8 Data=0x23
# UVM_INFO ../src/env/axi4_scoreboard.sv(219) @ 5075000: uvm_test_top.env.scb [axi4_scoreboard] [REF_MEM_WRITE] Addr=0x95cd09b9 Data=0x72
# UVM_INFO ../src/env/axi4_scoreboard.sv(219) @ 5075000: uvm_test_top.env.scb [axi4_scoreboard] [REF_MEM_WRITE] Addr=0x95cd09ba Data=0xd7
# UVM_INFO ../src/env/axi4_scoreboard.sv(219) @ 5075000: uvm_test_top.env.scb [axi4_scoreboard] [REF_MEM_WRITE] Addr=0x95cd09bb Data=0x59
# UVM_INFO ../src/env/axi4_scoreboard.sv(219) @ 5075000: uvm_test_top.env.scb [axi4_scoreboard] [REF_MEM_WRITE] Addr=0x95cd09bc Data=0x43
# UVM_INFO ../src/env/axi4_scoreboard.sv(219) @ 5075000: uvm_test_top.env.scb [axi4_scoreboard] [REF_MEM_WRITE] Addr=0x95cd09bd Data=0x90
# UVM_INFO ../src/env/axi4_scoreboard.sv(219) @ 5075000: uvm_test_top.env.scb [axi4_scoreboard] [REF_MEM_WRITE] Addr=0x95cd09be Data=0x41
# UVM_INFO ../src/env/axi4_scoreboard.sv(219) @ 5075000: uvm_test_top.env.scb [axi4_scoreboard] [REF_MEM_WRITE] Addr=0x95cd09bf Data=0x0a
# UVM_INFO ../src/env/axi4_scoreboard.sv(219) @ 5075000: uvm_test_top.env.scb [axi4_scoreboard] [REF_MEM_WRITE] Addr=0x95cd09c0 Data=0xeb
# UVM_INFO ../src/env/axi4_scoreboard.sv(219) @ 5075000: uvm_test_top.env.scb [axi4_scoreboard] [REF_MEM_WRITE] Addr=0x95cd09c2 Data=0x6e
# UVM_INFO ../src/env/axi4_scoreboard.sv(219) @ 5075000: uvm_test_top.env.scb [axi4_scoreboard] [REF_MEM_WRITE] Addr=0x95cd09c3 Data=0x38
# UVM_INFO ../src/env/axi4_scoreboard.sv(219) @ 5075000: uvm_test_top.env.scb [axi4_scoreboard] [REF_MEM_WRITE] Addr=0x95cd09c4 Data=0x1a
# UVM_INFO ../src/env/axi4_scoreboard.sv(219) @ 5075000: uvm_test_top.env.scb [axi4_scoreboard] [REF_MEM_WRITE] Addr=0x95cd09c5 Data=0x8d
# UVM_INFO ../src/env/axi4_scoreboard.sv(219) @ 5075000: uvm_test_top.env.scb [axi4_scoreboard] [REF_MEM_WRITE] Addr=0x95cd09c6 Data=0xc4
# UVM_INFO ../src/env/axi4_scoreboard.sv(219) @ 5075000: uvm_test_top.env.scb [axi4_scoreboard] [REF_MEM_WRITE] Addr=0x95cd09c7 Data=0x33
# UVM_INFO ../src/env/axi4_scoreboard.sv(219) @ 5075000: uvm_test_top.env.scb [axi4_scoreboard] [REF_MEM_WRITE] Addr=0x95cd09c8 Data=0xaa
# UVM_INFO ../src/env/axi4_scoreboard.sv(219) @ 5075000: uvm_test_top.env.scb [axi4_scoreboard] [REF_MEM_WRITE] Addr=0x95cd09ca Data=0xe4
# UVM_INFO ../src/env/axi4_scoreboard.sv(219) @ 5075000: uvm_test_top.env.scb [axi4_scoreboard] [REF_MEM_WRITE] Addr=0x95cd09cb Data=0x92
# UVM_INFO ../src/env/axi4_scoreboard.sv(219) @ 5075000: uvm_test_top.env.scb [axi4_scoreboard] [REF_MEM_WRITE] Addr=0x95cd09cd Data=0x64
# UVM_INFO ../src/env/axi4_scoreboard.sv(219) @ 5075000: uvm_test_top.env.scb [axi4_scoreboard] [REF_MEM_WRITE] Addr=0x95cd09ce Data=0xa1
# UVM_INFO ../src/env/axi4_scoreboard.sv(219) @ 5075000: uvm_test_top.env.scb [axi4_scoreboard] [REF_MEM_WRITE] Addr=0x95cd09cf Data=0x1e
# UVM_INFO ../src/env/axi4_scoreboard.sv(219) @ 5075000: uvm_test_top.env.scb [axi4_scoreboard] [REF_MEM_WRITE] Addr=0x95cd09d0 Data=0x00
# UVM_INFO ../src/env/axi4_scoreboard.sv(219) @ 5075000: uvm_test_top.env.scb [axi4_scoreboard] [REF_MEM_WRITE] Addr=0x95cd09d2 Data=0x96
# UVM_INFO ../src/env/axi4_scoreboard.sv(219) @ 5075000: uvm_test_top.env.scb [axi4_scoreboard] [REF_MEM_WRITE] Addr=0x95cd09d4 Data=0x11
# UVM_INFO ../src/env/axi4_scoreboard.sv(219) @ 5075000: uvm_test_top.env.scb [axi4_scoreboard] [REF_MEM_WRITE] Addr=0x95cd09d7 Data=0xe9
# UVM_INFO ../src/env/axi4_scoreboard.sv(219) @ 5075000: uvm_test_top.env.scb [axi4_scoreboard] [REF_MEM_WRITE] Addr=0x95cd09d8 Data=0x78
# UVM_INFO ../src/env/axi4_scoreboard.sv(219) @ 5075000: uvm_test_top.env.scb [axi4_scoreboard] [REF_MEM_WRITE] Addr=0x95cd09db Data=0xa4
# UVM_INFO ../src/env/axi4_scoreboard.sv(219) @ 5075000: uvm_test_top.env.scb [axi4_scoreboard] [REF_MEM_WRITE] Addr=0x95cd09dc Data=0xe9
# UVM_INFO ../src/env/axi4_scoreboard.sv(219) @ 5075000: uvm_test_top.env.scb [axi4_scoreboard] [REF_MEM_WRITE] Addr=0x95cd09dd Data=0x3d
# UVM_INFO ../src/env/axi4_scoreboard.sv(219) @ 5075000: uvm_test_top.env.scb [axi4_scoreboard] [REF_MEM_WRITE] Addr=0x95cd09de Data=0x60
# UVM_INFO ../src/env/axi4_scoreboard.sv(219) @ 5075000: uvm_test_top.env.scb [axi4_scoreboard] [REF_MEM_WRITE] Addr=0x95cd09e0 Data=0xa2
# UVM_INFO ../src/env/axi4_scoreboard.sv(219) @ 5075000: uvm_test_top.env.scb [axi4_scoreboard] [REF_MEM_WRITE] Addr=0x95cd09e1 Data=0x72
# UVM_INFO ../src/env/axi4_scoreboard.sv(219) @ 5075000: uvm_test_top.env.scb [axi4_scoreboard] [REF_MEM_WRITE] Addr=0x95cd09e8 Data=0x9b
# UVM_INFO ../src/env/axi4_scoreboard.sv(219) @ 5075000: uvm_test_top.env.scb [axi4_scoreboard] [REF_MEM_WRITE] Addr=0x95cd09e9 Data=0x27
# UVM_INFO ../src/env/axi4_scoreboard.sv(219) @ 5075000: uvm_test_top.env.scb [axi4_scoreboard] [REF_MEM_WRITE] Addr=0x95cd09ea Data=0xf8
# UVM_INFO ../src/env/axi4_scoreboard.sv(219) @ 5075000: uvm_test_top.env.scb [axi4_scoreboard] [REF_MEM_WRITE] Addr=0x95cd09eb Data=0x11
# UVM_INFO ../src/env/axi4_scoreboard.sv(219) @ 5075000: uvm_test_top.env.scb [axi4_scoreboard] [REF_MEM_WRITE] Addr=0x95cd09ed Data=0xac
# UVM_INFO ../src/env/axi4_scoreboard.sv(219) @ 5075000: uvm_test_top.env.scb [axi4_scoreboard] [REF_MEM_WRITE] Addr=0x95cd09ee Data=0x8f
# UVM_INFO ../src/env/axi4_scoreboard.sv(219) @ 5075000: uvm_test_top.env.scb [axi4_scoreboard] [REF_MEM_WRITE] Addr=0x95cd09ef Data=0x9b
# UVM_INFO ../src/env/axi4_scoreboard.sv(219) @ 5075000: uvm_test_top.env.scb [axi4_scoreboard] [REF_MEM_WRITE] Addr=0x95cd09f2 Data=0x0f
# UVM_INFO ../src/env/axi4_scoreboard.sv(219) @ 5075000: uvm_test_top.env.scb [axi4_scoreboard] [REF_MEM_WRITE] Addr=0x95cd09f5 Data=0xe9
# UVM_INFO ../src/env/axi4_scoreboard.sv(219) @ 5075000: uvm_test_top.env.scb [axi4_scoreboard] [REF_MEM_WRITE] Addr=0x95cd09f8 Data=0x91
# UVM_INFO ../src/env/axi4_scoreboard.sv(219) @ 5075000: uvm_test_top.env.scb [axi4_scoreboard] [REF_MEM_WRITE] Addr=0x95cd09f9 Data=0x20
# UVM_INFO ../src/env/axi4_scoreboard.sv(219) @ 5075000: uvm_test_top.env.scb [axi4_scoreboard] [REF_MEM_WRITE] Addr=0x95cd09fa Data=0x12
# UVM_INFO ../src/env/axi4_scoreboard.sv(219) @ 5075000: uvm_test_top.env.scb [axi4_scoreboard] [REF_MEM_WRITE] Addr=0x95cd09fb Data=0x48
# UVM_INFO ../src/env/axi4_scoreboard.sv(219) @ 5075000: uvm_test_top.env.scb [axi4_scoreboard] [REF_MEM_WRITE] Addr=0x95cd09fe Data=0xfb
# UVM_INFO ../src/env/axi4_scoreboard.sv(219) @ 5075000: uvm_test_top.env.scb [axi4_scoreboard] [REF_MEM_WRITE] Addr=0x95cd0a00 Data=0xae
# UVM_INFO ../src/env/axi4_scoreboard.sv(219) @ 5075000: uvm_test_top.env.scb [axi4_scoreboard] [REF_MEM_WRITE] Addr=0x95cd0a04 Data=0xf0
# UVM_INFO ../src/env/axi4_scoreboard.sv(219) @ 5075000: uvm_test_top.env.scb [axi4_scoreboard] [REF_MEM_WRITE] Addr=0x95cd0a05 Data=0x9e
# UVM_INFO ../src/env/axi4_scoreboard.sv(219) @ 5075000: uvm_test_top.env.scb [axi4_scoreboard] [REF_MEM_WRITE] Addr=0x95cd0a06 Data=0x03
# UVM_INFO ../src/env/axi4_scoreboard.sv(219) @ 5075000: uvm_test_top.env.scb [axi4_scoreboard] [REF_MEM_WRITE] Addr=0x95cd0a08 Data=0x9a
# UVM_INFO ../src/env/axi4_scoreboard.sv(219) @ 5075000: uvm_test_top.env.scb [axi4_scoreboard] [REF_MEM_WRITE] Addr=0x95cd0a09 Data=0x1d
# UVM_INFO ../src/env/axi4_scoreboard.sv(219) @ 5075000: uvm_test_top.env.scb [axi4_scoreboard] [REF_MEM_WRITE] Addr=0x95cd0a0b Data=0xbd
# UVM_INFO ../src/env/axi4_scoreboard.sv(219) @ 5075000: uvm_test_top.env.scb [axi4_scoreboard] [REF_MEM_WRITE] Addr=0x95cd0a0c Data=0x93
# UVM_INFO ../src/env/axi4_scoreboard.sv(219) @ 5075000: uvm_test_top.env.scb [axi4_scoreboard] [REF_MEM_WRITE] Addr=0x95cd0a0d Data=0x19
# UVM_INFO ../src/env/axi4_scoreboard.sv(219) @ 5075000: uvm_test_top.env.scb [axi4_scoreboard] [REF_MEM_WRITE] Addr=0x95cd0a11 Data=0x38
# UVM_INFO ../src/env/axi4_scoreboard.sv(219) @ 5075000: uvm_test_top.env.scb [axi4_scoreboard] [REF_MEM_WRITE] Addr=0x95cd0a12 Data=0xd9
# UVM_INFO ../src/env/axi4_scoreboard.sv(219) @ 5075000: uvm_test_top.env.scb [axi4_scoreboard] [REF_MEM_WRITE] Addr=0x95cd0a13 Data=0xf5
# UVM_INFO ../src/env/axi4_scoreboard.sv(219) @ 5075000: uvm_test_top.env.scb [axi4_scoreboard] [REF_MEM_WRITE] Addr=0x95cd0a15 Data=0xb6
# UVM_INFO ../src/env/axi4_scoreboard.sv(219) @ 5075000: uvm_test_top.env.scb [axi4_scoreboard] [REF_MEM_WRITE] Addr=0x95cd0a1d Data=0xfa
# UVM_INFO ../src/env/axi4_scoreboard.sv(219) @ 5075000: uvm_test_top.env.scb [axi4_scoreboard] [REF_MEM_WRITE] Addr=0x95cd0a20 Data=0x3f
# UVM_INFO ../src/env/axi4_scoreboard.sv(219) @ 5075000: uvm_test_top.env.scb [axi4_scoreboard] [REF_MEM_WRITE] Addr=0x95cd0a25 Data=0x58
# UVM_INFO ../src/env/axi4_scoreboard.sv(219) @ 5075000: uvm_test_top.env.scb [axi4_scoreboard] [REF_MEM_WRITE] Addr=0x95cd0a26 Data=0xcb
# UVM_INFO ../src/env/axi4_scoreboard.sv(219) @ 5075000: uvm_test_top.env.scb [axi4_scoreboard] [REF_MEM_WRITE] Addr=0x95cd0a28 Data=0xd1
# UVM_INFO ../src/env/axi4_scoreboard.sv(219) @ 5075000: uvm_test_top.env.scb [axi4_scoreboard] [REF_MEM_WRITE] Addr=0x95cd0a29 Data=0x64
# UVM_INFO ../src/env/axi4_scoreboard.sv(219) @ 5075000: uvm_test_top.env.scb [axi4_scoreboard] [REF_MEM_WRITE] Addr=0x95cd0a2b Data=0xf0
# UVM_INFO ../src/env/axi4_scoreboard.sv(219) @ 5075000: uvm_test_top.env.scb [axi4_scoreboard] [REF_MEM_WRITE] Addr=0x95cd0a2f Data=0x5f
# UVM_INFO ../src/env/axi4_scoreboard.sv(219) @ 5075000: uvm_test_top.env.scb [axi4_scoreboard] [REF_MEM_WRITE] Addr=0x95cd0a31 Data=0x7f
# UVM_INFO ../src/env/axi4_scoreboard.sv(219) @ 5075000: uvm_test_top.env.scb [axi4_scoreboard] [REF_MEM_WRITE] Addr=0x95cd0a32 Data=0xf4
# UVM_INFO ../src/env/axi4_scoreboard.sv(219) @ 5075000: uvm_test_top.env.scb [axi4_scoreboard] [REF_MEM_WRITE] Addr=0x95cd0a34 Data=0xeb
# UVM_INFO ../src/env/axi4_scoreboard.sv(219) @ 5075000: uvm_test_top.env.scb [axi4_scoreboard] [REF_MEM_WRITE] Addr=0x95cd0a35 Data=0x8b
# UVM_INFO ../src/env/axi4_scoreboard.sv(219) @ 5075000: uvm_test_top.env.scb [axi4_scoreboard] [REF_MEM_WRITE] Addr=0x95cd0a36 Data=0x4e
# UVM_INFO ../src/env/axi4_scoreboard.sv(219) @ 5075000: uvm_test_top.env.scb [axi4_scoreboard] [REF_MEM_WRITE] Addr=0x95cd0a38 Data=0x19
# UVM_INFO ../src/env/axi4_scoreboard.sv(219) @ 5075000: uvm_test_top.env.scb [axi4_scoreboard] [REF_MEM_WRITE] Addr=0x95cd0a39 Data=0xd2
# UVM_INFO ../src/env/axi4_scoreboard.sv(219) @ 5075000: uvm_test_top.env.scb [axi4_scoreboard] [REF_MEM_WRITE] Addr=0x95cd0a3a Data=0xe4
# UVM_INFO ../src/env/axi4_scoreboard.sv(219) @ 5075000: uvm_test_top.env.scb [axi4_scoreboard] [REF_MEM_WRITE] Addr=0x95cd0a3c Data=0x9f
# UVM_INFO ../src/env/axi4_scoreboard.sv(219) @ 5075000: uvm_test_top.env.scb [axi4_scoreboard] [REF_MEM_WRITE] Addr=0x95cd0a41 Data=0xb3
# UVM_INFO ../src/env/axi4_scoreboard.sv(219) @ 5075000: uvm_test_top.env.scb [axi4_scoreboard] [REF_MEM_WRITE] Addr=0x95cd0a42 Data=0x6d
# UVM_INFO ../src/env/axi4_scoreboard.sv(219) @ 5075000: uvm_test_top.env.scb [axi4_scoreboard] [REF_MEM_WRITE] Addr=0x95cd0a44 Data=0x8d
# UVM_INFO ../src/env/axi4_scoreboard.sv(219) @ 5075000: uvm_test_top.env.scb [axi4_scoreboard] [REF_MEM_WRITE] Addr=0x95cd0a46 Data=0xed
# UVM_INFO ../src/env/axi4_scoreboard.sv(219) @ 5075000: uvm_test_top.env.scb [axi4_scoreboard] [REF_MEM_WRITE] Addr=0x95cd0a49 Data=0xe9
# UVM_INFO ../src/env/axi4_scoreboard.sv(219) @ 5075000: uvm_test_top.env.scb [axi4_scoreboard] [REF_MEM_WRITE] Addr=0x95cd0a4d Data=0x89
# UVM_INFO ../src/env/axi4_scoreboard.sv(219) @ 5075000: uvm_test_top.env.scb [axi4_scoreboard] [REF_MEM_WRITE] Addr=0x95cd0a50 Data=0x0f
# UVM_INFO ../src/env/axi4_scoreboard.sv(219) @ 5075000: uvm_test_top.env.scb [axi4_scoreboard] [REF_MEM_WRITE] Addr=0x95cd0a51 Data=0x90
# UVM_INFO ../src/env/axi4_scoreboard.sv(219) @ 5075000: uvm_test_top.env.scb [axi4_scoreboard] [REF_MEM_WRITE] Addr=0x95cd0a52 Data=0x16
# UVM_INFO ../src/env/axi4_scoreboard.sv(219) @ 5075000: uvm_test_top.env.scb [axi4_scoreboard] [REF_MEM_WRITE] Addr=0x95cd0a54 Data=0x69
# UVM_INFO ../src/env/axi4_scoreboard.sv(219) @ 5075000: uvm_test_top.env.scb [axi4_scoreboard] [REF_MEM_WRITE] Addr=0x95cd0a55 Data=0x30
# UVM_INFO ../src/env/axi4_scoreboard.sv(219) @ 5075000: uvm_test_top.env.scb [axi4_scoreboard] [REF_MEM_WRITE] Addr=0x95cd0a56 Data=0x20
# UVM_INFO ../src/env/axi4_scoreboard.sv(219) @ 5075000: uvm_test_top.env.scb [axi4_scoreboard] [REF_MEM_WRITE] Addr=0x95cd0a59 Data=0x45
# UVM_INFO ../src/env/axi4_scoreboard.sv(219) @ 5075000: uvm_test_top.env.scb [axi4_scoreboard] [REF_MEM_WRITE] Addr=0x95cd0a61 Data=0x43
# UVM_INFO ../src/env/axi4_scoreboard.sv(219) @ 5075000: uvm_test_top.env.scb [axi4_scoreboard] [REF_MEM_WRITE] Addr=0x95cd0a64 Data=0x1a
# UVM_INFO ../src/env/axi4_scoreboard.sv(219) @ 5075000: uvm_test_top.env.scb [axi4_scoreboard] [REF_MEM_WRITE] Addr=0x95cd0a65 Data=0x65
# UVM_INFO ../src/env/axi4_scoreboard.sv(219) @ 5075000: uvm_test_top.env.scb [axi4_scoreboard] [REF_MEM_WRITE] Addr=0x95cd0a6c Data=0x68
# UVM_INFO ../src/env/axi4_scoreboard.sv(219) @ 5075000: uvm_test_top.env.scb [axi4_scoreboard] [REF_MEM_WRITE] Addr=0x95cd0a6d Data=0x39
# UVM_INFO ../src/env/axi4_scoreboard.sv(219) @ 5075000: uvm_test_top.env.scb [axi4_scoreboard] [REF_MEM_WRITE] Addr=0x95cd0a6e Data=0xbf
# UVM_INFO ../src/env/axi4_scoreboard.sv(219) @ 5075000: uvm_test_top.env.scb [axi4_scoreboard] [REF_MEM_WRITE] Addr=0x95cd0a70 Data=0x6e
# UVM_INFO ../src/env/axi4_scoreboard.sv(219) @ 5075000: uvm_test_top.env.scb [axi4_scoreboard] [REF_MEM_WRITE] Addr=0x95cd0a73 Data=0x53
# UVM_INFO ../src/env/axi4_scoreboard.sv(219) @ 5075000: uvm_test_top.env.scb [axi4_scoreboard] [REF_MEM_WRITE] Addr=0x95cd0a74 Data=0x84
# UVM_INFO ../src/env/axi4_scoreboard.sv(219) @ 5075000: uvm_test_top.env.scb [axi4_scoreboard] [REF_MEM_WRITE] Addr=0x95cd0a79 Data=0x9d
# UVM_INFO ../src/env/axi4_scoreboard.sv(219) @ 5075000: uvm_test_top.env.scb [axi4_scoreboard] [REF_MEM_WRITE] Addr=0x95cd0a7b Data=0x54
# UVM_INFO ../src/env/axi4_scoreboard.sv(219) @ 5075000: uvm_test_top.env.scb [axi4_scoreboard] [REF_MEM_WRITE] Addr=0x95cd0a7e Data=0x09
# UVM_INFO ../src/env/axi4_scoreboard.sv(219) @ 5075000: uvm_test_top.env.scb [axi4_scoreboard] [REF_MEM_WRITE] Addr=0x95cd0a82 Data=0x82
# UVM_INFO ../src/env/axi4_scoreboard.sv(219) @ 5075000: uvm_test_top.env.scb [axi4_scoreboard] [REF_MEM_WRITE] Addr=0x95cd0a84 Data=0x22
# UVM_INFO ../src/env/axi4_scoreboard.sv(219) @ 5075000: uvm_test_top.env.scb [axi4_scoreboard] [REF_MEM_WRITE] Addr=0x95cd0a8d Data=0x14
# UVM_INFO ../src/env/axi4_scoreboard.sv(219) @ 5075000: uvm_test_top.env.scb [axi4_scoreboard] [REF_MEM_WRITE] Addr=0x95cd0a90 Data=0x72
# UVM_INFO ../src/env/axi4_scoreboard.sv(219) @ 5075000: uvm_test_top.env.scb [axi4_scoreboard] [REF_MEM_WRITE] Addr=0x95cd0a91 Data=0xba
# UVM_INFO ../src/env/axi4_scoreboard.sv(219) @ 5075000: uvm_test_top.env.scb [axi4_scoreboard] [REF_MEM_WRITE] Addr=0x95cd0a92 Data=0xb7
# UVM_INFO ../src/env/axi4_scoreboard.sv(219) @ 5075000: uvm_test_top.env.scb [axi4_scoreboard] [REF_MEM_WRITE] Addr=0x95cd0a94 Data=0x24
# UVM_INFO ../src/env/axi4_scoreboard.sv(219) @ 5075000: uvm_test_top.env.scb [axi4_scoreboard] [REF_MEM_WRITE] Addr=0x95cd0a95 Data=0xe7
# UVM_INFO ../src/env/axi4_scoreboard.sv(219) @ 5075000: uvm_test_top.env.scb [axi4_scoreboard] [REF_MEM_WRITE] Addr=0x95cd0a96 Data=0x2d
# UVM_INFO ../src/env/axi4_scoreboard.sv(219) @ 5075000: uvm_test_top.env.scb [axi4_scoreboard] [REF_MEM_WRITE] Addr=0x95cd0a97 Data=0xed
# UVM_INFO ../src/env/axi4_scoreboard.sv(219) @ 5075000: uvm_test_top.env.scb [axi4_scoreboard] [REF_MEM_WRITE] Addr=0x95cd0a9f Data=0xc6
# UVM_INFO ../src/env/axi4_scoreboard.sv(219) @ 5075000: uvm_test_top.env.scb [axi4_scoreboard] [REF_MEM_WRITE] Addr=0x95cd0aa0 Data=0x4c
# UVM_INFO ../src/env/axi4_scoreboard.sv(219) @ 5075000: uvm_test_top.env.scb [axi4_scoreboard] [REF_MEM_WRITE] Addr=0x95cd0aa3 Data=0x0c
# UVM_INFO ../src/env/axi4_scoreboard.sv(219) @ 5075000: uvm_test_top.env.scb [axi4_scoreboard] [REF_MEM_WRITE] Addr=0x95cd0aa5 Data=0x61
# UVM_INFO ../src/env/axi4_scoreboard.sv(219) @ 5075000: uvm_test_top.env.scb [axi4_scoreboard] [REF_MEM_WRITE] Addr=0x95cd0aab Data=0x4f
# UVM_INFO ../src/env/axi4_scoreboard.sv(219) @ 5075000: uvm_test_top.env.scb [axi4_scoreboard] [REF_MEM_WRITE] Addr=0x95cd0aac Data=0x99
# UVM_INFO ../src/env/axi4_scoreboard.sv(219) @ 5075000: uvm_test_top.env.scb [axi4_scoreboard] [REF_MEM_WRITE] Addr=0x95cd0ab0 Data=0x07
# UVM_INFO ../src/env/axi4_scoreboard.sv(219) @ 5075000: uvm_test_top.env.scb [axi4_scoreboard] [REF_MEM_WRITE] Addr=0x95cd0ab1 Data=0x95
# UVM_INFO ../src/env/axi4_scoreboard.sv(219) @ 5075000: uvm_test_top.env.scb [axi4_scoreboard] [REF_MEM_WRITE] Addr=0x95cd0ab2 Data=0x1b
# UVM_INFO ../src/env/axi4_scoreboard.sv(219) @ 5075000: uvm_test_top.env.scb [axi4_scoreboard] [REF_MEM_WRITE] Addr=0x95cd0ab3 Data=0x56
# UVM_INFO ../src/env/axi4_scoreboard.sv(219) @ 5075000: uvm_test_top.env.scb [axi4_scoreboard] [REF_MEM_WRITE] Addr=0x95cd0ab4 Data=0x6b
# UVM_INFO ../src/env/axi4_scoreboard.sv(219) @ 5075000: uvm_test_top.env.scb [axi4_scoreboard] [REF_MEM_WRITE] Addr=0x95cd0ab6 Data=0x50
# UVM_INFO ../src/env/axi4_scoreboard.sv(219) @ 5075000: uvm_test_top.env.scb [axi4_scoreboard] [REF_MEM_WRITE] Addr=0x95cd0ab9 Data=0xe5
# UVM_INFO ../src/env/axi4_scoreboard.sv(219) @ 5075000: uvm_test_top.env.scb [axi4_scoreboard] [REF_MEM_WRITE] Addr=0x95cd0abb Data=0x74
# UVM_INFO ../src/env/axi4_scoreboard.sv(219) @ 5075000: uvm_test_top.env.scb [axi4_scoreboard] [REF_MEM_WRITE] Addr=0x95cd0abc Data=0x05
# UVM_INFO ../src/env/axi4_scoreboard.sv(219) @ 5075000: uvm_test_top.env.scb [axi4_scoreboard] [REF_MEM_WRITE] Addr=0x95cd0abd Data=0x6f
# UVM_INFO ../src/env/axi4_scoreboard.sv(219) @ 5075000: uvm_test_top.env.scb [axi4_scoreboard] [REF_MEM_WRITE] Addr=0x95cd0ac1 Data=0x80
# UVM_INFO ../src/env/axi4_scoreboard.sv(219) @ 5075000: uvm_test_top.env.scb [axi4_scoreboard] [REF_MEM_WRITE] Addr=0x95cd0ac4 Data=0x5d
# UVM_INFO ../src/env/axi4_scoreboard.sv(219) @ 5075000: uvm_test_top.env.scb [axi4_scoreboard] [REF_MEM_WRITE] Addr=0x95cd0ac6 Data=0x1a
# UVM_INFO ../src/env/axi4_scoreboard.sv(219) @ 5075000: uvm_test_top.env.scb [axi4_scoreboard] [REF_MEM_WRITE] Addr=0x95cd0ac7 Data=0x2a
# UVM_INFO ../src/env/axi4_scoreboard.sv(219) @ 5075000: uvm_test_top.env.scb [axi4_scoreboard] [REF_MEM_WRITE] Addr=0x95cd0ac8 Data=0xfb
# UVM_INFO ../src/env/axi4_scoreboard.sv(219) @ 5075000: uvm_test_top.env.scb [axi4_scoreboard] [REF_MEM_WRITE] Addr=0x95cd0ac9 Data=0x7d
# UVM_INFO ../src/env/axi4_scoreboard.sv(219) @ 5075000: uvm_test_top.env.scb [axi4_scoreboard] [REF_MEM_WRITE] Addr=0x95cd0aca Data=0xf1
# UVM_INFO ../src/env/axi4_scoreboard.sv(219) @ 5075000: uvm_test_top.env.scb [axi4_scoreboard] [REF_MEM_WRITE] Addr=0x95cd0acb Data=0x6a
# UVM_INFO ../src/env/axi4_scoreboard.sv(219) @ 5075000: uvm_test_top.env.scb [axi4_scoreboard] [REF_MEM_WRITE] Addr=0x95cd0acc Data=0x99
# UVM_INFO ../src/env/axi4_scoreboard.sv(219) @ 5075000: uvm_test_top.env.scb [axi4_scoreboard] [REF_MEM_WRITE] Addr=0x95cd0ad0 Data=0x64
# UVM_INFO ../src/env/axi4_scoreboard.sv(219) @ 5075000: uvm_test_top.env.scb [axi4_scoreboard] [REF_MEM_WRITE] Addr=0x95cd0ad1 Data=0x45
# UVM_INFO ../src/env/axi4_scoreboard.sv(219) @ 5075000: uvm_test_top.env.scb [axi4_scoreboard] [REF_MEM_WRITE] Addr=0x95cd0ad3 Data=0xb7
# UVM_INFO ../src/env/axi4_scoreboard.sv(219) @ 5075000: uvm_test_top.env.scb [axi4_scoreboard] [REF_MEM_WRITE] Addr=0x95cd0ad5 Data=0x66
# UVM_INFO ../src/env/axi4_scoreboard.sv(219) @ 5075000: uvm_test_top.env.scb [axi4_scoreboard] [REF_MEM_WRITE] Addr=0x95cd0ad6 Data=0xc5
# UVM_INFO ../src/env/axi4_scoreboard.sv(219) @ 5075000: uvm_test_top.env.scb [axi4_scoreboard] [REF_MEM_WRITE] Addr=0x95cd0ad7 Data=0xd4
# UVM_INFO ../src/env/axi4_scoreboard.sv(219) @ 5075000: uvm_test_top.env.scb [axi4_scoreboard] [REF_MEM_WRITE] Addr=0x95cd0ad8 Data=0x0e
# UVM_INFO ../src/env/axi4_scoreboard.sv(219) @ 5075000: uvm_test_top.env.scb [axi4_scoreboard] [REF_MEM_WRITE] Addr=0x95cd0ad9 Data=0xf0
# UVM_INFO ../src/env/axi4_scoreboard.sv(219) @ 5075000: uvm_test_top.env.scb [axi4_scoreboard] [REF_MEM_WRITE] Addr=0x95cd0ada Data=0x58
# UVM_INFO ../src/env/axi4_scoreboard.sv(219) @ 5075000: uvm_test_top.env.scb [axi4_scoreboard] [REF_MEM_WRITE] Addr=0x95cd0adb Data=0x3f
# UVM_INFO ../src/env/axi4_scoreboard.sv(219) @ 5075000: uvm_test_top.env.scb [axi4_scoreboard] [REF_MEM_WRITE] Addr=0x95cd0add Data=0x02
# UVM_INFO ../src/env/axi4_scoreboard.sv(219) @ 5075000: uvm_test_top.env.scb [axi4_scoreboard] [REF_MEM_WRITE] Addr=0x95cd0ade Data=0x43
# UVM_INFO ../src/env/axi4_scoreboard.sv(219) @ 5075000: uvm_test_top.env.scb [axi4_scoreboard] [REF_MEM_WRITE] Addr=0x95cd0ae3 Data=0xa7
# UVM_INFO ../src/env/axi4_scoreboard.sv(219) @ 5075000: uvm_test_top.env.scb [axi4_scoreboard] [REF_MEM_WRITE] Addr=0x95cd0ae4 Data=0x87
# UVM_INFO ../src/env/axi4_scoreboard.sv(219) @ 5075000: uvm_test_top.env.scb [axi4_scoreboard] [REF_MEM_WRITE] Addr=0x95cd0ae6 Data=0xc4
# UVM_INFO ../src/env/axi4_scoreboard.sv(219) @ 5075000: uvm_test_top.env.scb [axi4_scoreboard] [REF_MEM_WRITE] Addr=0x95cd0ae7 Data=0x9b
# UVM_INFO ../src/env/axi4_scoreboard.sv(219) @ 5075000: uvm_test_top.env.scb [axi4_scoreboard] [REF_MEM_WRITE] Addr=0x95cd0ae8 Data=0x25
# UVM_INFO ../src/env/axi4_scoreboard.sv(219) @ 5075000: uvm_test_top.env.scb [axi4_scoreboard] [REF_MEM_WRITE] Addr=0x95cd0aeb Data=0x2a
# UVM_INFO ../src/env/axi4_scoreboard.sv(219) @ 5075000: uvm_test_top.env.scb [axi4_scoreboard] [REF_MEM_WRITE] Addr=0x95cd0aee Data=0xab
# UVM_INFO ../src/env/axi4_scoreboard.sv(219) @ 5075000: uvm_test_top.env.scb [axi4_scoreboard] [REF_MEM_WRITE] Addr=0x95cd0af0 Data=0xc5
# UVM_INFO ../src/env/axi4_scoreboard.sv(219) @ 5075000: uvm_test_top.env.scb [axi4_scoreboard] [REF_MEM_WRITE] Addr=0x95cd0af2 Data=0xc0
# UVM_INFO ../src/env/axi4_scoreboard.sv(219) @ 5075000: uvm_test_top.env.scb [axi4_scoreboard] [REF_MEM_WRITE] Addr=0x95cd0af3 Data=0xad
# UVM_INFO ../src/env/axi4_scoreboard.sv(219) @ 5075000: uvm_test_top.env.scb [axi4_scoreboard] [REF_MEM_WRITE] Addr=0x95cd0af9 Data=0x69
# UVM_INFO ../src/env/axi4_scoreboard.sv(219) @ 5075000: uvm_test_top.env.scb [axi4_scoreboard] [REF_MEM_WRITE] Addr=0x95cd0afa Data=0x38
# UVM_INFO ../src/env/axi4_scoreboard.sv(219) @ 5075000: uvm_test_top.env.scb [axi4_scoreboard] [REF_MEM_WRITE] Addr=0x95cd0afb Data=0xe0
# UVM_INFO ../src/env/axi4_scoreboard.sv(219) @ 5075000: uvm_test_top.env.scb [axi4_scoreboard] [REF_MEM_WRITE] Addr=0x95cd0afe Data=0x3f
# UVM_INFO ../src/env/axi4_scoreboard.sv(219) @ 5075000: uvm_test_top.env.scb [axi4_scoreboard] [REF_MEM_WRITE] Addr=0x95cd0b01 Data=0xa2
# UVM_INFO ../src/env/axi4_scoreboard.sv(219) @ 5075000: uvm_test_top.env.scb [axi4_scoreboard] [REF_MEM_WRITE] Addr=0x95cd0b02 Data=0xbc
# UVM_INFO ../src/env/axi4_scoreboard.sv(219) @ 5075000: uvm_test_top.env.scb [axi4_scoreboard] [REF_MEM_WRITE] Addr=0x95cd0b03 Data=0x92
# UVM_INFO ../src/env/axi4_scoreboard.sv(219) @ 5075000: uvm_test_top.env.scb [axi4_scoreboard] [REF_MEM_WRITE] Addr=0x95cd0b07 Data=0xb3
# UVM_INFO ../src/env/axi4_scoreboard.sv(219) @ 5075000: uvm_test_top.env.scb [axi4_scoreboard] [REF_MEM_WRITE] Addr=0x95cd0b08 Data=0x94
# UVM_INFO ../src/env/axi4_scoreboard.sv(219) @ 5075000: uvm_test_top.env.scb [axi4_scoreboard] [REF_MEM_WRITE] Addr=0x95cd0b09 Data=0x29
# UVM_INFO ../src/env/axi4_scoreboard.sv(219) @ 5075000: uvm_test_top.env.scb [axi4_scoreboard] [REF_MEM_WRITE] Addr=0x95cd0b0b Data=0xc4
# UVM_INFO ../src/env/axi4_scoreboard.sv(219) @ 5075000: uvm_test_top.env.scb [axi4_scoreboard] [REF_MEM_WRITE] Addr=0x95cd0b0d Data=0x70
# UVM_INFO ../src/env/axi4_scoreboard.sv(219) @ 5075000: uvm_test_top.env.scb [axi4_scoreboard] [REF_MEM_WRITE] Addr=0x95cd0b14 Data=0x47
# UVM_INFO ../src/env/axi4_scoreboard.sv(219) @ 5075000: uvm_test_top.env.scb [axi4_scoreboard] [REF_MEM_WRITE] Addr=0x95cd0b15 Data=0x53
# UVM_INFO ../src/env/axi4_scoreboard.sv(219) @ 5075000: uvm_test_top.env.scb [axi4_scoreboard] [REF_MEM_WRITE] Addr=0x95cd0b16 Data=0x24
# UVM_INFO ../src/env/axi4_scoreboard.sv(219) @ 5075000: uvm_test_top.env.scb [axi4_scoreboard] [REF_MEM_WRITE] Addr=0x95cd0b17 Data=0x4e
# UVM_INFO ../src/env/axi4_scoreboard.sv(219) @ 5075000: uvm_test_top.env.scb [axi4_scoreboard] [REF_MEM_WRITE] Addr=0x95cd0b18 Data=0xca
# UVM_INFO ../src/env/axi4_scoreboard.sv(219) @ 5075000: uvm_test_top.env.scb [axi4_scoreboard] [REF_MEM_WRITE] Addr=0x95cd0b1a Data=0x36
# UVM_INFO ../src/env/axi4_scoreboard.sv(219) @ 5075000: uvm_test_top.env.scb [axi4_scoreboard] [REF_MEM_WRITE] Addr=0x95cd0b1b Data=0x14
# UVM_INFO ../src/env/axi4_scoreboard.sv(219) @ 5075000: uvm_test_top.env.scb [axi4_scoreboard] [REF_MEM_WRITE] Addr=0x95cd0b1c Data=0x87
# UVM_INFO ../src/env/axi4_scoreboard.sv(219) @ 5075000: uvm_test_top.env.scb [axi4_scoreboard] [REF_MEM_WRITE] Addr=0x95cd0b1f Data=0x4d
# UVM_INFO ../src/env/axi4_scoreboard.sv(219) @ 5075000: uvm_test_top.env.scb [axi4_scoreboard] [REF_MEM_WRITE] Addr=0x95cd0b20 Data=0xcb
# UVM_INFO ../src/env/axi4_scoreboard.sv(219) @ 5075000: uvm_test_top.env.scb [axi4_scoreboard] [REF_MEM_WRITE] Addr=0x95cd0b22 Data=0xd1
# UVM_INFO ../src/env/axi4_scoreboard.sv(219) @ 5075000: uvm_test_top.env.scb [axi4_scoreboard] [REF_MEM_WRITE] Addr=0x95cd0b23 Data=0xd6
# UVM_INFO ../src/env/axi4_scoreboard.sv(219) @ 5075000: uvm_test_top.env.scb [axi4_scoreboard] [REF_MEM_WRITE] Addr=0x95cd0b24 Data=0xec
# UVM_INFO ../src/env/axi4_scoreboard.sv(219) @ 5075000: uvm_test_top.env.scb [axi4_scoreboard] [REF_MEM_WRITE] Addr=0x95cd0b25 Data=0x82
# UVM_INFO ../src/env/axi4_scoreboard.sv(219) @ 5075000: uvm_test_top.env.scb [axi4_scoreboard] [REF_MEM_WRITE] Addr=0x95cd0b26 Data=0x60
# UVM_INFO ../src/env/axi4_scoreboard.sv(219) @ 5075000: uvm_test_top.env.scb [axi4_scoreboard] [REF_MEM_WRITE] Addr=0x95cd0b28 Data=0x80
# UVM_INFO ../src/env/axi4_scoreboard.sv(219) @ 5075000: uvm_test_top.env.scb [axi4_scoreboard] [REF_MEM_WRITE] Addr=0x95cd0b2b Data=0x19
# UVM_INFO ../src/env/axi4_scoreboard.sv(219) @ 5075000: uvm_test_top.env.scb [axi4_scoreboard] [REF_MEM_WRITE] Addr=0x95cd0b2c Data=0xc8
# UVM_INFO ../src/env/axi4_scoreboard.sv(219) @ 5075000: uvm_test_top.env.scb [axi4_scoreboard] [REF_MEM_WRITE] Addr=0x95cd0b2e Data=0x0e
# UVM_INFO ../src/env/axi4_scoreboard.sv(219) @ 5075000: uvm_test_top.env.scb [axi4_scoreboard] [REF_MEM_WRITE] Addr=0x95cd0b2f Data=0x1f
# UVM_INFO ../src/env/axi4_scoreboard.sv(219) @ 5075000: uvm_test_top.env.scb [axi4_scoreboard] [REF_MEM_WRITE] Addr=0x95cd0b33 Data=0x31
# UVM_INFO ../src/env/axi4_scoreboard.sv(219) @ 5075000: uvm_test_top.env.scb [axi4_scoreboard] [REF_MEM_WRITE] Addr=0x95cd0b34 Data=0x23
# UVM_INFO ../src/env/axi4_scoreboard.sv(219) @ 5075000: uvm_test_top.env.scb [axi4_scoreboard] [REF_MEM_WRITE] Addr=0x95cd0b35 Data=0xae
# UVM_INFO ../src/env/axi4_scoreboard.sv(219) @ 5075000: uvm_test_top.env.scb [axi4_scoreboard] [REF_MEM_WRITE] Addr=0x95cd0b36 Data=0xaa
# UVM_INFO ../src/env/axi4_scoreboard.sv(219) @ 5075000: uvm_test_top.env.scb [axi4_scoreboard] [REF_MEM_WRITE] Addr=0x95cd0b37 Data=0x21
# UVM_INFO ../src/env/axi4_scoreboard.sv(219) @ 5075000: uvm_test_top.env.scb [axi4_scoreboard] [REF_MEM_WRITE] Addr=0x95cd0b38 Data=0xab
# UVM_INFO ../src/env/axi4_scoreboard.sv(219) @ 5075000: uvm_test_top.env.scb [axi4_scoreboard] [REF_MEM_WRITE] Addr=0x95cd0b3a Data=0xd5
# UVM_INFO ../src/env/axi4_scoreboard.sv(219) @ 5075000: uvm_test_top.env.scb [axi4_scoreboard] [REF_MEM_WRITE] Addr=0x95cd0b3b Data=0x71
# UVM_INFO ../src/env/axi4_scoreboard.sv(219) @ 5075000: uvm_test_top.env.scb [axi4_scoreboard] [REF_MEM_WRITE] Addr=0x95cd0b3c Data=0x28
# UVM_INFO ../src/env/axi4_scoreboard.sv(219) @ 5075000: uvm_test_top.env.scb [axi4_scoreboard] [REF_MEM_WRITE] Addr=0x95cd0b3e Data=0xf9
# UVM_INFO ../src/env/axi4_scoreboard.sv(219) @ 5075000: uvm_test_top.env.scb [axi4_scoreboard] [REF_MEM_WRITE] Addr=0x95cd0b44 Data=0x62
# UVM_INFO ../src/env/axi4_scoreboard.sv(219) @ 5075000: uvm_test_top.env.scb [axi4_scoreboard] [REF_MEM_WRITE] Addr=0x95cd0b46 Data=0x26
# UVM_INFO ../src/env/axi4_scoreboard.sv(219) @ 5075000: uvm_test_top.env.scb [axi4_scoreboard] [REF_MEM_WRITE] Addr=0x95cd0b4c Data=0x1a
# UVM_INFO ../src/env/axi4_scoreboard.sv(219) @ 5075000: uvm_test_top.env.scb [axi4_scoreboard] [REF_MEM_WRITE] Addr=0x95cd0b4d Data=0x41
# UVM_INFO ../src/env/axi4_scoreboard.sv(219) @ 5075000: uvm_test_top.env.scb [axi4_scoreboard] [REF_MEM_WRITE] Addr=0x95cd0b51 Data=0x8b
# UVM_INFO ../src/env/axi4_scoreboard.sv(219) @ 5075000: uvm_test_top.env.scb [axi4_scoreboard] [REF_MEM_WRITE] Addr=0x95cd0b54 Data=0x47
# UVM_INFO ../src/env/axi4_scoreboard.sv(219) @ 5075000: uvm_test_top.env.scb [axi4_scoreboard] [REF_MEM_WRITE] Addr=0x95cd0b55 Data=0x64
# UVM_INFO ../src/env/axi4_scoreboard.sv(219) @ 5075000: uvm_test_top.env.scb [axi4_scoreboard] [REF_MEM_WRITE] Addr=0x95cd0b57 Data=0xe0
# UVM_INFO ../src/env/axi4_scoreboard.sv(219) @ 5075000: uvm_test_top.env.scb [axi4_scoreboard] [REF_MEM_WRITE] Addr=0x95cd0b58 Data=0xcc
# UVM_INFO ../src/env/axi4_scoreboard.sv(219) @ 5075000: uvm_test_top.env.scb [axi4_scoreboard] [REF_MEM_WRITE] Addr=0x95cd0b59 Data=0x0d
# UVM_INFO ../src/env/axi4_scoreboard.sv(219) @ 5075000: uvm_test_top.env.scb [axi4_scoreboard] [REF_MEM_WRITE] Addr=0x95cd0b5a Data=0x68
# UVM_INFO ../src/env/axi4_scoreboard.sv(219) @ 5075000: uvm_test_top.env.scb [axi4_scoreboard] [REF_MEM_WRITE] Addr=0x95cd0b5d Data=0x11
# UVM_INFO ../src/env/axi4_scoreboard.sv(219) @ 5075000: uvm_test_top.env.scb [axi4_scoreboard] [REF_MEM_WRITE] Addr=0x95cd0b5e Data=0xdb
# UVM_INFO ../src/env/axi4_scoreboard.sv(219) @ 5075000: uvm_test_top.env.scb [axi4_scoreboard] [REF_MEM_WRITE] Addr=0x95cd0b5f Data=0x3c
# UVM_INFO ../src/env/axi4_scoreboard.sv(219) @ 5075000: uvm_test_top.env.scb [axi4_scoreboard] [REF_MEM_WRITE] Addr=0x95cd0b60 Data=0x59
# UVM_INFO ../src/env/axi4_scoreboard.sv(219) @ 5075000: uvm_test_top.env.scb [axi4_scoreboard] [REF_MEM_WRITE] Addr=0x95cd0b62 Data=0x94
# UVM_INFO ../src/env/axi4_scoreboard.sv(219) @ 5075000: uvm_test_top.env.scb [axi4_scoreboard] [REF_MEM_WRITE] Addr=0x95cd0b63 Data=0x68
# UVM_INFO ../src/env/axi4_scoreboard.sv(219) @ 5075000: uvm_test_top.env.scb [axi4_scoreboard] [REF_MEM_WRITE] Addr=0x95cd0b66 Data=0x9a
# UVM_INFO ../src/env/axi4_scoreboard.sv(219) @ 5075000: uvm_test_top.env.scb [axi4_scoreboard] [REF_MEM_WRITE] Addr=0x95cd0b6d Data=0xdb
# UVM_INFO ../src/env/axi4_scoreboard.sv(219) @ 5075000: uvm_test_top.env.scb [axi4_scoreboard] [REF_MEM_WRITE] Addr=0x95cd0b6e Data=0x5b
# UVM_INFO ../src/env/axi4_scoreboard.sv(219) @ 5075000: uvm_test_top.env.scb [axi4_scoreboard] [REF_MEM_WRITE] Addr=0x95cd0b6f Data=0xf7
# UVM_INFO ../src/env/axi4_scoreboard.sv(219) @ 5075000: uvm_test_top.env.scb [axi4_scoreboard] [REF_MEM_WRITE] Addr=0x95cd0b70 Data=0xa9
# UVM_INFO ../src/env/axi4_scoreboard.sv(219) @ 5075000: uvm_test_top.env.scb [axi4_scoreboard] [REF_MEM_WRITE] Addr=0x95cd0b74 Data=0x95
# UVM_INFO ../src/env/axi4_scoreboard.sv(219) @ 5075000: uvm_test_top.env.scb [axi4_scoreboard] [REF_MEM_WRITE] Addr=0x95cd0b75 Data=0x2d
# UVM_INFO ../src/env/axi4_scoreboard.sv(219) @ 5075000: uvm_test_top.env.scb [axi4_scoreboard] [REF_MEM_WRITE] Addr=0x95cd0b76 Data=0x2f
# UVM_INFO ../src/env/axi4_scoreboard.sv(219) @ 5075000: uvm_test_top.env.scb [axi4_scoreboard] [REF_MEM_WRITE] Addr=0x95cd0b79 Data=0xc7
# UVM_INFO ../src/env/axi4_scoreboard.sv(219) @ 5075000: uvm_test_top.env.scb [axi4_scoreboard] [REF_MEM_WRITE] Addr=0x95cd0b7b Data=0xe7
# UVM_INFO ../src/env/axi4_scoreboard.sv(219) @ 5075000: uvm_test_top.env.scb [axi4_scoreboard] [REF_MEM_WRITE] Addr=0x95cd0b7d Data=0x6d
# UVM_INFO ../src/env/axi4_scoreboard.sv(219) @ 5075000: uvm_test_top.env.scb [axi4_scoreboard] [REF_MEM_WRITE] Addr=0x95cd0b80 Data=0xa0
# UVM_INFO ../src/env/axi4_scoreboard.sv(219) @ 5075000: uvm_test_top.env.scb [axi4_scoreboard] [REF_MEM_WRITE] Addr=0x95cd0b81 Data=0x9e
# UVM_INFO ../src/env/axi4_scoreboard.sv(219) @ 5075000: uvm_test_top.env.scb [axi4_scoreboard] [REF_MEM_WRITE] Addr=0x95cd0b82 Data=0x5a
# UVM_INFO ../src/env/axi4_scoreboard.sv(219) @ 5075000: uvm_test_top.env.scb [axi4_scoreboard] [REF_MEM_WRITE] Addr=0x95cd0b84 Data=0x93
# UVM_INFO ../src/env/axi4_scoreboard.sv(219) @ 5075000: uvm_test_top.env.scb [axi4_scoreboard] [REF_MEM_WRITE] Addr=0x95cd0b85 Data=0x39
# UVM_INFO ../src/env/axi4_scoreboard.sv(219) @ 5075000: uvm_test_top.env.scb [axi4_scoreboard] [REF_MEM_WRITE] Addr=0x95cd0b86 Data=0x6c
# UVM_INFO ../src/env/axi4_scoreboard.sv(219) @ 5075000: uvm_test_top.env.scb [axi4_scoreboard] [REF_MEM_WRITE] Addr=0x95cd0b87 Data=0x94
# UVM_INFO ../src/env/axi4_scoreboard.sv(219) @ 5075000: uvm_test_top.env.scb [axi4_scoreboard] [REF_MEM_WRITE] Addr=0x95cd0b88 Data=0xe6
# UVM_INFO ../src/env/axi4_scoreboard.sv(219) @ 5075000: uvm_test_top.env.scb [axi4_scoreboard] [REF_MEM_WRITE] Addr=0x95cd0b8a Data=0x10
# UVM_INFO ../src/env/axi4_scoreboard.sv(219) @ 5075000: uvm_test_top.env.scb [axi4_scoreboard] [REF_MEM_WRITE] Addr=0x95cd0b8b Data=0x2d
# UVM_INFO ../src/env/axi4_scoreboard.sv(219) @ 5075000: uvm_test_top.env.scb [axi4_scoreboard] [REF_MEM_WRITE] Addr=0x95cd0b8d Data=0xa4
# UVM_INFO ../src/env/axi4_scoreboard.sv(219) @ 5075000: uvm_test_top.env.scb [axi4_scoreboard] [REF_MEM_WRITE] Addr=0x95cd0b8e Data=0xee
# UVM_INFO ../src/env/axi4_scoreboard.sv(219) @ 5075000: uvm_test_top.env.scb [axi4_scoreboard] [REF_MEM_WRITE] Addr=0x95cd0b91 Data=0x7a
# UVM_INFO ../src/env/axi4_scoreboard.sv(219) @ 5075000: uvm_test_top.env.scb [axi4_scoreboard] [REF_MEM_WRITE] Addr=0x95cd0b92 Data=0x63
# UVM_INFO ../src/env/axi4_scoreboard.sv(219) @ 5075000: uvm_test_top.env.scb [axi4_scoreboard] [REF_MEM_WRITE] Addr=0x95cd0b94 Data=0xbf
# UVM_INFO ../src/env/axi4_scoreboard.sv(219) @ 5075000: uvm_test_top.env.scb [axi4_scoreboard] [REF_MEM_WRITE] Addr=0x95cd0b96 Data=0x13
# UVM_INFO ../src/env/axi4_scoreboard.sv(219) @ 5075000: uvm_test_top.env.scb [axi4_scoreboard] [REF_MEM_WRITE] Addr=0x95cd0b97 Data=0x21
# UVM_INFO ../src/env/axi4_scoreboard.sv(219) @ 5075000: uvm_test_top.env.scb [axi4_scoreboard] [REF_MEM_WRITE] Addr=0x95cd0b99 Data=0xe9
# UVM_INFO ../src/env/axi4_scoreboard.sv(219) @ 5075000: uvm_test_top.env.scb [axi4_scoreboard] [REF_MEM_WRITE] Addr=0x95cd0b9a Data=0xe9
# UVM_INFO ../src/env/axi4_scoreboard.sv(219) @ 5075000: uvm_test_top.env.scb [axi4_scoreboard] [REF_MEM_WRITE] Addr=0x95cd0b9b Data=0xbb
# UVM_INFO ../src/env/axi4_scoreboard.sv(219) @ 5075000: uvm_test_top.env.scb [axi4_scoreboard] [REF_MEM_WRITE] Addr=0x95cd0b9c Data=0x68
# UVM_INFO ../src/env/axi4_scoreboard.sv(219) @ 5075000: uvm_test_top.env.scb [axi4_scoreboard] [REF_MEM_WRITE] Addr=0x95cd0ba1 Data=0x99
# UVM_INFO ../src/env/axi4_scoreboard.sv(219) @ 5075000: uvm_test_top.env.scb [axi4_scoreboard] [REF_MEM_WRITE] Addr=0x95cd0ba3 Data=0xb2
# UVM_INFO ../src/env/axi4_scoreboard.sv(219) @ 5075000: uvm_test_top.env.scb [axi4_scoreboard] [REF_MEM_WRITE] Addr=0x95cd0ba4 Data=0x8c
# UVM_INFO ../src/env/axi4_scoreboard.sv(219) @ 5075000: uvm_test_top.env.scb [axi4_scoreboard] [REF_MEM_WRITE] Addr=0x95cd0ba7 Data=0x96
# UVM_INFO ../src/env/axi4_scoreboard.sv(219) @ 5075000: uvm_test_top.env.scb [axi4_scoreboard] [REF_MEM_WRITE] Addr=0x95cd0ba8 Data=0x13
# UVM_INFO ../src/env/axi4_scoreboard.sv(219) @ 5075000: uvm_test_top.env.scb [axi4_scoreboard] [REF_MEM_WRITE] Addr=0x95cd0bac Data=0x38
# UVM_INFO ../src/env/axi4_scoreboard.sv(219) @ 5075000: uvm_test_top.env.scb [axi4_scoreboard] [REF_MEM_WRITE] Addr=0x95cd0bb0 Data=0x97
# UVM_INFO ../src/env/axi4_scoreboard.sv(219) @ 5075000: uvm_test_top.env.scb [axi4_scoreboard] [REF_MEM_WRITE] Addr=0x95cd0bb3 Data=0xfe
# UVM_INFO ../src/env/axi4_scoreboard.sv(219) @ 5075000: uvm_test_top.env.scb [axi4_scoreboard] [REF_MEM_WRITE] Addr=0x95cd0bb5 Data=0x29
# UVM_INFO ../src/env/axi4_scoreboard.sv(219) @ 5075000: uvm_test_top.env.scb [axi4_scoreboard] [REF_MEM_WRITE] Addr=0x95cd0bb6 Data=0x43
# UVM_INFO ../src/env/axi4_scoreboard.sv(219) @ 5075000: uvm_test_top.env.scb [axi4_scoreboard] [REF_MEM_WRITE] Addr=0x95cd0bb9 Data=0x13
# UVM_INFO ../src/env/axi4_scoreboard.sv(219) @ 5075000: uvm_test_top.env.scb [axi4_scoreboard] [REF_MEM_WRITE] Addr=0x95cd0bbb Data=0x5c
# UVM_INFO ../src/env/axi4_scoreboard.sv(219) @ 5075000: uvm_test_top.env.scb [axi4_scoreboard] [REF_MEM_WRITE] Addr=0x95cd0bbd Data=0x8f
# UVM_INFO ../src/env/axi4_scoreboard.sv(219) @ 5075000: uvm_test_top.env.scb [axi4_scoreboard] [REF_MEM_WRITE] Addr=0x95cd0bc3 Data=0x9d
# UVM_INFO ../src/env/axi4_scoreboard.sv(219) @ 5075000: uvm_test_top.env.scb [axi4_scoreboard] [REF_MEM_WRITE] Addr=0x95cd0bc5 Data=0x6b
# UVM_INFO ../src/env/axi4_scoreboard.sv(219) @ 5075000: uvm_test_top.env.scb [axi4_scoreboard] [REF_MEM_WRITE] Addr=0x95cd0bc7 Data=0xfb
# UVM_INFO ../src/env/axi4_scoreboard.sv(219) @ 5075000: uvm_test_top.env.scb [axi4_scoreboard] [REF_MEM_WRITE] Addr=0x95cd0bc8 Data=0x21
# UVM_INFO ../src/env/axi4_scoreboard.sv(219) @ 5075000: uvm_test_top.env.scb [axi4_scoreboard] [REF_MEM_WRITE] Addr=0x95cd0bc9 Data=0xe7
# UVM_INFO ../src/env/axi4_scoreboard.sv(219) @ 5075000: uvm_test_top.env.scb [axi4_scoreboard] [REF_MEM_WRITE] Addr=0x95cd0bca Data=0x5e
# UVM_INFO ../src/env/axi4_scoreboard.sv(219) @ 5075000: uvm_test_top.env.scb [axi4_scoreboard] [REF_MEM_WRITE] Addr=0x95cd0bcb Data=0x5a
# UVM_INFO ../src/env/axi4_scoreboard.sv(219) @ 5075000: uvm_test_top.env.scb [axi4_scoreboard] [REF_MEM_WRITE] Addr=0x95cd0bcc Data=0xe6
# UVM_INFO ../src/env/axi4_scoreboard.sv(219) @ 5075000: uvm_test_top.env.scb [axi4_scoreboard] [REF_MEM_WRITE] Addr=0x95cd0bce Data=0x44
# UVM_INFO ../src/env/axi4_scoreboard.sv(219) @ 5075000: uvm_test_top.env.scb [axi4_scoreboard] [REF_MEM_WRITE] Addr=0x95cd0bd3 Data=0xfc
# UVM_INFO ../src/env/axi4_scoreboard.sv(219) @ 5075000: uvm_test_top.env.scb [axi4_scoreboard] [REF_MEM_WRITE] Addr=0x95cd0bd6 Data=0x79
# UVM_INFO ../src/env/axi4_scoreboard.sv(219) @ 5075000: uvm_test_top.env.scb [axi4_scoreboard] [REF_MEM_WRITE] Addr=0x95cd0bd8 Data=0x6b
# UVM_INFO ../src/env/axi4_scoreboard.sv(219) @ 5075000: uvm_test_top.env.scb [axi4_scoreboard] [REF_MEM_WRITE] Addr=0x95cd0bd9 Data=0x0a
# UVM_INFO ../src/env/axi4_scoreboard.sv(219) @ 5075000: uvm_test_top.env.scb [axi4_scoreboard] [REF_MEM_WRITE] Addr=0x95cd0bda Data=0x6f
# UVM_INFO ../src/env/axi4_scoreboard.sv(219) @ 5075000: uvm_test_top.env.scb [axi4_scoreboard] [REF_MEM_WRITE] Addr=0x95cd0bdb Data=0xf5
# UVM_INFO ../src/env/axi4_scoreboard.sv(219) @ 5075000: uvm_test_top.env.scb [axi4_scoreboard] [REF_MEM_WRITE] Addr=0x95cd0bdc Data=0xfc
# UVM_INFO ../src/env/axi4_scoreboard.sv(219) @ 5075000: uvm_test_top.env.scb [axi4_scoreboard] [REF_MEM_WRITE] Addr=0x95cd0bdf Data=0xf6
# UVM_INFO ../src/env/axi4_scoreboard.sv(219) @ 5075000: uvm_test_top.env.scb [axi4_scoreboard] [REF_MEM_WRITE] Addr=0x95cd0be0 Data=0x11
# UVM_INFO ../src/env/axi4_scoreboard.sv(219) @ 5075000: uvm_test_top.env.scb [axi4_scoreboard] [REF_MEM_WRITE] Addr=0x95cd0be1 Data=0x6f
# UVM_INFO ../src/env/axi4_scoreboard.sv(219) @ 5075000: uvm_test_top.env.scb [axi4_scoreboard] [REF_MEM_WRITE] Addr=0x95cd0be7 Data=0x62
# UVM_INFO ../src/env/axi4_scoreboard.sv(219) @ 5075000: uvm_test_top.env.scb [axi4_scoreboard] [REF_MEM_WRITE] Addr=0x95cd0be9 Data=0x86
# UVM_INFO ../src/env/axi4_scoreboard.sv(219) @ 5075000: uvm_test_top.env.scb [axi4_scoreboard] [REF_MEM_WRITE] Addr=0x95cd0bea Data=0xf3
# UVM_INFO ../src/env/axi4_scoreboard.sv(219) @ 5075000: uvm_test_top.env.scb [axi4_scoreboard] [REF_MEM_WRITE] Addr=0x95cd0bed Data=0x79
# UVM_INFO ../src/env/axi4_scoreboard.sv(219) @ 5075000: uvm_test_top.env.scb [axi4_scoreboard] [REF_MEM_WRITE] Addr=0x95cd0bef Data=0x60
# UVM_INFO ../src/env/axi4_scoreboard.sv(219) @ 5075000: uvm_test_top.env.scb [axi4_scoreboard] [REF_MEM_WRITE] Addr=0x95cd0bf1 Data=0xce
# UVM_INFO ../src/env/axi4_scoreboard.sv(219) @ 5075000: uvm_test_top.env.scb [axi4_scoreboard] [REF_MEM_WRITE] Addr=0x95cd0bf9 Data=0x2a
# UVM_INFO ../src/env/axi4_scoreboard.sv(219) @ 5075000: uvm_test_top.env.scb [axi4_scoreboard] [REF_MEM_WRITE] Addr=0x95cd0bfb Data=0x16
# UVM_INFO ../src/env/axi4_scoreboard.sv(219) @ 5075000: uvm_test_top.env.scb [axi4_scoreboard] [REF_MEM_WRITE] Addr=0x95cd0bfe Data=0xe9
# UVM_INFO ../src/env/axi4_scoreboard.sv(219) @ 5075000: uvm_test_top.env.scb [axi4_scoreboard] [REF_MEM_WRITE] Addr=0x95cd0c00 Data=0x33
# UVM_INFO ../src/env/axi4_scoreboard.sv(219) @ 5075000: uvm_test_top.env.scb [axi4_scoreboard] [REF_MEM_WRITE] Addr=0x95cd0c02 Data=0x52
# UVM_INFO ../src/env/axi4_scoreboard.sv(219) @ 5075000: uvm_test_top.env.scb [axi4_scoreboard] [REF_MEM_WRITE] Addr=0x95cd0c03 Data=0xb6
# UVM_INFO ../src/env/axi4_scoreboard.sv(219) @ 5075000: uvm_test_top.env.scb [axi4_scoreboard] [REF_MEM_WRITE] Addr=0x95cd0c05 Data=0x58
# UVM_INFO ../src/env/axi4_scoreboard.sv(219) @ 5075000: uvm_test_top.env.scb [axi4_scoreboard] [REF_MEM_WRITE] Addr=0x95cd0c06 Data=0xd0
# UVM_INFO ../src/env/axi4_scoreboard.sv(219) @ 5075000: uvm_test_top.env.scb [axi4_scoreboard] [REF_MEM_WRITE] Addr=0x95cd0c07 Data=0x4e
# UVM_INFO ../src/env/axi4_scoreboard.sv(219) @ 5075000: uvm_test_top.env.scb [axi4_scoreboard] [REF_MEM_WRITE] Addr=0x95cd0c08 Data=0x16
# UVM_INFO ../src/env/axi4_scoreboard.sv(219) @ 5075000: uvm_test_top.env.scb [axi4_scoreboard] [REF_MEM_WRITE] Addr=0x95cd0c09 Data=0x81
# UVM_INFO ../src/env/axi4_scoreboard.sv(219) @ 5075000: uvm_test_top.env.scb [axi4_scoreboard] [REF_MEM_WRITE] Addr=0x95cd0c0a Data=0x71
# UVM_INFO ../src/env/axi4_scoreboard.sv(219) @ 5075000: uvm_test_top.env.scb [axi4_scoreboard] [REF_MEM_WRITE] Addr=0x95cd0c0b Data=0xce
# UVM_INFO ../src/env/axi4_scoreboard.sv(219) @ 5075000: uvm_test_top.env.scb [axi4_scoreboard] [REF_MEM_WRITE] Addr=0x95cd0c0f Data=0x93
# UVM_INFO ../src/env/axi4_scoreboard.sv(219) @ 5075000: uvm_test_top.env.scb [axi4_scoreboard] [REF_MEM_WRITE] Addr=0x95cd0c18 Data=0x11
# UVM_INFO ../src/env/axi4_scoreboard.sv(219) @ 5075000: uvm_test_top.env.scb [axi4_scoreboard] [REF_MEM_WRITE] Addr=0x95cd0c19 Data=0x7f
# UVM_INFO ../src/env/axi4_scoreboard.sv(219) @ 5075000: uvm_test_top.env.scb [axi4_scoreboard] [REF_MEM_WRITE] Addr=0x95cd0c1a Data=0x11
# UVM_INFO ../src/env/axi4_scoreboard.sv(219) @ 5075000: uvm_test_top.env.scb [axi4_scoreboard] [REF_MEM_WRITE] Addr=0x95cd0c1b Data=0x3e
# UVM_INFO ../src/env/axi4_scoreboard.sv(219) @ 5075000: uvm_test_top.env.scb [axi4_scoreboard] [REF_MEM_WRITE] Addr=0x95cd0c1c Data=0xf7
# UVM_INFO ../src/env/axi4_scoreboard.sv(219) @ 5075000: uvm_test_top.env.scb [axi4_scoreboard] [REF_MEM_WRITE] Addr=0x95cd0c1f Data=0xe7
# UVM_INFO ../src/env/axi4_scoreboard.sv(219) @ 5075000: uvm_test_top.env.scb [axi4_scoreboard] [REF_MEM_WRITE] Addr=0x95cd0c22 Data=0xcc
# UVM_INFO ../src/env/axi4_scoreboard.sv(219) @ 5075000: uvm_test_top.env.scb [axi4_scoreboard] [REF_MEM_WRITE] Addr=0x95cd0c25 Data=0x65
# UVM_INFO ../src/env/axi4_scoreboard.sv(219) @ 5075000: uvm_test_top.env.scb [axi4_scoreboard] [REF_MEM_WRITE] Addr=0x95cd0c26 Data=0x79
# UVM_INFO ../src/env/axi4_scoreboard.sv(219) @ 5075000: uvm_test_top.env.scb [axi4_scoreboard] [REF_MEM_WRITE] Addr=0x95cd0c2a Data=0x2f
# UVM_INFO ../src/env/axi4_scoreboard.sv(219) @ 5075000: uvm_test_top.env.scb [axi4_scoreboard] [REF_MEM_WRITE] Addr=0x95cd0c2b Data=0x1f
# UVM_INFO ../src/env/axi4_scoreboard.sv(219) @ 5075000: uvm_test_top.env.scb [axi4_scoreboard] [REF_MEM_WRITE] Addr=0x95cd0c2e Data=0xac
# UVM_INFO ../src/env/axi4_scoreboard.sv(219) @ 5075000: uvm_test_top.env.scb [axi4_scoreboard] [REF_MEM_WRITE] Addr=0x95cd0c30 Data=0x4b
# UVM_INFO ../src/env/axi4_scoreboard.sv(219) @ 5075000: uvm_test_top.env.scb [axi4_scoreboard] [REF_MEM_WRITE] Addr=0x95cd0c31 Data=0x1f
# UVM_INFO ../src/env/axi4_scoreboard.sv(219) @ 5075000: uvm_test_top.env.scb [axi4_scoreboard] [REF_MEM_WRITE] Addr=0x95cd0c32 Data=0x86
# UVM_INFO ../src/env/axi4_scoreboard.sv(219) @ 5075000: uvm_test_top.env.scb [axi4_scoreboard] [REF_MEM_WRITE] Addr=0x95cd0c34 Data=0x5b
# UVM_INFO ../src/env/axi4_scoreboard.sv(219) @ 5075000: uvm_test_top.env.scb [axi4_scoreboard] [REF_MEM_WRITE] Addr=0x95cd0c36 Data=0xa1
# UVM_INFO ../src/env/axi4_scoreboard.sv(219) @ 5075000: uvm_test_top.env.scb [axi4_scoreboard] [REF_MEM_WRITE] Addr=0x95cd0c39 Data=0x7b
# UVM_INFO ../src/env/axi4_scoreboard.sv(219) @ 5075000: uvm_test_top.env.scb [axi4_scoreboard] [REF_MEM_WRITE] Addr=0x95cd0c3d Data=0xea
# UVM_INFO ../src/env/axi4_scoreboard.sv(219) @ 5075000: uvm_test_top.env.scb [axi4_scoreboard] [REF_MEM_WRITE] Addr=0x95cd0c3f Data=0xc2
# UVM_INFO ../src/env/axi4_scoreboard.sv(219) @ 5075000: uvm_test_top.env.scb [axi4_scoreboard] [REF_MEM_WRITE] Addr=0x95cd0c40 Data=0x5e
# UVM_INFO ../src/env/axi4_scoreboard.sv(219) @ 5075000: uvm_test_top.env.scb [axi4_scoreboard] [REF_MEM_WRITE] Addr=0x95cd0c41 Data=0xfa
# UVM_INFO ../src/env/axi4_scoreboard.sv(219) @ 5075000: uvm_test_top.env.scb [axi4_scoreboard] [REF_MEM_WRITE] Addr=0x95cd0c42 Data=0xd6
# UVM_INFO ../src/env/axi4_scoreboard.sv(219) @ 5075000: uvm_test_top.env.scb [axi4_scoreboard] [REF_MEM_WRITE] Addr=0x95cd0c43 Data=0x53
# UVM_INFO ../src/env/axi4_scoreboard.sv(219) @ 5075000: uvm_test_top.env.scb [axi4_scoreboard] [REF_MEM_WRITE] Addr=0x95cd0c45 Data=0x24
# UVM_INFO ../src/env/axi4_scoreboard.sv(219) @ 5075000: uvm_test_top.env.scb [axi4_scoreboard] [REF_MEM_WRITE] Addr=0x95cd0c46 Data=0x53
# UVM_INFO ../src/slv/axi4_slave_driver.sv(212) @ 5095000: uvm_test_top.env.slave_agent.drv [axi4_slave_driver] AW received: ID=0x4 ADDR=0x58517b4d LEN=87 LOCK=AXI4_LOCK_NORMAL
# UVM_INFO ../src/slv/axi4_slave_monitor.sv(116) @ 5095000: uvm_test_top.env.slave_agent.mon [axi4_slave_monitor] AW received: ID=0x4 ADDR=0x58517b4d LEN=87
# UVM_INFO ../src/mst/axi4_master_monitor.sv(124) @ 5095000: uvm_test_top.env.master_agent.mon [axi4_master_monitor] AW observed: ID=0x4 ADDR=0x58517b4d LEN=87
# UVM_INFO ../src/mst/axi4_master_monitor.sv(184) @ 6805000: uvm_test_top.env.master_agent.mon [axi4_master_monitor] W data assembled: ID=0x4 ADDR=0x58517b4d 88 beats
# UVM_INFO ../src/slv/axi4_slave_monitor.sv(167) @ 6805000: uvm_test_top.env.slave_agent.mon [axi4_slave_monitor] W data assembled: ID=0x4 ADDR=0x58517b4d 88 beats
# UVM_INFO ../src/mst/axi4_master_driver.sv(289) @ 6835000: uvm_test_top.env.master_agent.drv [axi4_master_driver] Master driver received B response: ID=0x4 RESP=AXI4_RESP_OKAY
# UVM_INFO ../src/slv/axi4_slave_driver.sv(320) @ 6835000: uvm_test_top.env.slave_agent.drv [axi4_slave_driver] Write complete: ID=0x4 RESP=AXI4_RESP_OKAY
# UVM_INFO ../src/slv/axi4_slave_monitor.sv(189) @ 6835000: uvm_test_top.env.slave_agent.mon [axi4_slave_monitor] Write response sent: ID=0x4 ADDR=0x58517b4d RESP=AXI4_RESP_OKAY
# UVM_INFO ../src/env/axi4_scoreboard.sv(108) @ 6835000: uvm_test_top.env.scb [axi4_scoreboard] Slave AXI4_WRITE received: ID=0x4 ADDR=0x58517b4d LEN=87
# UVM_INFO ../src/mst/axi4_master_monitor.sv(210) @ 6835000: uvm_test_top.env.master_agent.mon [axi4_master_monitor] Write complete: ID=0x4 ADDR=0x58517b4d RESP=AXI4_RESP_OKAY
# UVM_INFO ../src/env/axi4_scoreboard.sv(87) @ 6835000: uvm_test_top.env.scb [axi4_scoreboard] Master AXI4_WRITE received: ID=0x4 ADDR=0x58517b4d LEN=87
# UVM_INFO ../src/env/axi4_scoreboard.sv(291) @ 6835000: uvm_test_top.env.scb [axi4_scoreboard] [WRITE] MATCH #7: ID=0x4 ADDR=0x58517b4d LEN=87
# UVM_INFO ../src/env/axi4_scoreboard.sv(219) @ 6835000: uvm_test_top.env.scb [axi4_scoreboard] [REF_MEM_WRITE] Addr=0x58517b4c Data=0xf9
# UVM_INFO ../src/env/axi4_scoreboard.sv(219) @ 6835000: uvm_test_top.env.scb [axi4_scoreboard] [REF_MEM_WRITE] Addr=0x58517b4d Data=0x84
# UVM_INFO ../src/env/axi4_scoreboard.sv(219) @ 6835000: uvm_test_top.env.scb [axi4_scoreboard] [REF_MEM_WRITE] Addr=0x58517b4e Data=0x41
# UVM_INFO ../src/env/axi4_scoreboard.sv(219) @ 6835000: uvm_test_top.env.scb [axi4_scoreboard] [REF_MEM_WRITE] Addr=0x58517b4d Data=0x4d
# UVM_INFO ../src/env/axi4_scoreboard.sv(219) @ 6835000: uvm_test_top.env.scb [axi4_scoreboard] [REF_MEM_WRITE] Addr=0x58517b4f Data=0xaa
# UVM_INFO ../src/env/axi4_scoreboard.sv(219) @ 6835000: uvm_test_top.env.scb [axi4_scoreboard] [REF_MEM_WRITE] Addr=0x58517b50 Data=0x82
# UVM_INFO ../src/env/axi4_scoreboard.sv(219) @ 6835000: uvm_test_top.env.scb [axi4_scoreboard] [REF_MEM_WRITE] Addr=0x58517b52 Data=0x83
# UVM_INFO ../src/env/axi4_scoreboard.sv(219) @ 6835000: uvm_test_top.env.scb [axi4_scoreboard] [REF_MEM_WRITE] Addr=0x58517b53 Data=0x19
# UVM_INFO ../src/env/axi4_scoreboard.sv(219) @ 6835000: uvm_test_top.env.scb [axi4_scoreboard] [REF_MEM_WRITE] Addr=0x58517b55 Data=0x17
# UVM_INFO ../src/env/axi4_scoreboard.sv(219) @ 6835000: uvm_test_top.env.scb [axi4_scoreboard] [REF_MEM_WRITE] Addr=0x58517b56 Data=0x6e
# UVM_INFO ../src/env/axi4_scoreboard.sv(219) @ 6835000: uvm_test_top.env.scb [axi4_scoreboard] [REF_MEM_WRITE] Addr=0x58517b57 Data=0x7c
# UVM_INFO ../src/env/axi4_scoreboard.sv(219) @ 6835000: uvm_test_top.env.scb [axi4_scoreboard] [REF_MEM_WRITE] Addr=0x58517b54 Data=0x41
# UVM_INFO ../src/env/axi4_scoreboard.sv(219) @ 6835000: uvm_test_top.env.scb [axi4_scoreboard] [REF_MEM_WRITE] Addr=0x58517b56 Data=0x26
# UVM_INFO ../src/env/axi4_scoreboard.sv(219) @ 6835000: uvm_test_top.env.scb [axi4_scoreboard] [REF_MEM_WRITE] Addr=0x58517b57 Data=0x23
# UVM_INFO ../src/env/axi4_scoreboard.sv(219) @ 6835000: uvm_test_top.env.scb [axi4_scoreboard] [REF_MEM_WRITE] Addr=0x58517b58 Data=0x61
# UVM_INFO ../src/env/axi4_scoreboard.sv(219) @ 6835000: uvm_test_top.env.scb [axi4_scoreboard] [REF_MEM_WRITE] Addr=0x58517b58 Data=0x8a
# UVM_INFO ../src/env/axi4_scoreboard.sv(219) @ 6835000: uvm_test_top.env.scb [axi4_scoreboard] [REF_MEM_WRITE] Addr=0x58517b59 Data=0xf8
# UVM_INFO ../src/env/axi4_scoreboard.sv(219) @ 6835000: uvm_test_top.env.scb [axi4_scoreboard] [REF_MEM_WRITE] Addr=0x58517b5a Data=0x5f
# UVM_INFO ../src/env/axi4_scoreboard.sv(219) @ 6835000: uvm_test_top.env.scb [axi4_scoreboard] [REF_MEM_WRITE] Addr=0x58517b5e Data=0xa7
# UVM_INFO ../src/env/axi4_scoreboard.sv(219) @ 6835000: uvm_test_top.env.scb [axi4_scoreboard] [REF_MEM_WRITE] Addr=0x58517b5f Data=0x82
