# vsim -c -coverage -sv_seed 99783464 "+UVM_TESTNAME=axi4_random_test" "+UVM_VERBOSITY=UVM_HIGH" "+DUMP_VCD" -l ./report/logs/axi4_random_test_run_9_seed_99783464.log -do "coverage save -onexit ./report/coverage/axi4_random_test_run_9_seed_99783464.ucdb; run -all; quit -f" opt_tb_top 
# Start time: 11:23:44 on Jun 05,2026
# //  Questa Sim-64
# //  Version 10.6b linux_x86_64 May 25 2017
# //
# //  Copyright 1991-2017 Mentor Graphics Corporation
# //  All Rights Reserved.
# //
# //  QuestaSim and its associated documentation contain trade
# //  secrets and commercial or financial information that are the property of
# //  Mentor Graphics Corporation and are privileged, confidential,
# //  and exempt from disclosure under the Freedom of Information Act,
# //  5 U.S.C. Section 552. Furthermore, this information
# //  is prohibited from disclosure under the Trade Secrets Act,
# //  18 U.S.C. Section 1905.
# //
# Loading sv_std.std
# Loading work.axi4_if(fast)
# Loading mtiUvm.uvm_pkg
# Loading work.axi4_pkg(fast)
# Loading work.axi4_test_pkg(fast)
# Loading work.tb_top(fast)
# Loading work.axi4_if(fast)
# Loading work.axi4_sva(fast)
# Loading mtiUvm.questa_uvm_pkg(fast)
# Loading /cadtools/mentor/Questa_10.6b/questasim/uvm-1.1d/linux_x86_64/uvm_dpi.so
# coverage save -onexit ./report/coverage/axi4_random_test_run_9_seed_99783464.ucdb
#  run -all
# ----------------------------------------------------------------
# UVM-1.1d
# (C) 2007-2013 Mentor Graphics Corporation
# (C) 2007-2013 Cadence Design Systems, Inc.
# (C) 2006-2013 Synopsys, Inc.
# (C) 2011-2013 Cypress Semiconductor Corp.
# ----------------------------------------------------------------
# 
#   ***********       IMPORTANT RELEASE NOTES         ************
# 
#   You are using a version of the UVM library that has been compiled
#   with `UVM_NO_DEPRECATED undefined.
#   See http://www.eda.org/svdb/view.php?id=3313 for more details.
# 
#   You are using a version of the UVM library that has been compiled
#   with `UVM_OBJECT_MUST_HAVE_CONSTRUCTOR undefined.
#   See http://www.eda.org/svdb/view.php?id=3770 for more details.
# 
#       (Specify +UVM_NO_RELNOTES to turn off this notice)
# 
# UVM_INFO verilog_src/questa_uvm_pkg-1.2/src/questa_uvm_pkg.sv(215) @ 0: reporter [Questa UVM] QUESTA_UVM-1.2.3
# UVM_INFO verilog_src/questa_uvm_pkg-1.2/src/questa_uvm_pkg.sv(217) @ 0: reporter [Questa UVM]  questa_uvm::init(+struct)
# UVM_INFO ../src/tb_top.sv(128) @ 0: reporter [TB_TOP] Virtual interface set in config_db
# UVM_INFO @ 0: reporter [RNTST] Running test axi4_random_test...
# UVM_INFO ../src/tb_top.sv(142) @ 0: reporter [TB_TOP] Waveform VCD dumping enabled (axi4_vip.vcd)
# UVM_INFO ../src/env/axi4_vip_env.sv(83) @ 0: uvm_test_top.env [axi4_vip_env] slave_vif not set - reusing master_vif (passthrough mode)
# UVM_INFO ../src/env/axi4_vip_env.sv(93) @ 0: uvm_test_top.env [axi4_vip_env] Scoreboard created
# UVM_INFO ../src/env/axi4_vip_env.sv(100) @ 0: uvm_test_top.env [axi4_vip_env] Coverage collectors created
# UVM_INFO ../src/mst/axi4_master_agent.sv(69) @ 0: uvm_test_top.env.master_agent [axi4_master_agent] ACTIVE mode - driver + sequencer created
# UVM_INFO ../src/slv/axi4_slave_agent.sv(82) @ 0: uvm_test_top.env.slave_agent [axi4_slave_agent] ACTIVE mode — ready_delay=[0:0] resp_delay=[0:0]
# UVM_INFO ../src/env/axi4_vip_env.sv(116) @ 0: uvm_test_top.env [axi4_vip_env] Scoreboard connected: master_mon.ap -> scb, slave_mon.ap -> scb
# UVM_INFO ../src/env/axi4_vip_env.sv(124) @ 0: uvm_test_top.env [axi4_vip_env] Coverage connected: master_mon.ap -> master_cov, slave_mon.ap -> slave_cov
# UVM_INFO @ 0: reporter [UVMTOP] UVM testbench topology:
# ---------------------------------------------------------------
# Name                       Type                     Size  Value
# ---------------------------------------------------------------
# uvm_test_top               axi4_random_test         -     @473 
#   env                      axi4_vip_env             -     @488 
#     master_agent           axi4_master_agent        -     @503 
#       drv                  axi4_master_driver       -     @567 
#         rsp_port           uvm_analysis_port        -     @582 
#         seq_item_port      uvm_seq_item_pull_port   -     @574 
#       mon                  axi4_master_monitor      -     @559 
#         ap                 uvm_analysis_port        -     @700 
#       sqr                  axi4_master_sequencer    -     @590 
#         rsp_export         uvm_analysis_export      -     @597 
#         seq_item_export    uvm_seq_item_pull_imp    -     @691 
#         arbitration_queue  array                    0     -    
#         lock_queue         array                    0     -    
#         num_last_reqs      integral                 32    'd1  
#         num_last_rsps      integral                 32    'd1  
#     master_cov             axi4_coverage            -     @524 
#       analysis_imp         uvm_analysis_imp         -     @531 
#     scb                    axi4_scoreboard          -     @517 
#       master_export        uvm_analysis_imp_master  -     @714 
#       slave_export         uvm_analysis_imp_slave   -     @722 
#     slave_agent            axi4_slave_agent         -     @510 
#       drv                  axi4_slave_driver        -     @753 
#         rsp_port           uvm_analysis_port        -     @768 
#         seq_item_port      uvm_seq_item_pull_port   -     @760 
#       mon                  axi4_slave_monitor       -     @735 
#         ap                 uvm_analysis_port        -     @890 
#       sqr                  axi4_slave_sequencer     -     @776 
#         rsp_export         uvm_analysis_export      -     @783 
#         seq_item_export    uvm_seq_item_pull_imp    -     @877 
#         arbitration_queue  array                    0     -    
#         lock_queue         array                    0     -    
#         num_last_reqs      integral                 32    'd1  
#         num_last_rsps      integral                 32    'd1  
#     slave_cov              axi4_coverage            -     @539 
#       analysis_imp         uvm_analysis_imp         -     @546 
# ---------------------------------------------------------------
# 
# UVM_INFO verilog_src/questa_uvm_pkg-1.2/src/questa_uvm_pkg.sv(277) @ 0: reporter [Questa UVM] End Of Elaboration
# UVM_INFO ../src/test/axi4_random_test.sv(43) @ 0: uvm_test_top [axi4_random_test] Starting random test with 50 transactions
# UVM_INFO ../src/seq/axi4_random_seq.sv(34) @ 0: uvm_test_top.env.master_agent.sqr@@rand_seq [axi4_random_seq] Starting random sequence: 50 transactions
# UVM_INFO ../src/tb_top.sv(49) @ 95000: reporter [TOP_TB] Reset de-asserted
# UVM_INFO ../src/slv/axi4_slave_driver.sv(70) @ 95000: uvm_test_top.env.slave_agent.drv [axi4_slave_driver] Reset deasserted - slave driver active
# UVM_INFO ../src/mst/axi4_master_driver.sv(46) @ 95000: uvm_test_top.env.master_agent.drv [axi4_master_driver] Reset deasserted - master driver active
# UVM_INFO ../src/mst/axi4_master_monitor.sv(77) @ 95000: uvm_test_top.env.master_agent.mon [axi4_master_monitor] Reset deasserted — monitor active
# UVM_INFO ../src/slv/axi4_slave_monitor.sv(71) @ 95000: uvm_test_top.env.slave_agent.mon [axi4_slave_monitor] Reset deasserted — monitor active
# UVM_INFO ../src/mst/axi4_master_driver.sv(55) @ 95000: uvm_test_top.env.master_agent.drv [axi4_master_driver] Driving AXI4_READ  ID=0x3  ADDR=0xd04d2b0c  LEN=140
# UVM_INFO ../src/slv/axi4_slave_driver.sv(300) @ 115000: uvm_test_top.env.slave_agent.drv [axi4_slave_driver] AR received: ID=0x3 ADDR=0xd04d2b0c LEN=140 LOCK=AXI4_LOCK_NORMAL
# UVM_INFO ../src/slv/axi4_slave_monitor.sv(224) @ 115000: uvm_test_top.env.slave_agent.mon [axi4_slave_monitor] AR received: ID=0x3 ADDR=0xd04d2b0c LEN=140
# UVM_INFO ../src/mst/axi4_master_monitor.sv(246) @ 115000: uvm_test_top.env.master_agent.mon [axi4_master_monitor] AR observed: ID=0x3 ADDR=0xd04d2b0c LEN=140
# UVM_INFO ../src/mst/axi4_master_driver.sv(254) @ 2935000: uvm_test_top.env.master_agent.drv [axi4_master_driver] Read complete: 141 beats received
# UVM_INFO ../src/slv/axi4_slave_driver.sv(349) @ 2935000: uvm_test_top.env.slave_agent.drv [axi4_slave_driver] Read complete: ID=0x3 ADDR=0xd04d2b0c RESP=AXI4_RESP_OKAY  141 beats sent
# UVM_INFO ../src/slv/axi4_slave_monitor.sv(287) @ 2935000: uvm_test_top.env.slave_agent.mon [axi4_slave_monitor] Read data sent: ID=0x3 ADDR=0xd04d2b0c 141 beats
# UVM_INFO ../src/env/axi4_scoreboard.sv(103) @ 2935000: uvm_test_top.env.scb [axi4_scoreboard] Slave AXI4_READ received: ID=0x3 ADDR=0xd04d2b0c LEN=140
# UVM_INFO ../src/mst/axi4_master_monitor.sv(314) @ 2935000: uvm_test_top.env.master_agent.mon [axi4_master_monitor] Read complete: ID=0x3 ADDR=0xd04d2b0c 141 beats
# UVM_INFO ../src/env/axi4_scoreboard.sv(82) @ 2935000: uvm_test_top.env.scb [axi4_scoreboard] Master AXI4_READ received: ID=0x3 ADDR=0xd04d2b0c LEN=140
# UVM_INFO ../src/env/axi4_scoreboard.sv(154) @ 2935000: uvm_test_top.env.scb [axi4_scoreboard] [READ] MATCH #1: ID=0x3 ADDR=0xd04d2b0c LEN=140
# UVM_INFO ../src/seq/axi4_random_seq.sv(55) @ 2935000: uvm_test_top.env.master_agent.sqr@@rand_seq [axi4_random_seq] [1/50] AXI4_READ: ID=0x3 ADDR=0xd04d2b0c LEN=140 BURST=AXI4_BURST_INCR
# UVM_INFO ../src/mst/axi4_master_driver.sv(55) @ 2935000: uvm_test_top.env.master_agent.drv [axi4_master_driver] Driving AXI4_WRITE  ID=0x5  ADDR=0x858fdce6  LEN=4
# UVM_INFO ../src/mst/axi4_master_driver.sv(94) @ 2935000: uvm_test_top.env.master_agent.drv [axi4_master_driver] Write order: AW || W (parallel)
# UVM_INFO ../src/slv/axi4_slave_driver.sv(165) @ 2965000: uvm_test_top.env.slave_agent.drv [axi4_slave_driver] AW received: ID=0x5 ADDR=0x858fdce6 LEN=4 LOCK=AXI4_LOCK_NORMAL
# UVM_INFO ../src/mst/axi4_master_monitor.sv(124) @ 2965000: uvm_test_top.env.master_agent.mon [axi4_master_monitor] AW observed: ID=0x5 ADDR=0x858fdce6 LEN=4
# UVM_INFO ../src/slv/axi4_slave_monitor.sv(116) @ 2965000: uvm_test_top.env.slave_agent.mon [axi4_slave_monitor] AW received: ID=0x5 ADDR=0x858fdce6 LEN=4
# UVM_INFO ../src/slv/axi4_slave_monitor.sv(167) @ 3035000: uvm_test_top.env.slave_agent.mon [axi4_slave_monitor] W data assembled: ID=0x5 ADDR=0x858fdce6 5 beats
# UVM_INFO ../src/mst/axi4_master_monitor.sv(184) @ 3035000: uvm_test_top.env.master_agent.mon [axi4_master_monitor] W data assembled: ID=0x5 ADDR=0x858fdce6 5 beats
# UVM_INFO ../src/mst/axi4_master_driver.sv(197) @ 3065000: uvm_test_top.env.master_agent.drv [axi4_master_driver] Write response: AXI4_RESP_OKAY
# UVM_INFO ../src/slv/axi4_slave_driver.sv(261) @ 3065000: uvm_test_top.env.slave_agent.drv [axi4_slave_driver] Write complete: ID=0x5 ADDR=0x858fdce6 RESP=AXI4_RESP_OKAY  5 beats processed
# UVM_INFO ../src/mst/axi4_master_monitor.sv(210) @ 3065000: uvm_test_top.env.master_agent.mon [axi4_master_monitor] Write complete: ID=0x5 ADDR=0x858fdce6 RESP=AXI4_RESP_OKAY
# UVM_INFO ../src/env/axi4_scoreboard.sv(82) @ 3065000: uvm_test_top.env.scb [axi4_scoreboard] Master AXI4_WRITE received: ID=0x5 ADDR=0x858fdce6 LEN=4
# UVM_INFO ../src/slv/axi4_slave_monitor.sv(189) @ 3065000: uvm_test_top.env.slave_agent.mon [axi4_slave_monitor] Write response sent: ID=0x5 ADDR=0x858fdce6 RESP=AXI4_RESP_OKAY
# UVM_INFO ../src/env/axi4_scoreboard.sv(103) @ 3065000: uvm_test_top.env.scb [axi4_scoreboard] Slave AXI4_WRITE received: ID=0x5 ADDR=0x858fdce6 LEN=4
# UVM_INFO ../src/env/axi4_scoreboard.sv(154) @ 3065000: uvm_test_top.env.scb [axi4_scoreboard] [WRITE] MATCH #2: ID=0x5 ADDR=0x858fdce6 LEN=4
# UVM_INFO ../src/seq/axi4_random_seq.sv(55) @ 3065000: uvm_test_top.env.master_agent.sqr@@rand_seq [axi4_random_seq] [2/50] AXI4_WRITE: ID=0x5 ADDR=0x858fdce6 LEN=4 BURST=AXI4_BURST_FIXED
# UVM_INFO ../src/mst/axi4_master_driver.sv(55) @ 3065000: uvm_test_top.env.master_agent.drv [axi4_master_driver] Driving AXI4_WRITE  ID=0xf  ADDR=0x3e6076b9  LEN=226
# UVM_INFO ../src/mst/axi4_master_driver.sv(101) @ 3065000: uvm_test_top.env.master_agent.drv [axi4_master_driver] Write order: AW -> W (sequential)
# UVM_INFO ../src/slv/axi4_slave_driver.sv(165) @ 3095000: uvm_test_top.env.slave_agent.drv [axi4_slave_driver] AW received: ID=0xf ADDR=0x3e6076b9 LEN=226 LOCK=AXI4_LOCK_EXCLUSIVE
# UVM_INFO ../src/slv/axi4_slave_monitor.sv(116) @ 3095000: uvm_test_top.env.slave_agent.mon [axi4_slave_monitor] AW received: ID=0xf ADDR=0x3e6076b9 LEN=226
# UVM_INFO ../src/mst/axi4_master_monitor.sv(124) @ 3095000: uvm_test_top.env.master_agent.mon [axi4_master_monitor] AW observed: ID=0xf ADDR=0x3e6076b9 LEN=226
# UVM_INFO ../src/slv/axi4_slave_monitor.sv(167) @ 7635000: uvm_test_top.env.slave_agent.mon [axi4_slave_monitor] W data assembled: ID=0xf ADDR=0x3e6076b9 227 beats
# UVM_INFO ../src/mst/axi4_master_monitor.sv(184) @ 7635000: uvm_test_top.env.master_agent.mon [axi4_master_monitor] W data assembled: ID=0xf ADDR=0x3e6076b9 227 beats
# UVM_INFO ../src/mst/axi4_master_driver.sv(197) @ 7665000: uvm_test_top.env.master_agent.drv [axi4_master_driver] Write response: AXI4_RESP_OKAY
# UVM_INFO ../src/slv/axi4_slave_driver.sv(261) @ 7665000: uvm_test_top.env.slave_agent.drv [axi4_slave_driver] Write complete: ID=0xf ADDR=0x3e6076b9 RESP=AXI4_RESP_OKAY  227 beats processed
# UVM_INFO ../src/mst/axi4_master_monitor.sv(210) @ 7665000: uvm_test_top.env.master_agent.mon [axi4_master_monitor] Write complete: ID=0xf ADDR=0x3e6076b9 RESP=AXI4_RESP_OKAY
# UVM_INFO ../src/env/axi4_scoreboard.sv(82) @ 7665000: uvm_test_top.env.scb [axi4_scoreboard] Master AXI4_WRITE received: ID=0xf ADDR=0x3e6076b9 LEN=226
# UVM_INFO ../src/slv/axi4_slave_monitor.sv(189) @ 7665000: uvm_test_top.env.slave_agent.mon [axi4_slave_monitor] Write response sent: ID=0xf ADDR=0x3e6076b9 RESP=AXI4_RESP_OKAY
# UVM_INFO ../src/env/axi4_scoreboard.sv(103) @ 7665000: uvm_test_top.env.scb [axi4_scoreboard] Slave AXI4_WRITE received: ID=0xf ADDR=0x3e6076b9 LEN=226
# UVM_INFO ../src/env/axi4_scoreboard.sv(154) @ 7665000: uvm_test_top.env.scb [axi4_scoreboard] [WRITE] MATCH #3: ID=0xf ADDR=0x3e6076b9 LEN=226
# UVM_INFO ../src/seq/axi4_random_seq.sv(55) @ 7665000: uvm_test_top.env.master_agent.sqr@@rand_seq [axi4_random_seq] [3/50] AXI4_WRITE: ID=0xf ADDR=0x3e6076b9 LEN=226 BURST=AXI4_BURST_INCR
# UVM_INFO ../src/mst/axi4_master_driver.sv(55) @ 7665000: uvm_test_top.env.master_agent.drv [axi4_master_driver] Driving AXI4_WRITE  ID=0x0  ADDR=0x63181a54  LEN=13
# UVM_INFO ../src/mst/axi4_master_driver.sv(94) @ 7665000: uvm_test_top.env.master_agent.drv [axi4_master_driver] Write order: AW || W (parallel)
# UVM_INFO ../src/slv/axi4_slave_driver.sv(165) @ 7695000: uvm_test_top.env.slave_agent.drv [axi4_slave_driver] AW received: ID=0x0 ADDR=0x63181a54 LEN=13 LOCK=AXI4_LOCK_EXCLUSIVE
# UVM_INFO ../src/slv/axi4_slave_monitor.sv(116) @ 7695000: uvm_test_top.env.slave_agent.mon [axi4_slave_monitor] AW received: ID=0x0 ADDR=0x63181a54 LEN=13
# UVM_INFO ../src/mst/axi4_master_monitor.sv(124) @ 7695000: uvm_test_top.env.master_agent.mon [axi4_master_monitor] AW observed: ID=0x0 ADDR=0x63181a54 LEN=13
# UVM_INFO ../src/mst/axi4_master_monitor.sv(184) @ 7945000: uvm_test_top.env.master_agent.mon [axi4_master_monitor] W data assembled: ID=0x0 ADDR=0x63181a54 14 beats
# UVM_INFO ../src/slv/axi4_slave_monitor.sv(167) @ 7945000: uvm_test_top.env.slave_agent.mon [axi4_slave_monitor] W data assembled: ID=0x0 ADDR=0x63181a54 14 beats
# UVM_INFO ../src/mst/axi4_master_driver.sv(197) @ 7975000: uvm_test_top.env.master_agent.drv [axi4_master_driver] Write response: AXI4_RESP_OKAY
# UVM_INFO ../src/slv/axi4_slave_driver.sv(261) @ 7975000: uvm_test_top.env.slave_agent.drv [axi4_slave_driver] Write complete: ID=0x0 ADDR=0x63181a54 RESP=AXI4_RESP_OKAY  14 beats processed
# UVM_INFO ../src/slv/axi4_slave_monitor.sv(189) @ 7975000: uvm_test_top.env.slave_agent.mon [axi4_slave_monitor] Write response sent: ID=0x0 ADDR=0x63181a54 RESP=AXI4_RESP_OKAY
# UVM_INFO ../src/env/axi4_scoreboard.sv(103) @ 7975000: uvm_test_top.env.scb [axi4_scoreboard] Slave AXI4_WRITE received: ID=0x0 ADDR=0x63181a54 LEN=13
# UVM_INFO ../src/mst/axi4_master_monitor.sv(210) @ 7975000: uvm_test_top.env.master_agent.mon [axi4_master_monitor] Write complete: ID=0x0 ADDR=0x63181a54 RESP=AXI4_RESP_OKAY
# UVM_INFO ../src/env/axi4_scoreboard.sv(82) @ 7975000: uvm_test_top.env.scb [axi4_scoreboard] Master AXI4_WRITE received: ID=0x0 ADDR=0x63181a54 LEN=13
# UVM_INFO ../src/env/axi4_scoreboard.sv(154) @ 7975000: uvm_test_top.env.scb [axi4_scoreboard] [WRITE] MATCH #4: ID=0x0 ADDR=0x63181a54 LEN=13
# UVM_INFO ../src/seq/axi4_random_seq.sv(55) @ 7975000: uvm_test_top.env.master_agent.sqr@@rand_seq [axi4_random_seq] [4/50] AXI4_WRITE: ID=0x0 ADDR=0x63181a54 LEN=13 BURST=AXI4_BURST_FIXED
# UVM_INFO ../src/mst/axi4_master_driver.sv(55) @ 7975000: uvm_test_top.env.master_agent.drv [axi4_master_driver] Driving AXI4_WRITE  ID=0x9  ADDR=0xf70539f2  LEN=140
# UVM_INFO ../src/mst/axi4_master_driver.sv(94) @ 7975000: uvm_test_top.env.master_agent.drv [axi4_master_driver] Write order: AW || W (parallel)
# UVM_INFO ../src/slv/axi4_slave_driver.sv(165) @ 8005000: uvm_test_top.env.slave_agent.drv [axi4_slave_driver] AW received: ID=0x9 ADDR=0xf70539f2 LEN=140 LOCK=AXI4_LOCK_EXCLUSIVE
# UVM_INFO ../src/mst/axi4_master_monitor.sv(124) @ 8005000: uvm_test_top.env.master_agent.mon [axi4_master_monitor] AW observed: ID=0x9 ADDR=0xf70539f2 LEN=140
# UVM_INFO ../src/slv/axi4_slave_monitor.sv(116) @ 8005000: uvm_test_top.env.slave_agent.mon [axi4_slave_monitor] AW received: ID=0x9 ADDR=0xf70539f2 LEN=140
# UVM_INFO ../src/slv/axi4_slave_monitor.sv(167) @ 10795000: uvm_test_top.env.slave_agent.mon [axi4_slave_monitor] W data assembled: ID=0x9 ADDR=0xf70539f2 141 beats
# UVM_INFO ../src/mst/axi4_master_monitor.sv(184) @ 10795000: uvm_test_top.env.master_agent.mon [axi4_master_monitor] W data assembled: ID=0x9 ADDR=0xf70539f2 141 beats
# UVM_INFO ../src/mst/axi4_master_driver.sv(197) @ 10825000: uvm_test_top.env.master_agent.drv [axi4_master_driver] Write response: AXI4_RESP_DECERR
# UVM_INFO ../src/slv/axi4_slave_driver.sv(261) @ 10825000: uvm_test_top.env.slave_agent.drv [axi4_slave_driver] Write complete: ID=0x9 ADDR=0xf70539f2 RESP=AXI4_RESP_DECERR  141 beats processed
# UVM_INFO ../src/mst/axi4_master_monitor.sv(210) @ 10825000: uvm_test_top.env.master_agent.mon [axi4_master_monitor] Write complete: ID=0x9 ADDR=0xf70539f2 RESP=AXI4_RESP_DECERR
# UVM_INFO ../src/env/axi4_scoreboard.sv(82) @ 10825000: uvm_test_top.env.scb [axi4_scoreboard] Master AXI4_WRITE received: ID=0x9 ADDR=0xf70539f2 LEN=140
# UVM_INFO ../src/slv/axi4_slave_monitor.sv(189) @ 10825000: uvm_test_top.env.slave_agent.mon [axi4_slave_monitor] Write response sent: ID=0x9 ADDR=0xf70539f2 RESP=AXI4_RESP_DECERR
# UVM_INFO ../src/env/axi4_scoreboard.sv(103) @ 10825000: uvm_test_top.env.scb [axi4_scoreboard] Slave AXI4_WRITE received: ID=0x9 ADDR=0xf70539f2 LEN=140
# UVM_INFO ../src/env/axi4_scoreboard.sv(154) @ 10825000: uvm_test_top.env.scb [axi4_scoreboard] [WRITE] MATCH #5: ID=0x9 ADDR=0xf70539f2 LEN=140
# UVM_INFO ../src/seq/axi4_random_seq.sv(55) @ 10825000: uvm_test_top.env.master_agent.sqr@@rand_seq [axi4_random_seq] [5/50] AXI4_WRITE: ID=0x9 ADDR=0xf70539f2 LEN=140 BURST=AXI4_BURST_INCR
# UVM_INFO ../src/mst/axi4_master_driver.sv(55) @ 10825000: uvm_test_top.env.master_agent.drv [axi4_master_driver] Driving AXI4_WRITE  ID=0x0  ADDR=0x693c3e5b  LEN=200
# UVM_INFO ../src/mst/axi4_master_driver.sv(94) @ 10825000: uvm_test_top.env.master_agent.drv [axi4_master_driver] Write order: AW || W (parallel)
# UVM_INFO ../src/slv/axi4_slave_driver.sv(165) @ 10855000: uvm_test_top.env.slave_agent.drv [axi4_slave_driver] AW received: ID=0x0 ADDR=0x693c3e5b LEN=200 LOCK=AXI4_LOCK_NORMAL
# UVM_INFO ../src/slv/axi4_slave_monitor.sv(116) @ 10855000: uvm_test_top.env.slave_agent.mon [axi4_slave_monitor] AW received: ID=0x0 ADDR=0x693c3e5b LEN=200
# UVM_INFO ../src/mst/axi4_master_monitor.sv(124) @ 10855000: uvm_test_top.env.master_agent.mon [axi4_master_monitor] AW observed: ID=0x0 ADDR=0x693c3e5b LEN=200
# UVM_INFO ../src/mst/axi4_master_monitor.sv(184) @ 14845000: uvm_test_top.env.master_agent.mon [axi4_master_monitor] W data assembled: ID=0x0 ADDR=0x693c3e5b 201 beats
# UVM_INFO ../src/slv/axi4_slave_monitor.sv(167) @ 14845000: uvm_test_top.env.slave_agent.mon [axi4_slave_monitor] W data assembled: ID=0x0 ADDR=0x693c3e5b 201 beats
# UVM_INFO ../src/mst/axi4_master_driver.sv(197) @ 14875000: uvm_test_top.env.master_agent.drv [axi4_master_driver] Write response: AXI4_RESP_OKAY
# UVM_INFO ../src/slv/axi4_slave_driver.sv(261) @ 14875000: uvm_test_top.env.slave_agent.drv [axi4_slave_driver] Write complete: ID=0x0 ADDR=0x693c3e5b RESP=AXI4_RESP_OKAY  201 beats processed
# UVM_INFO ../src/slv/axi4_slave_monitor.sv(189) @ 14875000: uvm_test_top.env.slave_agent.mon [axi4_slave_monitor] Write response sent: ID=0x0 ADDR=0x693c3e5b RESP=AXI4_RESP_OKAY
# UVM_INFO ../src/env/axi4_scoreboard.sv(103) @ 14875000: uvm_test_top.env.scb [axi4_scoreboard] Slave AXI4_WRITE received: ID=0x0 ADDR=0x693c3e5b LEN=200
# UVM_INFO ../src/mst/axi4_master_monitor.sv(210) @ 14875000: uvm_test_top.env.master_agent.mon [axi4_master_monitor] Write complete: ID=0x0 ADDR=0x693c3e5b RESP=AXI4_RESP_OKAY
# UVM_INFO ../src/env/axi4_scoreboard.sv(82) @ 14875000: uvm_test_top.env.scb [axi4_scoreboard] Master AXI4_WRITE received: ID=0x0 ADDR=0x693c3e5b LEN=200
# UVM_INFO ../src/env/axi4_scoreboard.sv(154) @ 14875000: uvm_test_top.env.scb [axi4_scoreboard] [WRITE] MATCH #6: ID=0x0 ADDR=0x693c3e5b LEN=200
# UVM_INFO ../src/seq/axi4_random_seq.sv(55) @ 14875000: uvm_test_top.env.master_agent.sqr@@rand_seq [axi4_random_seq] [6/50] AXI4_WRITE: ID=0x0 ADDR=0x693c3e5b LEN=200 BURST=AXI4_BURST_INCR
# UVM_INFO ../src/mst/axi4_master_driver.sv(55) @ 14875000: uvm_test_top.env.master_agent.drv [axi4_master_driver] Driving AXI4_WRITE  ID=0x8  ADDR=0x1fd1abf0  LEN=7
# UVM_INFO ../src/mst/axi4_master_driver.sv(94) @ 14875000: uvm_test_top.env.master_agent.drv [axi4_master_driver] Write order: AW || W (parallel)
# UVM_INFO ../src/slv/axi4_slave_driver.sv(165) @ 14905000: uvm_test_top.env.slave_agent.drv [axi4_slave_driver] AW received: ID=0x8 ADDR=0x1fd1abf0 LEN=7 LOCK=AXI4_LOCK_NORMAL
# UVM_INFO ../src/mst/axi4_master_monitor.sv(124) @ 14905000: uvm_test_top.env.master_agent.mon [axi4_master_monitor] AW observed: ID=0x8 ADDR=0x1fd1abf0 LEN=7
# UVM_INFO ../src/slv/axi4_slave_monitor.sv(116) @ 14905000: uvm_test_top.env.slave_agent.mon [axi4_slave_monitor] AW received: ID=0x8 ADDR=0x1fd1abf0 LEN=7
# UVM_INFO ../src/slv/axi4_slave_monitor.sv(167) @ 15035000: uvm_test_top.env.slave_agent.mon [axi4_slave_monitor] W data assembled: ID=0x8 ADDR=0x1fd1abf0 8 beats
# UVM_INFO ../src/mst/axi4_master_monitor.sv(184) @ 15035000: uvm_test_top.env.master_agent.mon [axi4_master_monitor] W data assembled: ID=0x8 ADDR=0x1fd1abf0 8 beats
# UVM_INFO ../src/mst/axi4_master_driver.sv(197) @ 15065000: uvm_test_top.env.master_agent.drv [axi4_master_driver] Write response: AXI4_RESP_OKAY
# UVM_INFO ../src/slv/axi4_slave_driver.sv(261) @ 15065000: uvm_test_top.env.slave_agent.drv [axi4_slave_driver] Write complete: ID=0x8 ADDR=0x1fd1abf0 RESP=AXI4_RESP_OKAY  8 beats processed
# UVM_INFO ../src/mst/axi4_master_monitor.sv(210) @ 15065000: uvm_test_top.env.master_agent.mon [axi4_master_monitor] Write complete: ID=0x8 ADDR=0x1fd1abf0 RESP=AXI4_RESP_OKAY
# UVM_INFO ../src/env/axi4_scoreboard.sv(82) @ 15065000: uvm_test_top.env.scb [axi4_scoreboard] Master AXI4_WRITE received: ID=0x8 ADDR=0x1fd1abf0 LEN=7
# UVM_INFO ../src/slv/axi4_slave_monitor.sv(189) @ 15065000: uvm_test_top.env.slave_agent.mon [axi4_slave_monitor] Write response sent: ID=0x8 ADDR=0x1fd1abf0 RESP=AXI4_RESP_OKAY
# UVM_INFO ../src/env/axi4_scoreboard.sv(103) @ 15065000: uvm_test_top.env.scb [axi4_scoreboard] Slave AXI4_WRITE received: ID=0x8 ADDR=0x1fd1abf0 LEN=7
# UVM_INFO ../src/env/axi4_scoreboard.sv(154) @ 15065000: uvm_test_top.env.scb [axi4_scoreboard] [WRITE] MATCH #7: ID=0x8 ADDR=0x1fd1abf0 LEN=7
# UVM_INFO ../src/seq/axi4_random_seq.sv(55) @ 15065000: uvm_test_top.env.master_agent.sqr@@rand_seq [axi4_random_seq] [7/50] AXI4_WRITE: ID=0x8 ADDR=0x1fd1abf0 LEN=7 BURST=AXI4_BURST_FIXED
# UVM_INFO ../src/mst/axi4_master_driver.sv(55) @ 15065000: uvm_test_top.env.master_agent.drv [axi4_master_driver] Driving AXI4_READ  ID=0xd  ADDR=0x8577a91b  LEN=246
# UVM_INFO ../src/slv/axi4_slave_driver.sv(300) @ 15095000: uvm_test_top.env.slave_agent.drv [axi4_slave_driver] AR received: ID=0xd ADDR=0x8577a91b LEN=246 LOCK=AXI4_LOCK_NORMAL
# UVM_INFO ../src/slv/axi4_slave_monitor.sv(224) @ 15095000: uvm_test_top.env.slave_agent.mon [axi4_slave_monitor] AR received: ID=0xd ADDR=0x8577a91b LEN=246
# UVM_INFO ../src/mst/axi4_master_monitor.sv(246) @ 15095000: uvm_test_top.env.master_agent.mon [axi4_master_monitor] AR observed: ID=0xd ADDR=0x8577a91b LEN=246
# UVM_INFO ../src/mst/axi4_master_driver.sv(254) @ 20035000: uvm_test_top.env.master_agent.drv [axi4_master_driver] Read complete: 247 beats received
# UVM_INFO ../src/slv/axi4_slave_driver.sv(349) @ 20035000: uvm_test_top.env.slave_agent.drv [axi4_slave_driver] Read complete: ID=0xd ADDR=0x8577a91b RESP=AXI4_RESP_OKAY  247 beats sent
# UVM_INFO ../src/slv/axi4_slave_monitor.sv(287) @ 20035000: uvm_test_top.env.slave_agent.mon [axi4_slave_monitor] Read data sent: ID=0xd ADDR=0x8577a91b 247 beats
# UVM_INFO ../src/env/axi4_scoreboard.sv(103) @ 20035000: uvm_test_top.env.scb [axi4_scoreboard] Slave AXI4_READ received: ID=0xd ADDR=0x8577a91b LEN=246
# UVM_INFO ../src/mst/axi4_master_monitor.sv(314) @ 20035000: uvm_test_top.env.master_agent.mon [axi4_master_monitor] Read complete: ID=0xd ADDR=0x8577a91b 247 beats
# UVM_INFO ../src/env/axi4_scoreboard.sv(82) @ 20035000: uvm_test_top.env.scb [axi4_scoreboard] Master AXI4_READ received: ID=0xd ADDR=0x8577a91b LEN=246
# UVM_INFO ../src/env/axi4_scoreboard.sv(154) @ 20035000: uvm_test_top.env.scb [axi4_scoreboard] [READ] MATCH #8: ID=0xd ADDR=0x8577a91b LEN=246
# UVM_INFO ../src/seq/axi4_random_seq.sv(55) @ 20035000: uvm_test_top.env.master_agent.sqr@@rand_seq [axi4_random_seq] [8/50] AXI4_READ: ID=0xd ADDR=0x8577a91b LEN=246 BURST=AXI4_BURST_INCR
# UVM_INFO ../src/mst/axi4_master_driver.sv(55) @ 20035000: uvm_test_top.env.master_agent.drv [axi4_master_driver] Driving AXI4_READ  ID=0x4  ADDR=0x40f107f6  LEN=91
# UVM_INFO ../src/slv/axi4_slave_driver.sv(300) @ 20065000: uvm_test_top.env.slave_agent.drv [axi4_slave_driver] AR received: ID=0x4 ADDR=0x40f107f6 LEN=91 LOCK=AXI4_LOCK_EXCLUSIVE
# UVM_INFO ../src/mst/axi4_master_monitor.sv(246) @ 20065000: uvm_test_top.env.master_agent.mon [axi4_master_monitor] AR observed: ID=0x4 ADDR=0x40f107f6 LEN=91
# UVM_INFO ../src/slv/axi4_slave_monitor.sv(224) @ 20065000: uvm_test_top.env.slave_agent.mon [axi4_slave_monitor] AR received: ID=0x4 ADDR=0x40f107f6 LEN=91
# UVM_INFO ../src/mst/axi4_master_driver.sv(254) @ 21905000: uvm_test_top.env.master_agent.drv [axi4_master_driver] Read complete: 92 beats received
# UVM_INFO ../src/slv/axi4_slave_driver.sv(349) @ 21905000: uvm_test_top.env.slave_agent.drv [axi4_slave_driver] Read complete: ID=0x4 ADDR=0x40f107f6 RESP=AXI4_RESP_EXOKAY  92 beats sent
# UVM_INFO ../src/mst/axi4_master_monitor.sv(314) @ 21905000: uvm_test_top.env.master_agent.mon [axi4_master_monitor] Read complete: ID=0x4 ADDR=0x40f107f6 92 beats
# UVM_INFO ../src/env/axi4_scoreboard.sv(82) @ 21905000: uvm_test_top.env.scb [axi4_scoreboard] Master AXI4_READ received: ID=0x4 ADDR=0x40f107f6 LEN=91
# UVM_INFO ../src/slv/axi4_slave_monitor.sv(287) @ 21905000: uvm_test_top.env.slave_agent.mon [axi4_slave_monitor] Read data sent: ID=0x4 ADDR=0x40f107f6 92 beats
# UVM_INFO ../src/env/axi4_scoreboard.sv(103) @ 21905000: uvm_test_top.env.scb [axi4_scoreboard] Slave AXI4_READ received: ID=0x4 ADDR=0x40f107f6 LEN=91
# UVM_INFO ../src/env/axi4_scoreboard.sv(154) @ 21905000: uvm_test_top.env.scb [axi4_scoreboard] [READ] MATCH #9: ID=0x4 ADDR=0x40f107f6 LEN=91
# UVM_INFO ../src/seq/axi4_random_seq.sv(55) @ 21905000: uvm_test_top.env.master_agent.sqr@@rand_seq [axi4_random_seq] [9/50] AXI4_READ: ID=0x4 ADDR=0x40f107f6 LEN=91 BURST=AXI4_BURST_INCR
# UVM_INFO ../src/mst/axi4_master_driver.sv(55) @ 21905000: uvm_test_top.env.master_agent.drv [axi4_master_driver] Driving AXI4_WRITE  ID=0x1  ADDR=0xafc28f7e  LEN=3
# UVM_INFO ../src/mst/axi4_master_driver.sv(94) @ 21905000: uvm_test_top.env.master_agent.drv [axi4_master_driver] Write order: AW || W (parallel)
# UVM_INFO ../src/slv/axi4_slave_driver.sv(165) @ 21935000: uvm_test_top.env.slave_agent.drv [axi4_slave_driver] AW received: ID=0x1 ADDR=0xafc28f7e LEN=3 LOCK=AXI4_LOCK_NORMAL
# UVM_INFO ../src/slv/axi4_slave_monitor.sv(116) @ 21935000: uvm_test_top.env.slave_agent.mon [axi4_slave_monitor] AW received: ID=0x1 ADDR=0xafc28f7e LEN=3
# UVM_INFO ../src/mst/axi4_master_monitor.sv(124) @ 21935000: uvm_test_top.env.master_agent.mon [axi4_master_monitor] AW observed: ID=0x1 ADDR=0xafc28f7e LEN=3
# UVM_INFO ../src/mst/axi4_master_monitor.sv(184) @ 21985000: uvm_test_top.env.master_agent.mon [axi4_master_monitor] W data assembled: ID=0x1 ADDR=0xafc28f7e 4 beats
# UVM_INFO ../src/slv/axi4_slave_monitor.sv(167) @ 21985000: uvm_test_top.env.slave_agent.mon [axi4_slave_monitor] W data assembled: ID=0x1 ADDR=0xafc28f7e 4 beats
# UVM_INFO ../src/mst/axi4_master_driver.sv(197) @ 22015000: uvm_test_top.env.master_agent.drv [axi4_master_driver] Write response: AXI4_RESP_OKAY
# UVM_INFO ../src/slv/axi4_slave_driver.sv(261) @ 22015000: uvm_test_top.env.slave_agent.drv [axi4_slave_driver] Write complete: ID=0x1 ADDR=0xafc28f7e RESP=AXI4_RESP_OKAY  4 beats processed
# UVM_INFO ../src/slv/axi4_slave_monitor.sv(189) @ 22015000: uvm_test_top.env.slave_agent.mon [axi4_slave_monitor] Write response sent: ID=0x1 ADDR=0xafc28f7e RESP=AXI4_RESP_OKAY
# UVM_INFO ../src/env/axi4_scoreboard.sv(103) @ 22015000: uvm_test_top.env.scb [axi4_scoreboard] Slave AXI4_WRITE received: ID=0x1 ADDR=0xafc28f7e LEN=3
# UVM_INFO ../src/mst/axi4_master_monitor.sv(210) @ 22015000: uvm_test_top.env.master_agent.mon [axi4_master_monitor] Write complete: ID=0x1 ADDR=0xafc28f7e RESP=AXI4_RESP_OKAY
# UVM_INFO ../src/env/axi4_scoreboard.sv(82) @ 22015000: uvm_test_top.env.scb [axi4_scoreboard] Master AXI4_WRITE received: ID=0x1 ADDR=0xafc28f7e LEN=3
# UVM_INFO ../src/env/axi4_scoreboard.sv(154) @ 22015000: uvm_test_top.env.scb [axi4_scoreboard] [WRITE] MATCH #10: ID=0x1 ADDR=0xafc28f7e LEN=3
# UVM_INFO ../src/seq/axi4_random_seq.sv(55) @ 22015000: uvm_test_top.env.master_agent.sqr@@rand_seq [axi4_random_seq] [10/50] AXI4_WRITE: ID=0x1 ADDR=0xafc28f7e LEN=3 BURST=AXI4_BURST_FIXED
# UVM_INFO ../src/mst/axi4_master_driver.sv(55) @ 22015000: uvm_test_top.env.master_agent.drv [axi4_master_driver] Driving AXI4_READ  ID=0xb  ADDR=0x60dc36fe  LEN=191
# UVM_INFO ../src/slv/axi4_slave_driver.sv(300) @ 22045000: uvm_test_top.env.slave_agent.drv [axi4_slave_driver] AR received: ID=0xb ADDR=0x60dc36fe LEN=191 LOCK=AXI4_LOCK_EXCLUSIVE
# UVM_INFO ../src/mst/axi4_master_monitor.sv(246) @ 22045000: uvm_test_top.env.master_agent.mon [axi4_master_monitor] AR observed: ID=0xb ADDR=0x60dc36fe LEN=191
# UVM_INFO ../src/slv/axi4_slave_monitor.sv(224) @ 22045000: uvm_test_top.env.slave_agent.mon [axi4_slave_monitor] AR received: ID=0xb ADDR=0x60dc36fe LEN=191
# UVM_INFO ../src/mst/axi4_master_driver.sv(254) @ 25885000: uvm_test_top.env.master_agent.drv [axi4_master_driver] Read complete: 192 beats received
# UVM_INFO ../src/slv/axi4_slave_driver.sv(349) @ 25885000: uvm_test_top.env.slave_agent.drv [axi4_slave_driver] Read complete: ID=0xb ADDR=0x60dc36fe RESP=AXI4_RESP_EXOKAY  192 beats sent
# UVM_INFO ../src/mst/axi4_master_monitor.sv(314) @ 25885000: uvm_test_top.env.master_agent.mon [axi4_master_monitor] Read complete: ID=0xb ADDR=0x60dc36fe 192 beats
# UVM_INFO ../src/env/axi4_scoreboard.sv(82) @ 25885000: uvm_test_top.env.scb [axi4_scoreboard] Master AXI4_READ received: ID=0xb ADDR=0x60dc36fe LEN=191
# UVM_INFO ../src/slv/axi4_slave_monitor.sv(287) @ 25885000: uvm_test_top.env.slave_agent.mon [axi4_slave_monitor] Read data sent: ID=0xb ADDR=0x60dc36fe 192 beats
# UVM_INFO ../src/env/axi4_scoreboard.sv(103) @ 25885000: uvm_test_top.env.scb [axi4_scoreboard] Slave AXI4_READ received: ID=0xb ADDR=0x60dc36fe LEN=191
# UVM_INFO ../src/env/axi4_scoreboard.sv(154) @ 25885000: uvm_test_top.env.scb [axi4_scoreboard] [READ] MATCH #11: ID=0xb ADDR=0x60dc36fe LEN=191
# UVM_INFO ../src/seq/axi4_random_seq.sv(55) @ 25885000: uvm_test_top.env.master_agent.sqr@@rand_seq [axi4_random_seq] [11/50] AXI4_READ: ID=0xb ADDR=0x60dc36fe LEN=191 BURST=AXI4_BURST_INCR
# UVM_INFO ../src/mst/axi4_master_driver.sv(55) @ 25885000: uvm_test_top.env.master_agent.drv [axi4_master_driver] Driving AXI4_WRITE  ID=0x6  ADDR=0x92760b35  LEN=119
# UVM_INFO ../src/mst/axi4_master_driver.sv(94) @ 25885000: uvm_test_top.env.master_agent.drv [axi4_master_driver] Write order: AW || W (parallel)
# UVM_INFO ../src/slv/axi4_slave_driver.sv(165) @ 25915000: uvm_test_top.env.slave_agent.drv [axi4_slave_driver] AW received: ID=0x6 ADDR=0x92760b35 LEN=119 LOCK=AXI4_LOCK_NORMAL
# UVM_INFO ../src/slv/axi4_slave_monitor.sv(116) @ 25915000: uvm_test_top.env.slave_agent.mon [axi4_slave_monitor] AW received: ID=0x6 ADDR=0x92760b35 LEN=119
# UVM_INFO ../src/mst/axi4_master_monitor.sv(124) @ 25915000: uvm_test_top.env.master_agent.mon [axi4_master_monitor] AW observed: ID=0x6 ADDR=0x92760b35 LEN=119
# UVM_INFO ../src/mst/axi4_master_monitor.sv(184) @ 28285000: uvm_test_top.env.master_agent.mon [axi4_master_monitor] W data assembled: ID=0x6 ADDR=0x92760b35 120 beats
# UVM_INFO ../src/slv/axi4_slave_monitor.sv(167) @ 28285000: uvm_test_top.env.slave_agent.mon [axi4_slave_monitor] W data assembled: ID=0x6 ADDR=0x92760b35 120 beats
# UVM_INFO ../src/mst/axi4_master_driver.sv(197) @ 28315000: uvm_test_top.env.master_agent.drv [axi4_master_driver] Write response: AXI4_RESP_OKAY
# UVM_INFO ../src/slv/axi4_slave_driver.sv(261) @ 28315000: uvm_test_top.env.slave_agent.drv [axi4_slave_driver] Write complete: ID=0x6 ADDR=0x92760b35 RESP=AXI4_RESP_OKAY  120 beats processed
# UVM_INFO ../src/slv/axi4_slave_monitor.sv(189) @ 28315000: uvm_test_top.env.slave_agent.mon [axi4_slave_monitor] Write response sent: ID=0x6 ADDR=0x92760b35 RESP=AXI4_RESP_OKAY
# UVM_INFO ../src/env/axi4_scoreboard.sv(103) @ 28315000: uvm_test_top.env.scb [axi4_scoreboard] Slave AXI4_WRITE received: ID=0x6 ADDR=0x92760b35 LEN=119
# UVM_INFO ../src/mst/axi4_master_monitor.sv(210) @ 28315000: uvm_test_top.env.master_agent.mon [axi4_master_monitor] Write complete: ID=0x6 ADDR=0x92760b35 RESP=AXI4_RESP_OKAY
# UVM_INFO ../src/env/axi4_scoreboard.sv(82) @ 28315000: uvm_test_top.env.scb [axi4_scoreboard] Master AXI4_WRITE received: ID=0x6 ADDR=0x92760b35 LEN=119
# UVM_INFO ../src/env/axi4_scoreboard.sv(154) @ 28315000: uvm_test_top.env.scb [axi4_scoreboard] [WRITE] MATCH #12: ID=0x6 ADDR=0x92760b35 LEN=119
# UVM_INFO ../src/seq/axi4_random_seq.sv(55) @ 28315000: uvm_test_top.env.master_agent.sqr@@rand_seq [axi4_random_seq] [12/50] AXI4_WRITE: ID=0x6 ADDR=0x92760b35 LEN=119 BURST=AXI4_BURST_INCR
# UVM_INFO ../src/mst/axi4_master_driver.sv(55) @ 28315000: uvm_test_top.env.master_agent.drv [axi4_master_driver] Driving AXI4_WRITE  ID=0x1  ADDR=0x12caa62f  LEN=186
# UVM_INFO ../src/mst/axi4_master_driver.sv(94) @ 28315000: uvm_test_top.env.master_agent.drv [axi4_master_driver] Write order: AW || W (parallel)
# UVM_INFO ../src/slv/axi4_slave_driver.sv(165) @ 28345000: uvm_test_top.env.slave_agent.drv [axi4_slave_driver] AW received: ID=0x1 ADDR=0x12caa62f LEN=186 LOCK=AXI4_LOCK_NORMAL
# UVM_INFO ../src/mst/axi4_master_monitor.sv(124) @ 28345000: uvm_test_top.env.master_agent.mon [axi4_master_monitor] AW observed: ID=0x1 ADDR=0x12caa62f LEN=186
# UVM_INFO ../src/slv/axi4_slave_monitor.sv(116) @ 28345000: uvm_test_top.env.slave_agent.mon [axi4_slave_monitor] AW received: ID=0x1 ADDR=0x12caa62f LEN=186
# UVM_INFO ../src/slv/axi4_slave_monitor.sv(167) @ 32055000: uvm_test_top.env.slave_agent.mon [axi4_slave_monitor] W data assembled: ID=0x1 ADDR=0x12caa62f 187 beats
# UVM_INFO ../src/mst/axi4_master_monitor.sv(184) @ 32055000: uvm_test_top.env.master_agent.mon [axi4_master_monitor] W data assembled: ID=0x1 ADDR=0x12caa62f 187 beats
# UVM_INFO ../src/mst/axi4_master_driver.sv(197) @ 32085000: uvm_test_top.env.master_agent.drv [axi4_master_driver] Write response: AXI4_RESP_OKAY
# UVM_INFO ../src/slv/axi4_slave_driver.sv(261) @ 32085000: uvm_test_top.env.slave_agent.drv [axi4_slave_driver] Write complete: ID=0x1 ADDR=0x12caa62f RESP=AXI4_RESP_OKAY  187 beats processed
# UVM_INFO ../src/mst/axi4_master_monitor.sv(210) @ 32085000: uvm_test_top.env.master_agent.mon [axi4_master_monitor] Write complete: ID=0x1 ADDR=0x12caa62f RESP=AXI4_RESP_OKAY
# UVM_INFO ../src/env/axi4_scoreboard.sv(82) @ 32085000: uvm_test_top.env.scb [axi4_scoreboard] Master AXI4_WRITE received: ID=0x1 ADDR=0x12caa62f LEN=186
# UVM_INFO ../src/slv/axi4_slave_monitor.sv(189) @ 32085000: uvm_test_top.env.slave_agent.mon [axi4_slave_monitor] Write response sent: ID=0x1 ADDR=0x12caa62f RESP=AXI4_RESP_OKAY
# UVM_INFO ../src/env/axi4_scoreboard.sv(103) @ 32085000: uvm_test_top.env.scb [axi4_scoreboard] Slave AXI4_WRITE received: ID=0x1 ADDR=0x12caa62f LEN=186
# UVM_INFO ../src/env/axi4_scoreboard.sv(154) @ 32085000: uvm_test_top.env.scb [axi4_scoreboard] [WRITE] MATCH #13: ID=0x1 ADDR=0x12caa62f LEN=186
# UVM_INFO ../src/seq/axi4_random_seq.sv(55) @ 32085000: uvm_test_top.env.master_agent.sqr@@rand_seq [axi4_random_seq] [13/50] AXI4_WRITE: ID=0x1 ADDR=0x12caa62f LEN=186 BURST=AXI4_BURST_INCR
# UVM_INFO ../src/mst/axi4_master_driver.sv(55) @ 32085000: uvm_test_top.env.master_agent.drv [axi4_master_driver] Driving AXI4_WRITE  ID=0xe  ADDR=0x1cf95fca  LEN=116
# UVM_INFO ../src/mst/axi4_master_driver.sv(101) @ 32085000: uvm_test_top.env.master_agent.drv [axi4_master_driver] Write order: AW -> W (sequential)
# UVM_INFO ../src/slv/axi4_slave_driver.sv(165) @ 32115000: uvm_test_top.env.slave_agent.drv [axi4_slave_driver] AW received: ID=0xe ADDR=0x1cf95fca LEN=116 LOCK=AXI4_LOCK_EXCLUSIVE
# UVM_INFO ../src/slv/axi4_slave_monitor.sv(116) @ 32115000: uvm_test_top.env.slave_agent.mon [axi4_slave_monitor] AW received: ID=0xe ADDR=0x1cf95fca LEN=116
# UVM_INFO ../src/mst/axi4_master_monitor.sv(124) @ 32115000: uvm_test_top.env.master_agent.mon [axi4_master_monitor] AW observed: ID=0xe ADDR=0x1cf95fca LEN=116
# UVM_INFO ../src/slv/axi4_slave_monitor.sv(167) @ 34455000: uvm_test_top.env.slave_agent.mon [axi4_slave_monitor] W data assembled: ID=0xe ADDR=0x1cf95fca 117 beats
# UVM_INFO ../src/mst/axi4_master_monitor.sv(184) @ 34455000: uvm_test_top.env.master_agent.mon [axi4_master_monitor] W data assembled: ID=0xe ADDR=0x1cf95fca 117 beats
# UVM_INFO ../src/mst/axi4_master_driver.sv(197) @ 34485000: uvm_test_top.env.master_agent.drv [axi4_master_driver] Write response: AXI4_RESP_OKAY
# UVM_INFO ../src/slv/axi4_slave_driver.sv(261) @ 34485000: uvm_test_top.env.slave_agent.drv [axi4_slave_driver] Write complete: ID=0xe ADDR=0x1cf95fca RESP=AXI4_RESP_OKAY  117 beats processed
# UVM_INFO ../src/mst/axi4_master_monitor.sv(210) @ 34485000: uvm_test_top.env.master_agent.mon [axi4_master_monitor] Write complete: ID=0xe ADDR=0x1cf95fca RESP=AXI4_RESP_OKAY
# UVM_INFO ../src/env/axi4_scoreboard.sv(82) @ 34485000: uvm_test_top.env.scb [axi4_scoreboard] Master AXI4_WRITE received: ID=0xe ADDR=0x1cf95fca LEN=116
# UVM_INFO ../src/slv/axi4_slave_monitor.sv(189) @ 34485000: uvm_test_top.env.slave_agent.mon [axi4_slave_monitor] Write response sent: ID=0xe ADDR=0x1cf95fca RESP=AXI4_RESP_OKAY
# UVM_INFO ../src/env/axi4_scoreboard.sv(103) @ 34485000: uvm_test_top.env.scb [axi4_scoreboard] Slave AXI4_WRITE received: ID=0xe ADDR=0x1cf95fca LEN=116
# UVM_INFO ../src/env/axi4_scoreboard.sv(154) @ 34485000: uvm_test_top.env.scb [axi4_scoreboard] [WRITE] MATCH #14: ID=0xe ADDR=0x1cf95fca LEN=116
# UVM_INFO ../src/seq/axi4_random_seq.sv(55) @ 34485000: uvm_test_top.env.master_agent.sqr@@rand_seq [axi4_random_seq] [14/50] AXI4_WRITE: ID=0xe ADDR=0x1cf95fca LEN=116 BURST=AXI4_BURST_INCR
# UVM_INFO ../src/mst/axi4_master_driver.sv(55) @ 34485000: uvm_test_top.env.master_agent.drv [axi4_master_driver] Driving AXI4_WRITE  ID=0x8  ADDR=0xcc36151f  LEN=10
# UVM_INFO ../src/mst/axi4_master_driver.sv(94) @ 34485000: uvm_test_top.env.master_agent.drv [axi4_master_driver] Write order: AW || W (parallel)
# UVM_INFO ../src/slv/axi4_slave_driver.sv(165) @ 34515000: uvm_test_top.env.slave_agent.drv [axi4_slave_driver] AW received: ID=0x8 ADDR=0xcc36151f LEN=10 LOCK=AXI4_LOCK_NORMAL
# UVM_INFO ../src/slv/axi4_slave_monitor.sv(116) @ 34515000: uvm_test_top.env.slave_agent.mon [axi4_slave_monitor] AW received: ID=0x8 ADDR=0xcc36151f LEN=10
# UVM_INFO ../src/mst/axi4_master_monitor.sv(124) @ 34515000: uvm_test_top.env.master_agent.mon [axi4_master_monitor] AW observed: ID=0x8 ADDR=0xcc36151f LEN=10
# UVM_INFO ../src/mst/axi4_master_monitor.sv(184) @ 34705000: uvm_test_top.env.master_agent.mon [axi4_master_monitor] W data assembled: ID=0x8 ADDR=0xcc36151f 11 beats
# UVM_INFO ../src/slv/axi4_slave_monitor.sv(167) @ 34705000: uvm_test_top.env.slave_agent.mon [axi4_slave_monitor] W data assembled: ID=0x8 ADDR=0xcc36151f 11 beats
# UVM_INFO ../src/mst/axi4_master_driver.sv(197) @ 34735000: uvm_test_top.env.master_agent.drv [axi4_master_driver] Write response: AXI4_RESP_OKAY
# UVM_INFO ../src/slv/axi4_slave_driver.sv(261) @ 34735000: uvm_test_top.env.slave_agent.drv [axi4_slave_driver] Write complete: ID=0x8 ADDR=0xcc36151f RESP=AXI4_RESP_OKAY  11 beats processed
# UVM_INFO ../src/slv/axi4_slave_monitor.sv(189) @ 34735000: uvm_test_top.env.slave_agent.mon [axi4_slave_monitor] Write response sent: ID=0x8 ADDR=0xcc36151f RESP=AXI4_RESP_OKAY
# UVM_INFO ../src/env/axi4_scoreboard.sv(103) @ 34735000: uvm_test_top.env.scb [axi4_scoreboard] Slave AXI4_WRITE received: ID=0x8 ADDR=0xcc36151f LEN=10
# UVM_INFO ../src/mst/axi4_master_monitor.sv(210) @ 34735000: uvm_test_top.env.master_agent.mon [axi4_master_monitor] Write complete: ID=0x8 ADDR=0xcc36151f RESP=AXI4_RESP_OKAY
# UVM_INFO ../src/env/axi4_scoreboard.sv(82) @ 34735000: uvm_test_top.env.scb [axi4_scoreboard] Master AXI4_WRITE received: ID=0x8 ADDR=0xcc36151f LEN=10
# UVM_INFO ../src/env/axi4_scoreboard.sv(154) @ 34735000: uvm_test_top.env.scb [axi4_scoreboard] [WRITE] MATCH #15: ID=0x8 ADDR=0xcc36151f LEN=10
# UVM_INFO ../src/seq/axi4_random_seq.sv(55) @ 34735000: uvm_test_top.env.master_agent.sqr@@rand_seq [axi4_random_seq] [15/50] AXI4_WRITE: ID=0x8 ADDR=0xcc36151f LEN=10 BURST=AXI4_BURST_INCR
# UVM_INFO ../src/mst/axi4_master_driver.sv(55) @ 34735000: uvm_test_top.env.master_agent.drv [axi4_master_driver] Driving AXI4_READ  ID=0x4  ADDR=0x68cb1e52  LEN=184
# UVM_INFO ../src/slv/axi4_slave_driver.sv(300) @ 34765000: uvm_test_top.env.slave_agent.drv [axi4_slave_driver] AR received: ID=0x4 ADDR=0x68cb1e52 LEN=184 LOCK=AXI4_LOCK_NORMAL
# UVM_INFO ../src/mst/axi4_master_monitor.sv(246) @ 34765000: uvm_test_top.env.master_agent.mon [axi4_master_monitor] AR observed: ID=0x4 ADDR=0x68cb1e52 LEN=184
# UVM_INFO ../src/slv/axi4_slave_monitor.sv(224) @ 34765000: uvm_test_top.env.slave_agent.mon [axi4_slave_monitor] AR received: ID=0x4 ADDR=0x68cb1e52 LEN=184
# UVM_INFO ../src/mst/axi4_master_driver.sv(254) @ 38465000: uvm_test_top.env.master_agent.drv [axi4_master_driver] Read complete: 185 beats received
# UVM_INFO ../src/slv/axi4_slave_driver.sv(349) @ 38465000: uvm_test_top.env.slave_agent.drv [axi4_slave_driver] Read complete: ID=0x4 ADDR=0x68cb1e52 RESP=AXI4_RESP_OKAY  185 beats sent
# UVM_INFO ../src/mst/axi4_master_monitor.sv(314) @ 38465000: uvm_test_top.env.master_agent.mon [axi4_master_monitor] Read complete: ID=0x4 ADDR=0x68cb1e52 185 beats
# UVM_INFO ../src/env/axi4_scoreboard.sv(82) @ 38465000: uvm_test_top.env.scb [axi4_scoreboard] Master AXI4_READ received: ID=0x4 ADDR=0x68cb1e52 LEN=184
# UVM_INFO ../src/slv/axi4_slave_monitor.sv(287) @ 38465000: uvm_test_top.env.slave_agent.mon [axi4_slave_monitor] Read data sent: ID=0x4 ADDR=0x68cb1e52 185 beats
# UVM_INFO ../src/env/axi4_scoreboard.sv(103) @ 38465000: uvm_test_top.env.scb [axi4_scoreboard] Slave AXI4_READ received: ID=0x4 ADDR=0x68cb1e52 LEN=184
# UVM_INFO ../src/env/axi4_scoreboard.sv(154) @ 38465000: uvm_test_top.env.scb [axi4_scoreboard] [READ] MATCH #16: ID=0x4 ADDR=0x68cb1e52 LEN=184
# UVM_INFO ../src/seq/axi4_random_seq.sv(55) @ 38465000: uvm_test_top.env.master_agent.sqr@@rand_seq [axi4_random_seq] [16/50] AXI4_READ: ID=0x4 ADDR=0x68cb1e52 LEN=184 BURST=AXI4_BURST_INCR
# UVM_INFO ../src/mst/axi4_master_driver.sv(55) @ 38465000: uvm_test_top.env.master_agent.drv [axi4_master_driver] Driving AXI4_READ  ID=0xc  ADDR=0xb938849a  LEN=235
# UVM_INFO ../src/slv/axi4_slave_driver.sv(300) @ 38495000: uvm_test_top.env.slave_agent.drv [axi4_slave_driver] AR received: ID=0xc ADDR=0xb938849a LEN=235 LOCK=AXI4_LOCK_NORMAL
# UVM_INFO ../src/slv/axi4_slave_monitor.sv(224) @ 38495000: uvm_test_top.env.slave_agent.mon [axi4_slave_monitor] AR received: ID=0xc ADDR=0xb938849a LEN=235
# UVM_INFO ../src/mst/axi4_master_monitor.sv(246) @ 38495000: uvm_test_top.env.master_agent.mon [axi4_master_monitor] AR observed: ID=0xc ADDR=0xb938849a LEN=235
# UVM_INFO ../src/mst/axi4_master_driver.sv(254) @ 43215000: uvm_test_top.env.master_agent.drv [axi4_master_driver] Read complete: 236 beats received
# UVM_INFO ../src/slv/axi4_slave_driver.sv(349) @ 43215000: uvm_test_top.env.slave_agent.drv [axi4_slave_driver] Read complete: ID=0xc ADDR=0xb938849a RESP=AXI4_RESP_OKAY  236 beats sent
# UVM_INFO ../src/slv/axi4_slave_monitor.sv(287) @ 43215000: uvm_test_top.env.slave_agent.mon [axi4_slave_monitor] Read data sent: ID=0xc ADDR=0xb938849a 236 beats
# UVM_INFO ../src/env/axi4_scoreboard.sv(103) @ 43215000: uvm_test_top.env.scb [axi4_scoreboard] Slave AXI4_READ received: ID=0xc ADDR=0xb938849a LEN=235
# UVM_INFO ../src/mst/axi4_master_monitor.sv(314) @ 43215000: uvm_test_top.env.master_agent.mon [axi4_master_monitor] Read complete: ID=0xc ADDR=0xb938849a 236 beats
# UVM_INFO ../src/env/axi4_scoreboard.sv(82) @ 43215000: uvm_test_top.env.scb [axi4_scoreboard] Master AXI4_READ received: ID=0xc ADDR=0xb938849a LEN=235
# UVM_INFO ../src/env/axi4_scoreboard.sv(154) @ 43215000: uvm_test_top.env.scb [axi4_scoreboard] [READ] MATCH #17: ID=0xc ADDR=0xb938849a LEN=235
# UVM_INFO ../src/seq/axi4_random_seq.sv(55) @ 43215000: uvm_test_top.env.master_agent.sqr@@rand_seq [axi4_random_seq] [17/50] AXI4_READ: ID=0xc ADDR=0xb938849a LEN=235 BURST=AXI4_BURST_INCR
# UVM_INFO ../src/mst/axi4_master_driver.sv(55) @ 43215000: uvm_test_top.env.master_agent.drv [axi4_master_driver] Driving AXI4_WRITE  ID=0x1  ADDR=0xd54d454e  LEN=1
# UVM_INFO ../src/mst/axi4_master_driver.sv(101) @ 43215000: uvm_test_top.env.master_agent.drv [axi4_master_driver] Write order: AW -> W (sequential)
# UVM_INFO ../src/slv/axi4_slave_driver.sv(165) @ 43245000: uvm_test_top.env.slave_agent.drv [axi4_slave_driver] AW received: ID=0x1 ADDR=0xd54d454e LEN=1 LOCK=AXI4_LOCK_NORMAL
# UVM_INFO ../src/mst/axi4_master_monitor.sv(124) @ 43245000: uvm_test_top.env.master_agent.mon [axi4_master_monitor] AW observed: ID=0x1 ADDR=0xd54d454e LEN=1
# UVM_INFO ../src/slv/axi4_slave_monitor.sv(116) @ 43245000: uvm_test_top.env.slave_agent.mon [axi4_slave_monitor] AW received: ID=0x1 ADDR=0xd54d454e LEN=1
# UVM_INFO ../src/mst/axi4_master_monitor.sv(184) @ 43285000: uvm_test_top.env.master_agent.mon [axi4_master_monitor] W data assembled: ID=0x1 ADDR=0xd54d454e 2 beats
# UVM_INFO ../src/slv/axi4_slave_monitor.sv(167) @ 43285000: uvm_test_top.env.slave_agent.mon [axi4_slave_monitor] W data assembled: ID=0x1 ADDR=0xd54d454e 2 beats
# UVM_INFO ../src/mst/axi4_master_driver.sv(197) @ 43315000: uvm_test_top.env.master_agent.drv [axi4_master_driver] Write response: AXI4_RESP_OKAY
# UVM_INFO ../src/slv/axi4_slave_driver.sv(261) @ 43315000: uvm_test_top.env.slave_agent.drv [axi4_slave_driver] Write complete: ID=0x1 ADDR=0xd54d454e RESP=AXI4_RESP_OKAY  2 beats processed
# UVM_INFO ../src/slv/axi4_slave_monitor.sv(189) @ 43315000: uvm_test_top.env.slave_agent.mon [axi4_slave_monitor] Write response sent: ID=0x1 ADDR=0xd54d454e RESP=AXI4_RESP_OKAY
# UVM_INFO ../src/env/axi4_scoreboard.sv(103) @ 43315000: uvm_test_top.env.scb [axi4_scoreboard] Slave AXI4_WRITE received: ID=0x1 ADDR=0xd54d454e LEN=1
# UVM_INFO ../src/mst/axi4_master_monitor.sv(210) @ 43315000: uvm_test_top.env.master_agent.mon [axi4_master_monitor] Write complete: ID=0x1 ADDR=0xd54d454e RESP=AXI4_RESP_OKAY
# UVM_INFO ../src/env/axi4_scoreboard.sv(82) @ 43315000: uvm_test_top.env.scb [axi4_scoreboard] Master AXI4_WRITE received: ID=0x1 ADDR=0xd54d454e LEN=1
# UVM_INFO ../src/env/axi4_scoreboard.sv(154) @ 43315000: uvm_test_top.env.scb [axi4_scoreboard] [WRITE] MATCH #18: ID=0x1 ADDR=0xd54d454e LEN=1
# UVM_INFO ../src/seq/axi4_random_seq.sv(55) @ 43315000: uvm_test_top.env.master_agent.sqr@@rand_seq [axi4_random_seq] [18/50] AXI4_WRITE: ID=0x1 ADDR=0xd54d454e LEN=1 BURST=AXI4_BURST_FIXED
# UVM_INFO ../src/mst/axi4_master_driver.sv(55) @ 43315000: uvm_test_top.env.master_agent.drv [axi4_master_driver] Driving AXI4_READ  ID=0x1  ADDR=0x010b8f83  LEN=238
# UVM_INFO ../src/slv/axi4_slave_driver.sv(300) @ 43345000: uvm_test_top.env.slave_agent.drv [axi4_slave_driver] AR received: ID=0x1 ADDR=0x010b8f83 LEN=238 LOCK=AXI4_LOCK_NORMAL
# UVM_INFO ../src/mst/axi4_master_monitor.sv(246) @ 43345000: uvm_test_top.env.master_agent.mon [axi4_master_monitor] AR observed: ID=0x1 ADDR=0x010b8f83 LEN=238
# UVM_INFO ../src/slv/axi4_slave_monitor.sv(224) @ 43345000: uvm_test_top.env.slave_agent.mon [axi4_slave_monitor] AR received: ID=0x1 ADDR=0x010b8f83 LEN=238
# UVM_INFO ../src/mst/axi4_master_driver.sv(254) @ 48125000: uvm_test_top.env.master_agent.drv [axi4_master_driver] Read complete: 239 beats received
# UVM_INFO ../src/slv/axi4_slave_driver.sv(349) @ 48125000: uvm_test_top.env.slave_agent.drv [axi4_slave_driver] Read complete: ID=0x1 ADDR=0x010b8f83 RESP=AXI4_RESP_OKAY  239 beats sent
# UVM_INFO ../src/mst/axi4_master_monitor.sv(314) @ 48125000: uvm_test_top.env.master_agent.mon [axi4_master_monitor] Read complete: ID=0x1 ADDR=0x010b8f83 239 beats
# UVM_INFO ../src/env/axi4_scoreboard.sv(82) @ 48125000: uvm_test_top.env.scb [axi4_scoreboard] Master AXI4_READ received: ID=0x1 ADDR=0x010b8f83 LEN=238
# UVM_INFO ../src/slv/axi4_slave_monitor.sv(287) @ 48125000: uvm_test_top.env.slave_agent.mon [axi4_slave_monitor] Read data sent: ID=0x1 ADDR=0x010b8f83 239 beats
# UVM_INFO ../src/env/axi4_scoreboard.sv(103) @ 48125000: uvm_test_top.env.scb [axi4_scoreboard] Slave AXI4_READ received: ID=0x1 ADDR=0x010b8f83 LEN=238
# UVM_INFO ../src/env/axi4_scoreboard.sv(154) @ 48125000: uvm_test_top.env.scb [axi4_scoreboard] [READ] MATCH #19: ID=0x1 ADDR=0x010b8f83 LEN=238
# UVM_INFO ../src/seq/axi4_random_seq.sv(55) @ 48125000: uvm_test_top.env.master_agent.sqr@@rand_seq [axi4_random_seq] [19/50] AXI4_READ: ID=0x1 ADDR=0x010b8f83 LEN=238 BURST=AXI4_BURST_INCR
# UVM_INFO ../src/mst/axi4_master_driver.sv(55) @ 48125000: uvm_test_top.env.master_agent.drv [axi4_master_driver] Driving AXI4_WRITE  ID=0x1  ADDR=0xc4b3d4cf  LEN=223
# UVM_INFO ../src/mst/axi4_master_driver.sv(106) @ 48125000: uvm_test_top.env.master_agent.drv [axi4_master_driver] Write order: W -> AW (W first)
# UVM_INFO ../src/slv/axi4_slave_driver.sv(165) @ 48185000: uvm_test_top.env.slave_agent.drv [axi4_slave_driver] AW received: ID=0x1 ADDR=0xc4b3d4cf LEN=223 LOCK=AXI4_LOCK_NORMAL
# UVM_INFO ../src/mst/axi4_master_monitor.sv(124) @ 48185000: uvm_test_top.env.master_agent.mon [axi4_master_monitor] AW observed: ID=0x1 ADDR=0xc4b3d4cf LEN=223
# UVM_INFO ../src/slv/axi4_slave_monitor.sv(116) @ 48185000: uvm_test_top.env.slave_agent.mon [axi4_slave_monitor] AW received: ID=0x1 ADDR=0xc4b3d4cf LEN=223
# UVM_INFO ../src/mst/axi4_master_monitor.sv(184) @ 52605000: uvm_test_top.env.master_agent.mon [axi4_master_monitor] W data assembled: ID=0x1 ADDR=0xc4b3d4cf 224 beats
# UVM_INFO ../src/slv/axi4_slave_monitor.sv(167) @ 52605000: uvm_test_top.env.slave_agent.mon [axi4_slave_monitor] W data assembled: ID=0x1 ADDR=0xc4b3d4cf 224 beats
# UVM_INFO ../src/mst/axi4_master_driver.sv(197) @ 52635000: uvm_test_top.env.master_agent.drv [axi4_master_driver] Write response: AXI4_RESP_OKAY
# UVM_INFO ../src/slv/axi4_slave_driver.sv(261) @ 52635000: uvm_test_top.env.slave_agent.drv [axi4_slave_driver] Write complete: ID=0x1 ADDR=0xc4b3d4cf RESP=AXI4_RESP_OKAY  224 beats processed
# UVM_INFO ../src/slv/axi4_slave_monitor.sv(189) @ 52635000: uvm_test_top.env.slave_agent.mon [axi4_slave_monitor] Write response sent: ID=0x1 ADDR=0xc4b3d4cf RESP=AXI4_RESP_OKAY
# UVM_INFO ../src/env/axi4_scoreboard.sv(103) @ 52635000: uvm_test_top.env.scb [axi4_scoreboard] Slave AXI4_WRITE received: ID=0x1 ADDR=0xc4b3d4cf LEN=223
# UVM_INFO ../src/mst/axi4_master_monitor.sv(210) @ 52635000: uvm_test_top.env.master_agent.mon [axi4_master_monitor] Write complete: ID=0x1 ADDR=0xc4b3d4cf RESP=AXI4_RESP_OKAY
# UVM_INFO ../src/env/axi4_scoreboard.sv(82) @ 52635000: uvm_test_top.env.scb [axi4_scoreboard] Master AXI4_WRITE received: ID=0x1 ADDR=0xc4b3d4cf LEN=223
# UVM_INFO ../src/env/axi4_scoreboard.sv(154) @ 52635000: uvm_test_top.env.scb [axi4_scoreboard] [WRITE] MATCH #20: ID=0x1 ADDR=0xc4b3d4cf LEN=223
# UVM_INFO ../src/seq/axi4_random_seq.sv(55) @ 52635000: uvm_test_top.env.master_agent.sqr@@rand_seq [axi4_random_seq] [20/50] AXI4_WRITE: ID=0x1 ADDR=0xc4b3d4cf LEN=223 BURST=AXI4_BURST_INCR
# UVM_INFO ../src/mst/axi4_master_driver.sv(55) @ 52635000: uvm_test_top.env.master_agent.drv [axi4_master_driver] Driving AXI4_WRITE  ID=0xc  ADDR=0x3b46d231  LEN=174
# UVM_INFO ../src/mst/axi4_master_driver.sv(94) @ 52635000: uvm_test_top.env.master_agent.drv [axi4_master_driver] Write order: AW || W (parallel)
# UVM_INFO ../src/slv/axi4_slave_driver.sv(165) @ 52665000: uvm_test_top.env.slave_agent.drv [axi4_slave_driver] AW received: ID=0xc ADDR=0x3b46d231 LEN=174 LOCK=AXI4_LOCK_NORMAL
# UVM_INFO ../src/mst/axi4_master_monitor.sv(124) @ 52665000: uvm_test_top.env.master_agent.mon [axi4_master_monitor] AW observed: ID=0xc ADDR=0x3b46d231 LEN=174
# UVM_INFO ../src/slv/axi4_slave_monitor.sv(116) @ 52665000: uvm_test_top.env.slave_agent.mon [axi4_slave_monitor] AW received: ID=0xc ADDR=0x3b46d231 LEN=174
# UVM_INFO ../src/slv/axi4_slave_monitor.sv(167) @ 56135000: uvm_test_top.env.slave_agent.mon [axi4_slave_monitor] W data assembled: ID=0xc ADDR=0x3b46d231 175 beats
# UVM_INFO ../src/mst/axi4_master_monitor.sv(184) @ 56135000: uvm_test_top.env.master_agent.mon [axi4_master_monitor] W data assembled: ID=0xc ADDR=0x3b46d231 175 beats
# UVM_INFO ../src/mst/axi4_master_driver.sv(197) @ 56165000: uvm_test_top.env.master_agent.drv [axi4_master_driver] Write response: AXI4_RESP_OKAY
# UVM_INFO ../src/slv/axi4_slave_driver.sv(261) @ 56165000: uvm_test_top.env.slave_agent.drv [axi4_slave_driver] Write complete: ID=0xc ADDR=0x3b46d231 RESP=AXI4_RESP_OKAY  175 beats processed
# UVM_INFO ../src/mst/axi4_master_monitor.sv(210) @ 56165000: uvm_test_top.env.master_agent.mon [axi4_master_monitor] Write complete: ID=0xc ADDR=0x3b46d231 RESP=AXI4_RESP_OKAY
# UVM_INFO ../src/env/axi4_scoreboard.sv(82) @ 56165000: uvm_test_top.env.scb [axi4_scoreboard] Master AXI4_WRITE received: ID=0xc ADDR=0x3b46d231 LEN=174
# UVM_INFO ../src/slv/axi4_slave_monitor.sv(189) @ 56165000: uvm_test_top.env.slave_agent.mon [axi4_slave_monitor] Write response sent: ID=0xc ADDR=0x3b46d231 RESP=AXI4_RESP_OKAY
# UVM_INFO ../src/env/axi4_scoreboard.sv(103) @ 56165000: uvm_test_top.env.scb [axi4_scoreboard] Slave AXI4_WRITE received: ID=0xc ADDR=0x3b46d231 LEN=174
# UVM_INFO ../src/env/axi4_scoreboard.sv(154) @ 56165000: uvm_test_top.env.scb [axi4_scoreboard] [WRITE] MATCH #21: ID=0xc ADDR=0x3b46d231 LEN=174
# UVM_INFO ../src/seq/axi4_random_seq.sv(55) @ 56165000: uvm_test_top.env.master_agent.sqr@@rand_seq [axi4_random_seq] [21/50] AXI4_WRITE: ID=0xc ADDR=0x3b46d231 LEN=174 BURST=AXI4_BURST_INCR
# UVM_INFO ../src/mst/axi4_master_driver.sv(55) @ 56165000: uvm_test_top.env.master_agent.drv [axi4_master_driver] Driving AXI4_WRITE  ID=0xb  ADDR=0xdab6e1f9  LEN=10
# UVM_INFO ../src/mst/axi4_master_driver.sv(94) @ 56165000: uvm_test_top.env.master_agent.drv [axi4_master_driver] Write order: AW || W (parallel)
# UVM_INFO ../src/slv/axi4_slave_driver.sv(165) @ 56195000: uvm_test_top.env.slave_agent.drv [axi4_slave_driver] AW received: ID=0xb ADDR=0xdab6e1f9 LEN=10 LOCK=AXI4_LOCK_EXCLUSIVE
# UVM_INFO ../src/slv/axi4_slave_monitor.sv(116) @ 56195000: uvm_test_top.env.slave_agent.mon [axi4_slave_monitor] AW received: ID=0xb ADDR=0xdab6e1f9 LEN=10
# UVM_INFO ../src/mst/axi4_master_monitor.sv(124) @ 56195000: uvm_test_top.env.master_agent.mon [axi4_master_monitor] AW observed: ID=0xb ADDR=0xdab6e1f9 LEN=10
# UVM_INFO ../src/mst/axi4_master_monitor.sv(184) @ 56385000: uvm_test_top.env.master_agent.mon [axi4_master_monitor] W data assembled: ID=0xb ADDR=0xdab6e1f9 11 beats
# UVM_INFO ../src/slv/axi4_slave_monitor.sv(167) @ 56385000: uvm_test_top.env.slave_agent.mon [axi4_slave_monitor] W data assembled: ID=0xb ADDR=0xdab6e1f9 11 beats
# UVM_INFO ../src/mst/axi4_master_driver.sv(197) @ 56415000: uvm_test_top.env.master_agent.drv [axi4_master_driver] Write response: AXI4_RESP_OKAY
# UVM_INFO ../src/slv/axi4_slave_driver.sv(261) @ 56415000: uvm_test_top.env.slave_agent.drv [axi4_slave_driver] Write complete: ID=0xb ADDR=0xdab6e1f9 RESP=AXI4_RESP_OKAY  11 beats processed
# UVM_INFO ../src/slv/axi4_slave_monitor.sv(189) @ 56415000: uvm_test_top.env.slave_agent.mon [axi4_slave_monitor] Write response sent: ID=0xb ADDR=0xdab6e1f9 RESP=AXI4_RESP_OKAY
# UVM_INFO ../src/env/axi4_scoreboard.sv(103) @ 56415000: uvm_test_top.env.scb [axi4_scoreboard] Slave AXI4_WRITE received: ID=0xb ADDR=0xdab6e1f9 LEN=10
# UVM_INFO ../src/mst/axi4_master_monitor.sv(210) @ 56415000: uvm_test_top.env.master_agent.mon [axi4_master_monitor] Write complete: ID=0xb ADDR=0xdab6e1f9 RESP=AXI4_RESP_OKAY
# UVM_INFO ../src/env/axi4_scoreboard.sv(82) @ 56415000: uvm_test_top.env.scb [axi4_scoreboard] Master AXI4_WRITE received: ID=0xb ADDR=0xdab6e1f9 LEN=10
# UVM_INFO ../src/env/axi4_scoreboard.sv(154) @ 56415000: uvm_test_top.env.scb [axi4_scoreboard] [WRITE] MATCH #22: ID=0xb ADDR=0xdab6e1f9 LEN=10
# UVM_INFO ../src/seq/axi4_random_seq.sv(55) @ 56415000: uvm_test_top.env.master_agent.sqr@@rand_seq [axi4_random_seq] [22/50] AXI4_WRITE: ID=0xb ADDR=0xdab6e1f9 LEN=10 BURST=AXI4_BURST_FIXED
# UVM_INFO ../src/mst/axi4_master_driver.sv(55) @ 56415000: uvm_test_top.env.master_agent.drv [axi4_master_driver] Driving AXI4_WRITE  ID=0x5  ADDR=0x993d1e72  LEN=143
# UVM_INFO ../src/mst/axi4_master_driver.sv(94) @ 56415000: uvm_test_top.env.master_agent.drv [axi4_master_driver] Write order: AW || W (parallel)
# UVM_INFO ../src/slv/axi4_slave_driver.sv(165) @ 56445000: uvm_test_top.env.slave_agent.drv [axi4_slave_driver] AW received: ID=0x5 ADDR=0x993d1e72 LEN=143 LOCK=AXI4_LOCK_NORMAL
# UVM_INFO ../src/mst/axi4_master_monitor.sv(124) @ 56445000: uvm_test_top.env.master_agent.mon [axi4_master_monitor] AW observed: ID=0x5 ADDR=0x993d1e72 LEN=143
# UVM_INFO ../src/slv/axi4_slave_monitor.sv(116) @ 56445000: uvm_test_top.env.slave_agent.mon [axi4_slave_monitor] AW received: ID=0x5 ADDR=0x993d1e72 LEN=143
# UVM_INFO ../src/slv/axi4_slave_monitor.sv(167) @ 59295000: uvm_test_top.env.slave_agent.mon [axi4_slave_monitor] W data assembled: ID=0x5 ADDR=0x993d1e72 144 beats
# UVM_INFO ../src/mst/axi4_master_monitor.sv(184) @ 59295000: uvm_test_top.env.master_agent.mon [axi4_master_monitor] W data assembled: ID=0x5 ADDR=0x993d1e72 144 beats
# UVM_INFO ../src/mst/axi4_master_driver.sv(197) @ 59325000: uvm_test_top.env.master_agent.drv [axi4_master_driver] Write response: AXI4_RESP_OKAY
# UVM_INFO ../src/slv/axi4_slave_driver.sv(261) @ 59325000: uvm_test_top.env.slave_agent.drv [axi4_slave_driver] Write complete: ID=0x5 ADDR=0x993d1e72 RESP=AXI4_RESP_OKAY  144 beats processed
# UVM_INFO ../src/mst/axi4_master_monitor.sv(210) @ 59325000: uvm_test_top.env.master_agent.mon [axi4_master_monitor] Write complete: ID=0x5 ADDR=0x993d1e72 RESP=AXI4_RESP_OKAY
# UVM_INFO ../src/env/axi4_scoreboard.sv(82) @ 59325000: uvm_test_top.env.scb [axi4_scoreboard] Master AXI4_WRITE received: ID=0x5 ADDR=0x993d1e72 LEN=143
# UVM_INFO ../src/slv/axi4_slave_monitor.sv(189) @ 59325000: uvm_test_top.env.slave_agent.mon [axi4_slave_monitor] Write response sent: ID=0x5 ADDR=0x993d1e72 RESP=AXI4_RESP_OKAY
# UVM_INFO ../src/env/axi4_scoreboard.sv(103) @ 59325000: uvm_test_top.env.scb [axi4_scoreboard] Slave AXI4_WRITE received: ID=0x5 ADDR=0x993d1e72 LEN=143
# UVM_INFO ../src/env/axi4_scoreboard.sv(154) @ 59325000: uvm_test_top.env.scb [axi4_scoreboard] [WRITE] MATCH #23: ID=0x5 ADDR=0x993d1e72 LEN=143
# UVM_INFO ../src/seq/axi4_random_seq.sv(55) @ 59325000: uvm_test_top.env.master_agent.sqr@@rand_seq [axi4_random_seq] [23/50] AXI4_WRITE: ID=0x5 ADDR=0x993d1e72 LEN=143 BURST=AXI4_BURST_INCR
# UVM_INFO ../src/mst/axi4_master_driver.sv(55) @ 59325000: uvm_test_top.env.master_agent.drv [axi4_master_driver] Driving AXI4_WRITE  ID=0x8  ADDR=0xf46af707  LEN=62
# UVM_INFO ../src/mst/axi4_master_driver.sv(94) @ 59325000: uvm_test_top.env.master_agent.drv [axi4_master_driver] Write order: AW || W (parallel)
# UVM_INFO ../src/slv/axi4_slave_driver.sv(165) @ 59355000: uvm_test_top.env.slave_agent.drv [axi4_slave_driver] AW received: ID=0x8 ADDR=0xf46af707 LEN=62 LOCK=AXI4_LOCK_EXCLUSIVE
# UVM_INFO ../src/slv/axi4_slave_monitor.sv(116) @ 59355000: uvm_test_top.env.slave_agent.mon [axi4_slave_monitor] AW received: ID=0x8 ADDR=0xf46af707 LEN=62
# UVM_INFO ../src/mst/axi4_master_monitor.sv(124) @ 59355000: uvm_test_top.env.master_agent.mon [axi4_master_monitor] AW observed: ID=0x8 ADDR=0xf46af707 LEN=62
# UVM_INFO ../src/mst/axi4_master_monitor.sv(184) @ 60585000: uvm_test_top.env.master_agent.mon [axi4_master_monitor] W data assembled: ID=0x8 ADDR=0xf46af707 63 beats
# UVM_INFO ../src/slv/axi4_slave_monitor.sv(167) @ 60585000: uvm_test_top.env.slave_agent.mon [axi4_slave_monitor] W data assembled: ID=0x8 ADDR=0xf46af707 63 beats
# UVM_INFO ../src/mst/axi4_master_driver.sv(197) @ 60615000: uvm_test_top.env.master_agent.drv [axi4_master_driver] Write response: AXI4_RESP_DECERR
# UVM_INFO ../src/slv/axi4_slave_driver.sv(261) @ 60615000: uvm_test_top.env.slave_agent.drv [axi4_slave_driver] Write complete: ID=0x8 ADDR=0xf46af707 RESP=AXI4_RESP_DECERR  63 beats processed
# UVM_INFO ../src/slv/axi4_slave_monitor.sv(189) @ 60615000: uvm_test_top.env.slave_agent.mon [axi4_slave_monitor] Write response sent: ID=0x8 ADDR=0xf46af707 RESP=AXI4_RESP_DECERR
# UVM_INFO ../src/env/axi4_scoreboard.sv(103) @ 60615000: uvm_test_top.env.scb [axi4_scoreboard] Slave AXI4_WRITE received: ID=0x8 ADDR=0xf46af707 LEN=62
# UVM_INFO ../src/mst/axi4_master_monitor.sv(210) @ 60615000: uvm_test_top.env.master_agent.mon [axi4_master_monitor] Write complete: ID=0x8 ADDR=0xf46af707 RESP=AXI4_RESP_DECERR
# UVM_INFO ../src/env/axi4_scoreboard.sv(82) @ 60615000: uvm_test_top.env.scb [axi4_scoreboard] Master AXI4_WRITE received: ID=0x8 ADDR=0xf46af707 LEN=62
# UVM_INFO ../src/env/axi4_scoreboard.sv(154) @ 60615000: uvm_test_top.env.scb [axi4_scoreboard] [WRITE] MATCH #24: ID=0x8 ADDR=0xf46af707 LEN=62
# UVM_INFO ../src/seq/axi4_random_seq.sv(55) @ 60615000: uvm_test_top.env.master_agent.sqr@@rand_seq [axi4_random_seq] [24/50] AXI4_WRITE: ID=0x8 ADDR=0xf46af707 LEN=62 BURST=AXI4_BURST_INCR
# UVM_INFO ../src/mst/axi4_master_driver.sv(55) @ 60615000: uvm_test_top.env.master_agent.drv [axi4_master_driver] Driving AXI4_WRITE  ID=0x5  ADDR=0x50c5ee2f  LEN=190
# UVM_INFO ../src/mst/axi4_master_driver.sv(106) @ 60615000: uvm_test_top.env.master_agent.drv [axi4_master_driver] Write order: W -> AW (W first)
# UVM_INFO ../src/slv/axi4_slave_driver.sv(165) @ 60695000: uvm_test_top.env.slave_agent.drv [axi4_slave_driver] AW received: ID=0x5 ADDR=0x50c5ee2f LEN=190 LOCK=AXI4_LOCK_EXCLUSIVE
# UVM_INFO ../src/slv/axi4_slave_monitor.sv(116) @ 60695000: uvm_test_top.env.slave_agent.mon [axi4_slave_monitor] AW received: ID=0x5 ADDR=0x50c5ee2f LEN=190
# UVM_INFO ../src/mst/axi4_master_monitor.sv(124) @ 60695000: uvm_test_top.env.master_agent.mon [axi4_master_monitor] AW observed: ID=0x5 ADDR=0x50c5ee2f LEN=190
# UVM_INFO ../src/slv/axi4_slave_monitor.sv(167) @ 64435000: uvm_test_top.env.slave_agent.mon [axi4_slave_monitor] W data assembled: ID=0x5 ADDR=0x50c5ee2f 191 beats
# UVM_INFO ../src/mst/axi4_master_monitor.sv(184) @ 64435000: uvm_test_top.env.master_agent.mon [axi4_master_monitor] W data assembled: ID=0x5 ADDR=0x50c5ee2f 191 beats
# UVM_INFO ../src/mst/axi4_master_driver.sv(197) @ 64465000: uvm_test_top.env.master_agent.drv [axi4_master_driver] Write response: AXI4_RESP_OKAY
# UVM_INFO ../src/slv/axi4_slave_driver.sv(261) @ 64465000: uvm_test_top.env.slave_agent.drv [axi4_slave_driver] Write complete: ID=0x5 ADDR=0x50c5ee2f RESP=AXI4_RESP_OKAY  191 beats processed
# UVM_INFO ../src/mst/axi4_master_monitor.sv(210) @ 64465000: uvm_test_top.env.master_agent.mon [axi4_master_monitor] Write complete: ID=0x5 ADDR=0x50c5ee2f RESP=AXI4_RESP_OKAY
# UVM_INFO ../src/env/axi4_scoreboard.sv(82) @ 64465000: uvm_test_top.env.scb [axi4_scoreboard] Master AXI4_WRITE received: ID=0x5 ADDR=0x50c5ee2f LEN=190
# UVM_INFO ../src/slv/axi4_slave_monitor.sv(189) @ 64465000: uvm_test_top.env.slave_agent.mon [axi4_slave_monitor] Write response sent: ID=0x5 ADDR=0x50c5ee2f RESP=AXI4_RESP_OKAY
# UVM_INFO ../src/env/axi4_scoreboard.sv(103) @ 64465000: uvm_test_top.env.scb [axi4_scoreboard] Slave AXI4_WRITE received: ID=0x5 ADDR=0x50c5ee2f LEN=190
# UVM_INFO ../src/env/axi4_scoreboard.sv(154) @ 64465000: uvm_test_top.env.scb [axi4_scoreboard] [WRITE] MATCH #25: ID=0x5 ADDR=0x50c5ee2f LEN=190
# UVM_INFO ../src/seq/axi4_random_seq.sv(55) @ 64465000: uvm_test_top.env.master_agent.sqr@@rand_seq [axi4_random_seq] [25/50] AXI4_WRITE: ID=0x5 ADDR=0x50c5ee2f LEN=190 BURST=AXI4_BURST_INCR
# UVM_INFO ../src/mst/axi4_master_driver.sv(55) @ 64465000: uvm_test_top.env.master_agent.drv [axi4_master_driver] Driving AXI4_WRITE  ID=0x9  ADDR=0x537a2e1b  LEN=163
# UVM_INFO ../src/mst/axi4_master_driver.sv(106) @ 64465000: uvm_test_top.env.master_agent.drv [axi4_master_driver] Write order: W -> AW (W first)
# UVM_INFO ../src/slv/axi4_slave_driver.sv(165) @ 64515000: uvm_test_top.env.slave_agent.drv [axi4_slave_driver] AW received: ID=0x9 ADDR=0x537a2e1b LEN=163 LOCK=AXI4_LOCK_NORMAL
# UVM_INFO ../src/slv/axi4_slave_monitor.sv(116) @ 64515000: uvm_test_top.env.slave_agent.mon [axi4_slave_monitor] AW received: ID=0x9 ADDR=0x537a2e1b LEN=163
# UVM_INFO ../src/mst/axi4_master_monitor.sv(124) @ 64515000: uvm_test_top.env.master_agent.mon [axi4_master_monitor] AW observed: ID=0x9 ADDR=0x537a2e1b LEN=163
# UVM_INFO ../src/mst/axi4_master_monitor.sv(184) @ 67745000: uvm_test_top.env.master_agent.mon [axi4_master_monitor] W data assembled: ID=0x9 ADDR=0x537a2e1b 164 beats
# UVM_INFO ../src/slv/axi4_slave_monitor.sv(167) @ 67745000: uvm_test_top.env.slave_agent.mon [axi4_slave_monitor] W data assembled: ID=0x9 ADDR=0x537a2e1b 164 beats
# UVM_INFO ../src/mst/axi4_master_driver.sv(197) @ 67775000: uvm_test_top.env.master_agent.drv [axi4_master_driver] Write response: AXI4_RESP_OKAY
# UVM_INFO ../src/slv/axi4_slave_driver.sv(261) @ 67775000: uvm_test_top.env.slave_agent.drv [axi4_slave_driver] Write complete: ID=0x9 ADDR=0x537a2e1b RESP=AXI4_RESP_OKAY  164 beats processed
# UVM_INFO ../src/slv/axi4_slave_monitor.sv(189) @ 67775000: uvm_test_top.env.slave_agent.mon [axi4_slave_monitor] Write response sent: ID=0x9 ADDR=0x537a2e1b RESP=AXI4_RESP_OKAY
# UVM_INFO ../src/env/axi4_scoreboard.sv(103) @ 67775000: uvm_test_top.env.scb [axi4_scoreboard] Slave AXI4_WRITE received: ID=0x9 ADDR=0x537a2e1b LEN=163
# UVM_INFO ../src/mst/axi4_master_monitor.sv(210) @ 67775000: uvm_test_top.env.master_agent.mon [axi4_master_monitor] Write complete: ID=0x9 ADDR=0x537a2e1b RESP=AXI4_RESP_OKAY
# UVM_INFO ../src/env/axi4_scoreboard.sv(82) @ 67775000: uvm_test_top.env.scb [axi4_scoreboard] Master AXI4_WRITE received: ID=0x9 ADDR=0x537a2e1b LEN=163
# UVM_INFO ../src/env/axi4_scoreboard.sv(154) @ 67775000: uvm_test_top.env.scb [axi4_scoreboard] [WRITE] MATCH #26: ID=0x9 ADDR=0x537a2e1b LEN=163
# UVM_INFO ../src/seq/axi4_random_seq.sv(55) @ 67775000: uvm_test_top.env.master_agent.sqr@@rand_seq [axi4_random_seq] [26/50] AXI4_WRITE: ID=0x9 ADDR=0x537a2e1b LEN=163 BURST=AXI4_BURST_INCR
# UVM_INFO ../src/mst/axi4_master_driver.sv(55) @ 67775000: uvm_test_top.env.master_agent.drv [axi4_master_driver] Driving AXI4_WRITE  ID=0x8  ADDR=0xbf2071e0  LEN=14
# UVM_INFO ../src/mst/axi4_master_driver.sv(94) @ 67775000: uvm_test_top.env.master_agent.drv [axi4_master_driver] Write order: AW || W (parallel)
# UVM_INFO ../src/slv/axi4_slave_driver.sv(165) @ 67805000: uvm_test_top.env.slave_agent.drv [axi4_slave_driver] AW received: ID=0x8 ADDR=0xbf2071e0 LEN=14 LOCK=AXI4_LOCK_NORMAL
# UVM_INFO ../src/mst/axi4_master_monitor.sv(124) @ 67805000: uvm_test_top.env.master_agent.mon [axi4_master_monitor] AW observed: ID=0x8 ADDR=0xbf2071e0 LEN=14
# UVM_INFO ../src/slv/axi4_slave_monitor.sv(116) @ 67805000: uvm_test_top.env.slave_agent.mon [axi4_slave_monitor] AW received: ID=0x8 ADDR=0xbf2071e0 LEN=14
# UVM_INFO ../src/slv/axi4_slave_monitor.sv(167) @ 68075000: uvm_test_top.env.slave_agent.mon [axi4_slave_monitor] W data assembled: ID=0x8 ADDR=0xbf2071e0 15 beats
# UVM_INFO ../src/mst/axi4_master_monitor.sv(184) @ 68075000: uvm_test_top.env.master_agent.mon [axi4_master_monitor] W data assembled: ID=0x8 ADDR=0xbf2071e0 15 beats
# UVM_INFO ../src/mst/axi4_master_driver.sv(197) @ 68105000: uvm_test_top.env.master_agent.drv [axi4_master_driver] Write response: AXI4_RESP_OKAY
# UVM_INFO ../src/slv/axi4_slave_driver.sv(261) @ 68105000: uvm_test_top.env.slave_agent.drv [axi4_slave_driver] Write complete: ID=0x8 ADDR=0xbf2071e0 RESP=AXI4_RESP_OKAY  15 beats processed
# UVM_INFO ../src/mst/axi4_master_monitor.sv(210) @ 68105000: uvm_test_top.env.master_agent.mon [axi4_master_monitor] Write complete: ID=0x8 ADDR=0xbf2071e0 RESP=AXI4_RESP_OKAY
# UVM_INFO ../src/env/axi4_scoreboard.sv(82) @ 68105000: uvm_test_top.env.scb [axi4_scoreboard] Master AXI4_WRITE received: ID=0x8 ADDR=0xbf2071e0 LEN=14
# UVM_INFO ../src/slv/axi4_slave_monitor.sv(189) @ 68105000: uvm_test_top.env.slave_agent.mon [axi4_slave_monitor] Write response sent: ID=0x8 ADDR=0xbf2071e0 RESP=AXI4_RESP_OKAY
# UVM_INFO ../src/env/axi4_scoreboard.sv(103) @ 68105000: uvm_test_top.env.scb [axi4_scoreboard] Slave AXI4_WRITE received: ID=0x8 ADDR=0xbf2071e0 LEN=14
# UVM_INFO ../src/env/axi4_scoreboard.sv(154) @ 68105000: uvm_test_top.env.scb [axi4_scoreboard] [WRITE] MATCH #27: ID=0x8 ADDR=0xbf2071e0 LEN=14
# UVM_INFO ../src/seq/axi4_random_seq.sv(55) @ 68105000: uvm_test_top.env.master_agent.sqr@@rand_seq [axi4_random_seq] [27/50] AXI4_WRITE: ID=0x8 ADDR=0xbf2071e0 LEN=14 BURST=AXI4_BURST_FIXED
# UVM_INFO ../src/mst/axi4_master_driver.sv(55) @ 68105000: uvm_test_top.env.master_agent.drv [axi4_master_driver] Driving AXI4_READ  ID=0x7  ADDR=0xd55220c7  LEN=52
# UVM_INFO ../src/slv/axi4_slave_driver.sv(300) @ 68135000: uvm_test_top.env.slave_agent.drv [axi4_slave_driver] AR received: ID=0x7 ADDR=0xd55220c7 LEN=52 LOCK=AXI4_LOCK_EXCLUSIVE
# UVM_INFO ../src/slv/axi4_slave_monitor.sv(224) @ 68135000: uvm_test_top.env.slave_agent.mon [axi4_slave_monitor] AR received: ID=0x7 ADDR=0xd55220c7 LEN=52
# UVM_INFO ../src/mst/axi4_master_monitor.sv(246) @ 68135000: uvm_test_top.env.master_agent.mon [axi4_master_monitor] AR observed: ID=0x7 ADDR=0xd55220c7 LEN=52
# UVM_INFO ../src/mst/axi4_master_driver.sv(254) @ 69195000: uvm_test_top.env.master_agent.drv [axi4_master_driver] Read complete: 53 beats received
# UVM_INFO ../src/slv/axi4_slave_driver.sv(349) @ 69195000: uvm_test_top.env.slave_agent.drv [axi4_slave_driver] Read complete: ID=0x7 ADDR=0xd55220c7 RESP=AXI4_RESP_EXOKAY  53 beats sent
# UVM_INFO ../src/slv/axi4_slave_monitor.sv(287) @ 69195000: uvm_test_top.env.slave_agent.mon [axi4_slave_monitor] Read data sent: ID=0x7 ADDR=0xd55220c7 53 beats
# UVM_INFO ../src/env/axi4_scoreboard.sv(103) @ 69195000: uvm_test_top.env.scb [axi4_scoreboard] Slave AXI4_READ received: ID=0x7 ADDR=0xd55220c7 LEN=52
# UVM_INFO ../src/mst/axi4_master_monitor.sv(314) @ 69195000: uvm_test_top.env.master_agent.mon [axi4_master_monitor] Read complete: ID=0x7 ADDR=0xd55220c7 53 beats
# UVM_INFO ../src/env/axi4_scoreboard.sv(82) @ 69195000: uvm_test_top.env.scb [axi4_scoreboard] Master AXI4_READ received: ID=0x7 ADDR=0xd55220c7 LEN=52
# UVM_INFO ../src/env/axi4_scoreboard.sv(154) @ 69195000: uvm_test_top.env.scb [axi4_scoreboard] [READ] MATCH #28: ID=0x7 ADDR=0xd55220c7 LEN=52
# UVM_INFO ../src/seq/axi4_random_seq.sv(55) @ 69195000: uvm_test_top.env.master_agent.sqr@@rand_seq [axi4_random_seq] [28/50] AXI4_READ: ID=0x7 ADDR=0xd55220c7 LEN=52 BURST=AXI4_BURST_INCR
# UVM_INFO ../src/mst/axi4_master_driver.sv(55) @ 69195000: uvm_test_top.env.master_agent.drv [axi4_master_driver] Driving AXI4_WRITE  ID=0x4  ADDR=0x6af42fc7  LEN=200
# UVM_INFO ../src/mst/axi4_master_driver.sv(106) @ 69195000: uvm_test_top.env.master_agent.drv [axi4_master_driver] Write order: W -> AW (W first)
# UVM_INFO ../src/slv/axi4_slave_driver.sv(165) @ 69265000: uvm_test_top.env.slave_agent.drv [axi4_slave_driver] AW received: ID=0x4 ADDR=0x6af42fc7 LEN=200 LOCK=AXI4_LOCK_EXCLUSIVE
# UVM_INFO ../src/mst/axi4_master_monitor.sv(124) @ 69265000: uvm_test_top.env.master_agent.mon [axi4_master_monitor] AW observed: ID=0x4 ADDR=0x6af42fc7 LEN=200
# UVM_INFO ../src/slv/axi4_slave_monitor.sv(116) @ 69265000: uvm_test_top.env.slave_agent.mon [axi4_slave_monitor] AW received: ID=0x4 ADDR=0x6af42fc7 LEN=200
# UVM_INFO ../src/slv/axi4_slave_monitor.sv(167) @ 73215000: uvm_test_top.env.slave_agent.mon [axi4_slave_monitor] W data assembled: ID=0x4 ADDR=0x6af42fc7 201 beats
# UVM_INFO ../src/mst/axi4_master_monitor.sv(184) @ 73215000: uvm_test_top.env.master_agent.mon [axi4_master_monitor] W data assembled: ID=0x4 ADDR=0x6af42fc7 201 beats
# UVM_INFO ../src/mst/axi4_master_driver.sv(197) @ 73245000: uvm_test_top.env.master_agent.drv [axi4_master_driver] Write response: AXI4_RESP_OKAY
# UVM_INFO ../src/slv/axi4_slave_driver.sv(261) @ 73245000: uvm_test_top.env.slave_agent.drv [axi4_slave_driver] Write complete: ID=0x4 ADDR=0x6af42fc7 RESP=AXI4_RESP_OKAY  201 beats processed
# UVM_INFO ../src/mst/axi4_master_monitor.sv(210) @ 73245000: uvm_test_top.env.master_agent.mon [axi4_master_monitor] Write complete: ID=0x4 ADDR=0x6af42fc7 RESP=AXI4_RESP_OKAY
# UVM_INFO ../src/env/axi4_scoreboard.sv(82) @ 73245000: uvm_test_top.env.scb [axi4_scoreboard] Master AXI4_WRITE received: ID=0x4 ADDR=0x6af42fc7 LEN=200
# UVM_INFO ../src/slv/axi4_slave_monitor.sv(189) @ 73245000: uvm_test_top.env.slave_agent.mon [axi4_slave_monitor] Write response sent: ID=0x4 ADDR=0x6af42fc7 RESP=AXI4_RESP_OKAY
# UVM_INFO ../src/env/axi4_scoreboard.sv(103) @ 73245000: uvm_test_top.env.scb [axi4_scoreboard] Slave AXI4_WRITE received: ID=0x4 ADDR=0x6af42fc7 LEN=200
# UVM_INFO ../src/env/axi4_scoreboard.sv(154) @ 73245000: uvm_test_top.env.scb [axi4_scoreboard] [WRITE] MATCH #29: ID=0x4 ADDR=0x6af42fc7 LEN=200
# UVM_INFO ../src/seq/axi4_random_seq.sv(55) @ 73245000: uvm_test_top.env.master_agent.sqr@@rand_seq [axi4_random_seq] [29/50] AXI4_WRITE: ID=0x4 ADDR=0x6af42fc7 LEN=200 BURST=AXI4_BURST_INCR
# UVM_INFO ../src/mst/axi4_master_driver.sv(55) @ 73245000: uvm_test_top.env.master_agent.drv [axi4_master_driver] Driving AXI4_READ  ID=0x5  ADDR=0x5d5a8f18  LEN=178
# UVM_INFO ../src/slv/axi4_slave_driver.sv(300) @ 73275000: uvm_test_top.env.slave_agent.drv [axi4_slave_driver] AR received: ID=0x5 ADDR=0x5d5a8f18 LEN=178 LOCK=AXI4_LOCK_NORMAL
# UVM_INFO ../src/slv/axi4_slave_monitor.sv(224) @ 73275000: uvm_test_top.env.slave_agent.mon [axi4_slave_monitor] AR received: ID=0x5 ADDR=0x5d5a8f18 LEN=178
# UVM_INFO ../src/mst/axi4_master_monitor.sv(246) @ 73275000: uvm_test_top.env.master_agent.mon [axi4_master_monitor] AR observed: ID=0x5 ADDR=0x5d5a8f18 LEN=178
# UVM_INFO ../src/mst/axi4_master_driver.sv(254) @ 76855000: uvm_test_top.env.master_agent.drv [axi4_master_driver] Read complete: 179 beats received
# UVM_INFO ../src/slv/axi4_slave_driver.sv(349) @ 76855000: uvm_test_top.env.slave_agent.drv [axi4_slave_driver] Read complete: ID=0x5 ADDR=0x5d5a8f18 RESP=AXI4_RESP_OKAY  179 beats sent
# UVM_INFO ../src/slv/axi4_slave_monitor.sv(287) @ 76855000: uvm_test_top.env.slave_agent.mon [axi4_slave_monitor] Read data sent: ID=0x5 ADDR=0x5d5a8f18 179 beats
# UVM_INFO ../src/env/axi4_scoreboard.sv(103) @ 76855000: uvm_test_top.env.scb [axi4_scoreboard] Slave AXI4_READ received: ID=0x5 ADDR=0x5d5a8f18 LEN=178
# UVM_INFO ../src/mst/axi4_master_monitor.sv(314) @ 76855000: uvm_test_top.env.master_agent.mon [axi4_master_monitor] Read complete: ID=0x5 ADDR=0x5d5a8f18 179 beats
# UVM_INFO ../src/env/axi4_scoreboard.sv(82) @ 76855000: uvm_test_top.env.scb [axi4_scoreboard] Master AXI4_READ received: ID=0x5 ADDR=0x5d5a8f18 LEN=178
# UVM_INFO ../src/env/axi4_scoreboard.sv(154) @ 76855000: uvm_test_top.env.scb [axi4_scoreboard] [READ] MATCH #30: ID=0x5 ADDR=0x5d5a8f18 LEN=178
# UVM_INFO ../src/seq/axi4_random_seq.sv(55) @ 76855000: uvm_test_top.env.master_agent.sqr@@rand_seq [axi4_random_seq] [30/50] AXI4_READ: ID=0x5 ADDR=0x5d5a8f18 LEN=178 BURST=AXI4_BURST_INCR
# UVM_INFO ../src/mst/axi4_master_driver.sv(55) @ 76855000: uvm_test_top.env.master_agent.drv [axi4_master_driver] Driving AXI4_WRITE  ID=0xf  ADDR=0xeb4e5025  LEN=140
# UVM_INFO ../src/mst/axi4_master_driver.sv(94) @ 76855000: uvm_test_top.env.master_agent.drv [axi4_master_driver] Write order: AW || W (parallel)
# UVM_INFO ../src/slv/axi4_slave_driver.sv(165) @ 76885000: uvm_test_top.env.slave_agent.drv [axi4_slave_driver] AW received: ID=0xf ADDR=0xeb4e5025 LEN=140 LOCK=AXI4_LOCK_EXCLUSIVE
# UVM_INFO ../src/mst/axi4_master_monitor.sv(124) @ 76885000: uvm_test_top.env.master_agent.mon [axi4_master_monitor] AW observed: ID=0xf ADDR=0xeb4e5025 LEN=140
# UVM_INFO ../src/slv/axi4_slave_monitor.sv(116) @ 76885000: uvm_test_top.env.slave_agent.mon [axi4_slave_monitor] AW received: ID=0xf ADDR=0xeb4e5025 LEN=140
# UVM_INFO ../src/slv/axi4_slave_monitor.sv(167) @ 79675000: uvm_test_top.env.slave_agent.mon [axi4_slave_monitor] W data assembled: ID=0xf ADDR=0xeb4e5025 141 beats
# UVM_INFO ../src/mst/axi4_master_monitor.sv(184) @ 79675000: uvm_test_top.env.master_agent.mon [axi4_master_monitor] W data assembled: ID=0xf ADDR=0xeb4e5025 141 beats
# UVM_INFO ../src/mst/axi4_master_driver.sv(197) @ 79705000: uvm_test_top.env.master_agent.drv [axi4_master_driver] Write response: AXI4_RESP_SLVERR
# UVM_INFO ../src/slv/axi4_slave_driver.sv(261) @ 79705000: uvm_test_top.env.slave_agent.drv [axi4_slave_driver] Write complete: ID=0xf ADDR=0xeb4e5025 RESP=AXI4_RESP_SLVERR  141 beats processed
# UVM_INFO ../src/mst/axi4_master_monitor.sv(210) @ 79705000: uvm_test_top.env.master_agent.mon [axi4_master_monitor] Write complete: ID=0xf ADDR=0xeb4e5025 RESP=AXI4_RESP_SLVERR
# UVM_INFO ../src/env/axi4_scoreboard.sv(82) @ 79705000: uvm_test_top.env.scb [axi4_scoreboard] Master AXI4_WRITE received: ID=0xf ADDR=0xeb4e5025 LEN=140
# UVM_INFO ../src/slv/axi4_slave_monitor.sv(189) @ 79705000: uvm_test_top.env.slave_agent.mon [axi4_slave_monitor] Write response sent: ID=0xf ADDR=0xeb4e5025 RESP=AXI4_RESP_SLVERR
# UVM_INFO ../src/env/axi4_scoreboard.sv(103) @ 79705000: uvm_test_top.env.scb [axi4_scoreboard] Slave AXI4_WRITE received: ID=0xf ADDR=0xeb4e5025 LEN=140
# UVM_INFO ../src/env/axi4_scoreboard.sv(154) @ 79705000: uvm_test_top.env.scb [axi4_scoreboard] [WRITE] MATCH #31: ID=0xf ADDR=0xeb4e5025 LEN=140
# UVM_INFO ../src/seq/axi4_random_seq.sv(55) @ 79705000: uvm_test_top.env.master_agent.sqr@@rand_seq [axi4_random_seq] [31/50] AXI4_WRITE: ID=0xf ADDR=0xeb4e5025 LEN=140 BURST=AXI4_BURST_INCR
# UVM_INFO ../src/mst/axi4_master_driver.sv(55) @ 79705000: uvm_test_top.env.master_agent.drv [axi4_master_driver] Driving AXI4_WRITE  ID=0x4  ADDR=0x55a1fe8b  LEN=136
# UVM_INFO ../src/mst/axi4_master_driver.sv(94) @ 79705000: uvm_test_top.env.master_agent.drv [axi4_master_driver] Write order: AW || W (parallel)
# UVM_INFO ../src/slv/axi4_slave_driver.sv(165) @ 79735000: uvm_test_top.env.slave_agent.drv [axi4_slave_driver] AW received: ID=0x4 ADDR=0x55a1fe8b LEN=136 LOCK=AXI4_LOCK_EXCLUSIVE
# UVM_INFO ../src/slv/axi4_slave_monitor.sv(116) @ 79735000: uvm_test_top.env.slave_agent.mon [axi4_slave_monitor] AW received: ID=0x4 ADDR=0x55a1fe8b LEN=136
# UVM_INFO ../src/mst/axi4_master_monitor.sv(124) @ 79735000: uvm_test_top.env.master_agent.mon [axi4_master_monitor] AW observed: ID=0x4 ADDR=0x55a1fe8b LEN=136
# UVM_INFO ../src/mst/axi4_master_monitor.sv(184) @ 82445000: uvm_test_top.env.master_agent.mon [axi4_master_monitor] W data assembled: ID=0x4 ADDR=0x55a1fe8b 137 beats
# UVM_INFO ../src/slv/axi4_slave_monitor.sv(167) @ 82445000: uvm_test_top.env.slave_agent.mon [axi4_slave_monitor] W data assembled: ID=0x4 ADDR=0x55a1fe8b 137 beats
# UVM_INFO ../src/mst/axi4_master_driver.sv(197) @ 82475000: uvm_test_top.env.master_agent.drv [axi4_master_driver] Write response: AXI4_RESP_OKAY
# UVM_INFO ../src/slv/axi4_slave_driver.sv(261) @ 82475000: uvm_test_top.env.slave_agent.drv [axi4_slave_driver] Write complete: ID=0x4 ADDR=0x55a1fe8b RESP=AXI4_RESP_OKAY  137 beats processed
# UVM_INFO ../src/slv/axi4_slave_monitor.sv(189) @ 82475000: uvm_test_top.env.slave_agent.mon [axi4_slave_monitor] Write response sent: ID=0x4 ADDR=0x55a1fe8b RESP=AXI4_RESP_OKAY
# UVM_INFO ../src/env/axi4_scoreboard.sv(103) @ 82475000: uvm_test_top.env.scb [axi4_scoreboard] Slave AXI4_WRITE received: ID=0x4 ADDR=0x55a1fe8b LEN=136
# UVM_INFO ../src/mst/axi4_master_monitor.sv(210) @ 82475000: uvm_test_top.env.master_agent.mon [axi4_master_monitor] Write complete: ID=0x4 ADDR=0x55a1fe8b RESP=AXI4_RESP_OKAY
# UVM_INFO ../src/env/axi4_scoreboard.sv(82) @ 82475000: uvm_test_top.env.scb [axi4_scoreboard] Master AXI4_WRITE received: ID=0x4 ADDR=0x55a1fe8b LEN=136
# UVM_INFO ../src/env/axi4_scoreboard.sv(154) @ 82475000: uvm_test_top.env.scb [axi4_scoreboard] [WRITE] MATCH #32: ID=0x4 ADDR=0x55a1fe8b LEN=136
# UVM_INFO ../src/seq/axi4_random_seq.sv(55) @ 82475000: uvm_test_top.env.master_agent.sqr@@rand_seq [axi4_random_seq] [32/50] AXI4_WRITE: ID=0x4 ADDR=0x55a1fe8b LEN=136 BURST=AXI4_BURST_INCR
# UVM_INFO ../src/mst/axi4_master_driver.sv(55) @ 82475000: uvm_test_top.env.master_agent.drv [axi4_master_driver] Driving AXI4_WRITE  ID=0xf  ADDR=0x5c3d8bdf  LEN=7
# UVM_INFO ../src/mst/axi4_master_driver.sv(106) @ 82475000: uvm_test_top.env.master_agent.drv [axi4_master_driver] Write order: W -> AW (W first)
# UVM_INFO ../src/slv/axi4_slave_driver.sv(165) @ 82555000: uvm_test_top.env.slave_agent.drv [axi4_slave_driver] AW received: ID=0xf ADDR=0x5c3d8bdf LEN=7 LOCK=AXI4_LOCK_NORMAL
# UVM_INFO ../src/slv/axi4_slave_monitor.sv(116) @ 82555000: uvm_test_top.env.slave_agent.mon [axi4_slave_monitor] AW received: ID=0xf ADDR=0x5c3d8bdf LEN=7
# UVM_INFO ../src/mst/axi4_master_monitor.sv(124) @ 82555000: uvm_test_top.env.master_agent.mon [axi4_master_monitor] AW observed: ID=0xf ADDR=0x5c3d8bdf LEN=7
# UVM_INFO ../src/slv/axi4_slave_monitor.sv(167) @ 82635000: uvm_test_top.env.slave_agent.mon [axi4_slave_monitor] W data assembled: ID=0xf ADDR=0x5c3d8bdf 8 beats
# UVM_INFO ../src/mst/axi4_master_monitor.sv(184) @ 82635000: uvm_test_top.env.master_agent.mon [axi4_master_monitor] W data assembled: ID=0xf ADDR=0x5c3d8bdf 8 beats
# UVM_INFO ../src/mst/axi4_master_driver.sv(197) @ 82665000: uvm_test_top.env.master_agent.drv [axi4_master_driver] Write response: AXI4_RESP_OKAY
# UVM_INFO ../src/slv/axi4_slave_driver.sv(261) @ 82665000: uvm_test_top.env.slave_agent.drv [axi4_slave_driver] Write complete: ID=0xf ADDR=0x5c3d8bdf RESP=AXI4_RESP_OKAY  8 beats processed
# UVM_INFO ../src/mst/axi4_master_monitor.sv(210) @ 82665000: uvm_test_top.env.master_agent.mon [axi4_master_monitor] Write complete: ID=0xf ADDR=0x5c3d8bdf RESP=AXI4_RESP_OKAY
# UVM_INFO ../src/env/axi4_scoreboard.sv(82) @ 82665000: uvm_test_top.env.scb [axi4_scoreboard] Master AXI4_WRITE received: ID=0xf ADDR=0x5c3d8bdf LEN=7
# UVM_INFO ../src/slv/axi4_slave_monitor.sv(189) @ 82665000: uvm_test_top.env.slave_agent.mon [axi4_slave_monitor] Write response sent: ID=0xf ADDR=0x5c3d8bdf RESP=AXI4_RESP_OKAY
# UVM_INFO ../src/env/axi4_scoreboard.sv(103) @ 82665000: uvm_test_top.env.scb [axi4_scoreboard] Slave AXI4_WRITE received: ID=0xf ADDR=0x5c3d8bdf LEN=7
# UVM_INFO ../src/env/axi4_scoreboard.sv(154) @ 82665000: uvm_test_top.env.scb [axi4_scoreboard] [WRITE] MATCH #33: ID=0xf ADDR=0x5c3d8bdf LEN=7
# UVM_INFO ../src/seq/axi4_random_seq.sv(55) @ 82665000: uvm_test_top.env.master_agent.sqr@@rand_seq [axi4_random_seq] [33/50] AXI4_WRITE: ID=0xf ADDR=0x5c3d8bdf LEN=7 BURST=AXI4_BURST_INCR
# UVM_INFO ../src/mst/axi4_master_driver.sv(55) @ 82665000: uvm_test_top.env.master_agent.drv [axi4_master_driver] Driving AXI4_READ  ID=0xd  ADDR=0x1fca24d9  LEN=229
# UVM_INFO ../src/slv/axi4_slave_driver.sv(300) @ 82695000: uvm_test_top.env.slave_agent.drv [axi4_slave_driver] AR received: ID=0xd ADDR=0x1fca24d9 LEN=229 LOCK=AXI4_LOCK_NORMAL
# UVM_INFO ../src/slv/axi4_slave_monitor.sv(224) @ 82695000: uvm_test_top.env.slave_agent.mon [axi4_slave_monitor] AR received: ID=0xd ADDR=0x1fca24d9 LEN=229
# UVM_INFO ../src/mst/axi4_master_monitor.sv(246) @ 82695000: uvm_test_top.env.master_agent.mon [axi4_master_monitor] AR observed: ID=0xd ADDR=0x1fca24d9 LEN=229
# UVM_INFO ../src/mst/axi4_master_driver.sv(254) @ 87295000: uvm_test_top.env.master_agent.drv [axi4_master_driver] Read complete: 230 beats received
# UVM_INFO ../src/slv/axi4_slave_driver.sv(349) @ 87295000: uvm_test_top.env.slave_agent.drv [axi4_slave_driver] Read complete: ID=0xd ADDR=0x1fca24d9 RESP=AXI4_RESP_OKAY  230 beats sent
# UVM_INFO ../src/slv/axi4_slave_monitor.sv(287) @ 87295000: uvm_test_top.env.slave_agent.mon [axi4_slave_monitor] Read data sent: ID=0xd ADDR=0x1fca24d9 230 beats
# UVM_INFO ../src/env/axi4_scoreboard.sv(103) @ 87295000: uvm_test_top.env.scb [axi4_scoreboard] Slave AXI4_READ received: ID=0xd ADDR=0x1fca24d9 LEN=229
# UVM_INFO ../src/mst/axi4_master_monitor.sv(314) @ 87295000: uvm_test_top.env.master_agent.mon [axi4_master_monitor] Read complete: ID=0xd ADDR=0x1fca24d9 230 beats
# UVM_INFO ../src/env/axi4_scoreboard.sv(82) @ 87295000: uvm_test_top.env.scb [axi4_scoreboard] Master AXI4_READ received: ID=0xd ADDR=0x1fca24d9 LEN=229
# UVM_INFO ../src/env/axi4_scoreboard.sv(154) @ 87295000: uvm_test_top.env.scb [axi4_scoreboard] [READ] MATCH #34: ID=0xd ADDR=0x1fca24d9 LEN=229
# UVM_INFO ../src/seq/axi4_random_seq.sv(55) @ 87295000: uvm_test_top.env.master_agent.sqr@@rand_seq [axi4_random_seq] [34/50] AXI4_READ: ID=0xd ADDR=0x1fca24d9 LEN=229 BURST=AXI4_BURST_INCR
# UVM_INFO ../src/mst/axi4_master_driver.sv(55) @ 87295000: uvm_test_top.env.master_agent.drv [axi4_master_driver] Driving AXI4_WRITE  ID=0x9  ADDR=0xc3a066ae  LEN=77
# UVM_INFO ../src/mst/axi4_master_driver.sv(94) @ 87295000: uvm_test_top.env.master_agent.drv [axi4_master_driver] Write order: AW || W (parallel)
# UVM_INFO ../src/slv/axi4_slave_driver.sv(165) @ 87325000: uvm_test_top.env.slave_agent.drv [axi4_slave_driver] AW received: ID=0x9 ADDR=0xc3a066ae LEN=77 LOCK=AXI4_LOCK_EXCLUSIVE
# UVM_INFO ../src/mst/axi4_master_monitor.sv(124) @ 87325000: uvm_test_top.env.master_agent.mon [axi4_master_monitor] AW observed: ID=0x9 ADDR=0xc3a066ae LEN=77
# UVM_INFO ../src/slv/axi4_slave_monitor.sv(116) @ 87325000: uvm_test_top.env.slave_agent.mon [axi4_slave_monitor] AW received: ID=0x9 ADDR=0xc3a066ae LEN=77
# UVM_INFO ../src/slv/axi4_slave_monitor.sv(167) @ 88855000: uvm_test_top.env.slave_agent.mon [axi4_slave_monitor] W data assembled: ID=0x9 ADDR=0xc3a066ae 78 beats
# UVM_INFO ../src/mst/axi4_master_monitor.sv(184) @ 88855000: uvm_test_top.env.master_agent.mon [axi4_master_monitor] W data assembled: ID=0x9 ADDR=0xc3a066ae 78 beats
# UVM_INFO ../src/mst/axi4_master_driver.sv(197) @ 88885000: uvm_test_top.env.master_agent.drv [axi4_master_driver] Write response: AXI4_RESP_OKAY
# UVM_INFO ../src/slv/axi4_slave_driver.sv(261) @ 88885000: uvm_test_top.env.slave_agent.drv [axi4_slave_driver] Write complete: ID=0x9 ADDR=0xc3a066ae RESP=AXI4_RESP_OKAY  78 beats processed
# UVM_INFO ../src/mst/axi4_master_monitor.sv(210) @ 88885000: uvm_test_top.env.master_agent.mon [axi4_master_monitor] Write complete: ID=0x9 ADDR=0xc3a066ae RESP=AXI4_RESP_OKAY
# UVM_INFO ../src/env/axi4_scoreboard.sv(82) @ 88885000: uvm_test_top.env.scb [axi4_scoreboard] Master AXI4_WRITE received: ID=0x9 ADDR=0xc3a066ae LEN=77
# UVM_INFO ../src/slv/axi4_slave_monitor.sv(189) @ 88885000: uvm_test_top.env.slave_agent.mon [axi4_slave_monitor] Write response sent: ID=0x9 ADDR=0xc3a066ae RESP=AXI4_RESP_OKAY
# UVM_INFO ../src/env/axi4_scoreboard.sv(103) @ 88885000: uvm_test_top.env.scb [axi4_scoreboard] Slave AXI4_WRITE received: ID=0x9 ADDR=0xc3a066ae LEN=77
# UVM_INFO ../src/env/axi4_scoreboard.sv(154) @ 88885000: uvm_test_top.env.scb [axi4_scoreboard] [WRITE] MATCH #35: ID=0x9 ADDR=0xc3a066ae LEN=77
# UVM_INFO ../src/seq/axi4_random_seq.sv(55) @ 88885000: uvm_test_top.env.master_agent.sqr@@rand_seq [axi4_random_seq] [35/50] AXI4_WRITE: ID=0x9 ADDR=0xc3a066ae LEN=77 BURST=AXI4_BURST_INCR
# UVM_INFO ../src/mst/axi4_master_driver.sv(55) @ 88885000: uvm_test_top.env.master_agent.drv [axi4_master_driver] Driving AXI4_WRITE  ID=0xe  ADDR=0x90277737  LEN=6
# UVM_INFO ../src/mst/axi4_master_driver.sv(101) @ 88885000: uvm_test_top.env.master_agent.drv [axi4_master_driver] Write order: AW -> W (sequential)
# UVM_INFO ../src/slv/axi4_slave_driver.sv(165) @ 88915000: uvm_test_top.env.slave_agent.drv [axi4_slave_driver] AW received: ID=0xe ADDR=0x90277737 LEN=6 LOCK=AXI4_LOCK_EXCLUSIVE
# UVM_INFO ../src/slv/axi4_slave_monitor.sv(116) @ 88915000: uvm_test_top.env.slave_agent.mon [axi4_slave_monitor] AW received: ID=0xe ADDR=0x90277737 LEN=6
# UVM_INFO ../src/mst/axi4_master_monitor.sv(124) @ 88915000: uvm_test_top.env.master_agent.mon [axi4_master_monitor] AW observed: ID=0xe ADDR=0x90277737 LEN=6
# UVM_INFO ../src/slv/axi4_slave_monitor.sv(167) @ 89055000: uvm_test_top.env.slave_agent.mon [axi4_slave_monitor] W data assembled: ID=0xe ADDR=0x90277737 7 beats
# UVM_INFO ../src/mst/axi4_master_monitor.sv(184) @ 89055000: uvm_test_top.env.master_agent.mon [axi4_master_monitor] W data assembled: ID=0xe ADDR=0x90277737 7 beats
# UVM_INFO ../src/mst/axi4_master_driver.sv(197) @ 89085000: uvm_test_top.env.master_agent.drv [axi4_master_driver] Write response: AXI4_RESP_OKAY
# UVM_INFO ../src/slv/axi4_slave_driver.sv(261) @ 89085000: uvm_test_top.env.slave_agent.drv [axi4_slave_driver] Write complete: ID=0xe ADDR=0x90277737 RESP=AXI4_RESP_OKAY  7 beats processed
# UVM_INFO ../src/mst/axi4_master_monitor.sv(210) @ 89085000: uvm_test_top.env.master_agent.mon [axi4_master_monitor] Write complete: ID=0xe ADDR=0x90277737 RESP=AXI4_RESP_OKAY
# UVM_INFO ../src/env/axi4_scoreboard.sv(82) @ 89085000: uvm_test_top.env.scb [axi4_scoreboard] Master AXI4_WRITE received: ID=0xe ADDR=0x90277737 LEN=6
# UVM_INFO ../src/slv/axi4_slave_monitor.sv(189) @ 89085000: uvm_test_top.env.slave_agent.mon [axi4_slave_monitor] Write response sent: ID=0xe ADDR=0x90277737 RESP=AXI4_RESP_OKAY
# UVM_INFO ../src/env/axi4_scoreboard.sv(103) @ 89085000: uvm_test_top.env.scb [axi4_scoreboard] Slave AXI4_WRITE received: ID=0xe ADDR=0x90277737 LEN=6
# UVM_INFO ../src/env/axi4_scoreboard.sv(154) @ 89085000: uvm_test_top.env.scb [axi4_scoreboard] [WRITE] MATCH #36: ID=0xe ADDR=0x90277737 LEN=6
# UVM_INFO ../src/seq/axi4_random_seq.sv(55) @ 89085000: uvm_test_top.env.master_agent.sqr@@rand_seq [axi4_random_seq] [36/50] AXI4_WRITE: ID=0xe ADDR=0x90277737 LEN=6 BURST=AXI4_BURST_FIXED
# UVM_INFO ../src/mst/axi4_master_driver.sv(55) @ 89085000: uvm_test_top.env.master_agent.drv [axi4_master_driver] Driving AXI4_WRITE  ID=0xd  ADDR=0xc4715c96  LEN=0
# UVM_INFO ../src/mst/axi4_master_driver.sv(101) @ 89085000: uvm_test_top.env.master_agent.drv [axi4_master_driver] Write order: AW -> W (sequential)
# UVM_INFO ../src/slv/axi4_slave_driver.sv(165) @ 89115000: uvm_test_top.env.slave_agent.drv [axi4_slave_driver] AW received: ID=0xd ADDR=0xc4715c96 LEN=0 LOCK=AXI4_LOCK_NORMAL
# UVM_INFO ../src/slv/axi4_slave_monitor.sv(116) @ 89115000: uvm_test_top.env.slave_agent.mon [axi4_slave_monitor] AW received: ID=0xd ADDR=0xc4715c96 LEN=0
# UVM_INFO ../src/mst/axi4_master_monitor.sv(124) @ 89115000: uvm_test_top.env.master_agent.mon [axi4_master_monitor] AW observed: ID=0xd ADDR=0xc4715c96 LEN=0
# UVM_INFO ../src/slv/axi4_slave_monitor.sv(167) @ 89135000: uvm_test_top.env.slave_agent.mon [axi4_slave_monitor] W data assembled: ID=0xd ADDR=0xc4715c96 1 beats
# UVM_INFO ../src/mst/axi4_master_monitor.sv(184) @ 89135000: uvm_test_top.env.master_agent.mon [axi4_master_monitor] W data assembled: ID=0xd ADDR=0xc4715c96 1 beats
# UVM_INFO ../src/mst/axi4_master_driver.sv(197) @ 89165000: uvm_test_top.env.master_agent.drv [axi4_master_driver] Write response: AXI4_RESP_OKAY
# UVM_INFO ../src/slv/axi4_slave_driver.sv(261) @ 89165000: uvm_test_top.env.slave_agent.drv [axi4_slave_driver] Write complete: ID=0xd ADDR=0xc4715c96 RESP=AXI4_RESP_OKAY  1 beats processed
# UVM_INFO ../src/mst/axi4_master_monitor.sv(210) @ 89165000: uvm_test_top.env.master_agent.mon [axi4_master_monitor] Write complete: ID=0xd ADDR=0xc4715c96 RESP=AXI4_RESP_OKAY
# UVM_INFO ../src/env/axi4_scoreboard.sv(82) @ 89165000: uvm_test_top.env.scb [axi4_scoreboard] Master AXI4_WRITE received: ID=0xd ADDR=0xc4715c96 LEN=0
# UVM_INFO ../src/slv/axi4_slave_monitor.sv(189) @ 89165000: uvm_test_top.env.slave_agent.mon [axi4_slave_monitor] Write response sent: ID=0xd ADDR=0xc4715c96 RESP=AXI4_RESP_OKAY
# UVM_INFO ../src/env/axi4_scoreboard.sv(103) @ 89165000: uvm_test_top.env.scb [axi4_scoreboard] Slave AXI4_WRITE received: ID=0xd ADDR=0xc4715c96 LEN=0
# UVM_INFO ../src/env/axi4_scoreboard.sv(154) @ 89165000: uvm_test_top.env.scb [axi4_scoreboard] [WRITE] MATCH #37: ID=0xd ADDR=0xc4715c96 LEN=0
# UVM_INFO ../src/seq/axi4_random_seq.sv(55) @ 89165000: uvm_test_top.env.master_agent.sqr@@rand_seq [axi4_random_seq] [37/50] AXI4_WRITE: ID=0xd ADDR=0xc4715c96 LEN=0 BURST=AXI4_BURST_FIXED
# UVM_INFO ../src/mst/axi4_master_driver.sv(55) @ 89165000: uvm_test_top.env.master_agent.drv [axi4_master_driver] Driving AXI4_WRITE  ID=0x6  ADDR=0xae9bc8f2  LEN=30
# UVM_INFO ../src/mst/axi4_master_driver.sv(101) @ 89165000: uvm_test_top.env.master_agent.drv [axi4_master_driver] Write order: AW -> W (sequential)
# UVM_INFO ../src/slv/axi4_slave_driver.sv(165) @ 89195000: uvm_test_top.env.slave_agent.drv [axi4_slave_driver] AW received: ID=0x6 ADDR=0xae9bc8f2 LEN=30 LOCK=AXI4_LOCK_EXCLUSIVE
# UVM_INFO ../src/slv/axi4_slave_monitor.sv(116) @ 89195000: uvm_test_top.env.slave_agent.mon [axi4_slave_monitor] AW received: ID=0x6 ADDR=0xae9bc8f2 LEN=30
# UVM_INFO ../src/mst/axi4_master_monitor.sv(124) @ 89195000: uvm_test_top.env.master_agent.mon [axi4_master_monitor] AW observed: ID=0x6 ADDR=0xae9bc8f2 LEN=30
# UVM_INFO ../src/slv/axi4_slave_monitor.sv(167) @ 89815000: uvm_test_top.env.slave_agent.mon [axi4_slave_monitor] W data assembled: ID=0x6 ADDR=0xae9bc8f2 31 beats
# UVM_INFO ../src/mst/axi4_master_monitor.sv(184) @ 89815000: uvm_test_top.env.master_agent.mon [axi4_master_monitor] W data assembled: ID=0x6 ADDR=0xae9bc8f2 31 beats
# UVM_INFO ../src/mst/axi4_master_driver.sv(197) @ 89845000: uvm_test_top.env.master_agent.drv [axi4_master_driver] Write response: AXI4_RESP_OKAY
# UVM_INFO ../src/slv/axi4_slave_driver.sv(261) @ 89845000: uvm_test_top.env.slave_agent.drv [axi4_slave_driver] Write complete: ID=0x6 ADDR=0xae9bc8f2 RESP=AXI4_RESP_OKAY  31 beats processed
# UVM_INFO ../src/mst/axi4_master_monitor.sv(210) @ 89845000: uvm_test_top.env.master_agent.mon [axi4_master_monitor] Write complete: ID=0x6 ADDR=0xae9bc8f2 RESP=AXI4_RESP_OKAY
# UVM_INFO ../src/env/axi4_scoreboard.sv(82) @ 89845000: uvm_test_top.env.scb [axi4_scoreboard] Master AXI4_WRITE received: ID=0x6 ADDR=0xae9bc8f2 LEN=30
# UVM_INFO ../src/slv/axi4_slave_monitor.sv(189) @ 89845000: uvm_test_top.env.slave_agent.mon [axi4_slave_monitor] Write response sent: ID=0x6 ADDR=0xae9bc8f2 RESP=AXI4_RESP_OKAY
# UVM_INFO ../src/env/axi4_scoreboard.sv(103) @ 89845000: uvm_test_top.env.scb [axi4_scoreboard] Slave AXI4_WRITE received: ID=0x6 ADDR=0xae9bc8f2 LEN=30
# UVM_INFO ../src/env/axi4_scoreboard.sv(154) @ 89845000: uvm_test_top.env.scb [axi4_scoreboard] [WRITE] MATCH #38: ID=0x6 ADDR=0xae9bc8f2 LEN=30
# UVM_INFO ../src/seq/axi4_random_seq.sv(55) @ 89845000: uvm_test_top.env.master_agent.sqr@@rand_seq [axi4_random_seq] [38/50] AXI4_WRITE: ID=0x6 ADDR=0xae9bc8f2 LEN=30 BURST=AXI4_BURST_INCR
# UVM_INFO ../src/mst/axi4_master_driver.sv(55) @ 89845000: uvm_test_top.env.master_agent.drv [axi4_master_driver] Driving AXI4_READ  ID=0xb  ADDR=0x873662c7  LEN=172
# UVM_INFO ../src/slv/axi4_slave_driver.sv(300) @ 89875000: uvm_test_top.env.slave_agent.drv [axi4_slave_driver] AR received: ID=0xb ADDR=0x873662c7 LEN=172 LOCK=AXI4_LOCK_EXCLUSIVE
# UVM_INFO ../src/slv/axi4_slave_monitor.sv(224) @ 89875000: uvm_test_top.env.slave_agent.mon [axi4_slave_monitor] AR received: ID=0xb ADDR=0x873662c7 LEN=172
# UVM_INFO ../src/mst/axi4_master_monitor.sv(246) @ 89875000: uvm_test_top.env.master_agent.mon [axi4_master_monitor] AR observed: ID=0xb ADDR=0x873662c7 LEN=172
# UVM_INFO ../src/mst/axi4_master_driver.sv(254) @ 93335000: uvm_test_top.env.master_agent.drv [axi4_master_driver] Read complete: 173 beats received
# UVM_INFO ../src/slv/axi4_slave_driver.sv(349) @ 93335000: uvm_test_top.env.slave_agent.drv [axi4_slave_driver] Read complete: ID=0xb ADDR=0x873662c7 RESP=AXI4_RESP_EXOKAY  173 beats sent
# UVM_INFO ../src/slv/axi4_slave_monitor.sv(287) @ 93335000: uvm_test_top.env.slave_agent.mon [axi4_slave_monitor] Read data sent: ID=0xb ADDR=0x873662c7 173 beats
# UVM_INFO ../src/env/axi4_scoreboard.sv(103) @ 93335000: uvm_test_top.env.scb [axi4_scoreboard] Slave AXI4_READ received: ID=0xb ADDR=0x873662c7 LEN=172
# UVM_INFO ../src/mst/axi4_master_monitor.sv(314) @ 93335000: uvm_test_top.env.master_agent.mon [axi4_master_monitor] Read complete: ID=0xb ADDR=0x873662c7 173 beats
# UVM_INFO ../src/env/axi4_scoreboard.sv(82) @ 93335000: uvm_test_top.env.scb [axi4_scoreboard] Master AXI4_READ received: ID=0xb ADDR=0x873662c7 LEN=172
# UVM_INFO ../src/env/axi4_scoreboard.sv(154) @ 93335000: uvm_test_top.env.scb [axi4_scoreboard] [READ] MATCH #39: ID=0xb ADDR=0x873662c7 LEN=172
# UVM_INFO ../src/seq/axi4_random_seq.sv(55) @ 93335000: uvm_test_top.env.master_agent.sqr@@rand_seq [axi4_random_seq] [39/50] AXI4_READ: ID=0xb ADDR=0x873662c7 LEN=172 BURST=AXI4_BURST_INCR
# UVM_INFO ../src/mst/axi4_master_driver.sv(55) @ 93335000: uvm_test_top.env.master_agent.drv [axi4_master_driver] Driving AXI4_READ  ID=0x0  ADDR=0x4ed08f8a  LEN=116
# UVM_INFO ../src/slv/axi4_slave_driver.sv(300) @ 93365000: uvm_test_top.env.slave_agent.drv [axi4_slave_driver] AR received: ID=0x0 ADDR=0x4ed08f8a LEN=116 LOCK=AXI4_LOCK_EXCLUSIVE
# UVM_INFO ../src/mst/axi4_master_monitor.sv(246) @ 93365000: uvm_test_top.env.master_agent.mon [axi4_master_monitor] AR observed: ID=0x0 ADDR=0x4ed08f8a LEN=116
# UVM_INFO ../src/slv/axi4_slave_monitor.sv(224) @ 93365000: uvm_test_top.env.slave_agent.mon [axi4_slave_monitor] AR received: ID=0x0 ADDR=0x4ed08f8a LEN=116
# UVM_INFO ../src/mst/axi4_master_driver.sv(254) @ 95705000: uvm_test_top.env.master_agent.drv [axi4_master_driver] Read complete: 117 beats received
# UVM_INFO ../src/slv/axi4_slave_driver.sv(349) @ 95705000: uvm_test_top.env.slave_agent.drv [axi4_slave_driver] Read complete: ID=0x0 ADDR=0x4ed08f8a RESP=AXI4_RESP_EXOKAY  117 beats sent
# UVM_INFO ../src/mst/axi4_master_monitor.sv(314) @ 95705000: uvm_test_top.env.master_agent.mon [axi4_master_monitor] Read complete: ID=0x0 ADDR=0x4ed08f8a 117 beats
