# vsim -c -l ./report/logs/axi4_wr_rd_test_run_9_seed_53633159.log -sv_seed 53633159 "+UVM_TESTNAME=axi4_wr_rd_test" "+UVM_VERBOSITY=UVM_HIGH" "+DUMP_VCD" -do "coverage save -onexit ./report/coverage/axi4_wr_rd_test_run_9_seed_53633159.ucdb; run -all; quit -f" opt_tb_top 
# Start time: 13:49:18 on May 29,2026
# //  Questa Sim-64
# //  Version 10.6b linux_x86_64 May 25 2017
# //
# //  Copyright 1991-2017 Mentor Graphics Corporation
# //  All Rights Reserved.
# //
# //  QuestaSim and its associated documentation contain trade
# //  secrets and commercial or financial information that are the property of
# //  Mentor Graphics Corporation and are privileged, confidential,
# //  and exempt from disclosure under the Freedom of Information Act,
# //  5 U.S.C. Section 552. Furthermore, this information
# //  is prohibited from disclosure under the Trade Secrets Act,
# //  18 U.S.C. Section 1905.
# //
# Loading sv_std.std
# Loading work.axi4_if(fast)
# Loading mtiUvm.uvm_pkg
# Loading work.axi4_pkg(fast)
# Loading work.axi4_test_pkg(fast)
# Loading work.tb_top(fast)
# Loading work.axi4_if(fast)
# Loading mtiUvm.questa_uvm_pkg(fast)
# Loading /cadtools/mentor/Questa_10.6b/questasim/uvm-1.1d/linux_x86_64/uvm_dpi.so
# coverage save -onexit ./report/coverage/axi4_wr_rd_test_run_9_seed_53633159.ucdb
#  run -all
# ----------------------------------------------------------------
# UVM-1.1d
# (C) 2007-2013 Mentor Graphics Corporation
# (C) 2007-2013 Cadence Design Systems, Inc.
# (C) 2006-2013 Synopsys, Inc.
# (C) 2011-2013 Cypress Semiconductor Corp.
# ----------------------------------------------------------------
# 
#   ***********       IMPORTANT RELEASE NOTES         ************
# 
#   You are using a version of the UVM library that has been compiled
#   with `UVM_NO_DEPRECATED undefined.
#   See http://www.eda.org/svdb/view.php?id=3313 for more details.
# 
#   You are using a version of the UVM library that has been compiled
#   with `UVM_OBJECT_MUST_HAVE_CONSTRUCTOR undefined.
#   See http://www.eda.org/svdb/view.php?id=3770 for more details.
# 
#       (Specify +UVM_NO_RELNOTES to turn off this notice)
# 
# UVM_INFO verilog_src/questa_uvm_pkg-1.2/src/questa_uvm_pkg.sv(215) @ 0: reporter [Questa UVM] QUESTA_UVM-1.2.3
# UVM_INFO verilog_src/questa_uvm_pkg-1.2/src/questa_uvm_pkg.sv(217) @ 0: reporter [Questa UVM]  questa_uvm::init(+struct)
# UVM_INFO ../src/tb_top.sv(70) @ 0: reporter [TB_TOP] Virtual interface set in config_db
# UVM_INFO @ 0: reporter [RNTST] Running test axi4_wr_rd_test...
# UVM_INFO ../src/tb_top.sv(84) @ 0: reporter [TB_TOP] Waveform VCD dumping enabled (axi4_vip.vcd)
# UVM_INFO ../src/env/axi4_vip_env.sv(83) @ 0: uvm_test_top.env [axi4_vip_env] slave_vif not set — reusing master_vif (passthrough mode)
# UVM_INFO ../src/env/axi4_vip_env.sv(93) @ 0: uvm_test_top.env [axi4_vip_env] Scoreboard created
# UVM_INFO ../src/env/axi4_vip_env.sv(100) @ 0: uvm_test_top.env [axi4_vip_env] Coverage collectors created
# UVM_INFO ../src/mst/axi4_master_agent.sv(69) @ 0: uvm_test_top.env.master_agent [axi4_master_agent] ACTIVE mode — driver + sequencer created
# UVM_INFO ../src/slv/axi4_slave_agent.sv(82) @ 0: uvm_test_top.env.slave_agent [axi4_slave_agent] ACTIVE mode — ready_delay=[0:0] resp_delay=[0:0]
# UVM_INFO ../src/env/axi4_vip_env.sv(117) @ 0: uvm_test_top.env [axi4_vip_env] Scoreboard connected: master_mon.ap -> scb, slave_mon.ap -> scb
# UVM_INFO ../src/env/axi4_vip_env.sv(126) @ 0: uvm_test_top.env [axi4_vip_env] Coverage connected: master_mon.ap -> master_cov, slave_mon.ap -> slave_cov
# UVM_INFO @ 0: reporter [UVMTOP] UVM testbench topology:
# ---------------------------------------------------------------
# Name                       Type                     Size  Value
# ---------------------------------------------------------------
# uvm_test_top               axi4_wr_rd_test          -     @473 
#   env                      axi4_vip_env             -     @488 
#     master_agent           axi4_master_agent        -     @503 
#       drv                  axi4_master_driver       -     @567 
#         rsp_port           uvm_analysis_port        -     @582 
#         seq_item_port      uvm_seq_item_pull_port   -     @574 
#       mon                  axi4_master_monitor      -     @559 
#         ap                 uvm_analysis_port        -     @700 
#       sqr                  axi4_master_sequencer    -     @590 
#         rsp_export         uvm_analysis_export      -     @597 
#         seq_item_export    uvm_seq_item_pull_imp    -     @691 
#         arbitration_queue  array                    0     -    
#         lock_queue         array                    0     -    
#         num_last_reqs      integral                 32    'd1  
#         num_last_rsps      integral                 32    'd1  
#     master_cov             axi4_coverage            -     @524 
#       analysis_imp         uvm_analysis_imp         -     @531 
#     scb                    axi4_scoreboard          -     @517 
#       master_export        uvm_analysis_imp_master  -     @714 
#       slave_export         uvm_analysis_imp_slave   -     @722 
#     slave_agent            axi4_slave_agent         -     @510 
#       drv                  axi4_slave_driver        -     @753 
#         rsp_port           uvm_analysis_port        -     @768 
#         seq_item_port      uvm_seq_item_pull_port   -     @760 
#       mon                  axi4_slave_monitor       -     @735 
#         ap                 uvm_analysis_port        -     @890 
#       sqr                  axi4_slave_sequencer     -     @776 
#         rsp_export         uvm_analysis_export      -     @783 
#         seq_item_export    uvm_seq_item_pull_imp    -     @877 
#         arbitration_queue  array                    0     -    
#         lock_queue         array                    0     -    
#         num_last_reqs      integral                 32    'd1  
#         num_last_rsps      integral                 32    'd1  
#     slave_cov              axi4_coverage            -     @539 
#       analysis_imp         uvm_analysis_imp         -     @546 
# ---------------------------------------------------------------
# 
# UVM_INFO verilog_src/questa_uvm_pkg-1.2/src/questa_uvm_pkg.sv(277) @ 0: reporter [Questa UVM] End Of Elaboration
# UVM_INFO ../src/test/axi4_wr_rd_test.sv(37) @ 0: uvm_test_top [axi4_wr_rd_test] Starting 10 write-read-back iterations
# UVM_INFO ../src/test/axi4_wr_rd_test.sv(52) @ 0: uvm_test_top [axi4_wr_rd_test] [1/10] ADDR=0xf32fb780 LEN=5 BURST=AXI4_BURST_INCR
# UVM_INFO ../src/tb_top.sv(49) @ 95000: reporter [TOP_TB] Reset de-asserted
# UVM_INFO ../src/slv/axi4_slave_driver.sv(66) @ 95000: uvm_test_top.env.slave_agent.drv [axi4_slave_driver] Reset deasserted - slave driver active
# UVM_INFO ../src/mst/axi4_master_driver.sv(46) @ 95000: uvm_test_top.env.master_agent.drv [axi4_master_driver] Reset deasserted - master driver active
# UVM_INFO ../src/mst/axi4_master_monitor.sv(77) @ 95000: uvm_test_top.env.master_agent.mon [axi4_master_monitor] Reset deasserted — monitor active
# UVM_INFO ../src/slv/axi4_slave_monitor.sv(71) @ 95000: uvm_test_top.env.slave_agent.mon [axi4_slave_monitor] Reset deasserted — monitor active
# UVM_INFO ../src/mst/axi4_master_driver.sv(55) @ 95000: uvm_test_top.env.master_agent.drv [axi4_master_driver] Driving AXI4_WRITE  ID=0xd  ADDR=0xf32fb780  LEN=5
# UVM_INFO ../src/mst/axi4_master_driver.sv(101) @ 95000: uvm_test_top.env.master_agent.drv [axi4_master_driver] Write order: AW -> W (sequential)
# UVM_INFO ../src/slv/axi4_slave_driver.sv(159) @ 115000: uvm_test_top.env.slave_agent.drv [axi4_slave_driver] AW received: ID=0xd ADDR=0xf32fb780 LEN=5
# UVM_INFO ../src/slv/axi4_slave_monitor.sv(116) @ 115000: uvm_test_top.env.slave_agent.mon [axi4_slave_monitor] AW received: ID=0xd ADDR=0xf32fb780 LEN=5
# UVM_INFO ../src/mst/axi4_master_monitor.sv(124) @ 115000: uvm_test_top.env.master_agent.mon [axi4_master_monitor] AW observed: ID=0xd ADDR=0xf32fb780 LEN=5
# UVM_INFO ../src/slv/axi4_slave_monitor.sv(167) @ 235000: uvm_test_top.env.slave_agent.mon [axi4_slave_monitor] W data assembled: ID=0xd ADDR=0xf32fb780 6 beats
# UVM_INFO ../src/mst/axi4_master_monitor.sv(184) @ 235000: uvm_test_top.env.master_agent.mon [axi4_master_monitor] W data assembled: ID=0xd ADDR=0xf32fb780 6 beats
# UVM_INFO ../src/mst/axi4_master_driver.sv(197) @ 265000: uvm_test_top.env.master_agent.drv [axi4_master_driver] Write response: AXI4_RESP_OKAY
# UVM_INFO ../src/slv/axi4_slave_driver.sv(223) @ 265000: uvm_test_top.env.slave_agent.drv [axi4_slave_driver] Write complete: ID=0xd  6 beats stored
# UVM_INFO ../src/mst/axi4_master_monitor.sv(210) @ 265000: uvm_test_top.env.master_agent.mon [axi4_master_monitor] Write complete: ID=0xd ADDR=0xf32fb780 RESP=AXI4_RESP_OKAY
# UVM_INFO ../src/env/axi4_scoreboard.sv(82) @ 265000: uvm_test_top.env.scb [axi4_scoreboard] Master AXI4_WRITE received: ID=0xd ADDR=0xf32fb780 LEN=5
# UVM_INFO ../src/slv/axi4_slave_monitor.sv(189) @ 265000: uvm_test_top.env.slave_agent.mon [axi4_slave_monitor] Write response sent: ID=0xd ADDR=0xf32fb780 RESP=AXI4_RESP_OKAY
# UVM_INFO ../src/env/axi4_scoreboard.sv(103) @ 265000: uvm_test_top.env.scb [axi4_scoreboard] Slave AXI4_WRITE received: ID=0xd ADDR=0xf32fb780 LEN=5
# UVM_INFO ../src/env/axi4_scoreboard.sv(154) @ 265000: uvm_test_top.env.scb [axi4_scoreboard] [WRITE] MATCH #1: ID=0xd ADDR=0xf32fb780 LEN=5
# UVM_INFO ../src/seq/axi4_write_read_back_seq.sv(60) @ 265000: uvm_test_top.env.master_agent.sqr@@wr_rd_seq_0 [axi4_write_read_back_seq] Write phase: ADDR=0xf32fb780 LEN=5 SIZE=AXI4_SIZE_4B BURST=AXI4_BURST_INCR
# UVM_INFO ../src/mst/axi4_master_driver.sv(55) @ 265000: uvm_test_top.env.master_agent.drv [axi4_master_driver] Driving AXI4_READ  ID=0xb  ADDR=0xf32fb780  LEN=5
# UVM_INFO ../src/slv/axi4_slave_driver.sv(259) @ 295000: uvm_test_top.env.slave_agent.drv [axi4_slave_driver] AR received: ID=0xb ADDR=0xf32fb780 LEN=5
# UVM_INFO ../src/slv/axi4_slave_monitor.sv(224) @ 295000: uvm_test_top.env.slave_agent.mon [axi4_slave_monitor] AR received: ID=0xb ADDR=0xf32fb780 LEN=5
# UVM_INFO ../src/mst/axi4_master_monitor.sv(246) @ 295000: uvm_test_top.env.master_agent.mon [axi4_master_monitor] AR observed: ID=0xb ADDR=0xf32fb780 LEN=5
# UVM_INFO ../src/mst/axi4_master_driver.sv(254) @ 415000: uvm_test_top.env.master_agent.drv [axi4_master_driver] Read complete: 6 beats received
# UVM_INFO ../src/slv/axi4_slave_driver.sv(293) @ 415000: uvm_test_top.env.slave_agent.drv [axi4_slave_driver] Read complete: ID=0xb  6 beats sent
# UVM_INFO ../src/slv/axi4_slave_monitor.sv(287) @ 415000: uvm_test_top.env.slave_agent.mon [axi4_slave_monitor] Read data sent: ID=0xb ADDR=0xf32fb780 6 beats
# UVM_INFO ../src/env/axi4_scoreboard.sv(103) @ 415000: uvm_test_top.env.scb [axi4_scoreboard] Slave AXI4_READ received: ID=0xb ADDR=0xf32fb780 LEN=5
# UVM_INFO ../src/mst/axi4_master_monitor.sv(314) @ 415000: uvm_test_top.env.master_agent.mon [axi4_master_monitor] Read complete: ID=0xb ADDR=0xf32fb780 6 beats
# UVM_INFO ../src/env/axi4_scoreboard.sv(82) @ 415000: uvm_test_top.env.scb [axi4_scoreboard] Master AXI4_READ received: ID=0xb ADDR=0xf32fb780 LEN=5
# UVM_INFO ../src/env/axi4_scoreboard.sv(154) @ 415000: uvm_test_top.env.scb [axi4_scoreboard] [READ] MATCH #2: ID=0xb ADDR=0xf32fb780 LEN=5
# UVM_INFO ../src/seq/axi4_write_read_back_seq.sv(80) @ 415000: uvm_test_top.env.master_agent.sqr@@wr_rd_seq_0 [axi4_write_read_back_seq] Read-back phase: ADDR=0xf32fb780 LEN=5 — data integrity check via scoreboard
# UVM_INFO ../src/test/axi4_wr_rd_test.sv(52) @ 415000: uvm_test_top [axi4_wr_rd_test] [2/10] ADDR=0x6f91b456 LEN=8 BURST=AXI4_BURST_INCR
# UVM_INFO ../src/mst/axi4_master_driver.sv(55) @ 415000: uvm_test_top.env.master_agent.drv [axi4_master_driver] Driving AXI4_WRITE  ID=0xd  ADDR=0x6f91b456  LEN=8
# UVM_INFO ../src/mst/axi4_master_driver.sv(94) @ 415000: uvm_test_top.env.master_agent.drv [axi4_master_driver] Write order: AW || W (parallel)
# UVM_INFO ../src/slv/axi4_slave_driver.sv(159) @ 445000: uvm_test_top.env.slave_agent.drv [axi4_slave_driver] AW received: ID=0xd ADDR=0x6f91b456 LEN=8
# UVM_INFO ../src/mst/axi4_master_monitor.sv(124) @ 445000: uvm_test_top.env.master_agent.mon [axi4_master_monitor] AW observed: ID=0xd ADDR=0x6f91b456 LEN=8
# UVM_INFO ../src/slv/axi4_slave_monitor.sv(116) @ 445000: uvm_test_top.env.slave_agent.mon [axi4_slave_monitor] AW received: ID=0xd ADDR=0x6f91b456 LEN=8
# UVM_INFO ../src/slv/axi4_slave_monitor.sv(167) @ 595000: uvm_test_top.env.slave_agent.mon [axi4_slave_monitor] W data assembled: ID=0xd ADDR=0x6f91b456 9 beats
# UVM_INFO ../src/mst/axi4_master_monitor.sv(184) @ 595000: uvm_test_top.env.master_agent.mon [axi4_master_monitor] W data assembled: ID=0xd ADDR=0x6f91b456 9 beats
# UVM_INFO ../src/mst/axi4_master_driver.sv(197) @ 625000: uvm_test_top.env.master_agent.drv [axi4_master_driver] Write response: AXI4_RESP_OKAY
# UVM_INFO ../src/slv/axi4_slave_driver.sv(223) @ 625000: uvm_test_top.env.slave_agent.drv [axi4_slave_driver] Write complete: ID=0xd  9 beats stored
# UVM_INFO ../src/mst/axi4_master_monitor.sv(210) @ 625000: uvm_test_top.env.master_agent.mon [axi4_master_monitor] Write complete: ID=0xd ADDR=0x6f91b456 RESP=AXI4_RESP_OKAY
# UVM_INFO ../src/env/axi4_scoreboard.sv(82) @ 625000: uvm_test_top.env.scb [axi4_scoreboard] Master AXI4_WRITE received: ID=0xd ADDR=0x6f91b456 LEN=8
# UVM_INFO ../src/slv/axi4_slave_monitor.sv(189) @ 625000: uvm_test_top.env.slave_agent.mon [axi4_slave_monitor] Write response sent: ID=0xd ADDR=0x6f91b456 RESP=AXI4_RESP_OKAY
# UVM_INFO ../src/env/axi4_scoreboard.sv(103) @ 625000: uvm_test_top.env.scb [axi4_scoreboard] Slave AXI4_WRITE received: ID=0xd ADDR=0x6f91b456 LEN=8
# UVM_INFO ../src/env/axi4_scoreboard.sv(154) @ 625000: uvm_test_top.env.scb [axi4_scoreboard] [WRITE] MATCH #3: ID=0xd ADDR=0x6f91b456 LEN=8
# UVM_INFO ../src/seq/axi4_write_read_back_seq.sv(60) @ 625000: uvm_test_top.env.master_agent.sqr@@wr_rd_seq_1 [axi4_write_read_back_seq] Write phase: ADDR=0x6f91b456 LEN=8 SIZE=AXI4_SIZE_4B BURST=AXI4_BURST_INCR
# UVM_INFO ../src/mst/axi4_master_driver.sv(55) @ 625000: uvm_test_top.env.master_agent.drv [axi4_master_driver] Driving AXI4_READ  ID=0xb  ADDR=0x6f91b456  LEN=8
# UVM_INFO ../src/slv/axi4_slave_driver.sv(259) @ 655000: uvm_test_top.env.slave_agent.drv [axi4_slave_driver] AR received: ID=0xb ADDR=0x6f91b456 LEN=8
# UVM_INFO ../src/slv/axi4_slave_monitor.sv(224) @ 655000: uvm_test_top.env.slave_agent.mon [axi4_slave_monitor] AR received: ID=0xb ADDR=0x6f91b456 LEN=8
# UVM_INFO ../src/mst/axi4_master_monitor.sv(246) @ 655000: uvm_test_top.env.master_agent.mon [axi4_master_monitor] AR observed: ID=0xb ADDR=0x6f91b456 LEN=8
# UVM_INFO ../src/mst/axi4_master_driver.sv(254) @ 835000: uvm_test_top.env.master_agent.drv [axi4_master_driver] Read complete: 9 beats received
# UVM_INFO ../src/slv/axi4_slave_driver.sv(293) @ 835000: uvm_test_top.env.slave_agent.drv [axi4_slave_driver] Read complete: ID=0xb  9 beats sent
# UVM_INFO ../src/slv/axi4_slave_monitor.sv(287) @ 835000: uvm_test_top.env.slave_agent.mon [axi4_slave_monitor] Read data sent: ID=0xb ADDR=0x6f91b456 9 beats
# UVM_INFO ../src/env/axi4_scoreboard.sv(103) @ 835000: uvm_test_top.env.scb [axi4_scoreboard] Slave AXI4_READ received: ID=0xb ADDR=0x6f91b456 LEN=8
# UVM_INFO ../src/mst/axi4_master_monitor.sv(314) @ 835000: uvm_test_top.env.master_agent.mon [axi4_master_monitor] Read complete: ID=0xb ADDR=0x6f91b456 9 beats
# UVM_INFO ../src/env/axi4_scoreboard.sv(82) @ 835000: uvm_test_top.env.scb [axi4_scoreboard] Master AXI4_READ received: ID=0xb ADDR=0x6f91b456 LEN=8
# UVM_INFO ../src/env/axi4_scoreboard.sv(154) @ 835000: uvm_test_top.env.scb [axi4_scoreboard] [READ] MATCH #4: ID=0xb ADDR=0x6f91b456 LEN=8
# UVM_INFO ../src/seq/axi4_write_read_back_seq.sv(80) @ 835000: uvm_test_top.env.master_agent.sqr@@wr_rd_seq_1 [axi4_write_read_back_seq] Read-back phase: ADDR=0x6f91b456 LEN=8 — data integrity check via scoreboard
# UVM_INFO ../src/test/axi4_wr_rd_test.sv(52) @ 835000: uvm_test_top [axi4_wr_rd_test] [3/10] ADDR=0xe2e3142b LEN=0 BURST=AXI4_BURST_INCR
# UVM_INFO ../src/mst/axi4_master_driver.sv(55) @ 835000: uvm_test_top.env.master_agent.drv [axi4_master_driver] Driving AXI4_WRITE  ID=0x2  ADDR=0xe2e3142b  LEN=0
# UVM_INFO ../src/mst/axi4_master_driver.sv(94) @ 835000: uvm_test_top.env.master_agent.drv [axi4_master_driver] Write order: AW || W (parallel)
# UVM_INFO ../src/slv/axi4_slave_driver.sv(159) @ 865000: uvm_test_top.env.slave_agent.drv [axi4_slave_driver] AW received: ID=0x2 ADDR=0xe2e3142b LEN=0
# UVM_INFO ../src/mst/axi4_master_monitor.sv(124) @ 865000: uvm_test_top.env.master_agent.mon [axi4_master_monitor] AW observed: ID=0x2 ADDR=0xe2e3142b LEN=0
# UVM_INFO ../src/slv/axi4_slave_monitor.sv(116) @ 865000: uvm_test_top.env.slave_agent.mon [axi4_slave_monitor] AW received: ID=0x2 ADDR=0xe2e3142b LEN=0
# UVM_INFO ../src/mst/axi4_master_monitor.sv(184) @ 865000: uvm_test_top.env.master_agent.mon [axi4_master_monitor] W data assembled: ID=0x2 ADDR=0xe2e3142b 1 beats
# UVM_INFO ../src/slv/axi4_slave_monitor.sv(167) @ 865000: uvm_test_top.env.slave_agent.mon [axi4_slave_monitor] W data assembled: ID=0x2 ADDR=0xe2e3142b 1 beats
# UVM_INFO ../src/mst/axi4_master_driver.sv(197) @ 885000: uvm_test_top.env.master_agent.drv [axi4_master_driver] Write response: AXI4_RESP_OKAY
# UVM_INFO ../src/slv/axi4_slave_driver.sv(223) @ 885000: uvm_test_top.env.slave_agent.drv [axi4_slave_driver] Write complete: ID=0x2  1 beats stored
# UVM_INFO ../src/mst/axi4_master_monitor.sv(210) @ 885000: uvm_test_top.env.master_agent.mon [axi4_master_monitor] Write complete: ID=0x2 ADDR=0xe2e3142b RESP=AXI4_RESP_OKAY
# UVM_INFO ../src/env/axi4_scoreboard.sv(82) @ 885000: uvm_test_top.env.scb [axi4_scoreboard] Master AXI4_WRITE received: ID=0x2 ADDR=0xe2e3142b LEN=0
# UVM_INFO ../src/slv/axi4_slave_monitor.sv(189) @ 885000: uvm_test_top.env.slave_agent.mon [axi4_slave_monitor] Write response sent: ID=0x2 ADDR=0xe2e3142b RESP=AXI4_RESP_OKAY
# UVM_INFO ../src/env/axi4_scoreboard.sv(103) @ 885000: uvm_test_top.env.scb [axi4_scoreboard] Slave AXI4_WRITE received: ID=0x2 ADDR=0xe2e3142b LEN=0
# UVM_INFO ../src/env/axi4_scoreboard.sv(154) @ 885000: uvm_test_top.env.scb [axi4_scoreboard] [WRITE] MATCH #5: ID=0x2 ADDR=0xe2e3142b LEN=0
# UVM_INFO ../src/seq/axi4_write_read_back_seq.sv(60) @ 885000: uvm_test_top.env.master_agent.sqr@@wr_rd_seq_2 [axi4_write_read_back_seq] Write phase: ADDR=0xe2e3142b LEN=0 SIZE=AXI4_SIZE_4B BURST=AXI4_BURST_INCR
# UVM_INFO ../src/mst/axi4_master_driver.sv(55) @ 885000: uvm_test_top.env.master_agent.drv [axi4_master_driver] Driving AXI4_READ  ID=0xb  ADDR=0xe2e3142b  LEN=0
# UVM_INFO ../src/slv/axi4_slave_driver.sv(259) @ 915000: uvm_test_top.env.slave_agent.drv [axi4_slave_driver] AR received: ID=0xb ADDR=0xe2e3142b LEN=0
# UVM_INFO ../src/slv/axi4_slave_monitor.sv(224) @ 915000: uvm_test_top.env.slave_agent.mon [axi4_slave_monitor] AR received: ID=0xb ADDR=0xe2e3142b LEN=0
# UVM_INFO ../src/mst/axi4_master_monitor.sv(246) @ 915000: uvm_test_top.env.master_agent.mon [axi4_master_monitor] AR observed: ID=0xb ADDR=0xe2e3142b LEN=0
# UVM_INFO ../src/mst/axi4_master_driver.sv(254) @ 935000: uvm_test_top.env.master_agent.drv [axi4_master_driver] Read complete: 1 beats received
# UVM_INFO ../src/slv/axi4_slave_driver.sv(293) @ 935000: uvm_test_top.env.slave_agent.drv [axi4_slave_driver] Read complete: ID=0xb  1 beats sent
# UVM_INFO ../src/slv/axi4_slave_monitor.sv(287) @ 935000: uvm_test_top.env.slave_agent.mon [axi4_slave_monitor] Read data sent: ID=0xb ADDR=0xe2e3142b 1 beats
# UVM_INFO ../src/env/axi4_scoreboard.sv(103) @ 935000: uvm_test_top.env.scb [axi4_scoreboard] Slave AXI4_READ received: ID=0xb ADDR=0xe2e3142b LEN=0
# UVM_INFO ../src/mst/axi4_master_monitor.sv(314) @ 935000: uvm_test_top.env.master_agent.mon [axi4_master_monitor] Read complete: ID=0xb ADDR=0xe2e3142b 1 beats
# UVM_INFO ../src/env/axi4_scoreboard.sv(82) @ 935000: uvm_test_top.env.scb [axi4_scoreboard] Master AXI4_READ received: ID=0xb ADDR=0xe2e3142b LEN=0
# UVM_INFO ../src/env/axi4_scoreboard.sv(154) @ 935000: uvm_test_top.env.scb [axi4_scoreboard] [READ] MATCH #6: ID=0xb ADDR=0xe2e3142b LEN=0
# UVM_INFO ../src/seq/axi4_write_read_back_seq.sv(80) @ 935000: uvm_test_top.env.master_agent.sqr@@wr_rd_seq_2 [axi4_write_read_back_seq] Read-back phase: ADDR=0xe2e3142b LEN=0 — data integrity check via scoreboard
# UVM_INFO ../src/test/axi4_wr_rd_test.sv(52) @ 935000: uvm_test_top [axi4_wr_rd_test] [4/10] ADDR=0x57f93b93 LEN=2 BURST=AXI4_BURST_INCR
# UVM_INFO ../src/mst/axi4_master_driver.sv(55) @ 935000: uvm_test_top.env.master_agent.drv [axi4_master_driver] Driving AXI4_WRITE  ID=0x3  ADDR=0x57f93b93  LEN=2
# UVM_INFO ../src/mst/axi4_master_driver.sv(106) @ 935000: uvm_test_top.env.master_agent.drv [axi4_master_driver] Write order: W -> AW (W first)
# UVM_INFO ../src/slv/axi4_slave_driver.sv(159) @ 985000: uvm_test_top.env.slave_agent.drv [axi4_slave_driver] AW received: ID=0x3 ADDR=0x57f93b93 LEN=2
# UVM_INFO ../src/mst/axi4_master_monitor.sv(124) @ 985000: uvm_test_top.env.master_agent.mon [axi4_master_monitor] AW observed: ID=0x3 ADDR=0x57f93b93 LEN=2
# UVM_INFO ../src/slv/axi4_slave_monitor.sv(116) @ 985000: uvm_test_top.env.slave_agent.mon [axi4_slave_monitor] AW received: ID=0x3 ADDR=0x57f93b93 LEN=2
# UVM_INFO ../src/slv/axi4_slave_monitor.sv(167) @ 995000: uvm_test_top.env.slave_agent.mon [axi4_slave_monitor] W data assembled: ID=0x3 ADDR=0x57f93b93 3 beats
# UVM_INFO ../src/mst/axi4_master_monitor.sv(184) @ 995000: uvm_test_top.env.master_agent.mon [axi4_master_m# UVM_INFO ../src/slv/axi4_slave_monitor.sv(167) @ 186500# UVM_INFO ../src/mst/axi4_master_driver.sv(197) @ 1025000: uvm_test_top.env.master_agent.drv [axi4_master_driver] Write response: AXI4_RESP_OKAY
# UVM_INFO ../src/slv/axi4_slave_driver.sv(223) @ 1025000: uvm_test_top.env.slave_agent.drv [axi4_slave_driver] Write complete: ID=0x3  3 beats stored
# UVM_INFO ../src/mst/axi4_master_monitor.sv(210) @ 1025000: uvm_test_top.env.master_agent.mon [axi4_master_monitor] Write complete: ID=0x3 ADDR=0x57f93b93 RESP=AXI4_RESP_OKAY
# UVM_INFO ../src/env/axi4_scoreboard.sv(82) @ 1025000: uvm_test_top.env.scb [axi4_scoreboard] Master AXI4_WRITE received: ID=0x3 ADDR=0x57f93b93 LEN=2
# UVM_INFO ../src/slv/axi4_slave_monitor.sv(189) @ 1025000: uvm_test_top.env.slave_agent.mon [axi4_slave_monitor] Write response sent: ID=0x3 ADDR=0x57f93b93 RESP=AXI4_RESP_OKAY
# UVM_INFO ../src/env/axi4_scoreboard.sv(103) @ 1025000: uvm_test_top.env.scb [axi4_scoreboard] Slave AXI4_WRITE received: ID=0x3 ADDR=0x57f93b93 LEN=2
# UVM_INFO ../src/env/axi4_scoreboard.sv(154) @ 1025000: uvm_test_top.env.scb [axi4_scoreboard] [WRITE] MATCH #7: ID=0x3 ADDR=0x57f93b93 LEN=2
# UVM_INFO ../src/seq/axi4_write_read_back_seq.sv(60) @ 1025000: uvm_test_top.env.master_agent.sqr@@wr_rd_seq_3 [axi4_write_read_back_seq] Write phase: ADDR=0x57f93b93 LEN=2 SIZE=AXI4_SIZE_4B BURST=AXI4_BURST_INCR
# UVM_INFO ../src/mst/axi4_master_driver.sv(55) @ 1025000: uvm_test_top.env.master_agent.drv [axi4_master_driver] Driving AXI4_READ  ID=0xa  ADDR=0x57f93b93  LEN=2
# UVM_INFO ../src/slv/axi4_slave_driver.sv(259) @ 1055000: uvm_test_top.env.slave_agent.drv [axi4_slave_driver] AR received: ID=0xa ADDR=0x57f93b93 LEN=2
# UVM_INFO ../src/slv/axi4_slave_monitor.sv(224) @ 1055000: uvm_test_top.env.slave_agent.mon [axi4_slave_monitor] AR received: ID=0xa ADDR=0x57f93b93 LEN=2
# UVM_INFO ../src/mst/axi4_master_monitor.sv(246) @ 1055000: uvm_test_top.env.master_agent.mon [axi4_master_monitor] AR observed: ID=0xa ADDR=0x57f93b93 LEN=2
# UVM_INFO ../src/mst/axi4_master_driver.sv(254) @ 1115000: uvm_test_top.env.master_agent.drv [axi4_master_driver] Read complete: 3 beats received
# UVM_INFO ../src/slv/axi4_slave_driver.sv(293) @ 1115000: uvm_test_top.env.slave_agent.drv [axi4_slave_driver] Read complete: ID=0xa  3 beats sent
# UVM_INFO ../src/slv/axi4_slave_monitor.sv(287) @ 1115000: uvm_test_top.env.slave_agent.mon [axi4_slave_monitor] Read data sent: ID=0xa ADDR=0x57f93b93 3 beats
# UVM_INFO ../src/env/axi4_scoreboard.sv(103) @ 1115000: uvm_test_top.env.scb [axi4_scoreboard] Slave AXI4_READ received: ID=0xa ADDR=0x57f93b93 LEN=2
# UVM_INFO ../src/mst/axi4_master_monitor.sv(314) @ 1115000: uvm_test_top.env.master_agent.mon [axi4_master_monitor] Read complete: ID=0xa ADDR=0x57f93b93 3 beats
# UVM_INFO ../src/env/axi4_scoreboard.sv(82) @ 1115000: uvm_test_top.env.scb [axi4_scoreboard] Master AXI4_READ received: ID=0xa ADDR=0x57f93b93 LEN=2
# UVM_INFO ../src/env/axi4_scoreboard.sv(154) @ 1115000: uvm_test_top.env.scb [axi4_scoreboard] [READ] MATCH #8: ID=0xa ADDR=0x57f93b93 LEN=2
# UVM_INFO ../src/seq/axi4_write_read_back_seq.sv(80) @ 1115000: uvm_test_top.env.master_agent.sqr@@wr_rd_seq_3 [axi4_write_read_back_seq] Read-back phase: ADDR=0x57f93b93 LEN=2 — data integrity check via scoreboard
# UVM_INFO ../src/test/axi4_wr_rd_test.sv(52) @ 1115000: uvm_test_top [axi4_wr_rd_test] [5/10] ADDR=0xa5895817 LEN=13 BURST=AXI4_BURST_INCR
# UVM_INFO ../src/mst/axi4_master_driver.sv(55) @ 1115000: uvm_test_top.env.master_agent.drv [axi4_master_driver] Driving AXI4_WRITE  ID=0xd  ADDR=0xa5895817  LEN=13
# UVM_INFO ../src/mst/axi4_master_driver.sv(101) @ 1115000: uvm_test_top.env.master_agent.drv [axi4_master_driver] Write order: AW -> W (sequential)
# UVM_INFO ../src/slv/axi4_slave_driver.sv(159) @ 1145000: uvm_test_top.env.slave_agent.drv [axi4_slave_driver] AW received: ID=0xd ADDR=0xa5895817 LEN=13
# UVM_INFO ../src/mst/axi4_master_monitor.sv(124) @ 1145000: uvm_test_top.env.master_agent.mon [axi4_master_monitor] AW observed: ID=0xd ADDR=0xa5895817 LEN=13
# UVM_INFO ../src/slv/axi4_slave_monitor.sv(116) @ 1145000: uvm_test_top.env.slave_agent.mon [axi4_slave_monitor] AW received: ID=0xd ADDR=0xa5895817 LEN=13
# UVM_INFO ../src/mst/axi4_master_monitor.sv(184) @ 1425000: uvm_test_top.env.master_agent.mon [axi4_master_monitor] W data assembled: ID=0xd ADDR=0xa5895817 14 beats
# UVM_INFO ../src/slv/axi4_slave_monitor.sv(167) @ 1425000: uvm_test_top.env.slave_agent.mon [axi4_slave_monitor] W data assembled: ID=0xd ADDR=0xa5895817 14 beats
# UVM_INFO ../src/mst/axi4_master_driver.sv(197) @ 1455000: uvm_test_top.env.master_agent.drv [axi4_master_driver] Write response: AXI4_RESP_OKAY
# UVM_INFO ../src/slv/axi4_slave_driver.sv(223) @ 1455000: uvm_test_top.env.slave_agent.drv [axi4_slave_driver] Write complete: ID=0xd  14 beats stored
# UVM_INFO ../src/slv/axi4_slave_monitor.sv(189) @ 1455000: uvm_test_top.env.slave_agent.mon [axi4_slave_monitor] Write response sent: ID=0xd ADDR=0xa5895817 RESP=AXI4_RESP_OKAY
# UVM_INFO ../src/env/axi4_scoreboard.sv(103) @ 1455000: uvm_test_top.env.scb [axi4_scoreboard] Slave AXI4_WRITE received: ID=0xd ADDR=0xa5895817 LEN=13
# UVM_INFO ../src/mst/axi4_master_monitor.sv(210) @ 1455000: uvm_test_top.env.master_agent.mon [axi4_master_monitor] Write complete: ID=0xd ADDR=0xa5895817 RESP=AXI4_RESP_OKAY
# UVM_INFO ../src/env/axi4_scoreboard.sv(82) @ 1455000: uvm_test_top.env.scb [axi4_scoreboard] Master AXI4_WRITE received: ID=0xd ADDR=0xa5895817 LEN=13
# UVM_INFO ../src/env/axi4_scoreboard.sv(154) @ 1455000: uvm_test_top.env.scb [axi4_scoreboard] [WRITE] MATCH #9: ID=0xd ADDR=0xa5895817 LEN=13
# UVM_INFO ../src/seq/axi4_write_read_back_seq.sv(60) @ 1455000: uvm_test_top.env.master_agent.sqr@@wr_rd_seq_4 [axi4_write_read_back_seq] Write phase: ADDR=0xa5895817 LEN=13 SIZE=AXI4_SIZE_4B BURST=AXI4_BURST_INCR
# UVM_INFO ../src/mst/axi4_master_driver.sv(55) @ 1455000: uvm_test_top.env.master_agent.drv [axi4_master_driver] Driving AXI4_READ  ID=0xb  ADDR=0xa5895817  LEN=13
# UVM_INFO ../src/slv/axi4_slave_driver.sv(259) @ 1485000: uvm_test_top.env.slave_agent.drv [axi4_slave_driver] AR received: ID=0xb ADDR=0xa5895817 LEN=13
# UVM_INFO ../src/mst/axi4_master_monitor.sv(246) @ 1485000: uvm_test_top.env.master_agent.mon [axi4_master_monitor] AR observed: ID=0xb ADDR=0xa5895817 LEN=13
# UVM_INFO ../src/slv/axi4_slave_monitor.sv(224) @ 1485000: uvm_test_top.env.slave_agent.mon [axi4_slave_monitor] AR received: ID=0xb ADDR=0xa5895817 LEN=13
# UVM_INFO ../src/mst/axi4_master_driver.sv(254) @ 1765000: uvm_test_top.env.master_agent.drv [axi4_master_driver] Read complete: 14 beats received
# UVM_INFO ../src/slv/axi4_slave_driver.sv(293) @ 1765000: uvm_test_top.env.slave_agent.drv [axi4_slave_driver] Read complete: ID=0xb  14 beats sent
# UVM_INFO ../src/mst/axi4_master_monitor.sv(314) @ 1765000: uvm_test_top.env.master_agent.mon [axi4_master_monitor] Read complete: ID=0xb ADDR=0xa5895817 14 beats
# UVM_INFO ../src/env/axi4_scoreboard.sv(82) @ 1765000: uvm_test_top.env.scb [axi4_scoreboard] Master AXI4_READ received: ID=0xb ADDR=0xa5895817 LEN=13
# UVM_INFO ../src/slv/axi4_slave_monitor.sv(287) @ 1765000: uvm_test_top.env.slave_agent.mon [axi4_slave_monitor] Read data sent: ID=0xb ADDR=0xa5895817 14 beats
# UVM_INFO ../src/env/axi4_scoreboard.sv(103) @ 1765000: uvm_test_top.env.scb [axi4_scoreboard] Slave AXI4_READ received: ID=0xb ADDR=0xa5895817 LEN=13
# UVM_INFO ../src/env/axi4_scoreboard.sv(154) @ 1765000: uvm_test_top.env.scb [axi4_scoreboard] [READ] MATCH #10: ID=0xb ADDR=0xa5895817 LEN=13
# UVM_INFO ../src/seq/axi4_write_read_back_seq.sv(80) @ 1765000: uvm_test_top.env.master_agent.sqr@@wr_rd_seq_4 [axi4_write_read_back_seq] Read-back phase: ADDR=0xa5895817 LEN=13 — data integrity check via scoreboard
# UVM_INFO ../src/test/axi4_wr_rd_test.sv(52) @ 1765000: uvm_test_top [axi4_wr_rd_test] [6/10] ADDR=0x450ed7ac LEN=2 BURST=AXI4_BURST_INCR
# UVM_INFO ../src/mst/axi4_master_driver.sv(55) @ 1765000: uvm_test_top.env.master_agent.drv [axi4_master_driver] Driving AXI4_WRITE  ID=0x1  ADDR=0x450ed7ac  LEN=2
# UVM_INFO ../src/mst/axi4_master_driver.sv(94) @ 1765000: uvm_test_top.env.master_agent.drv [axi4_master_driver] Write order: AW || W (parallel)
# UVM_INFO ../src/slv/axi4_slave_driver.sv(159) @ 1795000: uvm_test_top.env.slave_agent.drv [axi4_slave_driver] AW received: ID=0x1 ADDR=0x450ed7ac LEN=2
# UVM_INFO ../src/slv/axi4_slave_monitor.sv(116) @ 1795000: uvm_test_top.env.slave_agent.mon [axi4_slave_monitor] AW received: ID=0x1 ADDR=0x450ed7ac LEN=2
# UVM_INFO ../src/mst/axi4_master_monitor.sv(124) @ 1795000: uvm_test_top.env.master_agent.mon [axi4_master_monitor] AW observed: ID=0x1 ADDR=0x450ed7ac LEN=2
# UVM_INFO ../src/mst/axi4_master_monitor.sv(184) @ 1825000: uvm_test_top.env.master_agent.mon [axi4_master_monitor] W data assembled: ID=0x1 ADDR=0x450ed7ac 3 beats
# UVM_INFO ../src/slv/axi4_slave_monitor.sv(167) @ 1825000: uvm_test_top.env.slave_agent.mon [axi4_slave_monitor] W data assembled: ID=0x1 ADDR=0x450ed7ac 3 beats
# UVM_INFO ../src/mst/axi4_master_driver.sv(197) @ 1855000: uvm_test_top.env.master_agent.drv [axi4_master_driver] Write response: AXI4_RESP_OKAY
# UVM_INFO ../src/slv/axi4_slave_driver.sv(223) @ 1855000: uvm_test_top.env.slave_agent.drv [axi4_slave_driver] Write complete: ID=0x1  3 beats stored
# UVM_INFO ../src/slv/axi4_slave_monitor.sv(189) @ 1855000: uvm_test_top.env.slave_agent.mon [axi4_slave_monitor] Write response sent: ID=0x1 ADDR=0x450ed7ac RESP=AXI4_RESP_OKAY
# UVM_INFO ../src/env/axi4_scoreboard.sv(103) @ 1855000: uvm_test_top.env.scb [axi4_scoreboard] Slave AXI4_WRITE received: ID=0x1 ADDR=0x450ed7ac LEN=2
# UVM_INFO ../src/mst/axi4_master_monitor.sv(210) @ 1855000: uvm_test_top.env.master_agent.mon [axi4_master_monitor] Write complete: ID=0x1 ADDR=0x450ed7ac RESP=AXI4_RESP_OKAY
# UVM_INFO ../src/env/axi4_scoreboard.sv(82) @ 1855000: uvm_test_top.env.scb [axi4_scoreboard] Master AXI4_WRITE received: ID=0x1 ADDR=0x450ed7ac LEN=2
# UVM_INFO ../src/env/axi4_scoreboard.sv(154) @ 1855000: uvm_test_top.env.scb [axi4_scoreboard] [WRITE] MATCH #11: ID=0x1 ADDR=0x450ed7ac LEN=2
# UVM_INFO ../src/seq/axi4_write_read_back_seq.sv(60) @ 1855000: uvm_test_top.env.master_agent.sqr@@wr_rd_seq_5 [axi4_write_read_back_seq] Write phase: ADDR=0x450ed7ac LEN=2 SIZE=AXI4_SIZE_4B BURST=AXI4_BURST_INCR
# UVM_INFO ../src/mst/axi4_master_driver.sv(55) @ 1855000: uvm_test_top.env.master_agent.drv [axi4_master_# UVM_INFO ../src/mst/axi4_master_driver.sv(55) @ 2925000:# UVM_INFO ../src/slv/axi4_slave_driver.sv(259) @ 1885000: uvm_test_top.env.slave_agent.drv [axi4_slave_driver] AR received: ID=0xc ADDR=0x450ed7ac LEN=2
# UVM_INFO ../src/mst/axi4_master_monitor.sv(246) @ 1885000: uvm_test_top.env.master_agent.mon [axi4_master_monitor] AR observed: ID=0xc ADDR=0x450ed7ac LEN=2
# UVM_INFO ../src/slv/axi4_slave_monitor.sv(224) @ 1885000: uvm_test_top.env.slave_agent.mon [axi4_slave_monitor] AR received: ID=0xc ADDR=0x450ed7ac LEN=2
# UVM_INFO ../src/mst/axi4_master_driver.sv(254) @ 1945000: uvm_test_top.env.master_agent.drv [axi4_master_driver] Read complete: 3 beats received
# UVM_INFO ../src/slv/axi4_slave_driver.sv(293) @ 1945000: uvm_test_top.env.slave_agent.drv [axi4_slave_driver] Read complete: ID=0xc  3 beats sent
# UVM_INFO ../src/mst/axi4_master_monitor.sv(314) @ 1945000: uvm_test_top.env.master_agent.mon [axi4_master_monitor] Read complete: ID=0xc ADDR=0x450ed7ac 3 beats
# UVM_INFO ../src/env/axi4_scoreboard.sv(82) @ 1945000: uvm_test_top.env.scb [axi4_scoreboard] Master AXI4_READ received: ID=0xc ADDR=0x450ed7ac LEN=2
# UVM_INFO ../src/slv/axi4_slave_monitor.sv(287) @ 1945000: uvm_test_top.env.slave_agent.mon [axi4_slave_monitor] Read data sent: ID=0xc ADDR=0x450ed7ac 3 beats
# UVM_INFO ../src/env/axi4_scoreboard.sv(103) @ 1945000: uvm_test_top.env.scb [axi4_scoreboard] Slave AXI4_READ received: ID=0xc ADDR=0x450ed7ac LEN=2
# UVM_INFO ../src/env/axi4_scoreboard.sv(154) @ 1945000: uvm_test_top.env.scb [axi4_scoreboard] [READ] MATCH #12: ID=0xc ADDR=0x450ed7ac LEN=2
# UVM_INFO ../src/seq/axi4_write_read_back_seq.sv(80) @ 1945000: uvm_test_top.env.master_agent.sqr@@wr_rd_seq_5 [axi4_write_read_back_seq] Read-back phase: ADDR=0x450ed7ac LEN=2 — data integrity check via scoreboard
# UVM_INFO ../src/test/axi4_wr_rd_test.sv(52) @ 1945000: uvm_test_top [axi4_wr_rd_test] [7/10] ADDR=0x04735dec LEN=4 BURST=AXI4_BURST_INCR
# UVM_INFO ../src/mst/axi4_master_driver.sv(55) @ 1945000: uvm_test_top.env.master_agent.drv [axi4_master_driver] Driving AXI4_WRITE  ID=0xc  ADDR=0x04735dec  LEN=4
# UVM_INFO ../src/mst/axi4_master_driver.sv(106) @ 1945000: uvm_test_top.env.master_agent.drv [axi4_master_driver] Write order: W -> AW (W first)
# UVM_INFO ../src/slv/axi4_slave_driver.sv(159) @ 1985000: uvm_test_top.env.slave_agent.drv [axi4_slave_driver] AW received: ID=0xc ADDR=0x04735dec LEN=4
# UVM_INFO ../src/mst/axi4_master_monitor.sv(124) @ 1985000: uvm_test_top.env.master_agent.mon [axi4_master_monitor] AW observed: ID=0xc ADDR=0x04735dec LEN=4
# UVM_INFO ../src/slv/axi4_slave_monitor.sv(116) @ 1985000: uvm_test_top.env.slave_agent.mon [axi4_slave_monitor] AW received: ID=0xc ADDR=0x04735dec LEN=4
# UVM_INFO ../src/mst/axi4_master_monitor.sv(184) @ 2045000: uvm_test_top.env.master_agent.mon [axi4_master_monitor] W data assembled: ID=0xc ADDR=0x04735dec 5 beats
# UVM_INFO ../src/slv/axi4_slave_monitor.sv(167) @ 2045000: uvm_test_top.env.slave_agent.mon [axi4_slave_monitor] W data assembled: ID=0xc ADDR=0x04735dec 5 beats
# UVM_INFO ../src/mst/axi4_master_driver.sv(197) @ 2075000: uvm_test_top.env.master_agent.drv [axi4_master_driver] Write response: AXI4_RESP_OKAY
# UVM_INFO ../src/slv/axi4_slave_driver.sv(223) @ 2075000: uvm_test_top.env.slave_agent.drv [axi4_slave_driver] Write complete: ID=0xc  5 beats stored
# UVM_INFO ../src/slv/axi4_slave_monitor.sv(189) @ 2075000: uvm_test_top.env.slave_agent.mon [axi4_slave_monitor] Write response sent: ID=0xc ADDR=0x04735dec RESP=AXI4_RESP_OKAY
# UVM_INFO ../src/env/axi4_scoreboard.sv(103) @ 2075000: uvm_test_top.env.scb [axi4_scoreboard] Slave AXI4_WRITE received: ID=0xc ADDR=0x04735dec LEN=4
# UVM_INFO ../src/mst/axi4_master_monitor.sv(210) @ 2075000: uvm_test_top.env.master_agent.mon [axi4_master_monitor] Write complete: ID=0xc ADDR=0x04735dec RESP=AXI4_RESP_OKAY
# UVM_INFO ../src/env/axi4_scoreboard.sv(82) @ 2075000: uvm_test_top.env.scb [axi4_scoreboard] Master AXI4_WRITE received: ID=0xc ADDR=0x04735dec LEN=4
# UVM_INFO ../src/env/axi4_scoreboard.sv(154) @ 2075000: uvm_test_top.env.scb [axi4_scoreboard] [WRITE] MATCH #13: ID=0xc ADDR=0x04735dec LEN=4
# UVM_INFO ../src/seq/axi4_write_read_back_seq.sv(60) @ 2075000: uvm_test_top.env.master_agent.sqr@@wr_rd_seq_6 [axi4_write_read_back_seq] Write phase: ADDR=0x04735dec LEN=4 SIZE=AXI4_SIZE_4B BURST=AXI4_BURST_INCR
# UVM_INFO ../src/mst/axi4_master_driver.sv(55) @ 2075000: uvm_test_top.env.master_agent.drv [axi4_master_driver] Driving AXI4_READ  ID=0xa  ADDR=0x04735dec  LEN=4
# UVM_INFO ../src/slv/axi4_slave_driver.sv(259) @ 2105000: uvm_test_top.env.slave_agent.drv [axi4_slave_driver] AR received: ID=0xa ADDR=0x04735dec LEN=4
# UVM_INFO ../src/mst/axi4_master_monitor.sv(246) @ 2105000: uvm_test_top.env.master_agent.mon [axi4_master_monitor] AR observed: ID=0xa ADDR=0x04735dec LEN=4
# UVM_INFO ../src/slv/axi4_slave_monitor.sv(224) @ 2105000: uvm_test_top.env.slave_agent.mon [axi4_slave_monitor] AR received: ID=0xa ADDR=0x04735dec LEN=4
# UVM_INFO ../src/mst/axi4_master_driver.sv(254) @ 2205000: uvm_test_top.env.master_agent.drv [axi4_master_driver] Read complete: 5 beats received
# UVM_INFO ../src/slv/axi4_slave_driver.sv(293) @ 2205000: uvm_test_top.env.slave_agent.drv [axi4_slave_driver] Read complete: ID=0xa  5 beats sent
# UVM_INFO ../src/mst/axi4_master_monitor.sv(314) @ 2205000: uvm_test_top.env.master_agent.mon [axi4_master_monitor] Read complete: ID=0xa ADDR=0x04735dec 5 beats
# UVM_INFO ../src/env/axi4_scoreboard.sv(82) @ 2205000: uvm_test_top.env.scb [axi4_scoreboard] Master AXI4_READ received: ID=0xa ADDR=0x04735dec LEN=4
# UVM_INFO ../src/slv/axi4_slave_monitor.sv(287) @ 2205000: uvm_test_top.env.slave_agent.mon [axi4_slave_monitor] Read data sent: ID=0xa ADDR=0x04735dec 5 beats
# UVM_INFO ../src/env/axi4_scoreboard.sv(103) @ 2205000: uvm_test_top.env.scb [axi4_scoreboard] Slave AXI4_READ received: ID=0xa ADDR=0x04735dec LEN=4
# UVM_INFO ../src/env/axi4_scoreboard.sv(154) @ 2205000: uvm_test_top.env.scb [axi4_scoreboard] [READ] MATCH #14: ID=0xa ADDR=0x04735dec LEN=4
# UVM_INFO ../src/seq/axi4_write_read_back_seq.sv(80) @ 2205000: uvm_test_top.env.master_agent.sqr@@wr_rd_seq_6 [axi4_write_read_back_seq] Read-back phase: ADDR=0x04735dec LEN=4 — data integrity check via scoreboard
# UVM_INFO ../src/test/axi4_wr_rd_test.sv(52) @ 2205000: uvm_test_top [axi4_wr_rd_test] [8/10] ADDR=0x28e77fe8 LEN=12 BURST=AXI4_BURST_INCR
# UVM_INFO ../src/mst/axi4_master_driver.sv(55) @ 2205000: uvm_test_top.env.master_agent.drv [axi4_master_driver] Driving AXI4_WRITE  ID=0x2  ADDR=0x28e77fe8  LEN=12
# UVM_INFO ../src/mst/axi4_master_driver.sv(106) @ 2205000: uvm_test_top.env.master_agent.drv [axi4_master_driver] Write order: W -> AW (W first)
# UVM_INFO ../src/slv/axi4_slave_driver.sv(159) @ 2255000: uvm_test_top.env.slave_agent.drv [axi4_slave_driver] AW received: ID=0x2 ADDR=0x28e77fe8 LEN=12
# UVM_INFO ../src/slv/axi4_slave_monitor.sv(116) @ 2255000: uvm_test_top.env.slave_agent.mon [axi4_slave_monitor] AW received: ID=0x2 ADDR=0x28e77fe8 LEN=12
# UVM_INFO ../src/mst/axi4_master_monitor.sv(124) @ 2255000: uvm_test_top.env.master_agent.mon [axi4_master_monitor] AW observed: ID=0x2 ADDR=0x28e77fe8 LEN=12
# UVM_INFO ../src/mst/axi4_master_monitor.sv(184) @ 2465000: uvm_test_top.env.master_agent.mon [axi4_master_monitor] W data assembled: ID=0x2 ADDR=0x28e77fe8 13 beats
# UVM_INFO ../src/slv/axi4_slave_monitor.sv(167) @ 2465000: uvm_test_top.env.slave_agent.mon [axi4_slave_monitor] W data assembled: ID=0x2 ADDR=0x28e77fe8 13 beats
# UVM_INFO ../src/mst/axi4_master_driver.sv(197) @ 2495000: uvm_test_top.env.master_agent.drv [axi4_master_driver] Write response: AXI4_RESP_OKAY
# UVM_INFO ../src/slv/axi4_slave_driver.sv(223) @ 2495000: uvm_test_top.env.slave_agent.drv [axi4_slave_driver] Write complete: ID=0x2  13 beats stored
# UVM_INFO ../src/slv/axi4_slave_monitor.sv(189) @ 2495000: uvm_test_top.env.slave_agent.mon [axi4_slave_monitor] Write response sent: ID=0x2 ADDR=0x28e77fe8 RESP=AXI4_RESP_OKAY
# UVM_INFO ../src/env/axi4_scoreboard.sv(103) @ 2495000: uvm_test_top.env.scb [axi4_scoreboard] Slave AXI4_WRITE received: ID=0x2 ADDR=0x28e77fe8 LEN=12
# UVM_INFO ../src/mst/axi4_master_monitor.sv(210) @ 2495000: uvm_test_top.env.master_agent.mon [axi4_master_monitor] Write complete: ID=0x2 ADDR=0x28e77fe8 RESP=AXI4_RESP_OKAY
# UVM_INFO ../src/env/axi4_scoreboard.sv(82) @ 2495000: uvm_test_top.env.scb [axi4_scoreboard] Master AXI4_WRITE received: ID=0x2 ADDR=0x28e77fe8 LEN=12
# UVM_INFO ../src/env/axi4_scoreboard.sv(154) @ 2495000: uvm_test_top.env.scb [axi4_scoreboard] [WRITE] MATCH #15: ID=0x2 ADDR=0x28e77fe8 LEN=12
# UVM_INFO ../src/seq/axi4_write_read_back_seq.sv(60) @ 2495000: uvm_test_top.env.master_agent.sqr@@wr_rd_seq_7 [axi4_write_read_back_seq] Write phase: ADDR=0x28e77fe8 LEN=12 SIZE=AXI4_SIZE_4B BURST=AXI4_BURST_INCR
# UVM_INFO ../src/mst/axi4_master_driver.sv(55) @ 2495000: uvm_test_top.env.master_agent.drv [axi4_master_driver] Driving AXI4_READ  ID=0xe  ADDR=0x28e77fe8  LEN=12
# UVM_INFO ../src/slv/axi4_slave_driver.sv(259) @ 2525000: uvm_test_top.env.slave_agent.drv [axi4_slave_driver] AR received: ID=0xe ADDR=0x28e77fe8 LEN=12
# UVM_INFO ../src/mst/axi4_master_monitor.sv(246) @ 2525000: uvm_test_top.env.master_agent.mon [axi4_master_monitor] AR observed: ID=0xe ADDR=0x28e77fe8 LEN=12
# UVM_INFO ../src/slv/axi4_slave_monitor.sv(224) @ 2525000: uvm_test_top.env.slave_agent.mon [axi4_slave_monitor] AR received: ID=0xe ADDR=0x28e77fe8 LEN=12
# UVM_INFO ../src/mst/axi4_master_driver.sv(254) @ 2785000: uvm_test_top.env.master_agent.drv [axi4_master_driver] Read complete: 13 beats received
# UVM_INFO ../src/slv/axi4_slave_driver.sv(293) @ 2785000: uvm_test_top.env.slave_agent.drv [axi4_slave_driver] Read complete: ID=0xe  13 beats sent
# UVM_INFO ../src/mst/axi4_master_monitor.sv(314) @ 2785000: uvm_test_top.env.master_agent.mon [axi4_master_monitor] Read complete: ID=0xe ADDR=0x28e77fe8 13 beats
# UVM_INFO ../src/env/axi4_scoreboard.sv(82) @ 2785000: uvm_test_top.env.scb [axi4_scoreboard] Master AXI4_READ received: ID=0xe ADDR=0x28e77fe8 LEN=12
# UVM_INFO ../src/slv/axi4_slave_monitor.sv(287) @ 2785000: uvm_test_top.env.slave_agent.mon [axi4_slave_monitor] Read data sent: ID=0xe ADDR=0x28e77fe8 13 beats
# UVM_INFO ../src/env/axi4_scoreboard.sv(103) @ 2785000: uvm_test_top.env.scb [axi4_scoreboard] Slave AXI4_READ received: ID=0xe ADDR=0x28e77fe8 LEN=12
# UVM_INFO ../src/env/axi4_scoreboard.sv(154) @ 2785000: uvm_test_top.env.scb [axi4_sco# UVM_INFO ../src/env/axi4_scoreboard.sv(154) @ 3425000: # UVM_INFO ../src/seq/axi4_write_read_back_seq.sv(80) @ 2785000: uvm_test_top.env.master_agent.sqr@@wr_rd_seq_7 [axi4_write_read_back_seq] Read-back phase: ADDR=0x28e77fe8 LEN=12 — data integrity check via scoreboard
# UVM_INFO ../src/test/axi4_wr_rd_test.sv(52) @ 2785000: uvm_test_top [axi4_wr_rd_test] [9/10] ADDR=0xad4d5f0b LEN=13 BURST=AXI4_BURST_INCR
# UVM_INFO ../src/mst/axi4_master_driver.sv(55) @ 2785000: uvm_test_top.env.master_agent.drv [axi4_master_driver] Driving AXI4_WRITE  ID=0x1  ADDR=0xad4d5f0b  LEN=13
# UVM_INFO ../src/mst/axi4_master_driver.sv(94) @ 2785000: uvm_test_top.env.master_agent.drv [axi4_master_driver] Write order: AW || W (parallel)
# UVM_INFO ../src/slv/axi4_slave_driver.sv(159) @ 2815000: uvm_test_top.env.slave_agent.drv [axi4_slave_driver] AW received: ID=0x1 ADDR=0xad4d5f0b LEN=13
# UVM_INFO ../src/slv/axi4_slave_monitor.sv(116) @ 2815000: uvm_test_top.env.slave_agent.mon [axi4_slave_monitor] AW received: ID=0x1 ADDR=0xad4d5f0b LEN=13
# UVM_INFO ../src/mst/axi4_master_monitor.sv(124) @ 2815000: uvm_test_top.env.master_agent.mon [axi4_master_monitor] AW observed: ID=0x1 ADDR=0xad4d5f0b LEN=13
# UVM_INFO ../src/mst/axi4_master_monitor.sv(184) @ 3065000: uvm_test_top.env.master_agent.mon [axi4_master_monitor] W data assembled: ID=0x1 ADDR=0xad4d5f0b 14 beats
# UVM_INFO ../src/slv/axi4_slave_monitor.sv(167) @ 3065000: uvm_test_top.env.slave_agent.mon [axi4_slave_monitor] W data assembled: ID=0x1 ADDR=0xad4d5f0b 14 beats
# UVM_INFO ../src/mst/axi4_master_driver.sv(197) @ 3095000: uvm_test_top.env.master_agent.drv [axi4_master_driver] Write response: AXI4_RESP_OKAY
# UVM_INFO ../src/slv/axi4_slave_driver.sv(223) @ 3095000: uvm_test_top.env.slave_agent.drv [axi4_slave_driver] Write complete: ID=0x1  14 beats stored
# UVM_INFO ../src/slv/axi4_slave_monitor.sv(189) @ 3095000: uvm_test_top.env.slave_agent.mon [axi4_slave_monitor] Write response sent: ID=0x1 ADDR=0xad4d5f0b RESP=AXI4_RESP_OKAY
# UVM_INFO ../src/env/axi4_scoreboard.sv(103) @ 3095000: uvm_test_top.env.scb [axi4_scoreboard] Slave AXI4_WRITE received: ID=0x1 ADDR=0xad4d5f0b LEN=13
# UVM_INFO ../src/mst/axi4_master_monitor.sv(210) @ 3095000: uvm_test_top.env.master_agent.mon [axi4_master_monitor] Write complete: ID=0x1 ADDR=0xad4d5f0b RESP=AXI4_RESP_OKAY
# UVM_INFO ../src/env/axi4_scoreboard.sv(82) @ 3095000: uvm_test_top.env.scb [axi4_scoreboard] Master AXI4_WRITE received: ID=0x1 ADDR=0xad4d5f0b LEN=13
# UVM_INFO ../src/env/axi4_scoreboard.sv(154) @ 3095000: uvm_test_top.env.scb [axi4_scoreboard] [WRITE] MATCH #17: ID=0x1 ADDR=0xad4d5f0b LEN=13
# UVM_INFO ../src/seq/axi4_write_read_back_seq.sv(60) @ 3095000: uvm_test_top.env.master_agent.sqr@@wr_rd_seq_8 [axi4_write_read_back_seq] Write phase: ADDR=0xad4d5f0b LEN=13 SIZE=AXI4_SIZE_4B BURST=AXI4_BURST_INCR
# UVM_INFO ../src/mst/axi4_master_driver.sv(55) @ 3095000: uvm_test_top.env.master_agent.drv [axi4_master_driver] Driving AXI4_READ  ID=0x3  ADDR=0xad4d5f0b  LEN=13
# UVM_INFO ../src/slv/axi4_slave_driver.sv(259) @ 3125000: uvm_test_top.env.slave_agent.drv [axi4_slave_driver] AR received: ID=0x3 ADDR=0xad4d5f0b LEN=13
# UVM_INFO ../src/mst/axi4_master_monitor.sv(246) @ 3125000: uvm_test_top.env.master_agent.mon [axi4_master_monitor] AR observed: ID=0x3 ADDR=0xad4d5f0b LEN=13
# UVM_INFO ../src/slv/axi4_slave_monitor.sv(224) @ 3125000: uvm_test_top.env.slave_agent.mon [axi4_slave_monitor] AR received: ID=0x3 ADDR=0xad4d5f0b LEN=13
# UVM_INFO ../src/mst/axi4_master_driver.sv(254) @ 3405000: uvm_test_top.env.master_agent.drv [axi4_master_driver] Read complete: 14 beats received
# UVM_INFO ../src/slv/axi4_slave_driver.sv(293) @ 3405000: uvm_test_top.env.slave_agent.drv [axi4_slave_driver] Read complete: ID=0x3  14 beats sent
# UVM_INFO ../src/mst/axi4_master_monitor.sv(314) @ 3405000: uvm_test_top.env.master_agent.mon [axi4_master_monitor] Read complete: ID=0x3 ADDR=0xad4d5f0b 14 beats
# UVM_INFO ../src/env/axi4_scoreboard.sv(82) @ 3405000: uvm_test_top.env.scb [axi4_scoreboard] Master AXI4_READ received: ID=0x3 ADDR=0xad4d5f0b LEN=13
# UVM_INFO ../src/slv/axi4_slave_monitor.sv(287) @ 3405000: uvm_test_top.env.slave_agent.mon [axi4_slave_monitor] Read data sent: ID=0x3 ADDR=0xad4d5f0b 14 beats
# UVM_INFO ../src/env/axi4_scoreboard.sv(103) @ 3405000: uvm_test_top.env.scb [axi4_scoreboard] Slave AXI4_READ received: ID=0x3 ADDR=0xad4d5f0b LEN=13
# UVM_INFO ../src/env/axi4_scoreboard.sv(154) @ 3405000: uvm_test_top.env.scb [axi4_scoreboard] [READ] MATCH #18: ID=0x3 ADDR=0xad4d5f0b LEN=13
# UVM_INFO ../src/seq/axi4_write_read_back_seq.sv(80) @ 3405000: uvm_test_top.env.master_agent.sqr@@wr_rd_seq_8 [axi4_write_read_back_seq] Read-back phase: ADDR=0xad4d5f0b LEN=13 — data integrity check via scoreboard
# UVM_INFO ../src/test/axi4_wr_rd_test.sv(52) @ 3405000: uvm_test_top [axi4_wr_rd_test] [10/10] ADDR=0xbe418af5 LEN=8 BURST=AXI4_BURST_INCR
# UVM_INFO ../src/mst/axi4_master_driver.sv(55) @ 3405000: uvm_test_top.env.master_agent.drv [axi4_master_driver] Driving AXI4_WRITE  ID=0x5  ADDR=0xbe418af5  LEN=8
# UVM_INFO ../src/mst/axi4_master_driver.sv(106) @ 3405000: uvm_test_top.env.master_agent.drv [axi4_master_driver] Write order: W -> AW (W first)
# UVM_INFO ../src/slv/axi4_slave_driver.sv(159) @ 3465000: uvm_test_top.env.slave_agent.drv [axi4_slave_driver] AW received: ID=0x5 ADDR=0xbe418af5 LEN=8
# UVM_INFO ../src/mst/axi4_master_monitor.sv(124) @ 3465000: uvm_test_top.env.master_agent.mon [axi4_master_monitor] AW observed: ID=0x5 ADDR=0xbe418af5 LEN=8
# UVM_INFO ../src/slv/axi4_slave_monitor.sv(116) @ 3465000: uvm_test_top.env.slave_agent.mon [axi4_slave_monitor] AW received: ID=0x5 ADDR=0xbe418af5 LEN=8
# UVM_INFO ../src/mst/axi4_master_monitor.sv(184) @ 3585000: uvm_test_top.env.master_agent.mon [axi4_master_monitor] W data assembled: ID=0x5 ADDR=0xbe418af5 9 beats
# UVM_INFO ../src/slv/axi4_slave_monitor.sv(167) @ 3585000: uvm_test_top.env.slave_agent.mon [axi4_slave_monitor] W data assembled: ID=0x5 ADDR=0xbe418af5 9 beats
# UVM_INFO ../src/mst/axi4_master_driver.sv(197) @ 3615000: uvm_test_top.env.master_agent.drv [axi4_master_driver] Write response: AXI4_RESP_OKAY
# UVM_INFO ../src/slv/axi4_slave_driver.sv(223) @ 3615000: uvm_test_top.env.slave_agent.drv [axi4_slave_driver] Write complete: ID=0x5  9 beats stored
# UVM_INFO ../src/slv/axi4_slave_monitor.sv(189) @ 3615000: uvm_test_top.env.slave_agent.mon [axi4_slave_monitor] Write response sent: ID=0x5 ADDR=0xbe418af5 RESP=AXI4_RESP_OKAY
# UVM_INFO ../src/env/axi4_scoreboard.sv(103) @ 3615000: uvm_test_top.env.scb [axi4_scoreboard] Slave AXI4_WRITE received: ID=0x5 ADDR=0xbe418af5 LEN=8
# UVM_INFO ../src/mst/axi4_master_monitor.sv(210) @ 3615000: uvm_test_top.env.master_agent.mon [axi4_master_monitor] Write complete: ID=0x5 ADDR=0xbe418af5 RESP=AXI4_RESP_OKAY
# UVM_INFO ../src/env/axi4_scoreboard.sv(82) @ 3615000: uvm_test_top.env.scb [axi4_scoreboard] Master AXI4_WRITE received: ID=0x5 ADDR=0xbe418af5 LEN=8
# UVM_INFO ../src/env/axi4_scoreboard.sv(154) @ 3615000: uvm_test_top.env.scb [axi4_scoreboard] [WRITE] MATCH #19: ID=0x5 ADDR=0xbe418af5 LEN=8
# UVM_INFO ../src/seq/axi4_write_read_back_seq.sv(60) @ 3615000: uvm_test_top.env.master_agent.sqr@@wr_rd_seq_9 [axi4_write_read_back_seq] Write phase: ADDR=0xbe418af5 LEN=8 SIZE=AXI4_SIZE_4B BURST=AXI4_BURST_INCR
# UVM_INFO ../src/mst/axi4_master_driver.sv(55) @ 3615000: uvm_test_top.env.master_agent.drv [axi4_master_driver] Driving AXI4_READ  ID=0x1  ADDR=0xbe418af5  LEN=8
# UVM_INFO ../src/slv/axi4_slave_driver.sv(259) @ 3645000: uvm_test_top.env.slave_agent.drv [axi4_slave_driver] AR received: ID=0x1 ADDR=0xbe418af5 LEN=8
# UVM_INFO ../src/mst/axi4_master_monitor.sv(246) @ 3645000: uvm_test_top.env.master_agent.mon [axi4_master_monitor] AR observed: ID=0x1 ADDR=0xbe418af5 LEN=8
# UVM_INFO ../src/slv/axi4_slave_monitor.sv(224) @ 3645000: uvm_test_top.env.slave_agent.mon [axi4_slave_monitor] AR received: ID=0x1 ADDR=0xbe418af5 LEN=8
# UVM_INFO ../src/mst/axi4_master_driver.sv(254) @ 3825000: uvm_test_top.env.master_agent.drv [axi4_master_driver] Read complete: 9 beats received
# UVM_INFO ../src/slv/axi4_slave_driver.sv(293) @ 3825000: uvm_test_top.env.slave_agent.drv [axi4_slave_driver] Read complete: ID=0x1  9 beats sent
# UVM_INFO ../src/mst/axi4_master_monitor.sv(314) @ 3825000: uvm_test_top.env.master_agent.mon [axi4_master_monitor] Read complete: ID=0x1 ADDR=0xbe418af5 9 beats
# UVM_INFO ../src/env/axi4_scoreboard.sv(82) @ 3825000: uvm_test_top.env.scb [axi4_scoreboard] Master AXI4_READ received: ID=0x1 ADDR=0xbe418af5 LEN=8
# UVM_INFO ../src/slv/axi4_slave_monitor.sv(287) @ 3825000: uvm_test_top.env.slave_agent.mon [axi4_slave_monitor] Read data sent: ID=0x1 ADDR=0xbe418af5 9 beats
# UVM_INFO ../src/env/axi4_scoreboard.sv(103) @ 3825000: uvm_test_top.env.scb [axi4_scoreboard] Slave AXI4_READ received: ID=0x1 ADDR=0xbe418af5 LEN=8
# UVM_INFO ../src/env/axi4_scoreboard.sv(154) @ 3825000: uvm_test_top.env.scb [axi4_scoreboard] [READ] MATCH #20: ID=0x1 ADDR=0xbe418af5 LEN=8
# UVM_INFO ../src/seq/axi4_write_read_back_seq.sv(80) @ 3825000: uvm_test_top.env.master_agent.sqr@@wr_rd_seq_9 [axi4_write_read_back_seq] Read-back phase: ADDR=0xbe418af5 LEN=8 — data integrity check via scoreboard
# UVM_INFO ../src/test/axi4_wr_rd_test.sv(62) @ 4325000: uvm_test_top [axi4_wr_rd_test] 10 write-read-back iterations complete
# UVM_INFO verilog_src/uvm-1.1d/src/base/uvm_objection.svh(1268) @ 4325000: reporter [TEST_DONE] 'run' phase is ready to proceed to the 'extract' phase
# UVM_INFO ../src/env/axi4_scoreboard.sv(218) @ 4325000: uvm_test_top.env.scb [axi4_scoreboard] 
# ========================================
#          SCOREBOARD SUMMARY
# ========================================
#   Master transactions : 20
#   Slave transactions  : 20
#   Matches             : 20
#   Mismatches          : 0
#   Unmatched master WR : 0
#   Unmatched master RD : 0
#   Unmatched slave  WR : 0
#   Unmatched slave  RD : 0
# ========================================
#   RESULT : PASS
# ========================================
# UVM_INFO ../src/test/axi4_base_test.sv(91) @ 4325000: uvm_test_top [axi4_wr_rd_test] 
# === TEST PASSED ===
# 
# 
# --- UVM Report Summary ---
# 
# ** Report counts by severity
# UVM_INFO :  304
# UVM_WARNING :    0
# UVM_ERROR :    0
# UVM_FATAL :    0
# ** Report counts by id
# [Questa UVM]     3
# [RNTST]     1
# [TB_TOP]     2
# [TEST_DONE]     1
# [TOP_TB]     1
# [UVMTOP]     1
# [axi4_master_agent]     1
# [axi4_master_driver]    51
# [axi4_master_monitor]    51
# [axi4_scoreboard]    61
# [axi4_slave_agent]     1
# [axi4_slave_driver]    41
# [axi4_slave_monitor]    51
# [axi4_vip_env]     5
# [axi4_wr_rd_test]    13
# [axi4_write_read_back_seq]    20
# ** Note: $finish    : /cadtools/mentor/Questa_10.6b/questasim/linux_x86_64/../verilog_src/uvm-1.1d/src/base/uvm_root.svh(430)
#    Time: 4325 ns  Iteration: 55  Instance: /tb_top
# Saving coverage database on exit...
# End time: 13:49:40 on May 29,2026, Elapsed time: 0:00:22
# Errors: 0, Warnings: 0
9:40 on May 29,2026, Elapsed time: 0:00:22
# Errors: 0, Warnings: 0
