# vsim -c -coverage -l ./report/logs/run.log -sv_seed 12345 "+UVM_TESTNAME=axi4_outstanding_test" "+UVM_VERBOSITY=UVM_HIGH" "+DUMP_VCD" -do "if {[string equal [design visibility] "port"] || [string equal [design visibility] "none"]} { 	       coverage save -onexit ./report/coverage/axi4_outstanding_test_seed_12345.ucdb; 	     }; run -all; quit -f" opt_tb_top 
# Start time: 09:20:20 on Jun 11,2026
# //  Questa Sim-64
# //  Version 10.6b linux_x86_64 May 25 2017
# //
# //  Copyright 1991-2017 Mentor Graphics Corporation
# //  All Rights Reserved.
# //
# //  QuestaSim and its associated documentation contain trade
# //  secrets and commercial or financial information that are the property of
# //  Mentor Graphics Corporation and are privileged, confidential,
# //  and exempt from disclosure under the Freedom of Information Act,
# //  5 U.S.C. Section 552. Furthermore, this information
# //  is prohibited from disclosure under the Trade Secrets Act,
# //  18 U.S.C. Section 1905.
# //
# Loading sv_std.std
# Loading work.axi4_if(fast)
# Loading mtiUvm.uvm_pkg
# Loading work.axi4_pkg(fast)
# Loading work.axi4_test_pkg(fast)
# Loading work.tb_top(fast)
# Loading work.axi4_if(fast)
# Loading work.axi4_sva(fast)
# Loading mtiUvm.questa_uvm_pkg(fast)
# Loading /cadtools/mentor/Questa_10.6b/questasim/uvm-1.1d/linux_x86_64/uvm_dpi.so
# if {[string equal [design visibility] "port"] || [string equal [design visibility] "none"]} { 	       coverage save -onexit ./report/coverage/axi4_outstanding_test_seed_12345.ucdb; 	     }
# invalid command name "design"
#  run -all
# ----------------------------------------------------------------
# UVM-1.1d
# (C) 2007-2013 Mentor Graphics Corporation
# (C) 2007-2013 Cadence Design Systems, Inc.
# (C) 2006-2013 Synopsys, Inc.
# (C) 2011-2013 Cypress Semiconductor Corp.
# ----------------------------------------------------------------
# 
#   ***********       IMPORTANT RELEASE NOTES         ************
# 
#   You are using a version of the UVM library that has been compiled
#   with `UVM_NO_DEPRECATED undefined.
#   See http://www.eda.org/svdb/view.php?id=3313 for more details.
# 
#   You are using a version of the UVM library that has been compiled
#   with `UVM_OBJECT_MUST_HAVE_CONSTRUCTOR undefined.
#   See http://www.eda.org/svdb/view.php?id=3770 for more details.
# 
#       (Specify +UVM_NO_RELNOTES to turn off this notice)
# 
# UVM_INFO verilog_src/questa_uvm_pkg-1.2/src/questa_uvm_pkg.sv(215) @ 0: reporter [Questa UVM] QUESTA_UVM-1.2.3
# UVM_INFO verilog_src/questa_uvm_pkg-1.2/src/questa_uvm_pkg.sv(217) @ 0: reporter [Questa UVM]  questa_uvm::init(+struct)
# UVM_INFO ../src/tb_top.sv(128) @ 0: reporter [TB_TOP] Virtual interface set in config_db
# UVM_INFO @ 0: reporter [RNTST] Running test axi4_outstanding_test...
# UVM_INFO ../src/tb_top.sv(142) @ 0: reporter [TB_TOP] Waveform VCD dumping enabled (axi4_vip.vcd)
# UVM_INFO ../src/env/axi4_vip_env.sv(83) @ 0: uvm_test_top.env [axi4_vip_env] slave_vif not set - reusing master_vif (passthrough mode)
# UVM_INFO ../src/env/axi4_vip_env.sv(93) @ 0: uvm_test_top.env [axi4_vip_env] Scoreboard created
# UVM_INFO ../src/env/axi4_vip_env.sv(100) @ 0: uvm_test_top.env [axi4_vip_env] Coverage collectors created
# UVM_INFO ../src/mst/axi4_master_agent.sv(69) @ 0: uvm_test_top.env.master_agent [axi4_master_agent] ACTIVE mode - driver + sequencer created
# UVM_INFO ../src/slv/axi4_slave_agent.sv(82) @ 0: uvm_test_top.env.slave_agent [axi4_slave_agent] ACTIVE mode — ready_delay=[0:0] resp_delay=[0:0]
# UVM_INFO ../src/env/axi4_vip_env.sv(116) @ 0: uvm_test_top.env [axi4_vip_env] Scoreboard connected: master_mon.ap -> scb, slave_mon.ap -> scb
# UVM_INFO ../src/env/axi4_vip_env.sv(124) @ 0: uvm_test_top.env [axi4_vip_env] Coverage connected: master_mon.ap -> master_cov, slave_mon.ap -> slave_cov
# UVM_INFO @ 0: reporter [UVMTOP] UVM testbench topology:
# ---------------------------------------------------------------
# Name                       Type                     Size  Value
# ---------------------------------------------------------------
# uvm_test_top               axi4_outstanding_test    -     @473 
#   env                      axi4_vip_env             -     @496 
#     master_agent           axi4_master_agent        -     @511 
#       drv                  axi4_master_driver       -     @575 
#         rsp_port           uvm_analysis_port        -     @590 
#         seq_item_port      uvm_seq_item_pull_port   -     @582 
#       mon                  axi4_master_monitor      -     @567 
#         ap                 uvm_analysis_port        -     @708 
#       sqr                  axi4_master_sequencer    -     @598 
#         rsp_export         uvm_analysis_export      -     @605 
#         seq_item_export    uvm_seq_item_pull_imp    -     @699 
#         arbitration_queue  array                    0     -    
#         lock_queue         array                    0     -    
#         num_last_reqs      integral                 32    'd1  
#         num_last_rsps      integral                 32    'd1  
#     master_cov             axi4_coverage            -     @532 
#       analysis_imp         uvm_analysis_imp         -     @539 
#     scb                    axi4_scoreboard          -     @525 
#       master_export        uvm_analysis_imp_master  -     @722 
#       slave_export         uvm_analysis_imp_slave   -     @730 
#     slave_agent            axi4_slave_agent         -     @518 
#       drv                  axi4_slave_driver        -     @760 
#         rsp_port           uvm_analysis_port        -     @775 
#         seq_item_port      uvm_seq_item_pull_port   -     @767 
#       mon                  axi4_slave_monitor       -     @743 
#         ap                 uvm_analysis_port        -     @899 
#       sqr                  axi4_slave_sequencer     -     @783 
#         rsp_export         uvm_analysis_export      -     @790 
#         seq_item_export    uvm_seq_item_pull_imp    -     @884 
#         arbitration_queue  array                    0     -    
#         lock_queue         array                    0     -    
#         num_last_reqs      integral                 32    'd1  
#         num_last_rsps      integral                 32    'd1  
#     slave_cov              axi4_coverage            -     @547 
#       analysis_imp         uvm_analysis_imp         -     @554 
# ---------------------------------------------------------------
# 
# UVM_INFO verilog_src/questa_uvm_pkg-1.2/src/questa_uvm_pkg.sv(277) @ 0: reporter [Questa UVM] End Of Elaboration
# UVM_INFO ../src/test/axi4_outstanding_test.sv(69) @ 0: uvm_test_top [axi4_outstanding_test] Starting outstanding test with 15 writes, 15 reads, depth=4, r_reorder=1
# UVM_INFO ../src/seq/axi4_outstanding_seq.sv(49) @ 0: uvm_test_top.env.master_agent.sqr@@outstanding_seq [axi4_outstanding_seq] Starting outstanding sequence: writes=15, reads=15, depth=4
# UVM_INFO ../src/tb_top.sv(49) @ 95000: reporter [TOP_TB] Reset de-asserted
# UVM_INFO ../src/slv/axi4_slave_driver.sv(122) @ 95000: uvm_test_top.env.slave_agent.drv [axi4_slave_driver] Reset deasserted - slave driver active
# UVM_INFO ../src/mst/axi4_master_driver.sv(64) @ 95000: uvm_test_top.env.master_agent.drv [axi4_master_driver] Reset deasserted - master driver active
# UVM_INFO ../src/mst/axi4_master_monitor.sv(77) @ 95000: uvm_test_top.env.master_agent.mon [axi4_master_monitor] Reset deasserted - monitor active
# UVM_INFO ../src/slv/axi4_slave_monitor.sv(71) @ 95000: uvm_test_top.env.slave_agent.mon [axi4_slave_monitor] Reset deasserted - monitor active
# UVM_INFO ../src/seq/axi4_outstanding_seq.sv(74) @ 95000: uvm_test_top.env.master_agent.sqr@@outstanding_seq [axi4_outstanding_seq] Outstanding Write [#3] started: ID=0xc ADDR=0x7ae652bd LEN=159
# UVM_INFO ../src/mst/axi4_master_driver.sv(73) @ 95000: uvm_test_top.env.master_agent.drv [axi4_master_driver] Driving AXI4_WRITE  ID=0xc  ADDR=0x7ae652bd  LEN=159
# UVM_INFO ../src/seq/axi4_outstanding_seq.sv(74) @ 95000: uvm_test_top.env.master_agent.sqr@@outstanding_seq [axi4_outstanding_seq] Outstanding Write [#2] started: ID=0x7 ADDR=0x07ededd3 LEN=36
# UVM_INFO ../src/mst/axi4_master_driver.sv(73) @ 95000: uvm_test_top.env.master_agent.drv [axi4_master_driver] Driving AXI4_WRITE  ID=0x7  ADDR=0x07ededd3  LEN=36
# UVM_INFO ../src/seq/axi4_outstanding_seq.sv(74) @ 95000: uvm_test_top.env.master_agent.sqr@@outstanding_seq [axi4_outstanding_seq] Outstanding Write [#1] started: ID=0xf ADDR=0x23d97350 LEN=243
# UVM_INFO ../src/mst/axi4_master_driver.sv(73) @ 95000: uvm_test_top.env.master_agent.drv [axi4_master_driver] Driving AXI4_WRITE  ID=0xf  ADDR=0x23d97350  LEN=243
# UVM_INFO ../src/seq/axi4_outstanding_seq.sv(74) @ 95000: uvm_test_top.env.master_agent.sqr@@outstanding_seq [axi4_outstanding_seq] Outstanding Write [#0] started: ID=0x7 ADDR=0x66350005 LEN=153
# UVM_INFO ../src/mst/axi4_master_driver.sv(73) @ 95000: uvm_test_top.env.master_agent.drv [axi4_master_driver] Driving AXI4_WRITE  ID=0x7  ADDR=0x66350005  LEN=153
# UVM_INFO ../src/seq/axi4_outstanding_seq.sv(113) @ 95000: uvm_test_top.env.master_agent.sqr@@outstanding_seq [axi4_outstanding_seq] Outstanding Read [#3] started: ID=0xc ADDR=0xfad68877 LEN=228
# UVM_INFO ../src/mst/axi4_master_driver.sv(73) @ 95000: uvm_test_top.env.master_agent.drv [axi4_master_driver] Driving AXI4_READ  ID=0xc  ADDR=0xfad68877  LEN=228
# UVM_INFO ../src/seq/axi4_outstanding_seq.sv(113) @ 95000: uvm_test_top.env.master_agent.sqr@@outstanding_seq [axi4_outstanding_seq] Outstanding Read [#2] started: ID=0xa ADDR=0xb78f0c3e LEN=11
# UVM_INFO ../src/mst/axi4_master_driver.sv(73) @ 95000: uvm_test_top.env.master_agent.drv [axi4_master_driver] Driving AXI4_READ  ID=0xa  ADDR=0xb78f0c3e  LEN=11
# UVM_INFO ../src/seq/axi4_outstanding_seq.sv(113) @ 95000: uvm_test_top.env.master_agent.sqr@@outstanding_seq [axi4_outstanding_seq] Outstanding Read [#1] started: ID=0xa ADDR=0xbcf7115c LEN=243
# UVM_INFO ../src/mst/axi4_master_driver.sv(73) @ 95000: uvm_test_top.env.master_agent.drv [axi4_master_driver] Driving AXI4_READ  ID=0xa  ADDR=0xbcf7115c  LEN=243
# UVM_INFO ../src/seq/axi4_outstanding_seq.sv(113) @ 95000: uvm_test_top.env.master_agent.sqr@@outstanding_seq [axi4_outstanding_seq] Outstanding Read [#0] started: ID=0x1 ADDR=0xcbc16b14 LEN=118
# UVM_INFO ../src/mst/axi4_master_driver.sv(73) @ 95000: uvm_test_top.env.master_agent.drv [axi4_master_driver] Driving AXI4_READ  ID=0x1  ADDR=0xcbc16b14  LEN=118
# UVM_INFO ../src/slv/axi4_slave_driver.sv(358) @ 115000: uvm_test_top.env.slave_agent.drv [axi4_slave_driver] AR received: ID=0xc ADDR=0xfad68877 LEN=228 LOCK=AXI4_LOCK_EXCLUSIVE
# UVM_INFO ../src/slv/axi4_slave_driver.sv(212) @ 115000: uvm_test_top.env.slave_agent.drv [axi4_slave_driver] AW received: ID=0xc ADDR=0x7ae652bd LEN=159 LOCK=AXI4_LOCK_NORMAL
# UVM_INFO ../src/slv/axi4_slave_monitor.sv(224) @ 115000: uvm_test_top.env.slave_agent.mon [axi4_slave_monitor] AR received: ID=0xc ADDR=0xfad68877 LEN=228
# UVM_INFO ../src/slv/axi4_slave_monitor.sv(116) @ 115000: uvm_test_top.env.slave_agent.mon [axi4_slave_monitor] AW received: ID=0xc ADDR=0x7ae652bd LEN=159
# UVM_INFO ../src/mst/axi4_master_monitor.sv(246) @ 115000: uvm_test_top.env.master_agent.mon [axi4_master_monitor] AR observed: ID=0xc ADDR=0xfad68877 LEN=228
# UVM_INFO ../src/mst/axi4_master_monitor.sv(124) @ 115000: uvm_test_top.env.master_agent.mon [axi4_master_monitor] AW observed: ID=0xc ADDR=0x7ae652bd LEN=159
# UVM_INFO ../src/slv/axi4_slave_driver.sv(212) @ 145000: uvm_test_top.env.slave_agent.drv [axi4_slave_driver] AW received: ID=0x7 ADDR=0x07ededd3 LEN=36 LOCK=AXI4_LOCK_EXCLUSIVE
# UVM_INFO ../src/slv/axi4_slave_driver.sv(358) @ 145000: uvm_test_top.env.slave_agent.drv [axi4_slave_driver] AR received: ID=0xa ADDR=0xb78f0c3e LEN=11 LOCK=AXI4_LOCK_NORMAL
# UVM_INFO ../src/mst/axi4_master_monitor.sv(124) @ 145000: uvm_test_top.env.master_agent.mon [axi4_master_monitor] AW observed: ID=0x7 ADDR=0x07ededd3 LEN=36
# UVM_INFO ../src/mst/axi4_master_monitor.sv(246) @ 145000: uvm_test_top.env.master_agent.mon [axi4_master_monitor] AR observed: ID=0xa ADDR=0xb78f0c3e LEN=11
# UVM_INFO ../src/slv/axi4_slave_monitor.sv(116) @ 145000: uvm_test_top.env.slave_agent.mon [axi4_slave_monitor] AW received: ID=0x7 ADDR=0x07ededd3 LEN=36
# UVM_INFO ../src/slv/axi4_slave_monitor.sv(224) @ 145000: uvm_test_top.env.slave_agent.mon [axi4_slave_monitor] AR received: ID=0xa ADDR=0xb78f0c3e LEN=11
# UVM_INFO ../src/slv/axi4_slave_driver.sv(358) @ 175000: uvm_test_top.env.slave_agent.drv [axi4_slave_driver] AR received: ID=0xa ADDR=0xbcf7115c LEN=243 LOCK=AXI4_LOCK_NORMAL
# UVM_INFO ../src/slv/axi4_slave_driver.sv(212) @ 175000: uvm_test_top.env.slave_agent.drv [axi4_slave_driver] AW received: ID=0xf ADDR=0x23d97350 LEN=243 LOCK=AXI4_LOCK_NORMAL
# UVM_INFO ../src/slv/axi4_slave_monitor.sv(224) @ 175000: uvm_test_top.env.slave_agent.mon [axi4_slave_monitor] AR received: ID=0xa ADDR=0xbcf7115c LEN=243
# UVM_INFO ../src/slv/axi4_slave_monitor.sv(116) @ 175000: uvm_test_top.env.slave_agent.mon [axi4_slave_monitor] AW received: ID=0xf ADDR=0x23d97350 LEN=243
# UVM_INFO ../src/mst/axi4_master_monitor.sv(246) @ 175000: uvm_test_top.env.master_agent.mon [axi4_master_monitor] AR observed: ID=0xa ADDR=0xbcf7115c LEN=243
# UVM_INFO ../src/mst/axi4_master_monitor.sv(124) @ 175000: uvm_test_top.env.master_agent.mon [axi4_master_monitor] AW observed: ID=0xf ADDR=0x23d97350 LEN=243
# UVM_INFO ../src/slv/axi4_slave_driver.sv(212) @ 205000: uvm_test_top.env.slave_agent.drv [axi4_slave_driver] AW received: ID=0x7 ADDR=0x66350005 LEN=153 LOCK=AXI4_LOCK_EXCLUSIVE
# UVM_INFO ../src/slv/axi4_slave_driver.sv(358) @ 205000: uvm_test_top.env.slave_agent.drv [axi4_slave_driver] AR received: ID=0x1 ADDR=0xcbc16b14 LEN=118 LOCK=AXI4_LOCK_EXCLUSIVE
# UVM_INFO ../src/mst/axi4_master_monitor.sv(124) @ 205000: uvm_test_top.env.master_agent.mon [axi4_master_monitor] AW observed: ID=0x7 ADDR=0x66350005 LEN=153
# UVM_INFO ../src/mst/axi4_master_monitor.sv(246) @ 205000: uvm_test_top.env.master_agent.mon [axi4_master_monitor] AR observed: ID=0x1 ADDR=0xcbc16b14 LEN=118
# UVM_INFO ../src/slv/axi4_slave_monitor.sv(116) @ 205000: uvm_test_top.env.slave_agent.mon [axi4_slave_monitor] AW received: ID=0x7 ADDR=0x66350005 LEN=153
# UVM_INFO ../src/slv/axi4_slave_monitor.sv(224) @ 205000: uvm_test_top.env.slave_agent.mon [axi4_slave_monitor] AR received: ID=0x1 ADDR=0xcbc16b14 LEN=118
# UVM_INFO ../src/mst/axi4_master_driver.sv(348) @ 425000: uvm_test_top.env.master_agent.drv [axi4_master_driver] Master driver received all R beats for ID=0xa
# UVM_INFO ../src/slv/axi4_slave_driver.sv(464) @ 425000: uvm_test_top.env.slave_agent.drv [axi4_slave_driver] Read complete: ID=0xa ADDR=0xb78f0c3e RESP=AXI4_RESP_OKAY  12 beats sent
# UVM_INFO ../src/mst/axi4_master_monitor.sv(314) @ 425000: uvm_test_top.env.master_agent.mon [axi4_master_monitor] Read complete: ID=0xa ADDR=0xb78f0c3e 12 beats
# UVM_INFO ../src/env/axi4_scoreboard.sv(87) @ 425000: uvm_test_top.env.scb [axi4_scoreboard] Master AXI4_READ received: ID=0xa ADDR=0xb78f0c3e LEN=11
# UVM_INFO ../src/slv/axi4_slave_monitor.sv(287) @ 425000: uvm_test_top.env.slave_agent.mon [axi4_slave_monitor] Read data sent: ID=0xa ADDR=0xb78f0c3e 12 beats
# UVM_INFO ../src/env/axi4_scoreboard.sv(108) @ 425000: uvm_test_top.env.scb [axi4_scoreboard] Slave AXI4_READ received: ID=0xa ADDR=0xb78f0c3e LEN=11
# UVM_INFO ../src/env/axi4_scoreboard.sv(291) @ 425000: uvm_test_top.env.scb [axi4_scoreboard] [READ] MATCH #1: ID=0xa ADDR=0xb78f0c3e LEN=11
# UVM_INFO ../src/seq/axi4_outstanding_seq.sv(123) @ 425000: uvm_test_top.env.master_agent.sqr@@outstanding_seq [axi4_outstanding_seq] Outstanding Read [#2] complete: ID=0xa
# UVM_INFO ../src/seq/axi4_outstanding_seq.sv(113) @ 425000: uvm_test_top.env.master_agent.sqr@@outstanding_seq [axi4_outstanding_seq] Outstanding Read [#4] started: ID=0x2 ADDR=0x4f5c2c0e LEN=57
# UVM_INFO ../src/mst/axi4_master_driver.sv(73) @ 425000: uvm_test_top.env.master_agent.drv [axi4_master_driver] Driving AXI4_READ  ID=0x2  ADDR=0x4f5c2c0e  LEN=57
# UVM_INFO ../src/slv/axi4_slave_driver.sv(358) @ 455000: uvm_test_top.env.slave_agent.drv [axi4_slave_driver] AR received: ID=0x2 ADDR=0x4f5c2c0e LEN=57 LOCK=AXI4_LOCK_EXCLUSIVE
# UVM_INFO ../src/slv/axi4_slave_monitor.sv(224) @ 455000: uvm_test_top.env.slave_agent.mon [axi4_slave_monitor] AR received: ID=0x2 ADDR=0x4f5c2c0e LEN=57
# UVM_INFO ../src/mst/axi4_master_monitor.sv(246) @ 455000: uvm_test_top.env.master_agent.mon [axi4_master_monitor] AR observed: ID=0x2 ADDR=0x4f5c2c0e LEN=57
# UVM_INFO ../src/mst/axi4_master_monitor.sv(184) @ 3285000: uvm_test_top.env.master_agent.mon [axi4_master_monitor] W data assembled: ID=0xc ADDR=0x7ae652bd 160 beats
# UVM_INFO ../src/slv/axi4_slave_monitor.sv(167) @ 3285000: uvm_test_top.env.slave_agent.mon [axi4_slave_monitor] W data assembled: ID=0xc ADDR=0x7ae652bd 160 beats
# UVM_INFO ../src/mst/axi4_master_driver.sv(289) @ 3315000: uvm_test_top.env.master_agent.drv [axi4_master_driver] Master driver received B response: ID=0xc RESP=AXI4_RESP_OKAY
# UVM_INFO ../src/slv/axi4_slave_driver.sv(320) @ 3315000: uvm_test_top.env.slave_agent.drv [axi4_slave_driver] Write complete: ID=0xc RESP=AXI4_RESP_OKAY
# UVM_INFO ../src/slv/axi4_slave_monitor.sv(189) @ 3315000: uvm_test_top.env.slave_agent.mon [axi4_slave_monitor] Write response sent: ID=0xc ADDR=0x7ae652bd RESP=AXI4_RESP_OKAY
# UVM_INFO ../src/env/axi4_scoreboard.sv(108) @ 3315000: uvm_test_top.env.scb [axi4_scoreboard] Slave AXI4_WRITE received: ID=0xc ADDR=0x7ae652bd LEN=159
# UVM_INFO ../src/mst/axi4_master_monitor.sv(210) @ 3315000: uvm_test_top.env.master_agent.mon [axi4_master_monitor] Write complete: ID=0xc ADDR=0x7ae652bd RESP=AXI4_RESP_OKAY
# UVM_INFO ../src/env/axi4_scoreboard.sv(87) @ 3315000: uvm_test_top.env.scb [axi4_scoreboard] Master AXI4_WRITE received: ID=0xc ADDR=0x7ae652bd LEN=159
# UVM_INFO ../src/env/axi4_scoreboard.sv(291) @ 3315000: uvm_test_top.env.scb [axi4_scoreboard] [WRITE] MATCH #2: ID=0xc ADDR=0x7ae652bd LEN=159
# UVM_INFO ../src/env/axi4_scoreboard.sv(219) @ 3315000: uvm_test_top.env.scb [axi4_scoreboard] [REF_MEM_WRITE] Addr=0x7ae652be Data=0x5a
# UVM_INFO ../src/env/axi4_scoreboard.sv(219) @ 3315000: uvm_test_top.env.scb [axi4_scoreboard] [REF_MEM_WRITE] Addr=0x7ae652bf Data=0x28
# UVM_INFO ../src/env/axi4_scoreboard.sv(219) @ 3315000: uvm_test_top.env.scb [axi4_scoreboard] [REF_MEM_WRITE] Addr=0x7ae652bc Data=0x3f
# UVM_INFO ../src/env/axi4_scoreboard.sv(219) @ 3315000: uvm_test_top.env.scb [axi4_scoreboard] [REF_MEM_WRITE] Addr=0x7ae652bc Data=0xa2
# UVM_INFO ../src/env/axi4_scoreboard.sv(219) @ 3315000: uvm_test_top.env.scb [axi4_scoreboard] [REF_MEM_WRITE] Addr=0x7ae652c0 Data=0x41
# UVM_INFO ../src/env/axi4_scoreboard.sv(219) @ 3315000: uvm_test_top.env.scb [axi4_scoreboard] [REF_MEM_WRITE] Addr=0x7ae652c0 Data=0x2d
# UVM_INFO ../src/env/axi4_scoreboard.sv(219) @ 3315000: uvm_test_top.env.scb [axi4_scoreboard] [REF_MEM_WRITE] Addr=0x7ae652c1 Data=0xfc
# UVM_INFO ../src/env/axi4_scoreboard.sv(219) @ 3315000: uvm_test_top.env.scb [axi4_scoreboard] [REF_MEM_WRITE] Addr=0x7ae652c2 Data=0xf8
# UVM_INFO ../src/env/axi4_scoreboard.sv(219) @ 3315000: uvm_test_top.env.scb [axi4_scoreboard] [REF_MEM_WRITE] Addr=0x7ae652c3 Data=0x25
# UVM_INFO ../src/env/axi4_scoreboard.sv(219) @ 3315000: uvm_test_top.env.scb [axi4_scoreboard] [REF_MEM_WRITE] Addr=0x7ae652c0 Data=0xe0
# UVM_INFO ../src/env/axi4_scoreboard.sv(219) @ 3315000: uvm_test_top.env.scb [axi4_scoreboard] [REF_MEM_WRITE] Addr=0x7ae652c1 Data=0x1b
# UVM_INFO ../src/env/axi4_scoreboard.sv(219) @ 3315000: uvm_test_top.env.scb [axi4_scoreboard] [REF_MEM_WRITE] Addr=0x7ae652c2 Data=0xa0
# UVM_INFO ../src/env/axi4_scoreboard.sv(219) @ 3315000: uvm_test_top.env.scb [axi4_scoreboard] [REF_MEM_WRITE] Addr=0x7ae652c3 Data=0xf8
# UVM_INFO ../src/env/axi4_scoreboard.sv(219) @ 3315000: uvm_test_top.env.scb [axi4_scoreboard] [REF_MEM_WRITE] Addr=0x7ae652c2 Data=0x1c
# UVM_INFO ../src/env/axi4_scoreboard.sv(219) @ 3315000: uvm_test_top.env.scb [axi4_scoreboard] [REF_MEM_WRITE] Addr=0x7ae652c4 Data=0xeb
# UVM_INFO ../src/env/axi4_scoreboard.sv(219) @ 3315000: uvm_test_top.env.scb [axi4_scoreboard] [REF_MEM_WRITE] Addr=0x7ae652c5 Data=0xc9
# UVM_INFO ../src/env/axi4_scoreboard.sv(219) @ 3315000: uvm_test_top.env.scb [axi4_scoreboard] [REF_MEM_WRITE] Addr=0x7ae652c4 Data=0x04
# UVM_INFO ../src/env/axi4_scoreboard.sv(219) @ 3315000: uvm_test_top.env.scb [axi4_scoreboard] [REF_MEM_WRITE] Addr=0x7ae652c7 Data=0x77
# UVM_INFO ../src/env/axi4_scoreboard.sv(219) @ 3315000: uvm_test_top.env.scb [axi4_scoreboard] [REF_MEM_WRITE] Addr=0x7ae652c5 Data=0x6a
# UVM_INFO ../src/env/axi4_scoreboard.sv(219) @ 3315000: uvm_test_top.env.scb [axi4_scoreboard] [REF_MEM_WRITE] Addr=0x7ae652c6 Data=0x4f
# UVM_INFO ../src/env/axi4_scoreboard.sv(219) @ 3315000: uvm_test_top.env.scb [axi4_scoreboard] [REF_MEM_WRITE] Addr=0x7ae652c7 Data=0x57
# UVM_INFO ../src/env/axi4_scoreboard.sv(219) @ 3315000: uvm_test_top.env.scb [axi4_scoreboard] [REF_MEM_WRITE] Addr=0x7ae652c5 Data=0x8c
# UVM_INFO ../src/env/axi4_scoreboard.sv(219) @ 3315000: uvm_test_top.env.scb [axi4_scoreboard] [REF_MEM_WRITE] Addr=0x7ae652c7 Data=0x55
# UVM_INFO ../src/env/axi4_scoreboard.sv(219) @ 3315000: uvm_test_top.env.scb [axi4_scoreboard] [REF_MEM_WRITE] Addr=0x7ae652c9 Data=0x43
# UVM_INFO ../src/env/axi4_scoreboard.sv(219) @ 3315000: uvm_test_top.env.scb [axi4_scoreboard] [REF_MEM_WRITE] Addr=0x7ae652ca Data=0x7e
# UVM_INFO ../src/env/axi4_scoreboard.sv(219) @ 3315000: uvm_test_top.env.scb [axi4_scoreboard] [REF_MEM_WRITE] Addr=0x7ae652cb Data=0x85
# UVM_INFO ../src/env/axi4_scoreboard.sv(219) @ 3315000: uvm_test_top.env.scb [axi4_scoreboard] [REF_MEM_WRITE] Addr=0x7ae652c8 Data=0xc5
# UVM_INFO ../src/env/axi4_scoreboard.sv(219) @ 3315000: uvm_test_top.env.scb [axi4_scoreboard] [REF_MEM_WRITE] Addr=0x7ae652c9 Data=0x7d
# UVM_INFO ../src/env/axi4_scoreboard.sv(219) @ 3315000: uvm_test_top.env.scb [axi4_scoreboard] [REF_MEM_WRITE] Addr=0x7ae652c9 Data=0x36
# UVM_INFO ../src/env/axi4_scoreboard.sv(219) @ 3315000: uvm_test_top.env.scb [axi4_scoreboard] [REF_MEM_WRITE] Addr=0x7ae652cb Data=0x74
# UVM_INFO ../src/env/axi4_scoreboard.sv(219) @ 3315000: uvm_test_top.env.scb [axi4_scoreboard] [REF_MEM_WRITE] Addr=0x7ae652c9 Data=0xbe
# UVM_INFO ../src/env/axi4_scoreboard.sv(219) @ 3315000: uvm_test_top.env.scb [axi4_scoreboard] [REF_MEM_WRITE] Addr=0x7ae652ca Data=0x1b
# UVM_INFO ../src/env/axi4_scoreboard.sv(219) @ 3315000: uvm_test_top.env.scb [axi4_scoreboard] [REF_MEM_WRITE] Addr=0x7ae652cc Data=0x18
# UVM_INFO ../src/env/axi4_scoreboard.sv(219) @ 3315000: uvm_test_top.env.scb [axi4_scoreboard] [REF_MEM_WRITE] Addr=0x7ae652cd Data=0x5a
# UVM_INFO ../src/env/axi4_scoreboard.sv(219) @ 3315000: uvm_test_top.env.scb [axi4_scoreboard] [REF_MEM_WRITE] Addr=0x7ae652cf Data=0xbb
# UVM_INFO ../src/env/axi4_scoreboard.sv(219) @ 3315000: uvm_test_top.env.scb [axi4_scoreboard] [REF_MEM_WRITE] Addr=0x7ae652cc Data=0xb9
# UVM_INFO ../src/env/axi4_scoreboard.sv(219) @ 3315000: uvm_test_top.env.scb [axi4_scoreboard] [REF_MEM_WRITE] Addr=0x7ae652cc Data=0x16
# UVM_INFO ../src/env/axi4_scoreboard.sv(219) @ 3315000: uvm_test_top.env.scb [axi4_scoreboard] [REF_MEM_WRITE] Addr=0x7ae652cd Data=0x4c
# UVM_INFO ../src/env/axi4_scoreboard.sv(219) @ 3315000: uvm_test_top.env.scb [axi4_scoreboard] [REF_MEM_WRITE] Addr=0x7ae652d2 Data=0xf8
# UVM_INFO ../src/env/axi4_scoreboard.sv(219) @ 3315000: uvm_test_top.env.scb [axi4_scoreboard] [REF_MEM_WRITE] Addr=0x7ae652d0 Data=0x14
# UVM_INFO ../src/env/axi4_scoreboard.sv(219) @ 3315000: uvm_test_top.env.scb [axi4_scoreboard] [REF_MEM_WRITE] Addr=0x7ae652d1 Data=0xde
# UVM_INFO ../src/env/axi4_scoreboard.sv(219) @ 3315000: uvm_test_top.env.scb [axi4_scoreboard] [REF_MEM_WRITE] Addr=0x7ae652d2 Data=0x79
# UVM_INFO ../src/env/axi4_scoreboard.sv(219) @ 3315000: uvm_test_top.env.scb [axi4_scoreboard] [REF_MEM_WRITE] Addr=0x7ae652d3 Data=0xbc
# UVM_INFO ../src/env/axi4_scoreboard.sv(219) @ 3315000: uvm_test_top.env.scb [axi4_scoreboard] [REF_MEM_WRITE] Addr=0x7ae652d0 Data=0xc5
# UVM_INFO ../src/env/axi4_scoreboard.sv(219) @ 3315000: uvm_test_top.env.scb [axi4_scoreboard] [REF_MEM_WRITE] Addr=0x7ae652d1 Data=0xeb
# UVM_INFO ../src/env/axi4_scoreboard.sv(219) @ 3315000: uvm_test_top.env.scb [axi4_scoreboard] [REF_MEM_WRITE] Addr=0x7ae652d3 Data=0xea
# UVM_INFO ../src/env/axi4_scoreboard.sv(219) @ 3315000: uvm_test_top.env.scb [axi4_scoreboard] [REF_MEM_WRITE] Addr=0x7ae652d0 Data=0xb0
# UVM_INFO ../src/env/axi4_scoreboard.sv(219) @ 3315000: uvm_test_top.env.scb [axi4_scoreboard] [REF_MEM_WRITE] Addr=0x7ae652d1 Data=0xac
# UVM_INFO ../src/env/axi4_scoreboard.sv(219) @ 3315000: uvm_test_top.env.scb [axi4_scoreboard] [REF_MEM_WRITE] Addr=0x7ae652d2 Data=0xf6
# UVM_INFO ../src/env/axi4_scoreboard.sv(219) @ 3315000: uvm_test_top.env.scb [axi4_scoreboard] [REF_MEM_WRITE] Addr=0x7ae652d5 Data=0x70
# UVM_INFO ../src/env/axi4_scoreboard.sv(219) @ 3315000: uvm_test_top.env.scb [axi4_scoreboard] [REF_MEM_WRITE] Addr=0x7ae652d6 Data=0xd1
# UVM_INFO ../src/env/axi4_scoreboard.sv(219) @ 3315000: uvm_test_top.env.scb [axi4_scoreboard] [REF_MEM_WRITE] Addr=0x7ae652d7 Data=0x2a
# UVM_INFO ../src/env/axi4_scoreboard.sv(219) @ 3315000: uvm_test_top.env.scb [axi4_scoreboard] [REF_MEM_WRITE] Addr=0x7ae652d4 Data=0xab
# UVM_INFO ../src/env/axi4_scoreboard.sv(219) @ 3315000: uvm_test_top.env.scb [axi4_scoreboard] [REF_MEM_WRITE] Addr=0x7ae652d5 Data=0xa5
# UVM_INFO ../src/env/axi4_scoreboard.sv(219) @ 3315000: uvm_test_top.env.scb [axi4_scoreboard] [REF_MEM_WRITE] Addr=0x7ae652d6 Data=0xb8
# UVM_INFO ../src/env/axi4_scoreboard.sv(219) @ 3315000: uvm_test_top.env.scb [axi4_scoreboard] [REF_MEM_WRITE] Addr=0x7ae652d6 Data=0x62
# UVM_INFO ../src/env/axi4_scoreboard.sv(219) @ 3315000: uvm_test_top.env.scb [axi4_scoreboard] [REF_MEM_WRITE] Addr=0x7ae652d4 Data=0xde
# UVM_INFO ../src/env/axi4_scoreboard.sv(219) @ 3315000: uvm_test_top.env.scb [axi4_scoreboard] [REF_MEM_WRITE] Addr=0x7ae652d5 Data=0xf2
# UVM_INFO ../src/env/axi4_scoreboard.sv(219) @ 3315000: uvm_test_top.env.scb [axi4_scoreboard] [REF_MEM_WRITE] Addr=0x7ae652d7 Data=0x7f
# UVM_INFO ../src/env/axi4_scoreboard.sv(219) @ 3315000: uvm_test_top.env.scb [axi4_scoreboard] [REF_MEM_WRITE] Addr=0x7ae652d8 Data=0x76
# UVM_INFO ../src/env/axi4_scoreboard.sv(219) @ 3315000: uvm_test_top.env.scb [axi4_scoreboard] [REF_MEM_WRITE] Addr=0x7ae652db Data=0xd8
# UVM_INFO ../src/env/axi4_scoreboard.sv(219) @ 3315000: uvm_test_top.env.scb [axi4_scoreboard] [REF_MEM_WRITE] Addr=0x7ae652d8 Data=0x44
# UVM_INFO ../src/env/axi4_scoreboard.sv(219) @ 3315000: uvm_test_top.env.scb [axi4_scoreboard] [REF_MEM_WRITE] Addr=0x7ae652d9 Data=0x2c
# UVM_INFO ../src/env/axi4_scoreboard.sv(219) @ 3315000: uvm_test_top.env.scb [axi4_scoreboard] [REF_MEM_WRITE] Addr=0x7ae652da Data=0xd5
# UVM_INFO ../src/env/axi4_scoreboard.sv(219) @ 3315000: uvm_test_top.env.scb [axi4_scoreboard] [REF_MEM_WRITE] Addr=0x7ae652d9 Data=0xa9
# UVM_INFO ../src/env/axi4_scoreboard.sv(219) @ 3315000: uvm_test_top.env.scb [axi4_scoreboard] [REF_MEM_WRITE] Addr=0x7ae652d8 Data=0x19
# UVM_INFO ../src/env/axi4_scoreboard.sv(219) @ 3315000: uvm_test_top.env.scb [axi4_scoreboard] [REF_MEM_WRITE] Addr=0x7ae652d9 Data=0x4b
# UVM_INFO ../src/env/axi4_scoreboard.sv(219) @ 3315000: uvm_test_top.env.scb [axi4_scoreboard] [REF_MEM_WRITE] Addr=0x7ae652db Data=0x8e
# UVM_INFO ../src/env/axi4_scoreboard.sv(219) @ 3315000: uvm_test_top.env.scb [axi4_scoreboard] [REF_MEM_WRITE] Addr=0x7ae652dc Data=0xef
# UVM_INFO ../src/env/axi4_scoreboard.sv(219) @ 3315000: uvm_test_top.env.scb [axi4_scoreboard] [REF_MEM_WRITE] Addr=0x7ae652dd Data=0xa4
# UVM_INFO ../src/env/axi4_scoreboard.sv(219) @ 3315000: uvm_test_top.env.scb [axi4_scoreboard] [REF_MEM_WRITE] Addr=0x7ae652de Data=0x2c
# UVM_INFO ../src/env/axi4_scoreboard.sv(219) @ 3315000: uvm_test_top.env.scb [axi4_scoreboard] [REF_MEM_WRITE] Addr=0x7ae652dc Data=0x05
# UVM_INFO ../src/env/axi4_scoreboard.sv(219) @ 3315000: uvm_test_top.env.scb [axi4_scoreboard] [REF_MEM_WRITE] Addr=0x7ae652dd Data=0x98
# UVM_INFO ../src/env/axi4_scoreboard.sv(219) @ 3315000: uvm_test_top.env.scb [axi4_scoreboard] [REF_MEM_WRITE] Addr=0x7ae652de Data=0x6a
# UVM_INFO ../src/env/axi4_scoreboard.sv(219) @ 3315000: uvm_test_top.env.scb [axi4_scoreboard] [REF_MEM_WRITE] Addr=0x7ae652dc Data=0x70
# UVM_INFO ../src/env/axi4_scoreboard.sv(219) @ 3315000: uvm_test_top.env.scb [axi4_scoreboard] [REF_MEM_WRITE] Addr=0x7ae652dd Data=0xc2
# UVM_INFO ../src/env/axi4_scoreboard.sv(219) @ 3315000: uvm_test_top.env.scb [axi4_scoreboard] [REF_MEM_WRITE] Addr=0x7ae652de Data=0x17
# UVM_INFO ../src/env/axi4_scoreboard.sv(219) @ 3315000: uvm_test_top.env.scb [axi4_scoreboard] [REF_MEM_WRITE] Addr=0x7ae652df Data=0x86
# UVM_INFO ../src/env/axi4_scoreboard.sv(219) @ 3315000: uvm_test_top.env.scb [axi4_scoreboard] [REF_MEM_WRITE] Addr=0x7ae652e0 Data=0xae
# UVM_INFO ../src/env/axi4_scoreboard.sv(219) @ 3315000: uvm_test_top.env.scb [axi4_scoreboard] [REF_MEM_WRITE] Addr=0x7ae652e1 Data=0x2f
# UVM_INFO ../src/env/axi4_scoreboard.sv(219) @ 3315000: uvm_test_top.env.scb [axi4_scoreboard] [REF_MEM_WRITE] Addr=0x7ae652e2 Data=0x88
# UVM_INFO ../src/env/axi4_scoreboard.sv(219) @ 3315000: uvm_test_top.env.scb [axi4_scoreboard] [REF_MEM_WRITE] Addr=0x7ae652e0 Data=0x66
# UVM_INFO ../src/env/axi4_scoreboard.sv(219) @ 3315000: uvm_test_top.env.scb [axi4_scoreboard] [REF_MEM_WRITE] Addr=0x7ae652e1 Data=0x4f
# UVM_INFO ../src/env/axi4_scoreboard.sv(219) @ 3315000: uvm_test_top.env.scb [axi4_scoreboard] [REF_MEM_WRITE] Addr=0x7ae652e0 Data=0x87
# UVM_INFO ../src/env/axi4_scoreboard.sv(219) @ 3315000: uvm_test_top.env.scb [axi4_scoreboard] [REF_MEM_WRITE] Addr=0x7ae652e1 Data=0x8e
# UVM_INFO ../src/env/axi4_scoreboard.sv(219) @ 3315000: uvm_test_top.env.scb [axi4_scoreboard] [REF_MEM_WRITE] Addr=0x7ae652e2 Data=0x4b
# UVM_INFO ../src/env/axi4_scoreboard.sv(219) @ 3315000: uvm_test_top.env.scb [axi4_scoreboard] [REF_MEM_WRITE] Addr=0x7ae652e4 Data=0xb7
# UVM_INFO ../src/env/axi4_scoreboard.sv(219) @ 3315000: uvm_test_top.env.scb [axi4_scoreboard] [REF_MEM_WRITE] Addr=0x7ae652e6 Data=0x7e
# UVM_INFO ../src/env/axi4_scoreboard.sv(219) @ 3315000: uvm_test_top.env.scb [axi4_scoreboard] [REF_MEM_WRITE] Addr=0x7ae652e4 Data=0x00
# UVM_INFO ../src/env/axi4_scoreboard.sv(219) @ 3315000: uvm_test_top.env.scb [axi4_scoreboard] [REF_MEM_WRITE] Addr=0x7ae652e4 Data=0x5d
# UVM_INFO ../src/env/axi4_scoreboard.sv(219) @ 3315000: uvm_test_top.env.scb [axi4_scoreboard] [REF_MEM_WRITE] Addr=0x7ae652e6 Data=0x84
# UVM_INFO ../src/env/axi4_scoreboard.sv(219) @ 3315000: uvm_test_top.env.scb [axi4_scoreboard] [REF_MEM_WRITE] Addr=0x7ae652e7 Data=0x71
# UVM_INFO ../src/env/axi4_scoreboard.sv(219) @ 3315000: uvm_test_top.env.scb [axi4_scoreboard] [REF_MEM_WRITE] Addr=0x7ae652e9 Data=0xff
# UVM_INFO ../src/env/axi4_scoreboard.sv(219) @ 3315000: uvm_test_top.env.scb [axi4_scoreboard] [REF_MEM_WRITE] Addr=0x7ae652e8 Data=0xb0
# UVM_INFO ../src/env/axi4_scoreboard.sv(219) @ 3315000: uvm_test_top.env.scb [axi4_scoreboard] [REF_MEM_WRITE] Addr=0x7ae652e9 Data=0xd1
# UVM_INFO ../src/env/axi4_scoreboard.sv(219) @ 3315000: uvm_test_top.env.scb [axi4_scoreboard] [REF_MEM_WRITE] Addr=0x7ae652e8 Data=0x4e
# UVM_INFO ../src/env/axi4_scoreboard.sv(219) @ 3315000: uvm_test_top.env.scb [axi4_scoreboard] [REF_MEM_WRITE] Addr=0x7ae652eb Data=0x94
# UVM_INFO ../src/env/axi4_scoreboard.sv(219) @ 3315000: uvm_test_top.env.scb [axi4_scoreboard] [REF_MEM_WRITE] Addr=0x7ae652e9 Data=0x15
# UVM_INFO ../src/env/axi4_scoreboard.sv(219) @ 3315000: uvm_test_top.env.scb [axi4_scoreboard] [REF_MEM_WRITE] Addr=0x7ae652ec Data=0xc5
# UVM_INFO ../src/env/axi4_scoreboard.sv(219) @ 3315000: uvm_test_top.env.scb [axi4_scoreboard] [REF_MEM_WRITE] Addr=0x7ae652ee Data=0x72
# UVM_INFO ../src/env/axi4_scoreboard.sv(219) @ 3315000: uvm_test_top.env.scb [axi4_scoreboard] [REF_MEM_WRITE] Addr=0x7ae652ef Data=0x06
# UVM_INFO ../src/env/axi4_scoreboard.sv(219) @ 3315000: uvm_test_top.env.scb [axi4_scoreboard] [REF_MEM_WRITE] Addr=0x7ae652ec Data=0xbc
# UVM_INFO ../src/env/axi4_scoreboard.sv(219) @ 3315000: uvm_test_top.env.scb [axi4_scoreboard] [REF_MEM_WRITE] Addr=0x7ae652ee Data=0x7e
# UVM_INFO ../src/env/axi4_scoreboard.sv(219) @ 3315000: uvm_test_top.env.scb [axi4_scoreboard] [REF_MEM_WRITE] Addr=0x7ae652ec Data=0xb6
# UVM_INFO ../src/env/axi4_scoreboard.sv(219) @ 3315000: uvm_test_top.env.scb [axi4_scoreboard] [REF_MEM_WRITE] Addr=0x7ae652ee Data=0x71
# UVM_INFO ../src/env/axi4_scoreboard.sv(219) @ 3315000: uvm_test_top.env.scb [axi4_scoreboard] [REF_MEM_WRITE] Addr=0x7ae652ec Data=0xb2
# UVM_INFO ../src/env/axi4_scoreboard.sv(219) @ 3315000: uvm_test_top.env.scb [axi4_scoreboard] [REF_MEM_WRITE] Addr=0x7ae652ed Data=0xc7
# UVM_INFO ../src/env/axi4_scoreboard.sv(219) @ 3315000: uvm_test_top.env.scb [axi4_scoreboard] [REF_MEM_WRITE] Addr=0x7ae652ee Data=0xd9
# UVM_INFO ../src/env/axi4_scoreboard.sv(219) @ 3315000: uvm_test_top.env.scb [axi4_scoreboard] [REF_MEM_WRITE] Addr=0x7ae652ef Data=0x66
# UVM_INFO ../src/env/axi4_scoreboard.sv(219) @ 3315000: uvm_test_top.env.scb [axi4_scoreboard] [REF_MEM_WRITE] Addr=0x7ae652f0 Data=0x67
# UVM_INFO ../src/env/axi4_scoreboard.sv(219) @ 3315000: uvm_test_top.env.scb [axi4_scoreboard] [REF_MEM_WRITE] Addr=0x7ae652f1 Data=0x1c
# UVM_INFO ../src/env/axi4_scoreboard.sv(219) @ 3315000: uvm_test_top.env.scb [axi4_scoreboard] [REF_MEM_WRITE] Addr=0x7ae652f0 Data=0xf2
# UVM_INFO ../src/env/axi4_scoreboard.sv(219) @ 3315000: uvm_test_top.env.scb [axi4_scoreboard] [REF_MEM_WRITE] Addr=0x7ae652f1 Data=0xbb
# UVM_INFO ../src/env/axi4_scoreboard.sv(219) @ 3315000: uvm_test_top.env.scb [axi4_scoreboard] [REF_MEM_WRITE] Addr=0x7ae652f2 Data=0xa0
# UVM_INFO ../src/env/axi4_scoreboard.sv(219) @ 3315000: uvm_test_top.env.scb [axi4_scoreboard] [REF_MEM_WRITE] Addr=0x7ae652f0 Data=0x5b
# UVM_INFO ../src/env/axi4_scoreboard.sv(219) @ 3315000: uvm_test_top.env.scb [axi4_scoreboard] [REF_MEM_WRITE] Addr=0x7ae652f1 Data=0x7b
# UVM_INFO ../src/env/axi4_scoreboard.sv(219) @ 3315000: uvm_test_top.env.scb [axi4_scoreboard] [REF_MEM_WRITE] Addr=0x7ae652f3 Data=0x23
# UVM_INFO ../src/env/axi4_scoreboard.sv(219) @ 3315000: uvm_test_top.env.scb [axi4_scoreboard] [REF_MEM_WRITE] Addr=0x7ae652f2 Data=0xcd
# UVM_INFO ../src/env/axi4_scoreboard.sv(219) @ 3315000: uvm_test_top.env.scb [axi4_scoreboard] [REF_MEM_WRITE] Addr=0x7ae652f4 Data=0x73
# UVM_INFO ../src/env/axi4_scoreboard.sv(219) @ 3315000: uvm_test_top.env.scb [axi4_scoreboard] [REF_MEM_WRITE] Addr=0x7ae652f5 Data=0xcc
# UVM_INFO ../src/env/axi4_scoreboard.sv(219) @ 3315000: uvm_test_top.env.scb [axi4_scoreboard] [REF_MEM_WRITE] Addr=0x7ae652f6 Data=0xf4
# UVM_INFO ../src/env/axi4_scoreboard.sv(219) @ 3315000: uvm_test_top.env.scb [axi4_scoreboard] [REF_MEM_WRITE] Addr=0x7ae652f7 Data=0xc2
# UVM_INFO ../src/env/axi4_scoreboard.sv(219) @ 3315000: uvm_test_top.env.scb [axi4_scoreboard] [REF_MEM_WRITE] Addr=0x7ae652f4 Data=0x04
# UVM_INFO ../src/env/axi4_scoreboard.sv(219) @ 3315000: uvm_test_top.env.scb [axi4_scoreboard] [REF_MEM_WRITE] Addr=0x7ae652f6 Data=0xc3
# UVM_INFO ../src/env/axi4_scoreboard.sv(219) @ 3315000: uvm_test_top.env.scb [axi4_scoreboard] [REF_MEM_WRITE] Addr=0x7ae652f6 Data=0xf3
# UVM_INFO ../src/env/axi4_scoreboard.sv(219) @ 3315000: uvm_test_top.env.scb [axi4_scoreboard] [REF_MEM_WRITE] Addr=0x7ae652f9 Data=0x20
# UVM_INFO ../src/env/axi4_scoreboard.sv(219) @ 3315000: uvm_test_top.env.scb [axi4_scoreboard] [REF_MEM_WRITE] Addr=0x7ae652f9 Data=0x53
# UVM_INFO ../src/env/axi4_scoreboard.sv(219) @ 3315000: uvm_test_top.env.scb [axi4_scoreboard] [REF_MEM_WRITE] Addr=0x7ae652f8 Data=0xa5
# UVM_INFO ../src/env/axi4_scoreboard.sv(219) @ 3315000: uvm_test_top.env.scb [axi4_scoreboard] [REF_MEM_WRITE] Addr=0x7ae652f8 Data=0x7b
# UVM_INFO ../src/env/axi4_scoreboard.sv(219) @ 3315000: uvm_test_top.env.scb [axi4_scoreboard] [REF_MEM_WRITE] Addr=0x7ae652f9 Data=0x51
# UVM_INFO ../src/env/axi4_scoreboard.sv(219) @ 3315000: uvm_test_top.env.scb [axi4_scoreboard] [REF_MEM_WRITE] Addr=0x7ae652fa Data=0xe0
# UVM_INFO ../src/env/axi4_scoreboard.sv(219) @ 3315000: uvm_test_top.env.scb [axi4_scoreboard] [REF_MEM_WRITE] Addr=0x7ae652fc Data=0x77
# UVM_INFO ../src/env/axi4_scoreboard.sv(219) @ 3315000: uvm_test_top.env.scb [axi4_scoreboard] [REF_MEM_WRITE] Addr=0x7ae652fe Data=0x33
# UVM_INFO ../src/env/axi4_scoreboard.sv(219) @ 3315000: uvm_test_top.env.scb [axi4_scoreboard] [REF_MEM_WRITE] Addr=0x7ae652fd Data=0x10
# UVM_INFO ../src/env/axi4_scoreboard.sv(219) @ 3315000: uvm_test_top.env.scb [axi4_scoreboard] [REF_MEM_WRITE] Addr=0x7ae652fe Data=0xfc
# UVM_INFO ../src/env/axi4_scoreboard.sv(219) @ 3315000: uvm_test_top.env.scb [axi4_scoreboard] [REF_MEM_WRITE] Addr=0x7ae652fd Data=0xc6
# UVM_INFO ../src/env/axi4_scoreboard.sv(219) @ 3315000: uvm_test_top.env.scb [axi4_scoreboard] [REF_MEM_WRITE] Addr=0x7ae652fe Data=0xc6
# UVM_INFO ../src/env/axi4_scoreboard.sv(219) @ 3315000: uvm_test_top.env.scb [axi4_scoreboard] [REF_MEM_WRITE] Addr=0x7ae652ff Data=0xb4
# UVM_INFO ../src/env/axi4_scoreboard.sv(219) @ 3315000: uvm_test_top.env.scb [axi4_scoreboard] [REF_MEM_WRITE] Addr=0x7ae652fe Data=0xef
# UVM_INFO ../src/env/axi4_scoreboard.sv(219) @ 3315000: uvm_test_top.env.scb [axi4_scoreboard] [REF_MEM_WRITE] Addr=0x7ae65300 Data=0x7d
# UVM_INFO ../src/env/axi4_scoreboard.sv(219) @ 3315000: uvm_test_top.env.scb [axi4_scoreboard] [REF_MEM_WRITE] Addr=0x7ae65302 Data=0x3a
# UVM_INFO ../src/env/axi4_scoreboard.sv(219) @ 3315000: uvm_test_top.env.scb [axi4_scoreboard] [REF_MEM_WRITE] Addr=0x7ae65303 Data=0x7c
# UVM_INFO ../src/env/axi4_scoreboard.sv(219) @ 3315000: uvm_test_top.env.scb [axi4_scoreboard] [REF_MEM_WRITE] Addr=0x7ae65300 Data=0xc3
# UVM_INFO ../src/env/axi4_scoreboard.sv(219) @ 3315000: uvm_test_top.env.scb [axi4_scoreboard] [REF_MEM_WRITE] Addr=0x7ae65302 Data=0x69
# UVM_INFO ../src/env/axi4_scoreboard.sv(219) @ 3315000: uvm_test_top.env.scb [axi4_scoreboard] [REF_MEM_WRITE] Addr=0x7ae65303 Data=0x46
# UVM_INFO ../src/env/axi4_scoreboard.sv(219) @ 3315000: uvm_test_top.env.scb [axi4_scoreboard] [REF_MEM_WRITE] Addr=0x7ae65300 Data=0x81
# UVM_INFO ../src/env/axi4_scoreboard.sv(219) @ 3315000: uvm_test_top.env.scb [axi4_scoreboard] [REF_MEM_WRITE] Addr=0x7ae65302 Data=0xea
# UVM_INFO ../src/env/axi4_scoreboard.sv(219) @ 3315000: uvm_test_top.env.scb [axi4_scoreboard] [REF_MEM_WRITE] Addr=0x7ae65303 Data=0xd6
# UVM_INFO ../src/env/axi4_scoreboard.sv(219) @ 3315000: uvm_test_top.env.scb [axi4_scoreboard] [REF_MEM_WRITE] Addr=0x7ae65306 Data=0x33
# UVM_INFO ../src/env/axi4_scoreboard.sv(219) @ 3315000: uvm_test_top.env.scb [axi4_scoreboard] [REF_MEM_WRITE] Addr=0x7ae65307 Data=0xbc
# UVM_INFO ../src/env/axi4_scoreboard.sv(219) @ 3315000: uvm_test_top.env.scb [axi4_scoreboard] [REF_MEM_WRITE] Addr=0x7ae65304 Data=0x62
# UVM_INFO ../src/env/axi4_scoreboard.sv(219) @ 3315000: uvm_test_top.env.scb [axi4_scoreboard] [REF_MEM_WRITE] Addr=0x7ae65307 Data=0x74
# UVM_INFO ../src/env/axi4_scoreboard.sv(219) @ 3315000: uvm_test_top.env.scb [axi4_scoreboard] [REF_MEM_WRITE] Addr=0x7ae65304 Data=0xa8
# UVM_INFO ../src/env/axi4_scoreboard.sv(219) @ 3315000: uvm_test_top.env.scb [axi4_scoreboard] [REF_MEM_WRITE] Addr=0x7ae65305 Data=0x9a
# UVM_INFO ../src/env/axi4_scoreboard.sv(219) @ 3315000: uvm_test_top.env.scb [axi4_scoreboard] [REF_MEM_WRITE] Addr=0x7ae65306 Data=0xfd
# UVM_INFO ../src/env/axi4_scoreboard.sv(219) @ 3315000: uvm_test_top.env.scb [axi4_scoreboard] [REF_MEM_WRITE] Addr=0x7ae65304 Data=0x38
# UVM_INFO ../src/env/axi4_scoreboard.sv(219) @ 3315000: uvm_test_top.env.scb [axi4_scoreboard] [REF_MEM_WRITE] Addr=0x7ae65306 Data=0x80
# UVM_INFO ../src/env/axi4_scoreboard.sv(219) @ 3315000: uvm_test_top.env.scb [axi4_scoreboard] [REF_MEM_WRITE] Addr=0x7ae65309 Data=0x3f
# UVM_INFO ../src/env/axi4_scoreboard.sv(219) @ 3315000: uvm_test_top.env.scb [axi4_scoreboard] [REF_MEM_WRITE] Addr=0x7ae6530a Data=0xfb
# UVM_INFO ../src/env/axi4_scoreboard.sv(219) @ 3315000: uvm_test_top.env.scb [axi4_scoreboard] [REF_MEM_WRITE] Addr=0x7ae65308 Data=0xe5
# UVM_INFO ../src/env/axi4_scoreboard.sv(219) @ 3315000: uvm_test_top.env.scb [axi4_scoreboard] [REF_MEM_WRITE] Addr=0x7ae65309 Data=0x9f
# UVM_INFO ../src/env/axi4_scoreboard.sv(219) @ 3315000: uvm_test_top.env.scb [axi4_scoreboard] [REF_MEM_WRITE] Addr=0x7ae6530b Data=0xf3
# UVM_INFO ../src/env/axi4_scoreboard.sv(219) @ 3315000: uvm_test_top.env.scb [axi4_scoreboard] [REF_MEM_WRITE] Addr=0x7ae65308 Data=0x6d
# UVM_INFO ../src/env/axi4_scoreboard.sv(219) @ 3315000: uvm_test_top.env.scb [axi4_scoreboard] [REF_MEM_WRITE] Addr=0x7ae6530a Data=0x53
# UVM_INFO ../src/env/axi4_scoreboard.sv(219) @ 3315000: uvm_test_top.env.scb [axi4_scoreboard] [REF_MEM_WRITE] Addr=0x7ae6530b Data=0xd2
# UVM_INFO ../src/env/axi4_scoreboard.sv(219) @ 3315000: uvm_test_top.env.scb [axi4_scoreboard] [REF_MEM_WRITE] Addr=0x7ae6530f Data=0xc8
# UVM_INFO ../src/env/axi4_scoreboard.sv(219) @ 3315000: uvm_test_top.env.scb [axi4_scoreboard] [REF_MEM_WRITE] Addr=0x7ae6530c Data=0xf4
# UVM_INFO ../src/env/axi4_scoreboard.sv(219) @ 3315000: uvm_test_top.env.scb [axi4_scoreboard] [REF_MEM_WRITE] Addr=0x7ae6530f Data=0x93
# UVM_INFO ../src/env/axi4_scoreboard.sv(219) @ 3315000: uvm_test_top.env.scb [axi4_scoreboard] [REF_MEM_WRITE] Addr=0x7ae6530c Data=0x0e
# UVM_INFO ../src/env/axi4_scoreboard.sv(219) @ 3315000: uvm_test_top.env.scb [axi4_scoreboard] [REF_MEM_WRITE] Addr=0x7ae6530e Data=0xa1
# UVM_INFO ../src/env/axi4_scoreboard.sv(219) @ 3315000: uvm_test_top.env.scb [axi4_scoreboard] [REF_MEM_WRITE] Addr=0x7ae6530f Data=0x2c
# UVM_INFO ../src/env/axi4_scoreboard.sv(219) @ 3315000: uvm_test_top.env.scb [axi4_scoreboard] [REF_MEM_WRITE] Addr=0x7ae6530c Data=0x0b
# UVM_INFO ../src/env/axi4_scoreboard.sv(219) @ 3315000: uvm_test_top.env.scb [axi4_scoreboard] [REF_MEM_WRITE] Addr=0x7ae6530d Data=0xce
# UVM_INFO ../src/env/axi4_scoreboard.sv(219) @ 3315000: uvm_test_top.env.scb [axi4_scoreboard] [REF_MEM_WRITE] Addr=0x7ae6530e Data=0x98
# UVM_INFO ../src/env/axi4_scoreboard.sv(219) @ 3315000: uvm_test_top.env.scb [axi4_scoreboard] [REF_MEM_WRITE] Addr=0x7ae6530f Data=0x9b
# UVM_INFO ../src/env/axi4_scoreboard.sv(219) @ 3315000: uvm_test_top.env.scb [axi4_scoreboard] [REF_MEM_WRITE] Addr=0x7ae65311 Data=0x17
# UVM_INFO ../src/env/axi4_scoreboard.sv(219) @ 3315000: uvm_test_top.env.scb [axi4_scoreboard] [REF_MEM_WRITE] Addr=0x7ae65312 Data=0xa1
# UVM_INFO ../src/env/axi4_scoreboard.sv(219) @ 3315000: uvm_test_top.env.scb [axi4_scoreboard] [REF_MEM_WRITE] Addr=0x7ae65313 Data=0xc5
# UVM_INFO ../src/env/axi4_scoreboard.sv(219) @ 3315000: uvm_test_top.env.scb [axi4_scoreboard] [REF_MEM_WRITE] Addr=0x7ae65311 Data=0x99
# UVM_INFO ../src/env/axi4_scoreboard.sv(219) @ 3315000: uvm_test_top.env.scb [axi4_scoreboard] [REF_MEM_WRITE] Addr=0x7ae65312 Data=0xfa
# UVM_INFO ../src/env/axi4_scoreboard.sv(219) @ 3315000: uvm_test_top.env.scb [axi4_scoreboard] [REF_MEM_WRITE] Addr=0x7ae65313 Data=0x45
# UVM_INFO ../src/env/axi4_scoreboard.sv(219) @ 3315000: uvm_test_top.env.scb [axi4_scoreboard] [REF_MEM_WRITE] Addr=0x7ae65312 Data=0x2c
# UVM_INFO ../src/env/axi4_scoreboard.sv(219) @ 3315000: uvm_test_top.env.scb [axi4_scoreboard] [REF_MEM_WRITE] Addr=0x7ae65313 Data=0x62
# UVM_INFO ../src/env/axi4_scoreboard.sv(219) @ 3315000: uvm_test_top.env.scb [axi4_scoreboard] [REF_MEM_WRITE] Addr=0x7ae65312 Data=0x1f
# UVM_INFO ../src/env/axi4_scoreboard.sv(219) @ 3315000: uvm_test_top.env.scb [axi4_scoreboard] [REF_MEM_WRITE] Addr=0x7ae65313 Data=0x70
# UVM_INFO ../src/env/axi4_scoreboard.sv(219) @ 3315000: uvm_test_top.env.scb [axi4_scoreboard] [REF_MEM_WRITE] Addr=0x7ae65314 Data=0x17
# UVM_INFO ../src/env/axi4_scoreboard.sv(219) @ 3315000: uvm_test_top.env.scb [axi4_scoreboard] [REF_MEM_WRITE] Addr=0x7ae65315 Data=0x04
# UVM_INFO ../src/env/axi4_scoreboard.sv(219) @ 3315000: uvm_test_top.env.scb [axi4_scoreboard] [REF_MEM_WRITE] Addr=0x7ae65316 Data=0x68
# UVM_INFO ../src/env/axi4_scoreboard.sv(219) @ 3315000: uvm_test_top.env.scb [axi4_scoreboard] [REF_MEM_WRITE] Addr=0x7ae65317 Data=0xf9
# UVM_INFO ../src/env/axi4_scoreboard.sv(219) @ 3315000: uvm_test_top.env.scb [axi4_scoreboard] [REF_MEM_WRITE] Addr=0x7ae65315 Data=0x8f
# UVM_INFO ../src/env/axi4_scoreboard.sv(219) @ 3315000: uvm_test_top.env.scb [axi4_scoreboard] [REF_MEM_WRITE] Addr=0x7ae65316 Data=0xd4
# UVM_INFO ../src/env/axi4_scoreboard.sv(219) @ 3315000: uvm_test_top.env.scb [axi4_scoreboard] [REF_MEM_WRITE] Addr=0x7ae65315 Data=0xce
# UVM_INFO ../src/env/axi4_scoreboard.sv(219) @ 3315000: uvm_test_top.env.scb [axi4_scoreboard] [REF_MEM_WRITE] Addr=0x7ae65316 Data=0x28
# UVM_INFO ../src/env/axi4_scoreboard.sv(219) @ 3315000: uvm_test_top.env.scb [axi4_scoreboard] [REF_MEM_WRITE] Addr=0x7ae65317 Data=0x8b
# UVM_INFO ../src/env/axi4_scoreboard.sv(219) @ 3315000: uvm_test_top.env.scb [axi4_scoreboard] [REF_MEM_WRITE] Addr=0x7ae65319 Data=0x02
# UVM_INFO ../src/env/axi4_scoreboard.sv(219) @ 3315000: uvm_test_top.env.scb [axi4_scoreboard] [REF_MEM_WRITE] Addr=0x7ae6531a Data=0xe0
# UVM_INFO ../src/env/axi4_scoreboard.sv(219) @ 3315000: uvm_test_top.env.scb [axi4_scoreboard] [REF_MEM_WRITE] Addr=0x7ae6531b Data=0xd3
# UVM_INFO ../src/env/axi4_scoreboard.sv(219) @ 3315000: uvm_test_top.env.scb [axi4_scoreboard] [REF_MEM_WRITE] Addr=0x7ae6531b Data=0xdc
# UVM_INFO ../src/env/axi4_scoreboard.sv(219) @ 3315000: uvm_test_top.env.scb [axi4_scoreboard] [REF_MEM_WRITE] Addr=0x7ae65319 Data=0x5a
# UVM_INFO ../src/env/axi4_scoreboard.sv(219) @ 3315000: uvm_test_top.env.scb [axi4_scoreboard] [REF_MEM_WRITE] Addr=0x7ae65318 Data=0x02
# UVM_INFO ../src/env/axi4_scoreboard.sv(219) @ 3315000: uvm_test_top.env.scb [axi4_scoreboard] [REF_MEM_WRITE] Addr=0x7ae65319 Data=0xbd
# UVM_INFO ../src/env/axi4_scoreboard.sv(219) @ 3315000: uvm_test_top.env.scb [axi4_scoreboard] [REF_MEM_WRITE] Addr=0x7ae6531b Data=0x49
# UVM_INFO ../src/env/axi4_scoreboard.sv(219) @ 3315000: uvm_test_top.env.scb [axi4_scoreboard] [REF_MEM_WRITE] Addr=0x7ae6531c Data=0x15
# UVM_INFO ../src/env/axi4_scoreboard.sv(219) @ 3315000: uvm_test_top.env.scb [axi4_scoreboard] [REF_MEM_WRITE] Addr=0x7ae6531e Data=0x29
# UVM_INFO ../src/env/axi4_scoreboard.sv(219) @ 3315000: uvm_test_top.env.scb [axi4_scoreboard] [REF_MEM_WRITE] Addr=0x7ae6531f Data=0x93
# UVM_INFO ../src/env/axi4_scoreboard.sv(219) @ 3315000: uvm_test_top.env.scb [axi4_scoreboard] [REF_MEM_WRITE] Addr=0x7ae6531e Data=0x3d
# UVM_INFO ../src/env/axi4_scoreboard.sv(219) @ 3315000: uvm_test_top.env.scb [axi4_scoreboard] [REF_MEM_WRITE] Addr=0x7ae6531f Data=0xe0
# UVM_INFO ../src/env/axi4_scoreboard.sv(219) @ 3315000: uvm_test_top.env.scb [axi4_scoreboard] [REF_MEM_WRITE] Addr=0x7ae65320 Data=0x5d
# UVM_INFO ../src/env/axi4_scoreboard.sv(219) @ 3315000: uvm_test_top.env.scb [axi4_scoreboard] [REF_MEM_WRITE] Addr=0x7ae65321 Data=0x1b
# UVM_INFO ../src/env/axi4_scoreboard.sv(219) @ 3315000: uvm_test_top.env.scb [axi4_scoreboard] [REF_MEM_WRITE] Addr=0x7ae65323 Data=0xb2
# UVM_INFO ../src/env/axi4_scoreboard.sv(219) @ 3315000: uvm_test_top.env.scb [axi4_scoreboard] [REF_MEM_WRITE] Addr=0x7ae65320 Data=0x60
# UVM_INFO ../src/env/axi4_scoreboard.sv(219) @ 3315000: uvm_test_top.env.scb [axi4_scoreboard] [REF_MEM_WRITE] Addr=0x7ae65321 Data=0xb4
# UVM_INFO ../src/env/axi4_scoreboard.sv(219) @ 3315000: uvm_test_top.env.scb [axi4_scoreboard] [REF_MEM_WRITE] Addr=0x7ae65322 Data=0x6a
# UVM_INFO ../src/env/axi4_scoreboard.sv(219) @ 3315000: uvm_test_top.env.scb [axi4_scoreboard] [REF_MEM_WRITE] Addr=0x7ae65321 Data=0x42
# UVM_INFO ../src/env/axi4_scoreboard.sv(219) @ 3315000: uvm_test_top.env.scb [axi4_scoreboard] [REF_MEM_WRITE] Addr=0x7ae65322 Data=0x9f
# UVM_INFO ../src/env/axi4_scoreboard.sv(219) @ 3315000: uvm_test_top.env.scb [axi4_scoreboard] [REF_MEM_WRITE] Addr=0x7ae65323 Data=0x43
# UVM_INFO ../src/env/axi4_scoreboard.sv(219) @ 3315000: uvm_test_top.env.scb [axi4_scoreboard] [REF_MEM_WRITE] Addr=0x7ae65320 Data=0x56
# UVM_INFO ../src/env/axi4_scoreboard.sv(219) @ 3315000: uvm_test_top.env.scb [axi4_scoreboard] [REF_MEM_WRITE] Addr=0x7ae65324 Data=0x90
# UVM_INFO ../src/env/axi4_scoreboard.sv(219) @ 3315000: uvm_test_top.env.scb [axi4_scoreboard] [REF_MEM_WRITE] Addr=0x7ae65325 Data=0x40
# UVM_INFO ../src/env/axi4_scoreboard.sv(219) @ 3315000: uvm_test_top.env.scb [axi4_scoreboard] [REF_MEM_WRITE] Addr=0x7ae65326 Data=0x9c
# UVM_INFO ../src/env/axi4_scoreboard.sv(219) @ 3315000: uvm_test_top.env.scb [axi4_scoreboard] [REF_MEM_WRITE] Addr=0x7ae65324 Data=0x20
# UVM_INFO ../src/env/axi4_scoreboard.sv(219) @ 3315000: uvm_test_top.env.scb [axi4_scoreboard] [REF_MEM_WRITE] Addr=0x7ae65325 Data=0xaa
# UVM_INFO ../src/env/axi4_scoreboard.sv(219) @ 3315000: uvm_test_top.env.scb [axi4_scoreboard] [REF_MEM_WRITE] Addr=0x7ae65325 Data=0xe6
# UVM_INFO ../src/env/axi4_scoreboard.sv(219) @ 3315000: uvm_test_top.env.scb [axi4_scoreboard] [REF_MEM_WRITE] Addr=0x7ae65326 Data=0x84
# UVM_INFO ../src/env/axi4_scoreboard.sv(219) @ 3315000: uvm_test_top.env.scb [axi4_scoreboard] [REF_MEM_WRITE] Addr=0x7ae65327 Data=0x11
# UVM_INFO ../src/env/axi4_scoreboard.sv(219) @ 3315000: uvm_test_top.env.scb [axi4_scoreboard] [REF_MEM_WRITE] Addr=0x7ae65325 Data=0x81
# UVM_INFO ../src/env/axi4_scoreboard.sv(219) @ 3315000: uvm_test_top.env.scb [axi4_scoreboard] [REF_MEM_WRITE] Addr=0x7ae65326 Data=0x7c
# UVM_INFO ../src/env/axi4_scoreboard.sv(219) @ 3315000: uvm_test_top.env.scb [axi4_scoreboard] [REF_MEM_WRITE] Addr=0x7ae65327 Data=0xc5
# UVM_INFO ../src/env/axi4_scoreboard.sv(219) @ 3315000: uvm_test_top.env.scb [axi4_scoreboard] [REF_MEM_WRITE] Addr=0x7ae6532a Data=0x33
# UVM_INFO ../src/env/axi4_scoreboard.sv(219) @ 3315000: uvm_test_top.env.scb [axi4_scoreboard] [REF_MEM_WRITE] Addr=0x7ae65329 Data=0xad
# UVM_INFO ../src/env/axi4_scoreboard.sv(219) @ 3315000: uvm_test_top.env.scb [axi4_scoreboard] [REF_MEM_WRITE] Addr=0x7ae6532b Data=0x61
# UVM_INFO ../src/env/axi4_scoreboard.sv(219) @ 3315000: uvm_test_top.env.scb [axi4_scoreboard] [REF_MEM_WRITE] Addr=0x7ae65328 Data=0x0a
# UVM_INFO ../src/env/axi4_scoreboard.sv(219) @ 3315000: uvm_test_top.env.scb [axi4_scoreboard] [REF_MEM_WRITE] Addr=0x7ae65328 Data=0x06
# UVM_INFO ../src/env/axi4_scoreboard.sv(219) @ 3315000: uvm_test_top.env.scb [axi4_scoreboard] [REF_MEM_WRITE] Addr=0x7ae6532b Data=0x50
# UVM_INFO ../src/env/axi4_scoreboard.sv(219) @ 3315000: uvm_test_top.env.scb [axi4_scoreboard] [REF_MEM_WRITE] Addr=0x7ae6532c Data=0xcb
# UVM_INFO ../src/env/axi4_scoreboard.sv(219) @ 3315000: uvm_test_top.env.scb [axi4_scoreboard] [REF_MEM_WRITE] Addr=0x7ae6532f Data=0x28
# UVM_INFO ../src/env/axi4_scoreboard.sv(219) @ 3315000: uvm_test_top.env.scb [axi4_scoreboard] [REF_MEM_WRITE] Addr=0x7ae6532c Data=0x57
# UVM_INFO ../src/env/axi4_scoreboard.sv(219) @ 3315000: uvm_test_top.env.scb [axi4_scoreboard] [REF_MEM_WRITE] Addr=0x7ae6532d Data=0xdd
# UVM_INFO ../src/env/axi4_scoreboard.sv(219) @ 3315000: uvm_test_top.env.scb [axi4_scoreboard] [REF_MEM_WRITE] Addr=0x7ae6532e Data=0x50
# UVM_INFO ../src/env/axi4_scoreboard.sv(219) @ 3315000: uvm_test_top.env.scb [axi4_scoreboard] [REF_MEM_WRITE] Addr=0x7ae6532f Data=0xd2
# UVM_INFO ../src/env/axi4_scoreboard.sv(219) @ 3315000: uvm_test_top.env.scb [axi4_scoreboard] [REF_MEM_WRITE] Addr=0x7ae6532d Data=0x71
# UVM_INFO ../src/env/axi4_scoreboard.sv(219) @ 3315000: uvm_test_top.env.scb [axi4_scoreboard] [REF_MEM_WRITE] Addr=0x7ae6532e Data=0xed
# UVM_INFO ../src/env/axi4_scoreboard.sv(219) @ 3315000: uvm_test_top.env.scb [axi4_scoreboard] [REF_MEM_WRITE] Addr=0x7ae6532f Data=0x73
# UVM_INFO ../src/env/axi4_scoreboard.sv(219) @ 3315000: uvm_test_top.env.scb [axi4_scoreboard] [REF_MEM_WRITE] Addr=0x7ae6532c Data=0x68
# UVM_INFO ../src/env/axi4_scoreboard.sv(219) @ 3315000: uvm_test_top.env.scb [axi4_scoreboard] [REF_MEM_WRITE] Addr=0x7ae6532e Data=0x52
# UVM_INFO ../src/env/axi4_scoreboard.sv(219) @ 3315000: uvm_test_top.env.scb [axi4_scoreboard] [REF_MEM_WRITE] Addr=0x7ae65330 Data=0xea
# UVM_INFO ../src/env/axi4_scoreboard.sv(219) @ 3315000: uvm_test_top.env.scb [axi4_scoreboard] [REF_MEM_WRITE] Addr=0x7ae65330 Data=0x10
# UVM_INFO ../src/env/axi4_scoreboard.sv(219) @ 3315000: uvm_test_top.env.scb [axi4_scoreboard] [REF_MEM_WRITE] Addr=0x7ae65331 Data=0xea
# UVM_INFO ../src/env/axi4_scoreboard.sv(219) @ 3315000: uvm_test_top.env.scb [axi4_scoreboard] [REF_MEM_WRITE] Addr=0x7ae65333 Data=0xc0
# UVM_INFO ../src/env/axi4_scoreboard.sv(219) @ 3315000: uvm_test_top.env.scb [axi4_scoreboard] [REF_MEM_WRITE] Addr=0x7ae65330 Data=0x2c
# UVM_INFO ../src/env/axi4_scoreboard.sv(219) @ 3315000: uvm_test_top.env.scb [axi4_scoreboard] [REF_MEM_WRITE] Addr=0x7ae65331 Data=0x34
# UVM_INFO ../src/env/axi4_scoreboard.sv(219) @ 3315000: uvm_test_top.env.scb [axi4_scoreboard] [REF_MEM_WRITE] Addr=0x7ae65332 Data=0x5f
# UVM_INFO ../src/env/axi4_scoreboard.sv(219) @ 3315000: uvm_test_top.env.scb [axi4_scoreboard] [REF_MEM_WRITE] Addr=0x7ae65334 Data=0xa4
# UVM_INFO ../src/env/axi4_scoreboard.sv(219) @ 3315000: uvm_test_top.env.scb [axi4_scoreboard] [REF_MEM_WRITE] Addr=0x7ae65335 Data=0xb2
# UVM_INFO ../src/env/axi4_scoreboard.sv(219) @ 3315000: uvm_test_top.env.scb [axi4_scoreboard] [REF_MEM_WRITE] Addr=0x7ae65334 Data=0x26
# UVM_INFO ../src/env/axi4_scoreboard.sv(219) @ 3315000: uvm_test_top.env.scb [axi4_scoreboard] [REF_MEM_WRITE] Addr=0x7ae65335 Data=0xed
# UVM_INFO ../src/env/axi4_scoreboard.sv(219) @ 3315000: uvm_test_top.env.scb [axi4_scoreboard] [REF_MEM_WRITE] Addr=0x7ae65336 Data=0xaf
# UVM_INFO ../src/env/axi4_scoreboard.sv(219) @ 3315000: uvm_test_top.env.scb [axi4_scoreboard] [REF_MEM_WRITE] Addr=0x7ae65336 Data=0x11
# UVM_INFO ../src/env/axi4_scoreboard.sv(219) @ 3315000: uvm_test_top.env.scb [axi4_scoreboard] [REF_MEM_WRITE] Addr=0x7ae65337 Data=0xd7
# UVM_INFO ../src/env/axi4_scoreboard.sv(219) @ 3315000: uvm_test_top.env.scb [axi4_scoreboard] [REF_MEM_WRITE] Addr=0x7ae6533a Data=0x33
# UVM_INFO ../src/env/axi4_scoreboard.sv(219) @ 3315000: uvm_test_top.env.scb [axi4_scoreboard] [REF_MEM_WRITE] Addr=0x7ae6533b Data=0xa0
# UVM_INFO ../src/env/axi4_scoreboard.sv(219) @ 3315000: uvm_test_top.env.scb [axi4_scoreboard] [REF_MEM_WRITE] Addr=0x7ae65338 Data=0x2b
# UVM_INFO ../src/env/axi4_scoreboard.sv(219) @ 3315000: uvm_test_top.env.scb [axi4_scoreboard] [REF_MEM_WRITE] Addr=0x7ae65339 Data=0x90
# UVM_INFO ../src/env/axi4_scoreboard.sv(219) @ 3315000: uvm_test_top.env.scb [axi4_scoreboard] [REF_MEM_WRITE] Addr=0x7ae6533a Data=0xed
# UVM_INFO ../src/env/axi4_scoreboard.sv(219) @ 3315000: uvm_test_top.env.scb [axi4_scoreboard] [REF_MEM_WRITE] Addr=0x7ae65339 Data=0xee
# UVM_INFO ../src/env/axi4_scoreboard.sv(219) @ 3315000: uvm_test_top.env.scb [axi4_scoreboard] [REF_MEM_WRITE] Addr=0x7ae6533a Data=0x62
# UVM_INFO ../src/env/axi4_scoreboard.sv(219) @ 3315000: uvm_test_top.env.scb [axi4_scoreboard] [REF_MEM_WRITE] Addr=0x7ae65339 Data=0xa0
# UVM_INFO ../src/env/axi4_scoreboard.sv(219) @ 3315000: uvm_test_top.env.scb [axi4_scoreboard] [REF_MEM_WRITE] Addr=0x7ae6533b Data=0xf5
# UVM_INFO ../src/env/axi4_scoreboard.sv(219) @ 3315000: uvm_test_top.env.scb [axi4_scoreboard] [REF_MEM_WRITE] Addr=0x7ae6533d Data=0x04
# UVM_INFO ../src/env/axi4_scoreboard.sv(219) @ 3315000: uvm_test_top.env.scb [axi4_scoreboard] [REF_MEM_WRITE] Addr=0x7ae6533e Data=0x5b
# UVM_INFO ../src/env/axi4_scoreboard.sv(219) @ 3315000: uvm_test_top.env.scb [axi4_scoreboard] [REF_MEM_WRITE] Addr=0x7ae6533f Data=0x26
# UVM_INFO ../src/env/axi4_scoreboard.sv(219) @ 3315000: uvm_test_top.env.scb [axi4_scoreboard] [REF_MEM_WRITE] Addr=0x7ae6533c Data=0x18
# UVM_INFO ../src/env/axi4_scoreboard.sv(219) @ 3315000: uvm_test_top.env.scb [axi4_scoreboard] [REF_MEM_WRITE] Addr=0x7ae6533e Data=0x55
# UVM_INFO ../src/env/axi4_scoreboard.sv(219) @ 3315000: uvm_test_top.env.scb [axi4_scoreboard] [REF_MEM_WRITE] Addr=0x7ae6533e Data=0xa5
# UVM_INFO ../src/env/axi4_scoreboard.sv(219) @ 3315000: uvm_test_top.env.scb [axi4_scoreboard] [REF_MEM_WRITE] Addr=0x7ae6533d Data=0x32
# UVM_INFO ../src/env/axi4_scoreboard.sv(219) @ 3315000: uvm_test_top.env.scb [axi4_scoreboard] [REF_MEM_WRITE] Addr=0x7ae6533f Data=0x9c
# UVM_INFO ../src/env/axi4_scoreboard.sv(219) @ 3315000: uvm_test_top.env.scb [axi4_scoreboard] [REF_MEM_WRITE] Addr=0x7ae65340 Data=0x25
# UVM_INFO ../src/env/axi4_scoreboard.sv(219) @ 3315000: uvm_test_top.env.scb [axi4_scoreboard] [REF_MEM_WRITE] Addr=0x7ae65341 Data=0x14
# UVM_INFO ../src/env/axi4_scoreboard.sv(219) @ 3315000: uvm_test_top.env.scb [axi4_scoreboard] [REF_MEM_WRITE] Addr=0x7ae65342 Data=0xe0
# UVM_INFO ../src/env/axi4_scoreboard.sv(219) @ 3315000: uvm_test_top.env.scb [axi4_scoreboard] [REF_MEM_WRITE] Addr=0x7ae65343 Data=0x1a
# UVM_INFO ../src/env/axi4_scoreboard.sv(219) @ 3315000: uvm_test_top.env.scb [axi4_scoreboard] [REF_MEM_WRITE] Addr=0x7ae65340 Data=0x2d
# UVM_INFO ../src/env/axi4_scoreboard.sv(219) @ 3315000: uvm_test_top.env.scb [axi4_scoreboard] [REF_MEM_WRITE] Addr=0x7ae65340 Data=0xb8
# UVM_INFO ../src/env/axi4_scoreboard.sv(219) @ 3315000: uvm_test_top.env.scb [axi4_scoreboard] [REF_MEM_WRITE] Addr=0x7ae65340 Data=0x09
# UVM_INFO ../src/env/axi4_scoreboard.sv(219) @ 3315000: uvm_test_top.env.scb [axi4_scoreboard] [REF_MEM_WRITE] Addr=0x7ae65341 Data=0xd6
# UVM_INFO ../src/env/axi4_scoreboard.sv(219) @ 3315000: uvm_test_top.env.scb [axi4_scoreboard] [REF_MEM_WRITE] Addr=0x7ae65342 Data=0xa9
# UVM_INFO ../src/env/axi4_scoreboard.sv(219) @ 3315000: uvm_test_top.env.scb [axi4_scoreboard] [REF_MEM_WRITE] Addr=0x7ae65344 Data=0xe0
# UVM_INFO ../src/env/axi4_scoreboard.sv(219) @ 3315000: uvm_test_top.env.scb [axi4_scoreboard] [REF_MEM_WRITE] Addr=0x7ae65345 Data=0xd6
# UVM_INFO ../src/env/axi4_scoreboard.sv(219) @ 3315000: uvm_test_top.env.scb [axi4_scoreboard] [REF_MEM_WRITE] Addr=0x7ae65347 Data=0x02
# UVM_INFO ../src/env/axi4_scoreboard.sv(219) @ 3315000: uvm_test_top.env.scb [axi4_scoreboard] [REF_MEM_WRITE] Addr=0x7ae65344 Data=0xff
# UVM_INFO ../src/env/axi4_scoreboard.sv(219) @ 3315000: uvm_test_top.env.scb [axi4_scoreboard] [REF_MEM_WRITE] Addr=0x7ae65345 Data=0x36
# UVM_INFO ../src/env/axi4_scoreboard.sv(219) @ 3315000: uvm_test_top.env.scb [axi4_scoreboard] [REF_MEM_WRITE] Addr=0x7ae65347 Data=0xfd
# UVM_INFO ../src/env/axi4_scoreboard.sv(219) @ 3315000: uvm_test_top.env.scb [axi4_scoreboard] [REF_MEM_WRITE] Addr=0x7ae65346 Data=0x97
# UVM_INFO ../src/env/axi4_scoreboard.sv(219) @ 3315000: uvm_test_top.env.scb [axi4_scoreboard] [REF_MEM_WRITE] Addr=0x7ae65345 Data=0xcd
# UVM_INFO ../src/env/axi4_scoreboard.sv(219) @ 3315000: uvm_test_top.env.scb [axi4_scoreboard] [REF_MEM_WRITE] Addr=0x7ae65346 Data=0x6e
# UVM_INFO ../src/env/axi4_scoreboard.sv(219) @ 3315000: uvm_test_top.env.scb [axi4_scoreboard] [REF_MEM_WRITE] Addr=0x7ae65349 Data=0xfb
# UVM_INFO ../src/env/axi4_scoreboard.sv(219) @ 3315000: uvm_test_top.env.scb [axi4_scoreboard] [REF_MEM_WRITE] Addr=0x7ae6534b Data=0x01
# UVM_INFO ../src/env/axi4_scoreboard.sv(219) @ 3315000: uvm_test_top.env.scb [axi4_scoreboard] [REF_MEM_WRITE] Addr=0x7ae65348 Data=0x8c
# UVM_INFO ../src/env/axi4_scoreboard.sv(219) @ 3315000: uvm_test_top.env.scb [axi4_scoreboard] [REF_MEM_WRITE] Addr=0x7ae6534a Data=0x14
# UVM_INFO ../src/env/axi4_scoreboard.sv(219) @ 3315000: uvm_test_top.env.scb [axi4_scoreboard] [REF_MEM_WRITE] Addr=0x7ae6534b Data=0x52
# UVM_INFO ../src/env/axi4_scoreboard.sv(219) @ 3315000: uvm_test_top.env.scb [axi4_scoreboard] [REF_MEM_WRITE] Addr=0x7ae65348 Data=0x0d
# UVM_INFO ../src/env/axi4_scoreboard.sv(219) @ 3315000: uvm_test_top.env.scb [axi4_scoreboard] [REF_MEM_WRITE] Addr=0x7ae65349 Data=0x94
# UVM_INFO ../src/env/axi4_scoreboard.sv(219) @ 3315000: uvm_test_top.env.scb [axi4_scoreboard] [REF_MEM_WRITE] Addr=0x7ae6534b Data=0x12
# UVM_INFO ../src/env/axi4_scoreboard.sv(219) @ 3315000: uvm_test_top.env.scb [axi4_scoreboard] [REF_MEM_WRITE] Addr=0x7ae65348 Data=0xaf
# UVM_INFO ../src/env/axi4_scoreboard.sv(219) @ 3315000: uvm_test_top.env.scb [axi4_scoreboard] [REF_MEM_WRITE] Addr=0x7ae65349 Data=0xf4
# UVM_INFO ../src/env/axi4_scoreboard.sv(219) @ 3315000: uvm_test_top.env.scb [axi4_scoreboard] [REF_MEM_WRITE] Addr=0x7ae6534c Data=0x23
# UVM_INFO ../src/env/axi4_scoreboard.sv(219) @ 3315000: uvm_test_top.env.scb [axi4_scoreboard] [REF_MEM_WRITE] Addr=0x7ae6534d Data=0xa6
# UVM_INFO ../src/env/axi4_scoreboard.sv(219) @ 3315000: uvm_test_top.env.scb [axi4_scoreboard] [REF_MEM_WRITE] Addr=0x7ae6534f Data=0xe5
# UVM_INFO ../src/env/axi4_scoreboard.sv(219) @ 3315000: uvm_test_top.env.scb [axi4_scoreboard] [REF_MEM_WRITE] Addr=0x7ae6534e Data=0x07
# UVM_INFO ../src/env/axi4_scoreboard.sv(219) @ 3315000: uvm_test_top.env.scb [axi4_scoreboard] [REF_MEM_WRITE] Addr=0x7ae6534c Data=0x93
# UVM_INFO ../src/env/axi4_scoreboard.sv(219) @ 3315000: uvm_test_top.env.scb [axi4_scoreboard] [REF_MEM_WRITE] Addr=0x7ae6534f Data=0x83
# UVM_INFO ../src/env/axi4_scoreboard.sv(219) @ 3315000: uvm_test_top.env.scb [axi4_scoreboard] [REF_MEM_WRITE] Addr=0x7ae65350 Data=0x4d
# UVM_INFO ../src/env/axi4_scoreboard.sv(219) @ 3315000: uvm_test_top.env.scb [axi4_scoreboard] [REF_MEM_WRITE] Addr=0x7ae65352 Data=0x2b
# UVM_INFO ../src/env/axi4_scoreboard.sv(219) @ 3315000: uvm_test_top.env.scb [axi4_scoreboard] [REF_MEM_WRITE] Addr=0x7ae65350 Data=0xc5
# UVM_INFO ../src/env/axi4_scoreboard.sv(219) @ 3315000: uvm_test_top.env.scb [axi4_scoreboard] [REF_MEM_WRITE] Addr=0x7ae65351 Data=0xea
# UVM_INFO ../src/env/axi4_scoreboard.sv(219) @ 3315000: uvm_test_top.env.scb [axi4_scoreboard] [REF_MEM_WRITE] Addr=0x7ae65352 Data=0x49
# UVM_INFO ../src/env/axi4_scoreboard.sv(219) @ 3315000: uvm_test_top.env.scb [axi4_scoreboard] [REF_MEM_WRITE] Addr=0x7ae65350 Data=0xd8
# UVM_INFO ../src/env/axi4_scoreboard.sv(219) @ 3315000: uvm_test_top.env.scb [axi4_scoreboard] [REF_MEM_WRITE] Addr=0x7ae65351 Data=0x61
# UVM_INFO ../src/env/axi4_scoreboard.sv(219) @ 3315000: uvm_test_top.env.scb [axi4_scoreboard] [REF_MEM_WRITE] Addr=0x7ae65352 Data=0xac
# UVM_INFO ../src/env/axi4_scoreboard.sv(219) @ 3315000: uvm_test_top.env.scb [axi4_scoreboard] [REF_MEM_WRITE] Addr=0x7ae65353 Data=0x3e
# UVM_INFO ../src/env/axi4_scoreboard.sv(219) @ 3315000: uvm_test_top.env.scb [axi4_scoreboard] [REF_MEM_WRITE] Addr=0x7ae65354 Data=0xaa
# UVM_INFO ../src/env/axi4_scoreboard.sv(219) @ 3315000: uvm_test_top.env.scb [axi4_scoreboard] [REF_MEM_WRITE] Addr=0x7ae65355 Data=0x4e
# UVM_INFO ../src/env/axi4_scoreboard.sv(219) @ 3315000: uvm_test_top.env.scb [axi4_scoreboard] [REF_MEM_WRITE] Addr=0x7ae65356 Data=0x44
# UVM_INFO ../src/env/axi4_scoreboard.sv(219) @ 3315000: uvm_test_top.env.scb [axi4_scoreboard] [REF_MEM_WRITE] Addr=0x7ae65357 Data=0x52
# UVM_INFO ../src/env/axi4_scoreboard.sv(219) @ 3315000: uvm_test_top.env.scb [axi4_scoreboard] [REF_MEM_WRITE] Addr=0x7ae65355 Data=0x6c
# UVM_INFO ../src/env/axi4_scoreboard.sv(219) @ 3315000: uvm_test_top.env.scb [axi4_scoreboard] [REF_MEM_WRITE] Addr=0x7ae65356 Data=0x7a
# UVM_INFO ../src/env/axi4_scoreboard.sv(219) @ 3315000: uvm_test_top.env.scb [axi4_scoreboard] [REF_MEM_WRITE] Addr=0x7ae65354 Data=0xc5
# UVM_INFO ../src/env/axi4_scoreboard.sv(219) @ 3315000: uvm_test_top.env.scb [axi4_scoreboard] [REF_MEM_WRITE] Addr=0x7ae65356 Data=0x1e
# UVM_INFO ../src/env/axi4_scoreboard.sv(219) @ 3315000: uvm_test_top.env.scb [axi4_scoreboard] [REF_MEM_WRITE] Addr=0x7ae65359 Data=0x3f
# UVM_INFO ../src/env/axi4_scoreboard.sv(219) @ 3315000: uvm_test_top.env.scb [axi4_scoreboard] [REF_MEM_WRITE] Addr=0x7ae6535b Data=0x98
# UVM_INFO ../src/env/axi4_scoreboard.sv(219) @ 3315000: uvm_test_top.env.scb [axi4_scoreboard] [REF_MEM_WRITE] Addr=0x7ae65358 Data=0x23
# UVM_INFO ../src/env/axi4_scoreboard.sv(219) @ 3315000: uvm_test_top.env.scb [axi4_scoreboard] [REF_MEM_WRITE] Addr=0x7ae6535a Data=0xfe
# UVM_INFO ../src/env/axi4_scoreboard.sv(219) @ 3315000: uvm_test_top.env.scb [axi4_scoreboard] [REF_MEM_WRITE] Addr=0x7ae65359 Data=0x6b
# UVM_INFO ../src/env/axi4_scoreboard.sv(219) @ 3315000: uvm_test_top.env.scb [axi4_scoreboard] [REF_MEM_WRITE] Addr=0x7ae6535b Data=0xc1
# UVM_INFO ../src/env/axi4_scoreboard.sv(219) @ 3315000: uvm_test_top.env.scb [axi4_scoreboard] [REF_MEM_WRITE] Addr=0x7ae65358 Data=0x36
# UVM_INFO ../src/env/axi4_scoreboard.sv(219) @ 3315000: uvm_test_top.env.scb [axi4_scoreboard] [REF_MEM_WRITE] Addr=0x7ae6535b Data=0x31
# UVM_INFO ../src/env/axi4_scoreboard.sv(219) @ 3315000: uvm_test_top.env.scb [axi4_scoreboard] [REF_MEM_WRITE] Addr=0x7ae6535c Data=0xbc
# UVM_INFO ../src/env/axi4_scoreboard.sv(219) @ 3315000: uvm_test_top.env.scb [axi4_scoreboard] [REF_MEM_WRITE] Addr=0x7ae6535d Data=0xb2
# UVM_INFO ../src/env/axi4_scoreboard.sv(219) @ 3315000: uvm_test_top.env.scb [axi4_scoreboard] [REF_MEM_WRITE] Addr=0x7ae6535f Data=0xc7
# UVM_INFO ../src/seq/axi4_outstanding_seq.sv(84) @ 3315000: uvm_test_top.env.master_agent.sqr@@outstanding_seq [axi4_outstanding_seq] Outstanding Write [#3] complete: ID=0xc
# UVM_INFO ../src/seq/axi4_outstanding_seq.sv(74) @ 3315000: uvm_test_top.env.master_agent.sqr@@outstanding_seq [axi4_outstanding_seq] Outstanding Write [#4] started: ID=0xc ADDR=0x5c575521 LEN=60
# UVM_INFO ../src/mst/axi4_master_driver.sv(73) @ 3315000: uvm_test_top.env.master_agent.drv [axi4_master_driver] Driving AXI4_WRITE  ID=0xc  ADDR=0x5c575521  LEN=60
# UVM_INFO ../src/slv/axi4_slave_driver.sv(212) @ 3345000: uvm_test_top.env.slave_agent.drv [axi4_slave_driver] AW received: ID=0xc ADDR=0x5c575521 LEN=60 LOCK=AXI4_LOCK_EXCLUSIVE
# UVM_INFO ../src/mst/axi4_master_monitor.sv(124) @ 3345000: uvm_test_top.env.master_agent.mon [axi4_master_monitor] AW observed: ID=0xc ADDR=0x5c575521 LEN=60
# UVM_INFO ../src/slv/axi4_slave_monitor.sv(116) @ 3345000: uvm_test_top.env.slave_agent.mon [axi4_slave_monitor] AW received: ID=0xc ADDR=0x5c575521 LEN=60
# UVM_INFO ../src/mst/axi4_master_monitor.sv(184) @ 4025000: uvm_test_top.env.master_agent.mon [axi4_master_monitor] W data assembled: ID=0x7 ADDR=0x07ededd3 37 beats
# UVM_INFO ../src/slv/axi4_slave_monitor.sv(167) @ 4025000: uvm_test_top.env.slave_agent.mon [axi4_slave_monitor] W data assembled: ID=0x7 ADDR=0x07ededd3 37 beats
# UVM_INFO ../src/mst/axi4_master_driver.sv(289) @ 4055000: uvm_test_top.env.master_agent.drv [axi4_master_driver] Master driver received B response: ID=0x7 RESP=AXI4_RESP_OKAY
# UVM_INFO ../src/slv/axi4_slave_driver.sv(320) @ 4055000: uvm_test_top.env.slave_agent.drv [axi4_slave_driver] Write complete: ID=0x7 RESP=AXI4_RESP_OKAY
# UVM_INFO ../src/slv/axi4_slave_monitor.sv(189) @ 4055000: uvm_test_top.env.slave_agent.mon [axi4_slave_monitor] Write response sent: ID=0x7 ADDR=0x07ededd3 RESP=AXI4_RESP_OKAY
# UVM_INFO ../src/env/axi4_scoreboard.sv(108) @ 4055000: uvm_test_top.env.scb [axi4_scoreboard] Slave AXI4_WRITE received: ID=0x7 ADDR=0x07ededd3 LEN=36
# UVM_INFO ../src/mst/axi4_master_monitor.sv(210) @ 4055000: uvm_test_top.env.master_agent.mon [axi4_master_monitor] Write complete: ID=0x7 ADDR=0x07ededd3 RESP=AXI4_RESP_OKAY
# UVM_INFO ../src/env/axi4_scoreboard.sv(87) @ 4055000: uvm_test_top.env.scb [axi4_scoreboard] Master AXI4_WRITE received: ID=0x7 ADDR=0x07ededd3 LEN=36
# UVM_INFO ../src/env/axi4_scoreboard.sv(291) @ 4055000: uvm_test_top.env.scb [axi4_scoreboard] [WRITE] MATCH #3: ID=0x7 ADDR=0x07ededd3 LEN=36
# UVM_INFO ../src/env/axi4_scoreboard.sv(226) @ 4055000: uvm_test_top.env.scb [axi4_scoreboard] [REF_MEM_WRITE_IGNORED] Write ignored for ADDR=0x07ededd3 LOCK=AXI4_LOCK_EXCLUSIVE RESP=AXI4_RESP_OKAY
# UVM_INFO ../src/seq/axi4_outstanding_seq.sv(84) @ 4055000: uvm_test_top.env.master_agent.sqr@@outstanding_seq [axi4_outstanding_seq] Outstanding Write [#2] complete: ID=0x7
# UVM_INFO ../src/seq/axi4_outstanding_seq.sv(74) @ 4055000: uvm_test_top.env.master_agent.sqr@@outstanding_seq [axi4_outstanding_seq] Outstanding Write [#5] started: ID=0x4 ADDR=0xfbb4f23f LEN=229
# UVM_INFO ../src/mst/axi4_master_driver.sv(73) @ 4055000: uvm_test_top.env.master_agent.drv [axi4_master_driver] Driving AXI4_WRITE  ID=0x4  ADDR=0xfbb4f23f  LEN=229
# UVM_INFO ../src/mst/axi4_master_driver.sv(348) @ 5005000: uvm_test_top.env.master_agent.drv [axi4_master_driver] Master driver received all R beats for ID=0xc
# UVM_INFO ../src/slv/axi4_slave_driver.sv(464) @ 5005000: uvm_test_top.env.slave_agent.drv [axi4_slave_driver] Read complete: ID=0xc ADDR=0xfad68877 RESP=AXI4_RESP_DECERR  229 beats sent
# UVM_INFO ../src/mst/axi4_master_monitor.sv(314) @ 5005000: uvm_test_top.env.master_agent.mon [axi4_master_monitor] Read complete: ID=0xc ADDR=0xfad68877 229 beats
# UVM_INFO ../src/env/axi4_scoreboard.sv(87) @ 5005000: uvm_test_top.env.scb [axi4_scoreboard] Master AXI4_READ received: ID=0xc ADDR=0xfad68877 LEN=228
# UVM_INFO ../src/slv/axi4_slave_monitor.sv(287) @ 5005000: uvm_test_top.env.slave_agent.mon [axi4_slave_monitor] Read data sent: ID=0xc ADDR=0xfad68877 229 beats
# UVM_INFO ../src/env/axi4_scoreboard.sv(108) @ 5005000: uvm_test_top.env.scb [axi4_scoreboard] Slave AXI4_READ received: ID=0xc ADDR=0xfad68877 LEN=228
# UVM_INFO ../src/env/axi4_scoreboard.sv(291) @ 5005000: uvm_test_top.env.scb [axi4_scoreboard] [READ] MATCH #4: ID=0xc ADDR=0xfad68877 LEN=228
# UVM_INFO ../src/seq/axi4_outstanding_seq.sv(123) @ 5005000: uvm_test_top.env.master_agent.sqr@@outstanding_seq [axi4_outstanding_seq] Outstanding Read [#3] complete: ID=0xc
# UVM_INFO ../src/seq/axi4_outstanding_seq.sv(113) @ 5005000: uvm_test_top.env.master_agent.sqr@@outstanding_seq [axi4_outstanding_seq] Outstanding Read [#5] started: ID=0xc ADDR=0x33c1736d LEN=211
# UVM_INFO ../src/mst/axi4_master_driver.sv(73) @ 5005000: uvm_test_top.env.master_agent.drv [axi4_master_driver] Driving AXI4_READ  ID=0xc  ADDR=0x33c1736d  LEN=211
# UVM_INFO ../src/slv/axi4_slave_driver.sv(358) @ 5035000: uvm_test_top.env.slave_agent.drv [axi4_slave_driver] AR received: ID=0xc ADDR=0x33c1736d LEN=211 LOCK=AXI4_LOCK_EXCLUSIVE
# UVM_INFO ../src/slv/axi4_slave_monitor.sv(224) @ 5035000: uvm_test_top.env.slave_agent.mon [axi4_slave_monitor] AR received: ID=0xc ADDR=0x33c1736d LEN=211
# UVM_INFO ../src/mst/axi4_master_monitor.sv(246) @ 5035000: uvm_test_top.env.master_agent.mon [axi4_master_monitor] AR observed: ID=0xc ADDR=0x33c1736d LEN=211
# UVM_INFO ../src/mst/axi4_master_driver.sv(348) @ 7385000: uvm_test_top.env.master_agent.drv [axi4_master_driver] Master driver received all R beats for ID=0x1
# UVM_INFO ../src/slv/axi4_slave_driver.sv(464) @ 7385000: uvm_test_top.env.slave_agent.drv [axi4_slave_driver] Read complete: ID=0x1 ADDR=0xcbc16b14 RESP=AXI4_RESP_EXOKAY  119 beats sent
# UVM_INFO ../src/mst/axi4_master_monitor.sv(314) @ 7385000: uvm_test_top.env.master_agent.mon [axi4_master_monitor] Read complete: ID=0x1 ADDR=0xcbc16b14 119 beats
# UVM_INFO ../src/env/axi4_scoreboard.sv(87) @ 7385000: uvm_test_top.env.scb [axi4_scoreboard] Master AXI4_READ received: ID=0x1 ADDR=0xcbc16b14 LEN=118
# UVM_INFO ../src/slv/axi4_slave_monitor.sv(287) @ 7385000: uvm_test_top.env.slave_agent.mon [axi4_slave_monitor] Read data sent: ID=0x1 ADDR=0xcbc16b14 119 beats
# UVM_INFO ../src/env/axi4_scoreboard.sv(108) @ 7385000: uvm_test_top.env.scb [axi4_scoreboard] Slave AXI4_READ received: ID=0x1 ADDR=0xcbc16b14 LEN=118
# UVM_INFO ../src/env/axi4_scoreboard.sv(291) @ 7385000: uvm_test_top.env.scb [axi4_scoreboard] [READ] MATCH #5: ID=0x1 ADDR=0xcbc16b14 LEN=118
# UVM_INFO ../src/seq/axi4_outstanding_seq.sv(123) @ 7385000: uvm_test_top.env.master_agent.sqr@@outstanding_seq [axi4_outstanding_seq] Outstanding Read [#0] complete: ID=0x1
# UVM_INFO ../src/seq/axi4_outstanding_seq.sv(113) @ 7385000: uvm_test_top.env.master_agent.sqr@@outstanding_seq [axi4_outstanding_seq] Outstanding Read [#6] started: ID=0xb ADDR=0x0b65e981 LEN=250
# UVM_INFO ../src/mst/axi4_master_driver.sv(73) @ 7385000: uvm_test_top.env.master_agent.drv [axi4_master_driver] Driving AXI4_READ  ID=0xb  ADDR=0x0b65e981  LEN=250
# UVM_INFO ../src/slv/axi4_slave_driver.sv(358) @ 7415000: uvm_test_top.env.slave_agent.drv [axi4_slave_driver] AR received: ID=0xb ADDR=0x0b65e981 LEN=250 LOCK=AXI4_LOCK_EXCLUSIVE
# UVM_INFO ../src/slv/axi4_slave_monitor.sv(224) @ 7415000: uvm_test_top.env.slave_agent.mon [axi4_slave_monitor] AR received: ID=0xb ADDR=0x0b65e981 LEN=250
# UVM_INFO ../src/mst/axi4_master_monitor.sv(246) @ 7415000: uvm_test_top.env.master_agent.mon [axi4_master_monitor] AR observed: ID=0xb ADDR=0x0b65e981 LEN=250
# UVM_INFO ../src/mst/axi4_master_driver.sv(348) @ 8545000: uvm_test_top.env.master_agent.drv [axi4_master_driver] Master driver received all R beats for ID=0x2
# UVM_INFO ../src/slv/axi4_slave_driver.sv(464) @ 8545000: uvm_test_top.env.slave_agent.drv [axi4_slave_driver] Read complete: ID=0x2 ADDR=0x4f5c2c0e RESP=AXI4_RESP_EXOKAY  58 beats sent
# UVM_INFO ../src/mst/axi4_master_monitor.sv(314) @ 8545000: uvm_test_top.env.master_agent.mon [axi4_master_monitor] Read complete: ID=0x2 ADDR=0x4f5c2c0e 58 beats
# UVM_INFO ../src/env/axi4_scoreboard.sv(87) @ 8545000: uvm_test_top.env.scb [axi4_scoreboard] Master AXI4_READ received: ID=0x2 ADDR=0x4f5c2c0e LEN=57
# UVM_INFO ../src/slv/axi4_slave_monitor.sv(287) @ 8545000: uvm_test_top.env.slave_agent.mon [axi4_slave_monitor] Read data sent: ID=0x2 ADDR=0x4f5c2c0e 58 beats
# UVM_INFO ../src/env/axi4_scoreboard.sv(108) @ 8545000: uvm_test_top.env.scb [axi4_scoreboard] Slave AXI4_READ received: ID=0x2 ADDR=0x4f5c2c0e LEN=57
# UVM_INFO ../src/env/axi4_scoreboard.sv(291) @ 8545000: uvm_test_top.env.scb [axi4_scoreboard] [READ] MATCH #6: ID=0x2 ADDR=0x4f5c2c0e LEN=57
# UVM_INFO ../src/seq/axi4_outstanding_seq.sv(123) @ 8545000: uvm_test_top.env.master_agent.sqr@@outstanding_seq [axi4_outstanding_seq] Outstanding Read [#4] complete: ID=0x2
# UVM_INFO ../src/seq/axi4_outstanding_seq.sv(113) @ 8545000: uvm_test_top.env.master_agent.sqr@@outstanding_seq [axi4_outstanding_seq] Outstanding Read [#7] started: ID=0x6 ADDR=0xb6b42c17 LEN=203
# UVM_INFO ../src/mst/axi4_master_driver.sv(73) @ 8545000: uvm_test_top.env.master_agent.drv [axi4_master_driver] Driving AXI4_READ  ID=0x6  ADDR=0xb6b42c17  LEN=203
# UVM_INFO ../src/slv/axi4_slave_driver.sv(358) @ 8575000: uvm_test_top.env.slave_agent.drv [axi4_slave_driver] AR received: ID=0x6 ADDR=0xb6b42c17 LEN=203 LOCK=AXI4_LOCK_EXCLUSIVE
# UVM_INFO ../src/slv/axi4_slave_monitor.sv(224) @ 8575000: uvm_test_top.env.slave_agent.mon [axi4_slave_monitor] AR received: ID=0x6 ADDR=0xb6b42c17 LEN=203
# UVM_INFO ../src/mst/axi4_master_monitor.sv(246) @ 8575000: uvm_test_top.env.master_agent.mon [axi4_master_monitor] AR observed: ID=0x6 ADDR=0xb6b42c17 LEN=203
# UVM_INFO ../src/mst/axi4_master_monitor.sv(184) @ 8905000: uvm_test_top.env.master_agent.mon [axi4_master_monitor] W data assembled: ID=0xf ADDR=0x23d97350 244 beats
# UVM_INFO ../src/slv/axi4_slave_monitor.sv(167) @ 8905000: uvm_test_top.env.slave_agent.mon [axi4_slave_monitor] W data assembled: ID=0xf ADDR=0x23d97350 244 beats
# UVM_INFO ../src/mst/axi4_master_driver.sv(289) @ 8935000: uvm_test_top.env.master_agent.drv [axi4_master_driver] Master driver received B response: ID=0xf RESP=AXI4_RESP_OKAY
# UVM_INFO ../src/slv/axi4_slave_driver.sv(320) @ 8935000: uvm_test_top.env.slave_agent.drv [axi4_slave_driver] Write complete: ID=0xf RESP=AXI4_RESP_OKAY
# UVM_INFO ../src/slv/axi4_slave_monitor.sv(189) @ 8935000: uvm_test_top.env.slave_agent.mon [axi4_slave_monitor] Write response sent: ID=0xf ADDR=0x23d97350 RESP=AXI4_RESP_OKAY
# UVM_INFO ../src/env/axi4_scoreboard.sv(108) @ 8935000: uvm_test_top.env.scb [axi4_scoreboard] Slave AXI4_WRITE received: ID=0xf ADDR=0x23d97350 LEN=243
# UVM_INFO ../src/mst/axi4_master_monitor.sv(210) @ 8935000: uvm_test_top.env.master_agent.mon [axi4_master_monitor] Write complete: ID=0xf ADDR=0x23d97350 RESP=AXI4_RESP_OKAY
# UVM_INFO ../src/env/axi4_scoreboard.sv(87) @ 8935000: uvm_test_top.env.scb [axi4_scoreboard] Master AXI4_WRITE received: ID=0xf ADDR=0x23d97350 LEN=243
# UVM_INFO ../src/env/axi4_scoreboard.sv(291) @ 8935000: uvm_test_top.env.scb [axi4_scoreboard] [WRITE] MATCH #7: ID=0xf ADDR=0x23d97350 LEN=243
# UVM_INFO ../src/env/axi4_scoreboard.sv(219) @ 8935000: uvm_test_top.env.scb [axi4_scoreboard] [REF_MEM_WRITE] Addr=0x23d97350 Data=0x5e
# UVM_INFO ../src/env/axi4_scoreboard.sv(219) @ 8935000: uvm_test_top.env.scb [axi4_scoreboard] [REF_MEM_WRITE] Addr=0x23d97353 Data=0x67
# UVM_INFO ../src/env/axi4_scoreboard.sv(219) @ 8935000: uvm_test_top.env.scb [axi4_scoreboard] [REF_MEM_WRITE] Addr=0x23d97350 Data=0xa4
# UVM_INFO ../src/env/axi4_scoreboard.sv(219) @ 8935000: uvm_test_top.env.scb [axi4_scoreboard] [REF_MEM_WRITE] Addr=0x23d97351 Data=0xbc
# UVM_INFO ../src/env/axi4_scoreboard.sv(219) @ 8935000: uvm_test_top.env.scb [axi4_scoreboard] [REF_MEM_WRITE] Addr=0x23d97352 Data=0xb4
# UVM_INFO ../src/env/axi4_scoreboard.sv(219) @ 8935000: uvm_test_top.env.scb [axi4_scoreboard] [REF_MEM_WRITE] Addr=0x23d97350 Data=0x9b
# UVM_INFO ../src/env/axi4_scoreboard.sv(219) @ 8935000: uvm_test_top.env.scb [axi4_scoreboard] [REF_MEM_WRITE] Addr=0x23d97351 Data=0x30
# UVM_INFO ../src/env/axi4_scoreboard.sv(219) @ 8935000: uvm_test_top.env.scb [axi4_scoreboard] [REF_MEM_WRITE] Addr=0x23d97352 Data=0x81
# UVM_INFO ../src/env/axi4_scoreboard.sv(219) @ 8935000: uvm_test_top.env.scb [axi4_scoreboard] [REF_MEM_WRITE] Addr=0x23d97353 Data=0x8f
# UVM_INFO ../src/env/axi4_scoreboard.sv(219) @ 8935000: uvm_test_top.env.scb [axi4_scoreboard] [REF_MEM_WRITE] Addr=0x23d97350 Data=0xb4
# UVM_INFO ../src/env/axi4_scoreboard.sv(219) @ 8935000: uvm_test_top.env.scb [axi4_scoreboard] [REF_MEM_WRITE] Addr=0x23d97351 Data=0x7e
# UVM_INFO ../src/env/axi4_scoreboard.sv(219) @ 8935000: uvm_test_top.env.scb [axi4_scoreboard] [REF_MEM_WRITE] Addr=0x23d97354 Data=0xc7
# UVM_INFO ../src/env/axi4_scoreboard.sv(219) @ 8935000: uvm_test_top.env.scb [axi4_scoreboard] [REF_MEM_WRITE] Addr=0x23d97356 Data=0x3d
# UVM_INFO ../src/env/axi4_scoreboard.sv(219) @ 8935000: uvm_test_top.env.scb [axi4_scoreboard] [REF_MEM_WRITE] Addr=0x23d97354 Data=0x46
# UVM_INFO ../src/env/axi4_scoreboard.sv(219) @ 8935000: uvm_test_top.env.scb [axi4_scoreboard] [REF_MEM_WRITE] Addr=0x23d97355 Data=0xc8
# UVM_INFO ../src/env/axi4_scoreboard.sv(219) @ 8935000: uvm_test_top.env.scb [axi4_scoreboard] [REF_MEM_WRITE] Addr=0x23d97356 Data=0xbd
# UVM_INFO ../src/env/axi4_scoreboard.sv(219) @ 8935000: uvm_test_top.env.scb [axi4_scoreboard] [REF_MEM_WRITE] Addr=0x23d97357 Data=0x87
# UVM_INFO ../src/env/axi4_scoreboard.sv(219) @ 8935000: uvm_test_top.env.scb [axi4_scoreboard] [REF_MEM_WRITE] Addr=0x23d97355 Data=0x7e
# UVM_INFO ../src/env/axi4_scoreboard.sv(219) @ 8935000: uvm_test_top.env.scb [axi4_scoreboard] [REF_MEM_WRITE] Addr=0x23d97357 Data=0x8a
# UVM_INFO ../src/env/axi4_scoreboard.sv(219) @ 8935000: uvm_test_top.env.scb [axi4_scoreboard] [REF_MEM_WRITE] Addr=0x23d97354 Data=0xf5
# UVM_INFO ../src/env/axi4_scoreboard.sv(219) @ 8935000: uvm_test_top.env.scb [axi4_scoreboard] [REF_MEM_WRITE] Addr=0x23d97355 Data=0xa7
# UVM_INFO ../src/env/axi4_scoreboard.sv(219) @ 8935000: uvm_test_top.env.scb [axi4_scoreboard] [REF_MEM_WRITE] Addr=0x23d97356 Data=0xa3
# UVM_INFO ../src/env/axi4_scoreboard.sv(219) @ 8935000: uvm_test_top.env.scb [axi4_scoreboard] [REF_MEM_WRITE] Addr=0x23d97357 Data=0x63
# UVM_INFO ../src/env/axi4_scoreboard.sv(219) @ 8935000: uvm_test_top.env.scb [axi4_scoreboard] [REF_MEM_WRITE] Addr=0x23d97358 Data=0x9f
# UVM_INFO ../src/env/axi4_scoreboard.sv(219) @ 8935000: uvm_test_top.env.scb [axi4_scoreboard] [REF_MEM_WRITE] Addr=0x23d97359 Data=0x90
# UVM_INFO ../src/env/axi4_scoreboard.sv(219) @ 8935000: uvm_test_top.env.scb [axi4_scoreboard] [REF_MEM_WRITE] Addr=0x23d97358 Data=0x2f
# UVM_INFO ../src/env/axi4_scoreboard.sv(219) @ 8935000: uvm_test_top.env.scb [axi4_scoreboard] [REF_MEM_WRITE] Addr=0x23d9735a Data=0xf3
# UVM_INFO ../src/env/axi4_scoreboard.sv(219) @ 8935000: uvm_test_top.env.scb [axi4_scoreboard] [REF_MEM_WRITE] Addr=0x23d9735b Data=0x87
# UVM_INFO ../src/env/axi4_scoreboard.sv(219) @ 8935000: uvm_test_top.env.scb [axi4_scoreboard] [REF_MEM_WRITE] Addr=0x23d97358 Data=0xc5
# UVM_INFO ../src/env/axi4_scoreboard.sv(219) @ 8935000: uvm_test_top.env.scb [axi4_scoreboard] [REF_MEM_WRITE] Addr=0x23d97359 Data=0x78
# UVM_INFO ../src/env/axi4_scoreboard.sv(219) @ 8935000: uvm_test_top.env.scb [axi4_scoreboard] [REF_MEM_WRITE] Addr=0x23d9735a Data=0x58
# UVM_INFO ../src/env/axi4_scoreboard.sv(219) @ 8935000: uvm_test_top.env.scb [axi4_scoreboard] [REF_MEM_WRITE] Addr=0x23d9735b Data=0x1c
# UVM_INFO ../src/env/axi4_scoreboard.sv(219) @ 8935000: uvm_test_top.env.scb [axi4_scoreboard] [REF_MEM_WRITE] Addr=0x23d9735a Data=0x45
# UVM_INFO ../src/env/axi4_scoreboard.sv(219) @ 8935000: uvm_test_top.env.scb [axi4_scoreboard] [REF_MEM_WRITE] Addr=0x23d9735e Data=0xef
# UVM_INFO ../src/env/axi4_scoreboard.sv(219) @ 8935000: uvm_test_top.env.scb [axi4_scoreboard] [REF_MEM_WRITE] Addr=0x23d9735e Data=0xf9
# UVM_INFO ../src/env/axi4_scoreboard.sv(219) @ 8935000: uvm_test_top.env.scb [axi4_scoreboard] [REF_MEM_WRITE] Addr=0x23d9735f Data=0xee
# UVM_INFO ../src/env/axi4_scoreboard.sv(219) @ 8935000: uvm_test_top.env.scb [axi4_scoreboard] [REF_MEM_WRITE] Addr=0x23d9735d Data=0x4e
# UVM_INFO ../src/env/axi4_scoreboard.sv(219) @ 8935000: uvm_test_top.env.scb [axi4_scoreboard] [REF_MEM_WRITE] Addr=0x23d9735e Data=0x73
# UVM_INFO ../src/env/axi4_scoreboard.sv(219) @ 8935000: uvm_test_top.env.scb [axi4_scoreboard] [REF_MEM_WRITE] Addr=0x23d9735f Data=0xb7
# UVM_INFO ../src/env/axi4_scoreboard.sv(219) @ 8935000: uvm_test_top.env.scb [axi4_scoreboard] [REF_MEM_WRITE] Addr=0x23d9735c Data=0xe6
# UVM_INFO ../src/env/axi4_scoreboard.sv(219) @ 8935000: uvm_test_top.env.scb [axi4_scoreboard] [REF_MEM_WRITE] Addr=0x23d9735d Data=0x49
# UVM_INFO ../src/env/axi4_scoreboard.sv(219) @ 8935000: uvm_test_top.env.scb [axi4_scoreboard] [REF_MEM_WRITE] Addr=0x23d97360 Data=0x60
# UVM_INFO ../src/env/axi4_scoreboard.sv(219) @ 8935000: uvm_test_top.env.scb [axi4_scoreboard] [REF_MEM_WRITE] Addr=0x23d97361 Data=0xaf
# UVM_INFO ../src/env/axi4_scoreboard.sv(219) @ 8935000: uvm_test_top.env.scb [axi4_scoreboard] [REF_MEM_WRITE] Addr=0x23d97362 Data=0x01
# UVM_INFO ../src/env/axi4_scoreboard.sv(219) @ 8935000: uvm_test_top.env.scb [axi4_scoreboard] [REF_MEM_WRITE] Addr=0x23d97363 Data=0x51
# UVM_INFO ../src/env/axi4_scoreboard.sv(219) @ 8935000: uvm_test_top.env.scb [axi4_scoreboard] [REF_MEM_WRITE] Addr=0x23d97361 Data=0x81
# UVM_INFO ../src/env/axi4_scoreboard.sv(219) @ 8935000: uvm_test_top.env.scb [axi4_scoreboard] [REF_MEM_WRITE] Addr=0x23d97363 Data=0x6b
# UVM_INFO ../src/env/axi4_scoreboard.sv(219) @ 8935000: uvm_test_top.env.scb [axi4_scoreboard] [REF_MEM_WRITE] Addr=0x23d97361 Data=0xc1
# UVM_INFO ../src/env/axi4_scoreboard.sv(219) @ 8935000: uvm_test_top.env.scb [axi4_scoreboard] [REF_MEM_WRITE] Addr=0x23d97363 Data=0xaa
# UVM_INFO ../src/env/axi4_scoreboard.sv(219) @ 8935000: uvm_test_top.env.scb [axi4_scoreboard] [REF_MEM_WRITE] Addr=0x23d97366 Data=0xe7
# UVM_INFO ../src/env/axi4_scoreboard.sv(219) @ 8935000: uvm_test_top.env.scb [axi4_scoreboard] [REF_MEM_WRITE] Addr=0x23d97364 Data=0x42
# UVM_INFO ../src/env/axi4_scoreboard.sv(219) @ 8935000: uvm_test_top.env.scb [axi4_scoreboard] [REF_MEM_WRITE] Addr=0x23d97367 Data=0x29
# UVM_INFO ../src/env/axi4_scoreboard.sv(219) @ 8935000: uvm_test_top.env.scb [axi4_scoreboard] [REF_MEM_WRITE] Addr=0x23d97364 Data=0xf4
# UVM_INFO ../src/env/axi4_scoreboard.sv(219) @ 8935000: uvm_test_top.env.scb [axi4_scoreboard] [REF_MEM_WRITE] Addr=0x23d97365 Data=0xd4
# UVM_INFO ../src/env/axi4_scoreboard.sv(219) @ 8935000: uvm_test_top.env.scb [axi4_scoreboard] [REF_MEM_WRITE] Addr=0x23d97365 Data=0x93
# UVM_INFO ../src/env/axi4_scoreboard.sv(219) @ 8935000: uvm_test_top.env.scb [axi4_scoreboard] [REF_MEM_WRITE] Addr=0x23d97369 Data=0x41
# UVM_INFO ../src/env/axi4_scoreboard.sv(219) @ 8935000: uvm_test_top.env.scb [axi4_scoreboard] [REF_MEM_WRITE] Addr=0x23d9736b Data=0x67
# UVM_INFO ../src/env/axi4_scoreboard.sv(219) @ 8935000: uvm_test_top.env.scb [axi4_scoreboard] [REF_MEM_WRITE] Addr=0x23d97368 Data=0x4a
# UVM_INFO ../src/env/axi4_scoreboard.sv(219) @ 8935000: uvm_test_top.env.scb [axi4_scoreboard] [REF_MEM_WRITE] Addr=0x23d9736b Data=0x59
# UVM_INFO ../src/env/axi4_scoreboard.sv(219) @ 8935000: uvm_test_top.env.scb [axi4_scoreboard] [REF_MEM_WRITE] Addr=0x23d9736a Data=0xa8
# UVM_INFO ../src/env/axi4_scoreboard.sv(219) @ 8935000: uvm_test_top.env.scb [axi4_scoreboard] [REF_MEM_WRITE] Addr=0x23d9736b Data=0x10
# UVM_INFO ../src/env/axi4_scoreboard.sv(219) @ 8935000: uvm_test_top.env.scb [axi4_scoreboard] [REF_MEM_WRITE] Addr=0x23d97368 Data=0xe5
# UVM_INFO ../src/env/axi4_scoreboard.sv(219) @ 8935000: uvm_test_top.env.scb [axi4_scoreboard] [REF_MEM_WRITE] Addr=0x23d97369 Data=0x99
# UVM_INFO ../src/env/axi4_scoreboard.sv(219) @ 8935000: uvm_test_top.env.scb [axi4_scoreboard] [REF_MEM_WRITE] Addr=0x23d9736b Data=0x70
# UVM_INFO ../src/env/axi4_scoreboard.sv(219) @ 8935000: uvm_test_top.env.scb [axi4_scoreboard] [REF_MEM_WRITE] Addr=0x23d9736c Data=0xbb
# UVM_INFO ../src/env/axi4_scoreboard.sv(219) @ 8935000: uvm_test_top.env.scb [axi4_scoreboard] [REF_MEM_WRITE] Addr=0x23d9736d Data=0xb6
# UVM_INFO ../src/env/axi4_scoreboard.sv(219) @ 8935000: uvm_test_top.env.scb [axi4_scoreboard] [REF_MEM_WRITE] Addr=0x23d9736e Data=0x85
# UVM_INFO ../src/env/axi4_scoreboard.sv(219) @ 8935000: uvm_test_top.env.scb [axi4_scoreboard] [REF_MEM_WRITE] Addr=0x23d9736c Data=0x7d
# UVM_INFO ../src/env/axi4_scoreboard.sv(219) @ 8935000: uvm_test_top.env.scb [axi4_scoreboard] [REF_MEM_WRITE] Addr=0x23d9736e Data=0xd2
# UVM_INFO ../src/env/axi4_scoreboard.sv(219) @ 8935000: uvm_test_top.env.scb [axi4_scoreboard] [REF_MEM_WRITE] Addr=0x23d9736f Data=0x62
# UVM_INFO ../src/env/axi4_scoreboard.sv(219) @ 8935000: uvm_test_top.env.scb [axi4_scoreboard] [REF_MEM_WRITE] Addr=0x23d9736e Data=0x02
# UVM_INFO ../src/env/axi4_scoreboard.sv(219) @ 8935000: uvm_test_top.env.scb [axi4_scoreboard] [REF_MEM_WRITE] Addr=0x23d9736d Data=0x56
# UVM_INFO ../src/env/axi4_scoreboard.sv(219) @ 8935000: uvm_test_top.env.scb [axi4_scoreboard] [REF_MEM_WRITE] Addr=0x23d9736f Data=0x3e
# UVM_INFO ../src/env/axi4_scoreboard.sv(219) @ 8935000: uvm_test_top.env.scb [axi4_scoreboard] [REF_MEM_WRITE] Addr=0x23d97370 Data=0xcf
# UVM_INFO ../src/env/axi4_scoreboard.sv(219) @ 8935000: uvm_test_top.env.scb [axi4_scoreboard] [REF_MEM_WRITE] Addr=0x23d97370 Data=0x0f
# UVM_INFO ../src/env/axi4_scoreboard.sv(219) @ 8935000: uvm_test_top.env.scb [axi4_scoreboard] [REF_MEM_WRITE] Addr=0x23d97372 Data=0x68
# UVM_INFO ../src/env/axi4_scoreboard.sv(219) @ 8935000: uvm_test_top.env.scb [axi4_scoreboard] [REF_MEM_WRITE] Addr=0x23d97371 Data=0x62
# UVM_INFO ../src/env/axi4_scoreboard.sv(219) @ 8935000: uvm_test_top.env.scb [axi4_scoreboard] [REF_MEM_WRITE] Addr=0x23d97372 Data=0x3f
# UVM_INFO ../src/env/axi4_scoreboard.sv(219) @ 8935000: uvm_test_top.env.scb [axi4_scoreboard] [REF_MEM_WRITE] Addr=0x23d97373 Data=0xe9
# UVM_INFO ../src/env/axi4_scoreboard.sv(219) @ 8935000: uvm_test_top.env.scb [axi4_scoreboard] [REF_MEM_WRITE] Addr=0x23d97370 Data=0xab
# UVM_INFO ../src/env/axi4_scoreboard.sv(219) @ 8935000: uvm_test_top.env.scb [axi4_scoreboard] [REF_MEM_WRITE] Addr=0x23d97371 Data=0x83
# UVM_INFO ../src/env/axi4_scoreboard.sv(219) @ 8935000: uvm_test_top.env.scb [axi4_scoreboard] [REF_MEM_WRITE] Addr=0x23d97373 Data=0x8c
# UVM_INFO ../src/env/axi4_scoreboard.sv(219) @ 8935000: uvm_test_top.env.scb [axi4_scoreboard] [REF_MEM_WRITE] Addr=0x23d97374 Data=0x75
# UVM_INFO ../src/env/axi4_scoreboard.sv(219) @ 8935000: uvm_test_top.env.scb [axi4_scoreboard] [REF_MEM_WRITE] Addr=0x23d97374 Data=0xa0
# UVM_INFO ../src/env/axi4_scoreboard.sv(219) @ 8935000: uvm_test_top.env.scb [axi4_scoreboard] [REF_MEM_WRITE] Addr=0x23d97375 Data=0xe7
# UVM_INFO ../src/env/axi4_scoreboard.sv(219) @ 8935000: uvm_test_top.env.scb [axi4_scoreboard] [REF_MEM_WRITE] Addr=0x23d97377 Data=0x99
# UVM_INFO ../src/env/axi4_scoreboard.sv(219) @ 8935000: uvm_test_top.env.scb [axi4_scoreboard] [REF_MEM_WRITE] Addr=0x23d97375 Data=0x36
# UVM_INFO ../src/env/axi4_scoreboard.sv(219) @ 8935000: uvm_test_top.env.scb [axi4_scoreboard] [REF_MEM_WRITE] Addr=0x23d97376 Data=0xac
# UVM_INFO ../src/env/axi4_scoreboard.sv(219) @ 8935000: uvm_test_top.env.scb [axi4_scoreboard] [REF_MEM_WRITE] Addr=0x23d97375 Data=0xa7
# UVM_INFO ../src/env/axi4_scoreboard.sv(219) @ 8935000: uvm_test_top.env.scb [axi4_scoreboard] [REF_MEM_WRITE] Addr=0x23d97377 Data=0x0c
# UVM_INFO ../src/env/axi4_scoreboard.sv(219) @ 8935000: uvm_test_top.env.scb [axi4_scoreboard] [REF_MEM_WRITE] Addr=0x23d97379 Data=0x7c
# UVM_INFO ../src/env/axi4_scoreboard.sv(219) @ 8935000: uvm_test_top.env.scb [axi4_scoreboard] [REF_MEM_WRITE] Addr=0x23d9737a Data=0x50
# UVM_INFO ../src/env/axi4_scoreboard.sv(219) @ 8935000: uvm_test_top.env.scb [axi4_scoreboard] [REF_MEM_WRITE] Addr=0x23d97378 Data=0x4d
# UVM_INFO ../src/env/axi4_scoreboard.sv(219) @ 8935000: uvm_test_top.env.scb [axi4_scoreboard] [REF_MEM_WRITE] Addr=0x23d9737a Data=0x14
# UVM_INFO ../src/env/axi4_scoreboard.sv(219) @ 8935000: uvm_test_top.env.scb [axi4_scoreboard] [REF_MEM_WRITE] Addr=0x23d9737a Data=0x3d
# UVM_INFO ../src/env/axi4_scoreboard.sv(219) @ 8935000: uvm_test_top.env.scb [axi4_scoreboard] [REF_MEM_WRITE] Addr=0x23d97378 Data=0x81
# UVM_INFO ../src/env/axi4_scoreboard.sv(219) @ 8935000: uvm_test_top.env.scb [axi4_scoreboard] [REF_MEM_WRITE] Addr=0x23d97379 Data=0x16
# UVM_INFO ../src/env/axi4_scoreboard.sv(219) @ 8935000: uvm_test_top.env.scb [axi4_scoreboard] [REF_MEM_WRITE] Addr=0x23d9737a Data=0x62
# UVM_INFO ../src/env/axi4_scoreboard.sv(219) @ 8935000: uvm_test_top.env.scb [axi4_scoreboard] [REF_MEM_WRITE] Addr=0x23d9737b Data=0x18
# UVM_INFO ../src/env/axi4_scoreboard.sv(219) @ 8935000: uvm_test_top.env.scb [axi4_scoreboard] [REF_MEM_WRITE] Addr=0x23d9737e Data=0xb0
# UVM_INFO ../src/env/axi4_scoreboard.sv(219) @ 8935000: uvm_test_top.env.scb [axi4_scoreboard] [REF_MEM_WRITE] Addr=0x23d9737f Data=0xf0
# UVM_INFO ../src/env/axi4_scoreboard.sv(219) @ 8935000: uvm_test_top.env.scb [axi4_scoreboard] [REF_MEM_WRITE] Addr=0x23d9737c Data=0x4e
# UVM_INFO ../src/env/axi4_scoreboard.sv(219) @ 8935000: uvm_test_top.env.scb [axi4_scoreboard] [REF_MEM_WRITE] Addr=0x23d9737f Data=0x48
# UVM_INFO ../src/env/axi4_scoreboard.sv(219) @ 8935000: uvm_test_top.env.scb [axi4_scoreboard] [REF_MEM_WRITE] Addr=0x23d9737c Data=0xae
# UVM_INFO ../src/env/axi4_scoreboard.sv(219) @ 8935000: uvm_test_top.env.scb [axi4_scoreboard] [REF_MEM_WRITE] Addr=0x23d9737f Data=0xf6
# UVM_INFO ../src/env/axi4_scoreboard.sv(219) @ 8935000: uvm_test_top.env.scb [axi4_scoreboard] [REF_MEM_WRITE] Addr=0x23d9737c Data=0x83
# UVM_INFO ../src/env/axi4_scoreboard.sv(219) @ 8935000: uvm_test_top.env.scb [axi4_scoreboard] [REF_MEM_WRITE] Addr=0x23d9737d Data=0x03
# UVM_INFO ../src/env/axi4_scoreboard.sv(219) @ 8935000: uvm_test_top.env.scb [axi4_scoreboard] [REF_MEM_WRITE] Addr=0x23d9737e Data=0xea
# UVM_INFO ../src/env/axi4_scoreboard.sv(219) @ 8935000: uvm_test_top.env.scb [axi4_scoreboard] [REF_MEM_WRITE] Addr=0x23d97381 Data=0xb2
# UVM_INFO ../src/env/axi4_scoreboard.sv(219) @ 8935000: uvm_test_top.env.scb [axi4_scoreboard] [REF_MEM_WRITE] Addr=0x23d97382 Data=0x12
# UVM_INFO ../src/env/axi4_scoreboard.sv(219) @ 8935000: uvm_test_top.env.scb [axi4_scoreboard] [REF_MEM_WRITE] Addr=0x23d97381 Data=0x50
# UVM_INFO ../src/env/axi4_scoreboard.sv(219) @ 8935000: uvm_test_top.env.scb [axi4_scoreboard] [REF_MEM_WRITE] Addr=0x23d97382 Data=0xb4
# UVM_INFO ../src/env/axi4_scoreboard.sv(219) @ 8935000: uvm_test_top.env.scb [axi4_scoreboard] [REF_MEM_WRITE] Addr=0x23d97387 Data=0x6e
# UVM_INFO ../src/env/axi4_scoreboard.sv(219) @ 8935000: uvm_test_top.env.scb [axi4_scoreboard] [REF_MEM_WRITE] Addr=0x23d97384 Data=0x5e
# UVM_INFO ../src/env/axi4_scoreboard.sv(219) @ 8935000: uvm_test_top.env.scb [axi4_scoreboard] [REF_MEM_WRITE] Addr=0x23d97385 Data=0x09
# UVM_INFO ../src/env/axi4_scoreboard.sv(219) @ 8935000: uvm_test_top.env.scb [axi4_scoreboard] [REF_MEM_WRITE] Addr=0x23d97384 Data=0x91
# UVM_INFO ../src/env/axi4_scoreboard.sv(219) @ 8935000: uvm_test_top.env.scb [axi4_scoreboard] [REF_MEM_WRITE] Addr=0x23d97386 Data=0xf6
# UVM_INFO ../src/env/axi4_scoreboard.sv(219) @ 8935000: uvm_test_top.env.scb [axi4_scoreboard] [REF_MEM_WRITE] Addr=0x23d97387 Data=0xdf
# UVM_INFO ../src/env/axi4_scoreboard.sv(219) @ 8935000: uvm_test_top.env.scb [axi4_scoreboard] [REF_MEM_WRITE] Addr=0x23d97384 Data=0xd3
# UVM_INFO ../src/env/axi4_scoreboard.sv(219) @ 8935000: uvm_test_top.env.scb [axi4_scoreboard] [REF_MEM_WRITE] Addr=0x23d97385 Data=0xc2
# UVM_INFO ../src/env/axi4_scoreboard.sv(219) @ 8935000: uvm_test_top.env.scb [axi4_scoreboard] [REF_MEM_WRITE] Addr=0x23d97386 Data=0x00
# UVM_INFO ../src/env/axi4_scoreboard.sv(219) @ 8935000: uvm_test_top.env.scb [axi4_scoreboard] [REF_MEM_WRITE] Addr=0x23d97388 Data=0xfa
# UVM_INFO ../src/env/axi4_scoreboard.sv(219) @ 8935000: uvm_test_top.env.scb [axi4_scoreboard] [REF_MEM_WRITE] Addr=0x23d9738b Data=0x5e
# UVM_INFO ../src/env/axi4_scoreboard.sv(219) @ 8935000: uvm_test_top.env.scb [axi4_scoreboard] [REF_MEM_WRITE] Addr=0x23d97388 Data=0x14
# UVM_INFO ../src/env/axi4_scoreboard.sv(219) @ 8935000: uvm_test_top.env.scb [axi4_scoreboard] [REF_MEM_WRITE] Addr=0x23d9738a Data=0x40
# UVM_INFO ../src/env/axi4_scoreboard.sv(219) @ 8935000: uvm_test_top.env.scb [axi4_scoreboard] [REF_MEM_WRITE] Addr=0x23d97388 Data=0xa9
# UVM_INFO ../src/env/axi4_scoreboard.sv(219) @ 8935000: uvm_test_top.env.scb [axi4_scoreboard] [REF_MEM_WRITE] Addr=0x23d97389 Data=0x81
# UVM_INFO ../src/env/axi4_scoreboard.sv(219) @ 8935000: uvm_test_top.env.scb [axi4_scoreboard] [REF_MEM_WRITE] Addr=0x23d9738a Data=0x22
# UVM_INFO ../src/env/axi4_scoreboard.sv(219) @ 8935000: uvm_test_top.env.scb [axi4_scoreboard] [REF_MEM_WRITE] Addr=0x23d97389 Data=0x67
# UVM_INFO ../src/env/axi4_scoreboard.sv(219) @ 8935000: uvm_test_top.env.scb [axi4_scoreboard] [REF_MEM_WRITE] Addr=0x23d9738b Data=0x53
# UVM_INFO ../src/env/axi4_scoreboard.sv(219) @ 8935000: uvm_test_top.env.scb [axi4_scoreboard] [REF_MEM_WRITE] Addr=0x23d9738c Data=0xf0
# UVM_INFO ../src/env/axi4_scoreboard.sv(219) @ 8935000: uvm_test_top.env.scb [axi4_scoreboard] [REF_MEM_WRITE] Addr=0x23d9738f Data=0x0f
# UVM_INFO ../src/env/axi4_scoreboard.sv(219) @ 8935000: uvm_test_top.env.scb [axi4_scoreboard] [REF_MEM_WRITE] Addr=0x23d9738d Data=0xc7
# UVM_INFO ../src/env/axi4_scoreboard.sv(219) @ 8935000: uvm_test_top.env.scb [axi4_scoreboard] [REF_MEM_WRITE] Addr=0x23d9738e Data=0x95
# UVM_INFO ../src/env/axi4_scoreboard.sv(219) @ 8935000: uvm_test_top.env.scb [axi4_scoreboard] [REF_MEM_WRITE] Addr=0x23d9738c Data=0x7e
# UVM_INFO ../src/env/axi4_scoreboard.sv(219) @ 8935000: uvm_test_top.env.scb [axi4_scoreboard] [REF_MEM_WRITE] Addr=0x23d97392 Data=0xbc
# UVM_INFO ../src/env/axi4_scoreboard.sv(219) @ 8935000: uvm_test_top.env.scb [axi4_scoreboard] [REF_MEM_WRITE] Addr=0x23d97393 Data=0x3e
# UVM_INFO ../src/env/axi4_scoreboard.sv(219) @ 8935000: uvm_test_top.env.scb [axi4_scoreboard] [REF_MEM_WRITE] Addr=0x23d97390 Data=0x1f
# UVM_INFO ../src/env/axi4_scoreboard.sv(219) @ 8935000: uvm_test_top.env.scb [axi4_scoreboard] [REF_MEM_WRITE] Addr=0x23d97391 Data=0x58
# UVM_INFO ../src/env/axi4_scoreboard.sv(219) @ 8935000: uvm_test_top.env.scb [axi4_scoreboard] [REF_MEM_WRITE] Addr=0x23d97392 Data=0xa1
# UVM_INFO ../src/env/axi4_scoreboard.sv(219) @ 8935000: uvm_test_top.env.scb [axi4_scoreboard] [REF_MEM_WRITE] Addr=0x23d97392 Data=0xc5
# UVM_INFO ../src/env/axi4_scoreboard.sv(219) @ 8935000: uvm_test_top.env.scb [axi4_scoreboard] [REF_MEM_WRITE] Addr=0x23d97393 Data=0xfa
# UVM_INFO ../src/env/axi4_scoreboard.sv(219) @ 8935000: uvm_test_top.env.scb [axi4_scoreboard] [REF_MEM_WRITE] Addr=0x23d97396 Data=0x8c
# UVM_INFO ../src/env/axi4_scoreboard.sv(219) @ 8935000: uvm_test_top.env.scb [axi4_scoreboard] [REF_MEM_WRITE] Addr=0x23d97394 Data=0xc4
# UVM_INFO ../src/env/axi4_scoreboard.sv(219) @ 8935000: uvm_test_top.env.scb [axi4_scoreboard] [REF_MEM_WRITE] Addr=0x23d97397 Data=0xc5
# UVM_INFO ../src/env/axi4_scoreboard.sv(219) @ 8935000: uvm_test_top.env.scb [axi4_scoreboard] [REF_MEM_WRITE] Addr=0x23d97394 Data=0x9d
# UVM_INFO ../src/env/axi4_scoreboard.sv(219) @ 8935000: uvm_test_top.env.scb [axi4_scoreboard] [REF_MEM_WRITE] Addr=0x23d97399 Data=0x2b
# UVM_INFO ../src/env/axi4_scoreboard.sv(219) @ 8935000: uvm_test_top.env.scb [axi4_scoreboard] [REF_MEM_WRITE] Addr=0x23d9739b Data=0xd8
# UVM_INFO ../src/env/axi4_scoreboard.sv(219) @ 8935000: uvm_test_top.env.scb [axi4_scoreboard] [REF_MEM_WRITE] Addr=0x23d9739b Data=0xc8
# UVM_INFO ../src/env/axi4_scoreboard.sv(219) @ 8935000: uvm_test_top.env.scb [axi4_scoreboard] [REF_MEM_WRITE] Addr=0x23d97399 Data=0xaa
# UVM_INFO ../src/env/axi4_scoreboard.sv(219) @ 8935000: uvm_test_top.env.scb [axi4_scoreboard] [REF_MEM_WRITE] Addr=0x23d9739a Data=0xe6
# UVM_INFO ../src/env/axi4_scoreboard.sv(219) @ 8935000: uvm_test_top.env.scb [axi4_scoreboard] [REF_MEM_WRITE] Addr=0x23d9739b Data=0x91
# UVM_INFO ../src/env/axi4_scoreboard.sv(219) @ 8935000: uvm_test_top.env.scb [axi4_scoreboard] [REF_MEM_WRITE] Addr=0x23d9739c Data=0x7a
# UVM_INFO ../src/env/axi4_scoreboard.sv(219) @ 8935000: uvm_test_top.env.scb [axi4_scoreboard] [REF_MEM_WRITE] Addr=0x23d9739d Data=0xe6
# UVM_INFO ../src/env/axi4_scoreboard.sv(219) @ 8935000: uvm_test_top.env.scb [axi4_scoreboard] [REF_MEM_WRITE] Addr=0x23d9739e Data=0x9e
# UVM_INFO ../src/env/axi4_scoreboard.sv(219) @ 8935000: uvm_test_top.env.scb [axi4_scoreboard] [REF_MEM_WRITE] Addr=0x23d9739f Data=0xef
# UVM_INFO ../src/env/axi4_scoreboard.sv(219) @ 8935000: uvm_test_top.env.scb [axi4_scoreboard] [REF_MEM_WRITE] Addr=0x23d9739d Data=0x1b
# UVM_INFO ../src/env/axi4_scoreboard.sv(219) @ 8935000: uvm_test_top.env.scb [axi4_scoreboard] [REF_MEM_WRITE] Addr=0x23d9739e Data=0x32
# UVM_INFO ../src/env/axi4_scoreboard.sv(219) @ 8935000: uvm_test_top.env.scb [axi4_scoreboard] [REF_MEM_WRITE] Addr=0x23d9739e Data=0x7e
# UVM_INFO ../src/env/axi4_scoreboard.sv(219) @ 8935000: uvm_test_top.env.scb [axi4_scoreboard] [REF_MEM_WRITE] Addr=0x23d9739d Data=0x39
# UVM_INFO ../src/env/axi4_scoreboard.sv(219) @ 8935000: uvm_test_top.env.scb [axi4_scoreboard] [REF_MEM_WRITE] Addr=0x23d973a0 Data=0x08
# UVM_INFO ../src/env/axi4_scoreboard.sv(219) @ 8935000: uvm_test_top.env.scb [axi4_scoreboard] [REF_MEM_WRITE] Addr=0x23d973a1 Data=0xad
# UVM_INFO ../src/env/axi4_scoreboard.sv(219) @ 8935000: uvm_test_top.env.scb [axi4_scoreboard] [REF_MEM_WRITE] Addr=0x23d973a1 Data=0x3d
# UVM_INFO ../src/env/axi4_scoreboard.sv(219) @ 8935000: uvm_test_top.env.scb [axi4_scoreboard] [REF_MEM_WRITE] Addr=0x23d973a2 Data=0x2a
# UVM_INFO ../src/env/axi4_scoreboard.sv(219) @ 8935000: uvm_test_top.env.scb [axi4_scoreboard] [REF_MEM_WRITE] Addr=0x23d973a3 Data=0xd0
# UVM_INFO ../src/env/axi4_scoreboard.sv(219) @ 8935000: uvm_test_top.env.scb [axi4_scoreboard] [REF_MEM_WRITE] Addr=0x23d973a0 Data=0xea
# UVM_INFO ../src/env/axi4_scoreboard.sv(219) @ 8935000: uvm_test_top.env.scb [axi4_scoreboard] [REF_MEM_WRITE] Addr=0x23d973a1 Data=0x3b
# UVM_INFO ../src/env/axi4_scoreboard.sv(219) @ 8935000: uvm_test_top.env.scb [axi4_scoreboard] [REF_MEM_WRITE] Addr=0x23d973a3 Data=0x50
# UVM_INFO ../src/env/axi4_scoreboard.sv(219) @ 8935000: uvm_test_top.env.scb [axi4_scoreboard] [REF_MEM_WRITE] Addr=0x23d973a6 Data=0x01
# UVM_INFO ../src/env/axi4_scoreboard.sv(219) @ 8935000: uvm_test_top.env.scb [axi4_scoreboard] [REF_MEM_WRITE] Addr=0x23d973a7 Data=0x97
# UVM_INFO ../src/env/axi4_scoreboard.sv(219) @ 8935000: uvm_test_top.env.scb [axi4_scoreboard] [REF_MEM_WRITE] Addr=0x23d973a6 Data=0x94
# UVM_INFO ../src/env/axi4_scoreboard.sv(219) @ 8935000: uvm_test_top.env.scb [axi4_scoreboard] [REF_MEM_WRITE] Addr=0x23d973a7 Data=0x1c
# UVM_INFO ../src/env/axi4_scoreboard.sv(219) @ 8935000: uvm_test_top.env.scb [axi4_scoreboard] [REF_MEM_WRITE] Addr=0x23d973a4 Data=0x5c
# UVM_INFO ../src/env/axi4_scoreboard.sv(219) @ 8935000: uvm_test_top.env.scb [axi4_scoreboard] [REF_MEM_WRITE] Addr=0x23d973a5 Data=0x61
